! Device ID: PE43711P
! File Path: z:\PE43711P\CHAR_NOM_04282014\AMB\3p300\LS_ATT_9p25dB\PE43711P_AMB_3p300V_3p000V_0p000V_LS_ATT_9p25dB_S2P_SN_5_A0137A.s2p
! Serial: 5
! Lot: A0137A
! Temp: 25C
! VDD: 3.300
! VSS: 0.000
! Control_Hi: 3.000
! Control_Lo: 0.000
! Attenuation Step: 9.25dB
! Port 1: RF1
! Port 2: RF2
! ThroughPath:1-2
! IDD: 0.0001275986
! ISS: -1.37e-007
!

#  Hz  S   RI  R   50

1.000000E+007	8.471219E-002	-2.306535E-004	3.034430E-001	-1.472629E-003	3.037406E-001	-1.623700E-003	-1.031047E-001	7.584774E-004
2.000000E+007	8.486883E-002	-4.972655E-004	3.033591E-001	-2.445530E-003	3.034985E-001	-2.482994E-003	-1.028108E-001	1.293421E-003
3.000000E+007	8.512613E-002	-9.232651E-004	3.033730E-001	-3.678301E-003	3.035234E-001	-3.701916E-003	-1.025013E-001	1.720496E-003
4.000000E+007	8.523851E-002	-1.360087E-003	3.033495E-001	-4.917633E-003	3.035055E-001	-4.963049E-003	-1.022755E-001	2.162138E-003
5.000000E+007	8.535664E-002	-1.841582E-003	3.033481E-001	-6.289018E-003	3.035781E-001	-6.247745E-003	-1.022134E-001	2.580714E-003
6.000000E+007	8.551461E-002	-2.372747E-003	3.032732E-001	-7.489641E-003	3.035339E-001	-7.477101E-003	-1.020772E-001	2.886197E-003
7.000000E+007	8.560453E-002	-2.913515E-003	3.031723E-001	-8.701032E-003	3.034250E-001	-8.696274E-003	-1.019148E-001	3.186113E-003
8.000000E+007	8.572921E-002	-3.442800E-003	3.031148E-001	-9.869054E-003	3.033754E-001	-9.873897E-003	-1.017592E-001	3.492505E-003
9.000000E+007	8.581332E-002	-3.968311E-003	3.030533E-001	-1.108223E-002	3.032911E-001	-1.109443E-002	-1.016316E-001	3.761944E-003
1.000000E+008	8.587745E-002	-4.472948E-003	3.029967E-001	-1.231320E-002	3.032068E-001	-1.229863E-002	-1.015178E-001	4.018458E-003
1.100000E+008	8.593174E-002	-4.997289E-003	3.028993E-001	-1.357103E-002	3.031165E-001	-1.351322E-002	-1.014275E-001	4.273274E-003
1.200000E+008	8.600990E-002	-5.557202E-003	3.027417E-001	-1.476793E-002	3.030072E-001	-1.475952E-002	-1.013818E-001	4.484326E-003
1.300000E+008	8.605448E-002	-6.119581E-003	3.026350E-001	-1.596562E-002	3.028900E-001	-1.597064E-002	-1.012645E-001	4.687642E-003
1.400000E+008	8.606097E-002	-6.655393E-003	3.025436E-001	-1.716055E-002	3.027637E-001	-1.718861E-002	-1.010686E-001	4.880804E-003
1.500000E+008	8.597889E-002	-7.173382E-003	3.024165E-001	-1.832568E-002	3.025807E-001	-1.832917E-002	-1.008916E-001	5.060796E-003
1.600000E+008	8.589827E-002	-7.613797E-003	3.023421E-001	-1.948111E-002	3.024340E-001	-1.948200E-002	-1.009015E-001	5.273014E-003
1.700000E+008	8.583861E-002	-8.081413E-003	3.022078E-001	-2.076674E-002	3.024816E-001	-2.067215E-002	-1.009966E-001	5.477578E-003
1.800000E+008	8.569971E-002	-8.584636E-003	3.019264E-001	-2.202661E-002	3.023415E-001	-2.197578E-002	-1.010322E-001	5.665401E-003
1.900000E+008	8.556957E-002	-9.149673E-003	3.017065E-001	-2.316696E-002	3.021081E-001	-2.316655E-002	-1.009894E-001	5.780538E-003
2.000000E+008	8.546733E-002	-9.719383E-003	3.015688E-001	-2.431038E-002	3.019369E-001	-2.430249E-002	-1.008394E-001	5.927223E-003
2.100000E+008	8.536264E-002	-1.035069E-002	3.014537E-001	-2.546319E-002	3.017413E-001	-2.544776E-002	-1.006627E-001	6.055664E-003
2.200000E+008	8.525240E-002	-1.092665E-002	3.013188E-001	-2.656814E-002	3.015635E-001	-2.658037E-002	-1.005205E-001	6.173260E-003
2.300000E+008	8.511263E-002	-1.149035E-002	3.011514E-001	-2.774566E-002	3.013922E-001	-2.774206E-002	-1.003960E-001	6.264663E-003
2.400000E+008	8.499448E-002	-1.207007E-002	3.009948E-001	-2.892424E-002	3.011956E-001	-2.890522E-002	-1.002739E-001	6.369971E-003
2.500000E+008	8.484582E-002	-1.260927E-002	3.007680E-001	-3.011729E-002	3.010138E-001	-3.008073E-002	-1.001507E-001	6.455057E-003
2.600000E+008	8.473860E-002	-1.319079E-002	3.005660E-001	-3.129844E-002	3.008308E-001	-3.124932E-002	-9.998254E-002	6.615454E-003
2.700000E+008	8.463851E-002	-1.374092E-002	3.003124E-001	-3.243245E-002	3.006052E-001	-3.242066E-002	-9.976762E-002	6.793777E-003
2.800000E+008	8.455892E-002	-1.425162E-002	3.001039E-001	-3.354887E-002	3.003986E-001	-3.352496E-002	-9.957306E-002	6.987591E-003
2.900000E+008	8.443503E-002	-1.471517E-002	2.999298E-001	-3.466317E-002	3.001661E-001	-3.462396E-002	-9.944259E-002	7.209590E-003
3.000000E+008	8.433098E-002	-1.514000E-002	2.997651E-001	-3.583853E-002	2.999864E-001	-3.578141E-002	-9.929876E-002	7.431960E-003
3.100000E+008	8.416629E-002	-1.559110E-002	2.995527E-001	-3.696600E-002	2.998027E-001	-3.693448E-002	-9.918977E-002	7.703379E-003
3.200000E+008	8.401757E-002	-1.599885E-002	2.992977E-001	-3.814507E-002	2.996085E-001	-3.809264E-002	-9.909965E-002	7.947501E-003
3.300000E+008	8.382291E-002	-1.641351E-002	2.990997E-001	-3.928200E-002	2.993559E-001	-3.930842E-002	-9.902091E-002	8.183439E-003
3.400000E+008	8.353830E-002	-1.684546E-002	2.988425E-001	-4.042373E-002	2.990299E-001	-4.050207E-002	-9.891413E-002	8.342892E-003
3.500000E+008	8.326953E-002	-1.729233E-002	2.986163E-001	-4.158359E-002	2.987082E-001	-4.155202E-002	-9.879647E-002	8.464564E-003
3.600000E+008	8.301652E-002	-1.773170E-002	2.983612E-001	-4.271914E-002	2.984769E-001	-4.258139E-002	-9.865332E-002	8.625495E-003
3.700000E+008	8.275350E-002	-1.817532E-002	2.980576E-001	-4.378057E-002	2.982579E-001	-4.360772E-002	-9.847547E-002	8.767202E-003
3.800000E+008	8.249700E-002	-1.865513E-002	2.978098E-001	-4.488565E-002	2.980955E-001	-4.476510E-002	-9.828823E-002	8.918570E-003
3.900000E+008	8.223160E-002	-1.915075E-002	2.975313E-001	-4.604997E-002	2.978360E-001	-4.594389E-002	-9.802994E-002	9.126268E-003
4.000000E+008	8.202657E-002	-1.969567E-002	2.972198E-001	-4.707542E-002	2.975611E-001	-4.709647E-002	-9.776566E-002	9.309634E-003
4.100000E+008	8.176547E-002	-2.018400E-002	2.969841E-001	-4.811614E-002	2.972732E-001	-4.818823E-002	-9.751934E-002	9.506560E-003
4.200000E+008	8.152266E-002	-2.067095E-002	2.967620E-001	-4.922421E-002	2.970025E-001	-4.925388E-002	-9.731569E-002	9.765343E-003
4.300000E+008	8.130278E-002	-2.111788E-002	2.965077E-001	-5.035820E-002	2.967160E-001	-5.036331E-002	-9.713825E-002	1.002951E-002
4.400000E+008	8.110566E-002	-2.152473E-002	2.962423E-001	-5.146625E-002	2.964777E-001	-5.145341E-002	-9.696351E-002	1.037573E-002
4.500000E+008	8.091224E-002	-2.195313E-002	2.959792E-001	-5.256748E-002	2.962274E-001	-5.258367E-002	-9.680584E-002	1.071548E-002
4.600000E+008	8.068988E-002	-2.238725E-002	2.956884E-001	-5.368809E-002	2.959275E-001	-5.369735E-002	-9.665933E-002	1.106855E-002
4.700000E+008	8.044328E-002	-2.278769E-002	2.953859E-001	-5.475736E-002	2.956037E-001	-5.477292E-002	-9.652812E-002	1.137964E-002
4.800000E+008	8.018233E-002	-2.314894E-002	2.950939E-001	-5.582440E-002	2.953106E-001	-5.582707E-002	-9.643661E-002	1.168246E-002
4.900000E+008	7.988853E-002	-2.352559E-002	2.947936E-001	-5.688740E-002	2.949786E-001	-5.691803E-002	-9.633902E-002	1.196921E-002
5.000000E+008	7.961380E-002	-2.390498E-002	2.945023E-001	-5.797183E-002	2.947085E-001	-5.798378E-002	-9.622333E-002	1.222414E-002
5.100000E+008	7.936183E-002	-2.429149E-002	2.941972E-001	-5.906411E-002	2.944521E-001	-5.902810E-002	-9.607582E-002	1.249047E-002
5.200000E+008	7.906862E-002	-2.471436E-002	2.938957E-001	-6.015618E-002	2.941720E-001	-6.014619E-002	-9.592581E-002	1.273277E-002
5.300000E+008	7.879545E-002	-2.514399E-002	2.935963E-001	-6.122599E-002	2.938521E-001	-6.123846E-002	-9.570075E-002	1.299426E-002
5.400000E+008	7.849114E-002	-2.562302E-002	2.932459E-001	-6.230170E-002	2.935455E-001	-6.232933E-002	-9.548152E-002	1.323200E-002
5.500000E+008	7.819832E-002	-2.600838E-002	2.929614E-001	-6.337706E-002	2.931619E-001	-6.339670E-002	-9.531849E-002	1.354402E-002
5.600000E+008	7.791336E-002	-2.643742E-002	2.926079E-001	-6.441664E-002	2.928053E-001	-6.445420E-002	-9.513554E-002	1.382470E-002
5.700000E+008	7.763617E-002	-2.686178E-002	2.922790E-001	-6.546859E-002	2.925184E-001	-6.551089E-002	-9.503377E-002	1.418251E-002
5.800000E+008	7.737037E-002	-2.727557E-002	2.919631E-001	-6.651423E-002	2.921994E-001	-6.655568E-002	-9.490911E-002	1.450540E-002
5.900000E+008	7.712224E-002	-2.772174E-002	2.916220E-001	-6.760401E-002	2.918789E-001	-6.765299E-002	-9.479696E-002	1.487710E-002
6.000000E+008	7.691206E-002	-2.814489E-002	2.912839E-001	-6.864906E-002	2.915315E-001	-6.871797E-002	-9.463758E-002	1.517349E-002
6.100000E+008	7.669231E-002	-2.854940E-002	2.909364E-001	-6.970605E-002	2.911210E-001	-6.976313E-002	-9.454186E-002	1.549501E-002
6.200000E+008	7.649881E-002	-2.891836E-002	2.905929E-001	-7.072753E-002	2.908099E-001	-7.079036E-002	-9.441668E-002	1.578980E-002
6.300000E+008	7.630691E-002	-2.928980E-002	2.902171E-001	-7.177262E-002	2.904667E-001	-7.182138E-002	-9.429284E-002	1.608921E-002
6.400000E+008	7.612801E-002	-2.964030E-002	2.898769E-001	-7.280413E-002	2.901139E-001	-7.285500E-002	-9.411545E-002	1.639231E-002
6.500000E+008	7.592499E-002	-2.995831E-002	2.895321E-001	-7.382491E-002	2.897642E-001	-7.389438E-002	-9.400321E-002	1.673504E-002
6.600000E+008	7.567392E-002	-3.031103E-002	2.892072E-001	-7.487874E-002	2.894093E-001	-7.493537E-002	-9.383764E-002	1.706573E-002
6.700000E+008	7.539174E-002	-3.059344E-002	2.888521E-001	-7.591635E-002	2.890616E-001	-7.599796E-002	-9.372840E-002	1.741604E-002
6.800000E+008	7.508662E-002	-3.088513E-002	2.884688E-001	-7.694784E-002	2.886804E-001	-7.701215E-002	-9.361126E-002	1.779168E-002
6.900000E+008	7.478414E-002	-3.117079E-002	2.880830E-001	-7.797597E-002	2.882847E-001	-7.803725E-002	-9.350433E-002	1.816461E-002
7.000000E+008	7.451752E-002	-3.148258E-002	2.877091E-001	-7.899621E-002	2.879512E-001	-7.902881E-002	-9.342380E-002	1.851524E-002
7.100000E+008	7.423045E-002	-3.181615E-002	2.873516E-001	-7.999452E-002	2.875826E-001	-8.005666E-002	-9.337524E-002	1.886047E-002
7.200000E+008	7.388755E-002	-3.216069E-002	2.869941E-001	-8.100419E-002	2.872133E-001	-8.109849E-002	-9.328949E-002	1.916657E-002
7.300000E+008	7.360294E-002	-3.253212E-002	2.865938E-001	-8.202207E-002	2.868622E-001	-8.213603E-002	-9.323558E-002	1.944709E-002
7.400000E+008	7.327930E-002	-3.282561E-002	2.861946E-001	-8.306483E-002	2.864738E-001	-8.314864E-002	-9.318972E-002	1.972163E-002
7.500000E+008	7.298778E-002	-3.318233E-002	2.858373E-001	-8.407110E-002	2.860921E-001	-8.416340E-002	-9.310686E-002	1.998685E-002
7.600000E+008	7.269539E-002	-3.352837E-002	2.854482E-001	-8.508034E-002	2.856973E-001	-8.517135E-002	-9.301482E-002	2.022933E-002
7.700000E+008	7.238831E-002	-3.389534E-002	2.850643E-001	-8.608967E-002	2.853095E-001	-8.617985E-002	-9.293003E-002	2.047610E-002
7.800000E+008	7.209742E-002	-3.422319E-002	2.846780E-001	-8.708718E-002	2.849183E-001	-8.718936E-002	-9.283071E-002	2.071404E-002
7.900000E+008	7.179692E-002	-3.463259E-002	2.842843E-001	-8.808537E-002	2.845445E-001	-8.822068E-002	-9.272928E-002	2.098920E-002
8.000000E+008	7.150809E-002	-3.498714E-002	2.838703E-001	-8.910328E-002	2.840956E-001	-8.920412E-002	-9.258002E-002	2.127210E-002
8.100000E+008	7.122155E-002	-3.535377E-002	2.834768E-001	-9.008188E-002	2.836990E-001	-9.020602E-002	-9.239240E-002	2.158116E-002
8.200000E+008	7.100048E-002	-3.567795E-002	2.830765E-001	-9.111351E-002	2.832861E-001	-9.119141E-002	-9.226543E-002	2.187246E-002
8.300000E+008	7.075603E-002	-3.604312E-002	2.826489E-001	-9.209625E-002	2.828992E-001	-9.218539E-002	-9.211968E-002	2.218995E-002
8.400000E+008	7.054797E-002	-3.636215E-002	2.822320E-001	-9.306916E-002	2.824713E-001	-9.316631E-002	-9.200463E-002	2.249285E-002
8.500000E+008	7.033423E-002	-3.666288E-002	2.818467E-001	-9.406410E-002	2.820846E-001	-9.417794E-002	-9.191390E-002	2.278381E-002
8.600000E+008	7.007491E-002	-3.696050E-002	2.814197E-001	-9.503873E-002	2.816376E-001	-9.516462E-002	-9.181208E-002	2.311321E-002
8.700000E+008	6.982573E-002	-3.721302E-002	2.810106E-001	-9.604205E-002	2.812137E-001	-9.615268E-002	-9.172781E-002	2.338426E-002
8.800000E+008	6.957175E-002	-3.744050E-002	2.806041E-001	-9.703425E-002	2.808230E-001	-9.712903E-002	-9.162395E-002	2.367240E-002
8.900000E+008	6.926245E-002	-3.772255E-002	2.801582E-001	-9.800963E-002	2.804084E-001	-9.813296E-002	-9.154331E-002	2.395753E-002
9.000000E+008	6.898056E-002	-3.797120E-002	2.797035E-001	-9.899721E-002	2.799927E-001	-9.910512E-002	-9.141735E-002	2.423769E-002
9.100000E+008	6.866228E-002	-3.824693E-002	2.792885E-001	-9.998431E-002	2.795630E-001	-1.000772E-001	-9.123096E-002	2.448617E-002
9.200000E+008	6.833264E-002	-3.853342E-002	2.788547E-001	-1.009400E-001	2.791253E-001	-1.010632E-001	-9.107273E-002	2.477746E-002
9.300000E+008	6.804427E-002	-3.883866E-002	2.784258E-001	-1.019130E-001	2.786483E-001	-1.020385E-001	-9.087168E-002	2.505772E-002
9.400000E+008	6.775251E-002	-3.913674E-002	2.779827E-001	-1.028576E-001	2.782371E-001	-1.030139E-001	-9.062835E-002	2.536941E-002
9.500000E+008	6.747866E-002	-3.943307E-002	2.775589E-001	-1.038650E-001	2.777944E-001	-1.040084E-001	-9.039019E-002	2.570622E-002
9.600000E+008	6.721340E-002	-3.969594E-002	2.770955E-001	-1.048304E-001	2.773374E-001	-1.049410E-001	-9.014988E-002	2.604519E-002
9.700000E+008	6.698337E-002	-3.995273E-002	2.766440E-001	-1.057743E-001	2.769005E-001	-1.059212E-001	-8.991194E-002	2.641083E-002
9.800000E+008	6.676408E-002	-4.020148E-002	2.762252E-001	-1.067193E-001	2.764623E-001	-1.068905E-001	-8.970607E-002	2.679855E-002
9.900000E+008	6.653518E-002	-4.044734E-002	2.757705E-001	-1.077220E-001	2.760028E-001	-1.078499E-001	-8.952253E-002	2.717412E-002
1.000000E+009	6.627509E-002	-4.064112E-002	2.753130E-001	-1.086452E-001	2.755411E-001	-1.088080E-001	-8.937953E-002	2.754165E-002
1.010000E+009	6.599497E-002	-4.083447E-002	2.748820E-001	-1.096173E-001	2.751056E-001	-1.097682E-001	-8.921638E-002	2.794813E-002
1.020000E+009	6.569689E-002	-4.104177E-002	2.744064E-001	-1.105911E-001	2.746173E-001	-1.107230E-001	-8.911302E-002	2.835489E-002
1.030000E+009	6.540188E-002	-4.121733E-002	2.739073E-001	-1.115325E-001	2.741660E-001	-1.116909E-001	-8.899056E-002	2.874101E-002
1.040000E+009	6.510332E-002	-4.141439E-002	2.734659E-001	-1.124594E-001	2.736935E-001	-1.126100E-001	-8.885321E-002	2.910935E-002
1.050000E+009	6.481722E-002	-4.165666E-002	2.730229E-001	-1.134355E-001	2.732359E-001	-1.135648E-001	-8.869288E-002	2.949539E-002
1.060000E+009	6.452221E-002	-4.187768E-002	2.725480E-001	-1.143655E-001	2.727645E-001	-1.144944E-001	-8.851233E-002	2.985571E-002
1.070000E+009	6.420419E-002	-4.210293E-002	2.720662E-001	-1.152931E-001	2.722929E-001	-1.154082E-001	-8.836201E-002	3.021182E-002
1.080000E+009	6.391598E-002	-4.234856E-002	2.715719E-001	-1.162724E-001	2.718191E-001	-1.163850E-001	-8.818693E-002	3.060174E-002
1.090000E+009	6.366913E-002	-4.257354E-002	2.710911E-001	-1.172122E-001	2.713682E-001	-1.173303E-001	-8.799516E-002	3.095145E-002
1.100000E+009	6.338535E-002	-4.277424E-002	2.705738E-001	-1.181590E-001	2.708749E-001	-1.182697E-001	-8.784951E-002	3.134151E-002
1.110000E+009	6.311437E-002	-4.298740E-002	2.701176E-001	-1.190927E-001	2.703977E-001	-1.192168E-001	-8.769735E-002	3.170318E-002
1.120000E+009	6.282164E-002	-4.316901E-002	2.696484E-001	-1.200112E-001	2.698960E-001	-1.201609E-001	-8.759516E-002	3.208461E-002
1.130000E+009	6.255132E-002	-4.338595E-002	2.691453E-001	-1.209508E-001	2.693879E-001	-1.210858E-001	-8.746259E-002	3.242576E-002
1.140000E+009	6.221093E-002	-4.357367E-002	2.686628E-001	-1.219053E-001	2.688957E-001	-1.220190E-001	-8.735200E-002	3.281853E-002
1.150000E+009	6.192940E-002	-4.377564E-002	2.681499E-001	-1.228450E-001	2.683957E-001	-1.229429E-001	-8.717298E-002	3.317738E-002
1.160000E+009	6.161329E-002	-4.398209E-002	2.676490E-001	-1.237744E-001	2.678859E-001	-1.239084E-001	-8.704810E-002	3.354470E-002
1.170000E+009	6.131024E-002	-4.418468E-002	2.671210E-001	-1.246963E-001	2.673782E-001	-1.248044E-001	-8.687646E-002	3.392623E-002
1.180000E+009	6.102986E-002	-4.442873E-002	2.665916E-001	-1.256224E-001	2.668817E-001	-1.257557E-001	-8.666631E-002	3.428902E-002
1.190000E+009	6.071105E-002	-4.461498E-002	2.660768E-001	-1.265566E-001	2.663068E-001	-1.266637E-001	-8.647954E-002	3.467233E-002
1.200000E+009	6.041582E-002	-4.481691E-002	2.655871E-001	-1.274590E-001	2.658232E-001	-1.275928E-001	-8.631268E-002	3.508543E-002
1.210000E+009	6.013767E-002	-4.506391E-002	2.650580E-001	-1.283875E-001	2.652679E-001	-1.285304E-001	-8.613435E-002	3.548661E-002
1.220000E+009	5.984727E-002	-4.529482E-002	2.645493E-001	-1.293192E-001	2.647815E-001	-1.294281E-001	-8.599502E-002	3.589012E-002
1.230000E+009	5.959573E-002	-4.549240E-002	2.640021E-001	-1.302304E-001	2.642476E-001	-1.303526E-001	-8.585524E-002	3.626735E-002
1.240000E+009	5.931220E-002	-4.571778E-002	2.634833E-001	-1.311493E-001	2.637188E-001	-1.312596E-001	-8.573477E-002	3.664233E-002
1.250000E+009	5.904859E-002	-4.594408E-002	2.629324E-001	-1.320262E-001	2.632152E-001	-1.321527E-001	-8.560694E-002	3.700497E-002
1.260000E+009	5.873771E-002	-4.613676E-002	2.623848E-001	-1.329709E-001	2.626178E-001	-1.331068E-001	-8.546467E-002	3.730925E-002
1.270000E+009	5.850082E-002	-4.632198E-002	2.618783E-001	-1.338721E-001	2.620850E-001	-1.339737E-001	-8.529576E-002	3.764787E-002
1.280000E+009	5.823427E-002	-4.651227E-002	2.613445E-001	-1.347837E-001	2.615855E-001	-1.348877E-001	-8.512955E-002	3.795068E-002
1.290000E+009	5.798562E-002	-4.668465E-002	2.607744E-001	-1.357077E-001	2.610313E-001	-1.358165E-001	-8.489643E-002	3.824403E-002
1.300000E+009	5.772701E-002	-4.683289E-002	2.602286E-001	-1.365819E-001	2.604808E-001	-1.366998E-001	-8.464139E-002	3.857666E-002
1.310000E+009	5.744157E-002	-4.699680E-002	2.596305E-001	-1.374980E-001	2.599342E-001	-1.376263E-001	-8.439836E-002	3.893026E-002
1.320000E+009	5.715183E-002	-4.713830E-002	2.590925E-001	-1.383855E-001	2.593674E-001	-1.385376E-001	-8.409904E-002	3.932611E-002
1.330000E+009	5.690141E-002	-4.724616E-002	2.585610E-001	-1.392830E-001	2.588104E-001	-1.394378E-001	-8.376455E-002	3.979784E-002
1.340000E+009	5.660608E-002	-4.736647E-002	2.579665E-001	-1.401629E-001	2.582367E-001	-1.403278E-001	-8.348448E-002	4.027794E-002
1.350000E+009	5.628919E-002	-4.748694E-002	2.573998E-001	-1.410648E-001	2.576475E-001	-1.412087E-001	-8.318784E-002	4.078840E-002
1.360000E+009	5.604563E-002	-4.761969E-002	2.568395E-001	-1.419380E-001	2.571062E-001	-1.420901E-001	-8.295015E-002	4.131923E-002
1.370000E+009	5.575405E-002	-4.773756E-002	2.562700E-001	-1.428256E-001	2.565088E-001	-1.429704E-001	-8.271658E-002	4.185602E-002
1.380000E+009	5.544931E-002	-4.787810E-002	2.556673E-001	-1.437227E-001	2.559270E-001	-1.438787E-001	-8.251011E-002	4.236993E-002
1.390000E+009	5.517855E-002	-4.801792E-002	2.550911E-001	-1.446123E-001	2.553399E-001	-1.447563E-001	-8.234234E-002	4.289966E-002
1.400000E+009	5.486293E-002	-4.817604E-002	2.544903E-001	-1.454673E-001	2.547400E-001	-1.456036E-001	-8.216139E-002	4.337594E-002
1.410000E+009	5.455645E-002	-4.830533E-002	2.539230E-001	-1.463610E-001	2.541460E-001	-1.464783E-001	-8.201492E-002	4.388426E-002
1.420000E+009	5.425549E-002	-4.842028E-002	2.532888E-001	-1.472041E-001	2.535773E-001	-1.473533E-001	-8.184944E-002	4.434949E-002
1.430000E+009	5.398988E-002	-4.854535E-002	2.526997E-001	-1.480826E-001	2.529728E-001	-1.482249E-001	-8.164903E-002	4.480219E-002
1.440000E+009	5.369169E-002	-4.867663E-002	2.521015E-001	-1.489416E-001	2.523538E-001	-1.490776E-001	-8.145156E-002	4.522799E-002
1.450000E+009	5.337874E-002	-4.877242E-002	2.514984E-001	-1.498137E-001	2.517649E-001	-1.499635E-001	-8.122192E-002	4.569348E-002
1.460000E+009	5.305431E-002	-4.888310E-002	2.508926E-001	-1.506752E-001	2.511361E-001	-1.508322E-001	-8.099142E-002	4.616381E-002
1.470000E+009	5.275736E-002	-4.901058E-002	2.502979E-001	-1.515291E-001	2.505308E-001	-1.516742E-001	-8.075527E-002	4.666796E-002
1.480000E+009	5.244456E-002	-4.910611E-002	2.496665E-001	-1.523708E-001	2.498875E-001	-1.525206E-001	-8.054710E-002	4.719726E-002
1.490000E+009	5.214371E-002	-4.921324E-002	2.490688E-001	-1.532324E-001	2.492882E-001	-1.533530E-001	-8.029468E-002	4.773984E-002
1.500000E+009	5.183804E-002	-4.934779E-002	2.484377E-001	-1.540697E-001	2.486632E-001	-1.541946E-001	-8.001200E-002	4.826568E-002
