! Device ID: PE43711P
! File Path: z:\PE43711P\CHAR_NOM_04282014\AMB\3p300\LS_ATT_30p50dB\PE43711P_AMB_3p300V_3p000V_0p000V_LS_ATT_30p50dB_S2P_SN_5_A0137A.s2p
! Serial: 5
! Lot: A0137A
! Temp: 25C
! VDD: 3.300
! VSS: 0.000
! Control_Hi: 3.000
! Control_Lo: 0.000
! Attenuation Step: 30.50dB
! Port 1: RF1
! Port 2: RF2
! ThroughPath:1-2
! IDD: 0.0001278376
! ISS: -9.47e-008
!

#  Hz  S   RI  R   50

1.000000E+007	1.961794E-002	5.515695E-004	2.583813E-002	-9.038365E-005	2.584671E-002	-1.066083E-004	-1.259848E-001	9.782481E-004
2.000000E+007	1.986226E-002	7.500155E-004	2.584561E-002	-1.454689E-004	2.583913E-002	-1.435396E-004	-1.256973E-001	1.542730E-003
3.000000E+007	2.011825E-002	9.317566E-004	2.583586E-002	-2.028410E-004	2.585715E-002	-2.233060E-004	-1.254098E-001	2.036709E-003
4.000000E+007	2.029823E-002	1.115581E-003	2.584439E-002	-2.880285E-004	2.586230E-002	-2.907377E-004	-1.252260E-001	2.622392E-003
5.000000E+007	2.039953E-002	1.282269E-003	2.582937E-002	-3.711893E-004	2.585531E-002	-3.730759E-004	-1.252040E-001	3.218260E-003
6.000000E+007	2.057249E-002	1.405463E-003	2.583951E-002	-4.494821E-004	2.584747E-002	-4.414113E-004	-1.250595E-001	3.672545E-003
7.000000E+007	2.071067E-002	1.500923E-003	2.583277E-002	-5.059870E-004	2.585115E-002	-5.031351E-004	-1.248789E-001	4.146428E-003
8.000000E+007	2.086603E-002	1.603024E-003	2.581937E-002	-5.723051E-004	2.584783E-002	-5.701030E-004	-1.247223E-001	4.599283E-003
9.000000E+007	2.099402E-002	1.712129E-003	2.581712E-002	-6.508506E-004	2.583976E-002	-6.448327E-004	-1.245856E-001	4.992251E-003
1.000000E+008	2.115126E-002	1.809630E-003	2.582285E-002	-7.237286E-004	2.583521E-002	-7.121484E-004	-1.245313E-001	5.397088E-003
1.100000E+008	2.128757E-002	1.891263E-003	2.581172E-002	-7.958432E-004	2.583252E-002	-8.016517E-004	-1.244480E-001	5.773302E-003
1.200000E+008	2.144245E-002	1.934468E-003	2.581995E-002	-8.593422E-004	2.583195E-002	-8.621924E-004	-1.243318E-001	6.112727E-003
1.300000E+008	2.156619E-002	2.030177E-003	2.580291E-002	-9.368106E-004	2.581625E-002	-9.350617E-004	-1.242028E-001	6.467217E-003
1.400000E+008	2.168640E-002	2.142945E-003	2.579837E-002	-9.941938E-004	2.581903E-002	-1.012406E-003	-1.241011E-001	6.822269E-003
1.500000E+008	2.175249E-002	2.255234E-003	2.578984E-002	-1.079733E-003	2.579940E-002	-1.069010E-003	-1.239925E-001	7.164759E-003
1.600000E+008	2.183580E-002	2.395682E-003	2.577828E-002	-1.148251E-003	2.580788E-002	-1.138788E-003	-1.239233E-001	7.508921E-003
1.700000E+008	2.193977E-002	2.493926E-003	2.579082E-002	-1.232718E-003	2.580799E-002	-1.202773E-003	-1.238338E-001	7.869100E-003
1.800000E+008	2.201821E-002	2.596274E-003	2.577122E-002	-1.277254E-003	2.580967E-002	-1.289050E-003	-1.237175E-001	8.206921E-003
1.900000E+008	2.202166E-002	2.665178E-003	2.574679E-002	-1.364693E-003	2.578919E-002	-1.357986E-003	-1.236725E-001	8.486834E-003
2.000000E+008	2.201014E-002	2.711416E-003	2.574650E-002	-1.420792E-003	2.577931E-002	-1.428925E-003	-1.236086E-001	8.738974E-003
2.100000E+008	2.202352E-002	2.713428E-003	2.574676E-002	-1.493377E-003	2.577554E-002	-1.499393E-003	-1.235224E-001	8.956373E-003
2.200000E+008	2.203194E-002	2.717822E-003	2.574137E-002	-1.560174E-003	2.575471E-002	-1.560328E-003	-1.234131E-001	9.155344E-003
2.300000E+008	2.207782E-002	2.731986E-003	2.573425E-002	-1.632635E-003	2.575595E-002	-1.616311E-003	-1.232611E-001	9.373419E-003
2.400000E+008	2.216075E-002	2.726703E-003	2.573010E-002	-1.706023E-003	2.574281E-002	-1.693148E-003	-1.230983E-001	9.635669E-003
2.500000E+008	2.221079E-002	2.750077E-003	2.571930E-002	-1.767793E-003	2.574294E-002	-1.769084E-003	-1.228952E-001	9.875414E-003
2.600000E+008	2.230914E-002	2.772677E-003	2.569698E-002	-1.848456E-003	2.572330E-002	-1.838202E-003	-1.226704E-001	1.019597E-002
2.700000E+008	2.241966E-002	2.809347E-003	2.568700E-002	-1.910032E-003	2.571832E-002	-1.902215E-003	-1.224284E-001	1.053822E-002
2.800000E+008	2.255610E-002	2.850374E-003	2.568605E-002	-1.976799E-003	2.571701E-002	-1.961633E-003	-1.222080E-001	1.086266E-002
2.900000E+008	2.262752E-002	2.922668E-003	2.567434E-002	-2.048143E-003	2.569412E-002	-2.032902E-003	-1.220680E-001	1.120614E-002
3.000000E+008	2.270147E-002	3.027345E-003	2.566218E-002	-2.103602E-003	2.569827E-002	-2.088360E-003	-1.219132E-001	1.158965E-002
3.100000E+008	2.272911E-002	3.132785E-003	2.565769E-002	-2.184290E-003	2.566598E-002	-2.169624E-003	-1.217883E-001	1.197160E-002
3.200000E+008	2.277263E-002	3.241450E-003	2.565186E-002	-2.248696E-003	2.566342E-002	-2.242130E-003	-1.216949E-001	1.233887E-002
3.300000E+008	2.278697E-002	3.370410E-003	2.563728E-002	-2.320318E-003	2.566259E-002	-2.309147E-003	-1.215835E-001	1.266221E-002
3.400000E+008	2.276159E-002	3.452754E-003	2.562440E-002	-2.389441E-003	2.563625E-002	-2.379101E-003	-1.214554E-001	1.297681E-002
3.500000E+008	2.272079E-002	3.495281E-003	2.561793E-002	-2.467994E-003	2.562456E-002	-2.447180E-003	-1.212973E-001	1.322628E-002
3.600000E+008	2.271150E-002	3.558365E-003	2.560583E-002	-2.523308E-003	2.560482E-002	-2.521083E-003	-1.211262E-001	1.351049E-002
3.700000E+008	2.268232E-002	3.593155E-003	2.558971E-002	-2.582613E-003	2.559115E-002	-2.567405E-003	-1.209129E-001	1.376685E-002
3.800000E+008	2.267090E-002	3.632236E-003	2.557748E-002	-2.643617E-003	2.559167E-002	-2.637843E-003	-1.207028E-001	1.405431E-002
3.900000E+008	2.266653E-002	3.627254E-003	2.556287E-002	-2.721057E-003	2.556954E-002	-2.711076E-003	-1.204161E-001	1.439503E-002
4.000000E+008	2.269386E-002	3.622794E-003	2.553971E-002	-2.789128E-003	2.557395E-002	-2.780645E-003	-1.200909E-001	1.472921E-002
4.100000E+008	2.270915E-002	3.616712E-003	2.553904E-002	-2.841213E-003	2.555994E-002	-2.843091E-003	-1.198215E-001	1.505437E-002
4.200000E+008	2.273456E-002	3.625917E-003	2.551892E-002	-2.909571E-003	2.555079E-002	-2.909487E-003	-1.195917E-001	1.543734E-002
4.300000E+008	2.276253E-002	3.642874E-003	2.551407E-002	-2.975872E-003	2.553052E-002	-2.972769E-003	-1.193806E-001	1.585283E-002
4.400000E+008	2.280521E-002	3.688079E-003	2.549274E-002	-3.053679E-003	2.553113E-002	-3.035382E-003	-1.191743E-001	1.631082E-002
4.500000E+008	2.285280E-002	3.728636E-003	2.549539E-002	-3.117098E-003	2.550743E-002	-3.107040E-003	-1.189864E-001	1.676773E-002
4.600000E+008	2.290930E-002	3.767762E-003	2.547746E-002	-3.191083E-003	2.549221E-002	-3.184929E-003	-1.187770E-001	1.723908E-002
4.700000E+008	2.293942E-002	3.791372E-003	2.546174E-002	-3.246025E-003	2.548565E-002	-3.245977E-003	-1.186058E-001	1.763822E-002
4.800000E+008	2.296518E-002	3.874079E-003	2.544774E-002	-3.314186E-003	2.545845E-002	-3.308933E-003	-1.184537E-001	1.805516E-002
4.900000E+008	2.296113E-002	3.939457E-003	2.543121E-002	-3.374638E-003	2.545097E-002	-3.374922E-003	-1.183005E-001	1.845212E-002
5.000000E+008	2.296786E-002	4.010817E-003	2.540892E-002	-3.444258E-003	2.544742E-002	-3.430442E-003	-1.181281E-001	1.884036E-002
5.100000E+008	2.297172E-002	4.082716E-003	2.539252E-002	-3.508381E-003	2.540531E-002	-3.497240E-003	-1.179412E-001	1.922859E-002
5.200000E+008	2.294940E-002	4.113281E-003	2.538609E-002	-3.574962E-003	2.541620E-002	-3.564329E-003	-1.177588E-001	1.961330E-002
5.300000E+008	2.294323E-002	4.138363E-003	2.537082E-002	-3.640588E-003	2.538804E-002	-3.631197E-003	-1.175266E-001	2.000400E-002
5.400000E+008	2.291377E-002	4.116550E-003	2.535128E-002	-3.698881E-003	2.538354E-002	-3.701520E-003	-1.172972E-001	2.037418E-002
5.500000E+008	2.289309E-002	4.138594E-003	2.534793E-002	-3.762239E-003	2.536105E-002	-3.761599E-003	-1.170744E-001	2.077898E-002
5.600000E+008	2.289252E-002	4.113227E-003	2.533825E-002	-3.828363E-003	2.534257E-002	-3.833532E-003	-1.168510E-001	2.119058E-002
5.700000E+008	2.291120E-002	4.063282E-003	2.530403E-002	-3.897095E-003	2.532346E-002	-3.889622E-003	-1.166724E-001	2.164119E-002
5.800000E+008	2.293790E-002	4.049826E-003	2.529378E-002	-3.952426E-003	2.530999E-002	-3.959249E-003	-1.164927E-001	2.209227E-002
5.900000E+008	2.295929E-002	4.008004E-003	2.527445E-002	-4.019198E-003	2.529731E-002	-4.022800E-003	-1.162863E-001	2.258534E-002
6.000000E+008	2.304437E-002	3.985901E-003	2.525321E-002	-4.094270E-003	2.527807E-002	-4.082592E-003	-1.160785E-001	2.302746E-002
6.100000E+008	2.313883E-002	3.994128E-003	2.523146E-002	-4.141230E-003	2.525723E-002	-4.145835E-003	-1.158986E-001	2.346775E-002
6.200000E+008	2.322216E-002	4.025958E-003	2.522970E-002	-4.213806E-003	2.524336E-002	-4.206443E-003	-1.157099E-001	2.389503E-002
6.300000E+008	2.332127E-002	4.068813E-003	2.520370E-002	-4.279246E-003	2.521954E-002	-4.284191E-003	-1.155450E-001	2.431595E-002
6.400000E+008	2.339973E-002	4.120126E-003	2.517961E-002	-4.330376E-003	2.520464E-002	-4.332363E-003	-1.153450E-001	2.473758E-002
6.500000E+008	2.348141E-002	4.202248E-003	2.516264E-002	-4.395091E-003	2.519397E-002	-4.400508E-003	-1.151865E-001	2.519348E-002
6.600000E+008	2.352572E-002	4.248084E-003	2.516123E-002	-4.463821E-003	2.516901E-002	-4.454406E-003	-1.149801E-001	2.561580E-002
6.700000E+008	2.354891E-002	4.315316E-003	2.514641E-002	-4.524522E-003	2.516762E-002	-4.532582E-003	-1.147989E-001	2.607364E-002
6.800000E+008	2.355420E-002	4.389296E-003	2.512894E-002	-4.600890E-003	2.513819E-002	-4.584262E-003	-1.146192E-001	2.652843E-002
6.900000E+008	2.355721E-002	4.460324E-003	2.510392E-002	-4.634245E-003	2.511938E-002	-4.646048E-003	-1.144175E-001	2.700550E-002
7.000000E+008	2.356872E-002	4.519085E-003	2.508859E-002	-4.705259E-003	2.510970E-002	-4.708425E-003	-1.142741E-001	2.746880E-002
7.100000E+008	2.358463E-002	4.564958E-003	2.507075E-002	-4.767307E-003	2.509557E-002	-4.765568E-003	-1.141519E-001	2.791453E-002
7.200000E+008	2.358207E-002	4.613553E-003	2.505189E-002	-4.834379E-003	2.506553E-002	-4.820131E-003	-1.140229E-001	2.837548E-002
7.300000E+008	2.358219E-002	4.632925E-003	2.502753E-002	-4.902313E-003	2.504848E-002	-4.892310E-003	-1.138912E-001	2.879653E-002
7.400000E+008	2.356621E-002	4.679859E-003	2.502563E-002	-4.955940E-003	2.504913E-002	-4.954696E-003	-1.137847E-001	2.919903E-002
7.500000E+008	2.358569E-002	4.689993E-003	2.499552E-002	-5.026114E-003	2.500739E-002	-5.010896E-003	-1.136623E-001	2.958412E-002
7.600000E+008	2.358253E-002	4.700464E-003	2.498147E-002	-5.077497E-003	2.499385E-002	-5.086091E-003	-1.135304E-001	2.994939E-002
7.700000E+008	2.358548E-002	4.694072E-003	2.495693E-002	-5.140882E-003	2.497977E-002	-5.138830E-003	-1.133631E-001	3.029886E-002
7.800000E+008	2.361359E-002	4.695642E-003	2.494987E-002	-5.196068E-003	2.497126E-002	-5.213458E-003	-1.131990E-001	3.063900E-002
7.900000E+008	2.363214E-002	4.647081E-003	2.493337E-002	-5.269189E-003	2.494775E-002	-5.276322E-003	-1.129997E-001	3.102041E-002
8.000000E+008	2.366679E-002	4.650279E-003	2.491635E-002	-5.319086E-003	2.491630E-002	-5.339439E-003	-1.127790E-001	3.139998E-002
8.100000E+008	2.371613E-002	4.601664E-003	2.488525E-002	-5.396811E-003	2.490197E-002	-5.384976E-003	-1.125199E-001	3.180649E-002
8.200000E+008	2.380508E-002	4.597658E-003	2.487891E-002	-5.443583E-003	2.488484E-002	-5.457261E-003	-1.122877E-001	3.220913E-002
8.300000E+008	2.390563E-002	4.597151E-003	2.483457E-002	-5.505314E-003	2.486683E-002	-5.502008E-003	-1.120655E-001	3.263879E-002
8.400000E+008	2.399403E-002	4.616340E-003	2.482418E-002	-5.566265E-003	2.485660E-002	-5.577598E-003	-1.118565E-001	3.305023E-002
8.500000E+008	2.409751E-002	4.646648E-003	2.480645E-002	-5.640681E-003	2.482590E-002	-5.641490E-003	-1.116824E-001	3.348055E-002
8.600000E+008	2.414589E-002	4.699604E-003	2.478443E-002	-5.689201E-003	2.480164E-002	-5.697138E-003	-1.115375E-001	3.390079E-002
8.700000E+008	2.421487E-002	4.784866E-003	2.477651E-002	-5.759558E-003	2.479663E-002	-5.756261E-003	-1.113735E-001	3.430469E-002
8.800000E+008	2.427022E-002	4.839546E-003	2.475659E-002	-5.807166E-003	2.475961E-002	-5.813838E-003	-1.112210E-001	3.467817E-002
8.900000E+008	2.430441E-002	4.902235E-003	2.473251E-002	-5.876840E-003	2.474173E-002	-5.863074E-003	-1.110650E-001	3.504076E-002
9.000000E+008	2.434660E-002	4.952614E-003	2.470457E-002	-5.934564E-003	2.472473E-002	-5.934344E-003	-1.108495E-001	3.540981E-002
9.100000E+008	2.433860E-002	5.008468E-003	2.467525E-002	-5.986437E-003	2.470417E-002	-5.990676E-003	-1.106252E-001	3.574880E-002
9.200000E+008	2.436847E-002	5.010210E-003	2.466824E-002	-6.059275E-003	2.468166E-002	-6.042696E-003	-1.103716E-001	3.611621E-002
9.300000E+008	2.442207E-002	5.020297E-003	2.465925E-002	-6.117338E-003	2.468120E-002	-6.133896E-003	-1.100686E-001	3.650216E-002
9.400000E+008	2.446647E-002	5.026170E-003	2.462069E-002	-6.164512E-003	2.465109E-002	-6.173525E-003	-1.097565E-001	3.691869E-002
9.500000E+008	2.454975E-002	5.017695E-003	2.460222E-002	-6.228472E-003	2.462827E-002	-6.218643E-003	-1.094226E-001	3.736495E-002
9.600000E+008	2.457769E-002	5.070132E-003	2.458288E-002	-6.292541E-003	2.459797E-002	-6.307042E-003	-1.090913E-001	3.783765E-002
9.700000E+008	2.468451E-002	5.108397E-003	2.455545E-002	-6.342360E-003	2.458892E-002	-6.362002E-003	-1.088006E-001	3.828103E-002
9.800000E+008	2.474804E-002	5.166794E-003	2.455251E-002	-6.407574E-003	2.456325E-002	-6.400961E-003	-1.085294E-001	3.880549E-002
9.900000E+008	2.483700E-002	5.225198E-003	2.452672E-002	-6.451718E-003	2.454932E-002	-6.465909E-003	-1.082787E-001	3.926772E-002
1.000000E+009	2.490311E-002	5.298303E-003	2.450411E-002	-6.527733E-003	2.452073E-002	-6.523040E-003	-1.080716E-001	3.972796E-002
1.010000E+009	2.495179E-002	5.384489E-003	2.448212E-002	-6.575263E-003	2.449197E-002	-6.590742E-003	-1.078258E-001	4.019942E-002
1.020000E+009	2.500269E-002	5.443186E-003	2.447430E-002	-6.642089E-003	2.448463E-002	-6.655171E-003	-1.076317E-001	4.066344E-002
1.030000E+009	2.505102E-002	5.520118E-003	2.443850E-002	-6.696667E-003	2.446571E-002	-6.709219E-003	-1.074207E-001	4.113707E-002
1.040000E+009	2.508528E-002	5.590507E-003	2.442753E-002	-6.769212E-003	2.444634E-002	-6.772174E-003	-1.072009E-001	4.158955E-002
1.050000E+009	2.512665E-002	5.649459E-003	2.439573E-002	-6.826513E-003	2.442970E-002	-6.819793E-003	-1.069392E-001	4.206623E-002
1.060000E+009	2.516167E-002	5.719445E-003	2.438135E-002	-6.884476E-003	2.439568E-002	-6.880108E-003	-1.066802E-001	4.253710E-002
1.070000E+009	2.519282E-002	5.746220E-003	2.437058E-002	-6.925958E-003	2.436125E-002	-6.935347E-003	-1.064272E-001	4.298122E-002
1.080000E+009	2.522921E-002	5.824028E-003	2.434095E-002	-6.998970E-003	2.436658E-002	-7.002749E-003	-1.061434E-001	4.348281E-002
1.090000E+009	2.526578E-002	5.857459E-003	2.431312E-002	-7.046682E-003	2.432770E-002	-7.067298E-003	-1.059301E-001	4.394421E-002
1.100000E+009	2.531183E-002	5.919710E-003	2.429431E-002	-7.107974E-003	2.431666E-002	-7.131517E-003	-1.056939E-001	4.442808E-002
1.110000E+009	2.534831E-002	5.978751E-003	2.427290E-002	-7.174664E-003	2.428020E-002	-7.166408E-003	-1.054649E-001	4.488146E-002
1.120000E+009	2.536857E-002	6.013097E-003	2.424445E-002	-7.225510E-003	2.426693E-002	-7.235208E-003	-1.053004E-001	4.532172E-002
1.130000E+009	2.542433E-002	6.060915E-003	2.422995E-002	-7.281367E-003	2.424453E-002	-7.307989E-003	-1.050838E-001	4.575560E-002
1.140000E+009	2.544485E-002	6.107170E-003	2.420260E-002	-7.358758E-003	2.420998E-002	-7.364092E-003	-1.048493E-001	4.621869E-002
1.150000E+009	2.549699E-002	6.180338E-003	2.419302E-002	-7.411187E-003	2.420584E-002	-7.415899E-003	-1.045989E-001	4.665043E-002
1.160000E+009	2.550897E-002	6.221671E-003	2.414920E-002	-7.460095E-003	2.417986E-002	-7.480293E-003	-1.043480E-001	4.708455E-002
1.170000E+009	2.555786E-002	6.283004E-003	2.413466E-002	-7.527738E-003	2.416378E-002	-7.522385E-003	-1.040935E-001	4.755590E-002
1.180000E+009	2.561492E-002	6.330371E-003	2.409940E-002	-7.589173E-003	2.412014E-002	-7.611439E-003	-1.037935E-001	4.803362E-002
1.190000E+009	2.560943E-002	6.410220E-003	2.408661E-002	-7.650812E-003	2.409811E-002	-7.643307E-003	-1.035319E-001	4.854212E-002
1.200000E+009	2.563832E-002	6.446370E-003	2.407407E-002	-7.702742E-003	2.407203E-002	-7.710614E-003	-1.032442E-001	4.903549E-002
1.210000E+009	2.570880E-002	6.467097E-003	2.404251E-002	-7.777246E-003	2.406004E-002	-7.766126E-003	-1.029971E-001	4.951689E-002
1.220000E+009	2.572406E-002	6.444638E-003	2.401729E-002	-7.823485E-003	2.403749E-002	-7.829878E-003	-1.027694E-001	5.000038E-002
1.230000E+009	2.577094E-002	6.482251E-003	2.399087E-002	-7.872024E-003	2.402463E-002	-7.871353E-003	-1.025643E-001	5.043488E-002
1.240000E+009	2.581885E-002	6.480120E-003	2.396512E-002	-7.930301E-003	2.398213E-002	-7.929890E-003	-1.023675E-001	5.087677E-002
1.250000E+009	2.590427E-002	6.493631E-003	2.394491E-002	-7.994246E-003	2.395540E-002	-7.993518E-003	-1.021378E-001	5.129420E-002
1.260000E+009	2.596328E-002	6.512951E-003	2.391766E-002	-8.056386E-003	2.393439E-002	-8.051557E-003	-1.018804E-001	5.168989E-002
1.270000E+009	2.611329E-002	6.552132E-003	2.388377E-002	-8.114792E-003	2.392247E-002	-8.116301E-003	-1.015962E-001	5.206406E-002
1.280000E+009	2.618565E-002	6.592737E-003	2.385778E-002	-8.166903E-003	2.388998E-002	-8.174292E-003	-1.013405E-001	5.245669E-002
1.290000E+009	2.628141E-002	6.665888E-003	2.384448E-002	-8.234899E-003	2.386756E-002	-8.225948E-003	-1.009934E-001	5.284406E-002
1.300000E+009	2.635748E-002	6.754262E-003	2.380845E-002	-8.277611E-003	2.383365E-002	-8.290799E-003	-1.006430E-001	5.329461E-002
1.310000E+009	2.643150E-002	6.817788E-003	2.380678E-002	-8.333704E-003	2.380222E-002	-8.355433E-003	-1.003019E-001	5.371627E-002
1.320000E+009	2.648919E-002	6.893944E-003	2.376068E-002	-8.394780E-003	2.379220E-002	-8.401013E-003	-9.989653E-002	5.421244E-002
1.330000E+009	2.655235E-002	6.990699E-003	2.375445E-002	-8.448349E-003	2.376687E-002	-8.453374E-003	-9.948906E-002	5.472621E-002
1.340000E+009	2.659949E-002	7.091050E-003	2.373171E-002	-8.519808E-003	2.373102E-002	-8.534945E-003	-9.912732E-002	5.526149E-002
1.350000E+009	2.663606E-002	7.149718E-003	2.369356E-002	-8.585324E-003	2.372036E-002	-8.570826E-003	-9.877503E-002	5.580469E-002
1.360000E+009	2.670845E-002	7.215546E-003	2.366294E-002	-8.642365E-003	2.367942E-002	-8.635224E-003	-9.840045E-002	5.640566E-002
1.370000E+009	2.676330E-002	7.293854E-003	2.363651E-002	-8.682913E-003	2.365495E-002	-8.699391E-003	-9.809147E-002	5.697377E-002
1.380000E+009	2.681133E-002	7.354771E-003	2.360757E-002	-8.737858E-003	2.363019E-002	-8.754953E-003	-9.776453E-002	5.756213E-002
1.390000E+009	2.689694E-002	7.401734E-003	2.357385E-002	-8.805603E-003	2.360800E-002	-8.809298E-003	-9.748673E-002	5.816106E-002
1.400000E+009	2.695421E-002	7.474607E-003	2.355275E-002	-8.871434E-003	2.357748E-002	-8.857777E-003	-9.721458E-002	5.872263E-002
1.410000E+009	2.699944E-002	7.553823E-003	2.352005E-002	-8.925551E-003	2.355024E-002	-8.917499E-003	-9.692687E-002	5.929200E-002
1.420000E+009	2.704260E-002	7.635313E-003	2.349448E-002	-8.962839E-003	2.352224E-002	-8.978365E-003	-9.667758E-002	5.981005E-002
1.430000E+009	2.708275E-002	7.739311E-003	2.345081E-002	-9.040779E-003	2.349264E-002	-9.045510E-003	-9.638986E-002	6.031887E-002
1.440000E+009	2.712935E-002	7.800742E-003	2.341792E-002	-9.084340E-003	2.345550E-002	-9.092701E-003	-9.610557E-002	6.080845E-002
1.450000E+009	2.715383E-002	7.872064E-003	2.340412E-002	-9.159538E-003	2.341766E-002	-9.150606E-003	-9.579156E-002	6.131588E-002
1.460000E+009	2.718716E-002	7.929175E-003	2.338124E-002	-9.196446E-003	2.339000E-002	-9.211772E-003	-9.548321E-002	6.184931E-002
1.470000E+009	2.722452E-002	7.971118E-003	2.334494E-002	-9.251968E-003	2.336943E-002	-9.263608E-003	-9.511974E-002	6.240463E-002
1.480000E+009	2.723813E-002	8.029894E-003	2.330088E-002	-9.316195E-003	2.333822E-002	-9.309638E-003	-9.478272E-002	6.294358E-002
1.490000E+009	2.731219E-002	8.076812E-003	2.328783E-002	-9.357634E-003	2.330199E-002	-9.371261E-003	-9.441193E-002	6.351046E-002
1.500000E+009	2.737678E-002	8.134847E-003	2.325979E-002	-9.414048E-003	2.329001E-002	-9.414549E-003	-9.403886E-002	6.407996E-002
1.510000E+009	2.744917E-002	8.177842E-003	2.323079E-002	-9.477568E-003	2.325593E-002	-9.492415E-003	-9.369797E-002	6.468194E-002
