! Device ID: PE43711P
! File Path: z:\PE43711P\CHAR_NOM_04282014\AMB\3p300\LS_ATT_8p00dB\PE43711P_AMB_3p300V_3p000V_0p000V_LS_ATT_8p00dB_S2P_SN_5_A0137A.s2p
! Serial: 5
! Lot: A0137A
! Temp: 25C
! VDD: 3.300
! VSS: 0.000
! Control_Hi: 3.000
! Control_Lo: 0.000
! Attenuation Step: 8.00dB
! Port 1: RF1
! Port 2: RF2
! ThroughPath:1-2
! IDD: 0.0001273206
! ISS: -1.096e-007
!

#  Hz  S   RI  R   50

1.000000E+007	8.435317E-002	-1.922735E-004	3.505029E-001	-1.764710E-003	3.507391E-001	-1.798369E-003	-8.805953E-002	7.152747E-004
2.000000E+007	8.452864E-002	-4.539935E-004	3.505601E-001	-2.857889E-003	3.506330E-001	-2.870987E-003	-8.783465E-002	1.189342E-003
3.000000E+007	8.476372E-002	-8.707661E-004	3.505431E-001	-4.291613E-003	3.506522E-001	-4.305839E-003	-8.755506E-002	1.567604E-003
4.000000E+007	8.488462E-002	-1.283297E-003	3.505441E-001	-5.730694E-003	3.506294E-001	-5.749480E-003	-8.730579E-002	1.976780E-003
5.000000E+007	8.502418E-002	-1.754397E-003	3.505417E-001	-7.282005E-003	3.507013E-001	-7.261211E-003	-8.721367E-002	2.319587E-003
6.000000E+007	8.519964E-002	-2.277767E-003	3.504510E-001	-8.716092E-003	3.506929E-001	-8.684604E-003	-8.708859E-002	2.554282E-003
7.000000E+007	8.528841E-002	-2.819338E-003	3.503456E-001	-1.010614E-002	3.505721E-001	-1.011087E-002	-8.695186E-002	2.811760E-003
8.000000E+007	8.541509E-002	-3.344406E-003	3.502642E-001	-1.146085E-002	3.505071E-001	-1.147476E-002	-8.680853E-002	3.083594E-003
9.000000E+007	8.551448E-002	-3.855437E-003	3.501949E-001	-1.288766E-002	3.503901E-001	-1.290562E-002	-8.667548E-002	3.291957E-003
1.000000E+008	8.557847E-002	-4.375561E-003	3.501334E-001	-1.433819E-002	3.502871E-001	-1.430860E-002	-8.655354E-002	3.495263E-003
1.100000E+008	8.565312E-002	-4.874295E-003	3.500092E-001	-1.578976E-002	3.502132E-001	-1.572179E-002	-8.649284E-002	3.691090E-003
1.200000E+008	8.572623E-002	-5.417021E-003	3.498212E-001	-1.719204E-002	3.500701E-001	-1.715576E-002	-8.647200E-002	3.851450E-003
1.300000E+008	8.579115E-002	-5.965368E-003	3.497076E-001	-1.854804E-002	3.499480E-001	-1.856416E-002	-8.638723E-002	4.006813E-003
1.400000E+008	8.580773E-002	-6.525162E-003	3.495884E-001	-1.994588E-002	3.498017E-001	-1.997092E-002	-8.616131E-002	4.133620E-003
1.500000E+008	8.574626E-002	-7.061981E-003	3.494592E-001	-2.130099E-002	3.495783E-001	-2.132362E-002	-8.598867E-002	4.269321E-003
1.600000E+008	8.564969E-002	-7.489250E-003	3.493377E-001	-2.264490E-002	3.494193E-001	-2.264879E-002	-8.601781E-002	4.452154E-003
1.700000E+008	8.555296E-002	-7.936764E-003	3.491987E-001	-2.414901E-002	3.494539E-001	-2.404980E-002	-8.619037E-002	4.599124E-003
1.800000E+008	8.540594E-002	-8.418900E-003	3.488663E-001	-2.561749E-002	3.492832E-001	-2.554532E-002	-8.628834E-002	4.721258E-003
1.900000E+008	8.528226E-002	-8.976047E-003	3.486220E-001	-2.693824E-002	3.490369E-001	-2.693267E-002	-8.626613E-002	4.813329E-003
2.000000E+008	8.520149E-002	-9.565070E-003	3.484700E-001	-2.827732E-002	3.488163E-001	-2.824825E-002	-8.612092E-002	4.929824E-003
2.100000E+008	8.511898E-002	-1.019397E-002	3.483155E-001	-2.961084E-002	3.485912E-001	-2.959138E-002	-8.592436E-002	5.010267E-003
2.200000E+008	8.504802E-002	-1.078717E-002	3.481700E-001	-3.090320E-002	3.483952E-001	-3.090731E-002	-8.578101E-002	5.090306E-003
2.300000E+008	8.491589E-002	-1.134901E-002	3.479756E-001	-3.226504E-002	3.482027E-001	-3.226697E-002	-8.568167E-002	5.164117E-003
2.400000E+008	8.478044E-002	-1.192989E-002	3.477827E-001	-3.362888E-002	3.479643E-001	-3.361474E-002	-8.560407E-002	5.222227E-003
2.500000E+008	8.463537E-002	-1.246226E-002	3.475258E-001	-3.501349E-002	3.477468E-001	-3.497653E-002	-8.550988E-002	5.246052E-003
2.600000E+008	8.452292E-002	-1.303732E-002	3.472532E-001	-3.640017E-002	3.475277E-001	-3.633641E-002	-8.537211E-002	5.364456E-003
2.700000E+008	8.441664E-002	-1.357334E-002	3.469833E-001	-3.770707E-002	3.472785E-001	-3.770395E-002	-8.518664E-002	5.518030E-003
2.800000E+008	8.435676E-002	-1.408729E-002	3.467441E-001	-3.900530E-002	3.470154E-001	-3.896443E-002	-8.501094E-002	5.675601E-003
2.900000E+008	8.422133E-002	-1.456413E-002	3.465271E-001	-4.031197E-002	3.467618E-001	-4.026713E-002	-8.491621E-002	5.835896E-003
3.000000E+008	8.411423E-002	-1.499514E-002	3.463161E-001	-4.167068E-002	3.465608E-001	-4.159255E-002	-8.479916E-002	6.054960E-003
3.100000E+008	8.396091E-002	-1.541765E-002	3.460843E-001	-4.298115E-002	3.463466E-001	-4.293805E-002	-8.471450E-002	6.282366E-003
3.200000E+008	8.382742E-002	-1.583775E-002	3.458080E-001	-4.434013E-002	3.460989E-001	-4.429627E-002	-8.464930E-002	6.512131E-003
3.300000E+008	8.363243E-002	-1.622855E-002	3.455573E-001	-4.566640E-002	3.458315E-001	-4.569538E-002	-8.460150E-002	6.696898E-003
3.400000E+008	8.336178E-002	-1.666784E-002	3.452409E-001	-4.698689E-002	3.454163E-001	-4.706332E-002	-8.449882E-002	6.828583E-003
3.500000E+008	8.306904E-002	-1.709044E-002	3.449761E-001	-4.834012E-002	3.450414E-001	-4.830371E-002	-8.441127E-002	6.929873E-003
3.600000E+008	8.282326E-002	-1.752984E-002	3.446897E-001	-4.965470E-002	3.447553E-001	-4.949385E-002	-8.430373E-002	7.067031E-003
3.700000E+008	8.257436E-002	-1.796890E-002	3.443461E-001	-5.089552E-002	3.445259E-001	-5.070142E-002	-8.415145E-002	7.178211E-003
3.800000E+008	8.233562E-002	-1.846241E-002	3.440580E-001	-5.217393E-002	3.443275E-001	-5.203831E-002	-8.400569E-002	7.294974E-003
3.900000E+008	8.206802E-002	-1.895148E-002	3.437088E-001	-5.353184E-002	3.440332E-001	-5.339424E-002	-8.378963E-002	7.478202E-003
4.000000E+008	8.185754E-002	-1.946440E-002	3.433465E-001	-5.471657E-002	3.437040E-001	-5.472764E-002	-8.353111E-002	7.631959E-003
4.100000E+008	8.159586E-002	-1.998153E-002	3.430444E-001	-5.593280E-002	3.433772E-001	-5.600122E-002	-8.331497E-002	7.809451E-003
4.200000E+008	8.133037E-002	-2.044945E-002	3.428210E-001	-5.721467E-002	3.430670E-001	-5.724108E-002	-8.315338E-002	8.039982E-003
4.300000E+008	8.112578E-002	-2.090323E-002	3.425225E-001	-5.852266E-002	3.427412E-001	-5.853571E-002	-8.300574E-002	8.283450E-003
4.400000E+008	8.092625E-002	-2.129891E-002	3.421987E-001	-5.981087E-002	3.424526E-001	-5.980407E-002	-8.288162E-002	8.605453E-003
4.500000E+008	8.073194E-002	-2.171173E-002	3.418782E-001	-6.110324E-002	3.421423E-001	-6.108938E-002	-8.274399E-002	8.921781E-003
4.600000E+008	8.052056E-002	-2.214182E-002	3.415560E-001	-6.239830E-002	3.417668E-001	-6.238842E-002	-8.262068E-002	9.262926E-003
4.700000E+008	8.029172E-002	-2.253348E-002	3.411843E-001	-6.364003E-002	3.414054E-001	-6.365241E-002	-8.252779E-002	9.542121E-003
4.800000E+008	8.002246E-002	-2.288954E-002	3.408543E-001	-6.486855E-002	3.410422E-001	-6.485027E-002	-8.247561E-002	9.838023E-003
4.900000E+008	7.971560E-002	-2.327248E-002	3.405158E-001	-6.612641E-002	3.406690E-001	-6.612859E-002	-8.240095E-002	1.011197E-002
5.000000E+008	7.946410E-002	-2.362345E-002	3.401417E-001	-6.737146E-002	3.403654E-001	-6.735915E-002	-8.230164E-002	1.034725E-002
5.100000E+008	7.920946E-002	-2.402414E-002	3.398010E-001	-6.863064E-002	3.400407E-001	-6.857072E-002	-8.218557E-002	1.061114E-002
5.200000E+008	7.893859E-002	-2.444675E-002	3.394477E-001	-6.988769E-002	3.397038E-001	-6.987590E-002	-8.204567E-002	1.084142E-002
5.300000E+008	7.862964E-002	-2.488429E-002	3.390972E-001	-7.114201E-002	3.393580E-001	-7.113959E-002	-8.185093E-002	1.106877E-002
5.400000E+008	7.833273E-002	-2.535403E-002	3.387000E-001	-7.238237E-002	3.389934E-001	-7.239527E-002	-8.168295E-002	1.128781E-002
5.500000E+008	7.804162E-002	-2.572632E-002	3.383469E-001	-7.362130E-002	3.385635E-001	-7.365977E-002	-8.154856E-002	1.155417E-002
5.600000E+008	7.775102E-002	-2.615140E-002	3.379419E-001	-7.483353E-002	3.381376E-001	-7.487489E-002	-8.140927E-002	1.185167E-002
5.700000E+008	7.750221E-002	-2.657056E-002	3.375550E-001	-7.604536E-002	3.377951E-001	-7.607946E-002	-8.133082E-002	1.218020E-002
5.800000E+008	7.723457E-002	-2.695665E-002	3.371754E-001	-7.729892E-002	3.374431E-001	-7.730599E-002	-8.123198E-002	1.250852E-002
5.900000E+008	7.698453E-002	-2.740124E-002	3.367790E-001	-7.854654E-002	3.370728E-001	-7.858146E-002	-8.115983E-002	1.286237E-002
6.000000E+008	7.676512E-002	-2.780742E-002	3.363745E-001	-7.976481E-002	3.366667E-001	-7.982832E-002	-8.103985E-002	1.314353E-002
6.100000E+008	7.654894E-002	-2.821825E-002	3.359779E-001	-8.096107E-002	3.362060E-001	-8.103529E-002	-8.096575E-002	1.344093E-002
6.200000E+008	7.635571E-002	-2.860033E-002	3.355494E-001	-8.215981E-002	3.358094E-001	-8.222260E-002	-8.087943E-002	1.374191E-002
6.300000E+008	7.617141E-002	-2.895939E-002	3.351298E-001	-8.336056E-002	3.354078E-001	-8.342711E-002	-8.076882E-002	1.401253E-002
6.400000E+008	7.600842E-002	-2.930109E-002	3.347459E-001	-8.456681E-002	3.349932E-001	-8.463573E-002	-8.064705E-002	1.433367E-002
6.500000E+008	7.581671E-002	-2.961578E-002	3.343434E-001	-8.574975E-002	3.345862E-001	-8.581096E-002	-8.053707E-002	1.466714E-002
6.600000E+008	7.557309E-002	-2.995059E-002	3.339618E-001	-8.698469E-002	3.341859E-001	-8.705016E-002	-8.041494E-002	1.499654E-002
6.700000E+008	7.528835E-002	-3.024763E-002	3.335223E-001	-8.818243E-002	3.337383E-001	-8.824339E-002	-8.034460E-002	1.532946E-002
6.800000E+008	7.497484E-002	-3.054296E-002	3.331009E-001	-8.937708E-002	3.333209E-001	-8.944938E-002	-8.025150E-002	1.571249E-002
6.900000E+008	7.465825E-002	-3.082163E-002	3.326334E-001	-9.055950E-002	3.328616E-001	-9.059367E-002	-8.017330E-002	1.609392E-002
7.000000E+008	7.438158E-002	-3.111835E-002	3.322177E-001	-9.174093E-002	3.324553E-001	-9.176420E-002	-8.013026E-002	1.642967E-002
7.100000E+008	7.408360E-002	-3.145308E-002	3.317834E-001	-9.290281E-002	3.320469E-001	-9.298079E-002	-8.009311E-002	1.677118E-002
7.200000E+008	7.378856E-002	-3.179250E-002	3.313543E-001	-9.407571E-002	3.316288E-001	-9.415240E-002	-8.004912E-002	1.706550E-002
7.300000E+008	7.348306E-002	-3.214113E-002	3.308970E-001	-9.526267E-002	3.311787E-001	-9.534623E-002	-8.002200E-002	1.731170E-002
7.400000E+008	7.316546E-002	-3.247123E-002	3.304530E-001	-9.645395E-002	3.307523E-001	-9.652433E-002	-7.999869E-002	1.759001E-002
7.500000E+008	7.289283E-002	-3.280675E-002	3.299942E-001	-9.762494E-002	3.302972E-001	-9.773253E-002	-7.995603E-002	1.783631E-002
7.600000E+008	7.259508E-002	-3.315324E-002	3.295574E-001	-9.878970E-002	3.298332E-001	-9.888712E-002	-7.988792E-002	1.810891E-002
7.700000E+008	7.227592E-002	-3.350986E-002	3.291064E-001	-9.995555E-002	3.293865E-001	-1.000357E-001	-7.981845E-002	1.832339E-002
7.800000E+008	7.197737E-002	-3.383416E-002	3.286537E-001	-1.011194E-001	3.289376E-001	-1.012090E-001	-7.975016E-002	1.857145E-002
7.900000E+008	7.166917E-002	-3.421364E-002	3.281941E-001	-1.022781E-001	3.284978E-001	-1.024135E-001	-7.967561E-002	1.882578E-002
8.000000E+008	7.138416E-002	-3.459066E-002	3.277053E-001	-1.034487E-001	3.279924E-001	-1.035473E-001	-7.958175E-002	1.911882E-002
8.100000E+008	7.111292E-002	-3.494844E-002	3.272527E-001	-1.045901E-001	3.274938E-001	-1.047193E-001	-7.942665E-002	1.941611E-002
8.200000E+008	7.087141E-002	-3.527460E-002	3.267856E-001	-1.057747E-001	3.270279E-001	-1.058286E-001	-7.930157E-002	1.970935E-002
8.300000E+008	7.065796E-002	-3.563727E-002	3.262885E-001	-1.068940E-001	3.265866E-001	-1.069967E-001	-7.920477E-002	2.001016E-002
8.400000E+008	7.044210E-002	-3.594036E-002	3.257994E-001	-1.080289E-001	3.260727E-001	-1.081539E-001	-7.908017E-002	2.031750E-002
8.500000E+008	7.022345E-002	-3.624040E-002	3.253411E-001	-1.091666E-001	3.256149E-001	-1.093122E-001	-7.903783E-002	2.061940E-002
8.600000E+008	6.996857E-002	-3.653699E-002	3.248396E-001	-1.103164E-001	3.251047E-001	-1.104378E-001	-7.896002E-002	2.094299E-002
8.700000E+008	6.972252E-002	-3.677918E-002	3.243750E-001	-1.114721E-001	3.246022E-001	-1.115744E-001	-7.890651E-002	2.122290E-002
8.800000E+008	6.944992E-002	-3.702769E-002	3.238871E-001	-1.126274E-001	3.241299E-001	-1.127079E-001	-7.886325E-002	2.151720E-002
8.900000E+008	6.915163E-002	-3.727594E-002	3.233859E-001	-1.137566E-001	3.236347E-001	-1.138639E-001	-7.877964E-002	2.178227E-002
9.000000E+008	6.885969E-002	-3.754746E-002	3.228299E-001	-1.148874E-001	3.231618E-001	-1.150062E-001	-7.868801E-002	2.206954E-002
9.100000E+008	6.853536E-002	-3.780407E-002	3.223560E-001	-1.160292E-001	3.226601E-001	-1.161305E-001	-7.854370E-002	2.234738E-002
9.200000E+008	6.821510E-002	-3.810157E-002	3.218458E-001	-1.171333E-001	3.221585E-001	-1.172756E-001	-7.839569E-002	2.263723E-002
9.300000E+008	6.791115E-002	-3.839347E-002	3.213435E-001	-1.182663E-001	3.216052E-001	-1.184091E-001	-7.820742E-002	2.290445E-002
9.400000E+008	6.763321E-002	-3.868229E-002	3.208323E-001	-1.193777E-001	3.211265E-001	-1.195156E-001	-7.799880E-002	2.323257E-002
9.500000E+008	6.733222E-002	-3.897005E-002	3.203152E-001	-1.205198E-001	3.205899E-001	-1.206736E-001	-7.777014E-002	2.358373E-002
9.600000E+008	6.706721E-002	-3.922501E-002	3.197819E-001	-1.216632E-001	3.200681E-001	-1.217564E-001	-7.755719E-002	2.392105E-002
9.700000E+008	6.685834E-002	-3.948493E-002	3.192619E-001	-1.227236E-001	3.195593E-001	-1.228810E-001	-7.732456E-002	2.428804E-002
9.800000E+008	6.662556E-002	-3.972505E-002	3.187733E-001	-1.238328E-001	3.190359E-001	-1.240050E-001	-7.713242E-002	2.468903E-002
9.900000E+008	6.640761E-002	-3.996926E-002	3.182480E-001	-1.249617E-001	3.185146E-001	-1.251331E-001	-7.697416E-002	2.504494E-002
1.000000E+009	6.615029E-002	-4.017069E-002	3.177381E-001	-1.260889E-001	3.179596E-001	-1.262346E-001	-7.686983E-002	2.544160E-002
1.010000E+009	6.584549E-002	-4.034953E-002	3.172156E-001	-1.272074E-001	3.174366E-001	-1.273321E-001	-7.675138E-002	2.585230E-002
1.020000E+009	6.555833E-002	-4.052586E-002	3.166565E-001	-1.283080E-001	3.168942E-001	-1.284275E-001	-7.665211E-002	2.624755E-002
1.030000E+009	6.527297E-002	-4.069051E-002	3.160822E-001	-1.294189E-001	3.163506E-001	-1.295391E-001	-7.653609E-002	2.665116E-002
1.040000E+009	6.497297E-002	-4.089571E-002	3.155591E-001	-1.304799E-001	3.158319E-001	-1.306430E-001	-7.642321E-002	2.700988E-002
1.050000E+009	6.468124E-002	-4.113939E-002	3.150425E-001	-1.315907E-001	3.152869E-001	-1.317361E-001	-7.628296E-002	2.740230E-002
1.060000E+009	6.437850E-002	-4.136296E-002	3.144711E-001	-1.326819E-001	3.147347E-001	-1.328094E-001	-7.612986E-002	2.777863E-002
1.070000E+009	6.404784E-002	-4.157774E-002	3.139133E-001	-1.337697E-001	3.141891E-001	-1.338744E-001	-7.598630E-002	2.815403E-002
1.080000E+009	6.377424E-002	-4.180984E-002	3.133521E-001	-1.349079E-001	3.136599E-001	-1.349905E-001	-7.580637E-002	2.853619E-002
1.090000E+009	6.350738E-002	-4.200752E-002	3.127982E-001	-1.359676E-001	3.131129E-001	-1.360797E-001	-7.567140E-002	2.890147E-002
1.100000E+009	6.323734E-002	-4.223772E-002	3.121822E-001	-1.370755E-001	3.125195E-001	-1.371650E-001	-7.554182E-002	2.930546E-002
1.110000E+009	6.299107E-002	-4.242853E-002	3.116375E-001	-1.381391E-001	3.119778E-001	-1.382665E-001	-7.537596E-002	2.965026E-002
1.120000E+009	6.269416E-002	-4.261618E-002	3.110996E-001	-1.392176E-001	3.113910E-001	-1.393682E-001	-7.533219E-002	3.002198E-002
1.130000E+009	6.238528E-002	-4.283070E-002	3.105085E-001	-1.403148E-001	3.108118E-001	-1.404512E-001	-7.522355E-002	3.038406E-002
1.140000E+009	6.207559E-002	-4.300690E-002	3.099529E-001	-1.414066E-001	3.102492E-001	-1.415372E-001	-7.511525E-002	3.079049E-002
1.150000E+009	6.177873E-002	-4.319882E-002	3.093516E-001	-1.424946E-001	3.096353E-001	-1.425990E-001	-7.497706E-002	3.115103E-002
1.160000E+009	6.148043E-002	-4.339298E-002	3.087956E-001	-1.435747E-001	3.090561E-001	-1.437103E-001	-7.484442E-002	3.152389E-002
1.170000E+009	6.116394E-002	-4.359190E-002	3.081870E-001	-1.446324E-001	3.084688E-001	-1.447476E-001	-7.469514E-002	3.191307E-002
1.180000E+009	6.089093E-002	-4.381874E-002	3.075737E-001	-1.457028E-001	3.078781E-001	-1.458260E-001	-7.452763E-002	3.227585E-002
1.190000E+009	6.056974E-002	-4.401182E-002	3.069909E-001	-1.467884E-001	3.072197E-001	-1.469004E-001	-7.435323E-002	3.269971E-002
1.200000E+009	6.026375E-002	-4.421002E-002	3.063886E-001	-1.478476E-001	3.066335E-001	-1.479539E-001	-7.418026E-002	3.309557E-002
1.210000E+009	6.001718E-002	-4.444718E-002	3.057687E-001	-1.489154E-001	3.060188E-001	-1.490524E-001	-7.402448E-002	3.350538E-002
1.220000E+009	5.971802E-002	-4.464813E-002	3.051548E-001	-1.499412E-001	3.054314E-001	-1.500790E-001	-7.389388E-002	3.393039E-002
1.230000E+009	5.944343E-002	-4.483403E-002	3.045362E-001	-1.510313E-001	3.048007E-001	-1.511387E-001	-7.377477E-002	3.428778E-002
1.240000E+009	5.918977E-002	-4.507061E-002	3.039243E-001	-1.520699E-001	3.041787E-001	-1.521793E-001	-7.366977E-002	3.468986E-002
1.250000E+009	5.891539E-002	-4.529909E-002	3.033048E-001	-1.531199E-001	3.036061E-001	-1.532375E-001	-7.356872E-002	3.504475E-002
1.260000E+009	5.860337E-002	-4.548152E-002	3.026609E-001	-1.541808E-001	3.029479E-001	-1.543190E-001	-7.344622E-002	3.537951E-002
1.270000E+009	5.838151E-002	-4.567240E-002	3.020424E-001	-1.552194E-001	3.023050E-001	-1.553403E-001	-7.328583E-002	3.570928E-002
1.280000E+009	5.809199E-002	-4.583370E-002	3.014503E-001	-1.563184E-001	3.017149E-001	-1.563975E-001	-7.314543E-002	3.600649E-002
1.290000E+009	5.781913E-002	-4.599668E-002	3.007717E-001	-1.573734E-001	3.010506E-001	-1.574463E-001	-7.289709E-002	3.632593E-002
1.300000E+009	5.758123E-002	-4.614661E-002	3.001093E-001	-1.583609E-001	3.004324E-001	-1.584952E-001	-7.267258E-002	3.668784E-002
1.310000E+009	5.729742E-002	-4.628539E-002	2.994795E-001	-1.594393E-001	2.997664E-001	-1.595430E-001	-7.244894E-002	3.702697E-002
1.320000E+009	5.699851E-002	-4.642294E-002	2.988275E-001	-1.604818E-001	2.991413E-001	-1.606039E-001	-7.215680E-002	3.744001E-002
1.330000E+009	5.674668E-002	-4.653186E-002	2.981936E-001	-1.614803E-001	2.984936E-001	-1.616562E-001	-7.183255E-002	3.790060E-002
1.340000E+009	5.644538E-002	-4.661840E-002	2.975297E-001	-1.625062E-001	2.978016E-001	-1.626777E-001	-7.158571E-002	3.841005E-002
1.350000E+009	5.614444E-002	-4.673215E-002	2.968808E-001	-1.635681E-001	2.971270E-001	-1.637016E-001	-7.129328E-002	3.891198E-002
1.360000E+009	5.591918E-002	-4.683834E-002	2.961754E-001	-1.645615E-001	2.964894E-001	-1.647461E-001	-7.104771E-002	3.947102E-002
1.370000E+009	5.559114E-002	-4.694556E-002	2.955281E-001	-1.656155E-001	2.958131E-001	-1.657508E-001	-7.085854E-002	4.002002E-002
1.380000E+009	5.531590E-002	-4.708451E-002	2.948368E-001	-1.666151E-001	2.951296E-001	-1.667608E-001	-7.065407E-002	4.052974E-002
1.390000E+009	5.501324E-002	-4.723589E-002	2.941396E-001	-1.676559E-001	2.944257E-001	-1.678122E-001	-7.053118E-002	4.109178E-002
1.400000E+009	5.473919E-002	-4.736509E-002	2.934698E-001	-1.686402E-001	2.937538E-001	-1.688014E-001	-7.034238E-002	4.156610E-002
1.410000E+009	5.442873E-002	-4.748288E-002	2.927873E-001	-1.696764E-001	2.930712E-001	-1.698184E-001	-7.021216E-002	4.210671E-002
1.420000E+009	5.413705E-002	-4.758501E-002	2.920777E-001	-1.706662E-001	2.923880E-001	-1.708016E-001	-7.005498E-002	4.257182E-002
1.430000E+009	5.386532E-002	-4.768098E-002	2.914007E-001	-1.716598E-001	2.916989E-001	-1.718176E-001	-6.986390E-002	4.305685E-002
1.440000E+009	5.357453E-002	-4.780803E-002	2.906863E-001	-1.726614E-001	2.909896E-001	-1.728099E-001	-6.966949E-002	4.349841E-002
1.450000E+009	5.326429E-002	-4.791345E-002	2.899861E-001	-1.736466E-001	2.902909E-001	-1.738002E-001	-6.947519E-002	4.396317E-002
1.460000E+009	5.293857E-002	-4.800884E-002	2.892739E-001	-1.746706E-001	2.895680E-001	-1.748337E-001	-6.925827E-002	4.445744E-002
1.470000E+009	5.265284E-002	-4.812333E-002	2.885897E-001	-1.756502E-001	2.888480E-001	-1.758102E-001	-6.904215E-002	4.497042E-002
1.480000E+009	5.235891E-002	-4.818951E-002	2.878574E-001	-1.766011E-001	2.881283E-001	-1.767763E-001	-6.882585E-002	4.553557E-002
1.490000E+009	5.204501E-002	-4.827475E-002	2.871283E-001	-1.776083E-001	2.874038E-001	-1.777392E-001	-6.857429E-002	4.609450E-002
1.500000E+009	5.176122E-002	-4.839478E-002	2.864149E-001	-1.785954E-001	2.866848E-001	-1.787220E-001	-6.832193E-002	4.662748E-002
