! Device ID: PE43711P
! File Path: z:\PE43711P\CHAR_NOM_04282014\AMB\3p300\LS_ATT_5p75dB\PE43711P_AMB_3p300V_3p000V_0p000V_LS_ATT_5p75dB_S2P_SN_5_A0137A.s2p
! Serial: 5
! Lot: A0137A
! Temp: 25C
! VDD: 3.300
! VSS: 0.000
! Control_Hi: 3.000
! Control_Lo: 0.000
! Attenuation Step: 5.75dB
! Port 1: RF1
! Port 2: RF2
! ThroughPath:1-2
! IDD: 0.0001279692
! ISS: -8.47e-008
!

#  Hz  S   RI  R   50

1.000000E+007	9.505574E-002	-4.177429E-004	4.559092E-001	-2.241562E-003	4.559693E-001	-2.500075E-003	-6.624811E-002	4.750895E-004
2.000000E+007	9.518576E-002	-7.118276E-004	4.558111E-001	-3.813122E-003	4.557941E-001	-3.855670E-003	-6.604256E-002	8.831943E-004
3.000000E+007	9.546208E-002	-1.246451E-003	4.558113E-001	-5.738889E-003	4.558049E-001	-5.767380E-003	-6.574793E-002	1.148927E-003
4.000000E+007	9.555697E-002	-1.779274E-003	4.557988E-001	-7.665961E-003	4.557534E-001	-7.697383E-003	-6.543633E-002	1.414310E-003
5.000000E+007	9.573397E-002	-2.420996E-003	4.557795E-001	-9.761867E-003	4.558292E-001	-9.713137E-003	-6.530343E-002	1.583339E-003
6.000000E+007	9.592223E-002	-3.096504E-003	4.556457E-001	-1.166033E-002	4.557974E-001	-1.164423E-002	-6.515856E-002	1.645794E-003
7.000000E+007	9.601833E-002	-3.803806E-003	4.555334E-001	-1.356009E-002	4.556540E-001	-1.355780E-002	-6.505311E-002	1.691690E-003
8.000000E+007	9.614613E-002	-4.484854E-003	4.554294E-001	-1.539711E-002	4.555573E-001	-1.540385E-002	-6.494983E-002	1.824075E-003
9.000000E+007	9.623612E-002	-5.148023E-003	4.553284E-001	-1.727893E-002	4.554164E-001	-1.730026E-002	-6.481531E-002	1.867361E-003
1.000000E+008	9.629553E-002	-5.788763E-003	4.552388E-001	-1.921849E-002	4.552786E-001	-1.919494E-002	-6.463979E-002	1.906043E-003
1.100000E+008	9.635523E-002	-6.436968E-003	4.550804E-001	-2.116804E-002	4.551710E-001	-2.108244E-002	-6.457239E-002	1.925059E-003
1.200000E+008	9.643472E-002	-7.102131E-003	4.548376E-001	-2.306097E-002	4.549827E-001	-2.301420E-002	-6.460097E-002	1.945367E-003
1.300000E+008	9.648887E-002	-7.837842E-003	4.546815E-001	-2.490619E-002	4.548039E-001	-2.491337E-002	-6.451014E-002	1.899617E-003
1.400000E+008	9.648595E-002	-8.614095E-003	4.545217E-001	-2.680717E-002	4.546175E-001	-2.681832E-002	-6.418269E-002	1.822808E-003
1.500000E+008	9.637387E-002	-9.308303E-003	4.543366E-001	-2.861556E-002	4.543361E-001	-2.863249E-002	-6.392748E-002	1.785422E-003
1.600000E+008	9.619519E-002	-9.858702E-003	4.541786E-001	-3.044869E-002	4.541302E-001	-3.041894E-002	-6.403225E-002	1.836677E-003
1.700000E+008	9.601764E-002	-1.039932E-002	4.539731E-001	-3.242611E-002	4.541347E-001	-3.230629E-002	-6.435598E-002	1.818095E-003
1.800000E+008	9.580600E-002	-1.101039E-002	4.535330E-001	-3.441036E-002	4.539188E-001	-3.428983E-002	-6.460134E-002	1.749539E-003
1.900000E+008	9.565501E-002	-1.173210E-002	4.531997E-001	-3.617589E-002	4.535709E-001	-3.613493E-002	-6.459059E-002	1.657950E-003
2.000000E+008	9.557590E-002	-1.250955E-002	4.529988E-001	-3.797114E-002	4.532732E-001	-3.794610E-002	-6.434551E-002	1.632926E-003
2.100000E+008	9.550868E-002	-1.332716E-002	4.527668E-001	-3.976931E-002	4.530000E-001	-3.975282E-002	-6.407370E-002	1.580418E-003
2.200000E+008	9.541283E-002	-1.406623E-002	4.525694E-001	-4.152658E-002	4.527262E-001	-4.153475E-002	-6.389769E-002	1.553469E-003
2.300000E+008	9.522714E-002	-1.479128E-002	4.522760E-001	-4.336583E-002	4.524130E-001	-4.333132E-002	-6.380286E-002	1.440425E-003
2.400000E+008	9.505617E-002	-1.550508E-002	4.520207E-001	-4.519535E-002	4.521439E-001	-4.517284E-002	-6.375825E-002	1.345197E-003
2.500000E+008	9.483807E-002	-1.620872E-002	4.516891E-001	-4.704798E-002	4.518613E-001	-4.700181E-002	-6.372146E-002	1.175353E-003
2.600000E+008	9.468336E-002	-1.693850E-002	4.513346E-001	-4.889569E-002	4.515445E-001	-4.881343E-002	-6.362156E-002	1.104321E-003
2.700000E+008	9.452919E-002	-1.762948E-002	4.509777E-001	-5.067548E-002	4.512016E-001	-5.064171E-002	-6.345078E-002	1.065554E-003
2.800000E+008	9.439679E-002	-1.827865E-002	4.506227E-001	-5.243375E-002	4.508622E-001	-5.237858E-002	-6.329178E-002	1.062972E-003
2.900000E+008	9.420504E-002	-1.887154E-002	4.503224E-001	-5.418856E-002	4.504923E-001	-5.411073E-002	-6.320383E-002	1.093174E-003
3.000000E+008	9.405305E-002	-1.941605E-002	4.500366E-001	-5.597071E-002	4.502219E-001	-5.589546E-002	-6.310260E-002	1.133949E-003
3.100000E+008	9.386539E-002	-1.995905E-002	4.496772E-001	-5.775823E-002	4.499132E-001	-5.771231E-002	-6.302965E-002	1.211937E-003
3.200000E+008	9.367522E-002	-2.051426E-002	4.493126E-001	-5.957720E-002	4.496013E-001	-5.952933E-002	-6.299551E-002	1.269454E-003
3.300000E+008	9.341253E-002	-2.103989E-002	4.489615E-001	-6.134482E-002	4.492044E-001	-6.140156E-002	-6.294855E-002	1.308022E-003
3.400000E+008	9.307078E-002	-2.160139E-002	4.485434E-001	-6.313974E-002	4.486734E-001	-6.324891E-002	-6.286277E-002	1.277042E-003
3.500000E+008	9.271023E-002	-2.214680E-002	4.481796E-001	-6.494102E-002	4.481475E-001	-6.489772E-002	-6.279263E-002	1.177899E-003
3.600000E+008	9.240075E-002	-2.269546E-002	4.477649E-001	-6.669986E-002	4.477560E-001	-6.651609E-002	-6.271926E-002	1.165288E-003
3.700000E+008	9.209608E-002	-2.327497E-002	4.473155E-001	-6.838529E-002	4.474167E-001	-6.811733E-002	-6.256335E-002	1.126553E-003
3.800000E+008	9.178416E-002	-2.387596E-002	4.469332E-001	-7.010871E-002	4.471481E-001	-6.991758E-002	-6.240956E-002	1.092261E-003
3.900000E+008	9.144622E-002	-2.446743E-002	4.464530E-001	-7.190904E-002	4.467751E-001	-7.172495E-002	-6.222811E-002	1.068726E-003
4.000000E+008	9.116383E-002	-2.510935E-002	4.459766E-001	-7.351198E-002	4.463262E-001	-7.353679E-002	-6.201642E-002	1.075062E-003
4.100000E+008	9.082109E-002	-2.572835E-002	4.455869E-001	-7.514150E-002	4.458839E-001	-7.522127E-002	-6.183391E-002	1.076746E-003
4.200000E+008	9.044528E-002	-2.631688E-002	4.452231E-001	-7.689874E-002	4.454485E-001	-7.689772E-002	-6.170352E-002	1.120108E-003
4.300000E+008	9.017032E-002	-2.684391E-002	4.448309E-001	-7.862599E-002	4.450064E-001	-7.861961E-002	-6.156756E-002	1.200421E-003
4.400000E+008	8.989045E-002	-2.735923E-002	4.443946E-001	-8.035315E-002	4.445891E-001	-8.032902E-002	-6.147902E-002	1.353264E-003
4.500000E+008	8.963297E-002	-2.790754E-002	4.439474E-001	-8.208092E-002	4.441695E-001	-8.206458E-002	-6.138072E-002	1.501913E-003
4.600000E+008	8.934948E-002	-2.843537E-002	4.434727E-001	-8.379905E-002	4.436848E-001	-8.380737E-002	-6.129458E-002	1.677468E-003
4.700000E+008	8.903898E-002	-2.893308E-002	4.429860E-001	-8.547870E-002	4.431738E-001	-8.549191E-002	-6.123192E-002	1.805052E-003
4.800000E+008	8.869392E-002	-2.937283E-002	4.425167E-001	-8.713309E-002	4.426828E-001	-8.710890E-002	-6.122922E-002	1.943921E-003
4.900000E+008	8.830460E-002	-2.985030E-002	4.420590E-001	-8.879475E-002	4.421732E-001	-8.879433E-002	-6.119979E-002	2.081395E-003
5.000000E+008	8.796573E-002	-3.029885E-002	4.415612E-001	-9.049832E-002	4.417449E-001	-9.044896E-002	-6.115904E-002	2.168456E-003
5.100000E+008	8.764137E-002	-3.077988E-002	4.411047E-001	-9.217134E-002	4.413122E-001	-9.208624E-002	-6.106201E-002	2.256939E-003
5.200000E+008	8.726904E-002	-3.133024E-002	4.406239E-001	-9.387590E-002	4.408343E-001	-9.382309E-002	-6.095654E-002	2.326787E-003
5.300000E+008	8.690181E-002	-3.187454E-002	4.401105E-001	-9.554063E-002	4.403414E-001	-9.555043E-002	-6.077853E-002	2.388462E-003
5.400000E+008	8.650397E-002	-3.245010E-002	4.395616E-001	-9.723069E-002	4.398258E-001	-9.721175E-002	-6.066190E-002	2.410453E-003
5.500000E+008	8.613258E-002	-3.291824E-002	4.390783E-001	-9.887923E-002	4.392852E-001	-9.886999E-002	-6.056377E-002	2.534086E-003
5.600000E+008	8.575451E-002	-3.340279E-002	4.385453E-001	-1.005020E-001	4.387105E-001	-1.005272E-001	-6.046480E-002	2.647256E-003
5.700000E+008	8.541734E-002	-3.390523E-002	4.380010E-001	-1.021087E-001	4.382587E-001	-1.021615E-001	-6.046846E-002	2.840705E-003
5.800000E+008	8.506873E-002	-3.437150E-002	4.374772E-001	-1.037918E-001	4.377309E-001	-1.037978E-001	-6.041684E-002	2.981873E-003
5.900000E+008	8.474775E-002	-3.488481E-002	4.369458E-001	-1.054665E-001	4.372543E-001	-1.055041E-001	-6.040286E-002	3.147239E-003
6.000000E+008	8.444127E-002	-3.538511E-002	4.364118E-001	-1.070843E-001	4.366766E-001	-1.071538E-001	-6.032681E-002	3.262812E-003
6.100000E+008	8.414970E-002	-3.588213E-002	4.358391E-001	-1.087188E-001	4.360746E-001	-1.087942E-001	-6.033754E-002	3.389217E-003
6.200000E+008	8.388341E-002	-3.633490E-002	4.352893E-001	-1.102905E-001	4.355463E-001	-1.103774E-001	-6.030450E-002	3.515491E-003
6.300000E+008	8.360315E-002	-3.678766E-002	4.346822E-001	-1.119270E-001	4.349461E-001	-1.119867E-001	-6.026445E-002	3.653036E-003
6.400000E+008	8.333171E-002	-3.723301E-002	4.341439E-001	-1.135116E-001	4.343758E-001	-1.135959E-001	-6.017065E-002	3.805153E-003
6.500000E+008	8.305969E-002	-3.762870E-002	4.336027E-001	-1.151221E-001	4.338310E-001	-1.151853E-001	-6.012363E-002	3.978651E-003
6.600000E+008	8.275129E-002	-3.806755E-002	4.330604E-001	-1.167648E-001	4.332573E-001	-1.168386E-001	-6.004524E-002	4.151079E-003
6.700000E+008	8.234750E-002	-3.841541E-002	4.324672E-001	-1.183559E-001	4.326856E-001	-1.184383E-001	-6.003242E-002	4.331824E-003
6.800000E+008	8.195082E-002	-3.879451E-002	4.318685E-001	-1.199599E-001	4.320893E-001	-1.200321E-001	-6.002636E-002	4.555592E-003
6.900000E+008	8.154377E-002	-3.915944E-002	4.312572E-001	-1.215625E-001	4.314532E-001	-1.216013E-001	-6.001447E-002	4.788074E-003
7.000000E+008	8.116626E-002	-3.951256E-002	4.306622E-001	-1.231655E-001	4.309027E-001	-1.231455E-001	-6.006511E-002	4.979108E-003
7.100000E+008	8.079374E-002	-3.994628E-002	4.300622E-001	-1.246765E-001	4.303222E-001	-1.247710E-001	-6.007229E-002	5.135690E-003
7.200000E+008	8.041544E-002	-4.035915E-002	4.294863E-001	-1.262695E-001	4.297288E-001	-1.263699E-001	-6.009341E-002	5.257312E-003
7.300000E+008	8.001504E-002	-4.078323E-002	4.288462E-001	-1.278440E-001	4.291561E-001	-1.279629E-001	-6.013320E-002	5.352644E-003
7.400000E+008	7.960750E-002	-4.117648E-002	4.282162E-001	-1.294481E-001	4.285304E-001	-1.294983E-001	-6.017434E-002	5.443881E-003
7.500000E+008	7.922865E-002	-4.158627E-002	4.276276E-001	-1.310155E-001	4.279236E-001	-1.310997E-001	-6.021532E-002	5.533286E-003
7.600000E+008	7.882171E-002	-4.200430E-002	4.269881E-001	-1.325956E-001	4.272970E-001	-1.326744E-001	-6.021131E-002	5.625957E-003
7.700000E+008	7.844013E-002	-4.244114E-002	4.263726E-001	-1.341606E-001	4.266861E-001	-1.342375E-001	-6.021535E-002	5.678072E-003
7.800000E+008	7.799755E-002	-4.284221E-002	4.257504E-001	-1.357088E-001	4.260689E-001	-1.357873E-001	-6.021931E-002	5.751270E-003
7.900000E+008	7.760389E-002	-4.330225E-002	4.251269E-001	-1.372592E-001	4.254506E-001	-1.373888E-001	-6.022191E-002	5.869538E-003
8.000000E+008	7.720593E-002	-4.373236E-002	4.244614E-001	-1.388095E-001	4.247612E-001	-1.389127E-001	-6.021525E-002	5.979809E-003
8.100000E+008	7.682689E-002	-4.417191E-002	4.237977E-001	-1.403317E-001	4.240913E-001	-1.404717E-001	-6.014754E-002	6.127648E-003
8.200000E+008	7.649059E-002	-4.456500E-002	4.231679E-001	-1.419165E-001	4.234503E-001	-1.419792E-001	-6.011478E-002	6.253002E-003
8.300000E+008	7.617895E-002	-4.499306E-002	4.224783E-001	-1.434269E-001	4.228129E-001	-1.435264E-001	-6.008772E-002	6.412944E-003
8.400000E+008	7.588416E-002	-4.536932E-002	4.218355E-001	-1.449429E-001	4.221367E-001	-1.450780E-001	-6.006777E-002	6.575414E-003
8.500000E+008	7.556430E-002	-4.572123E-002	4.212027E-001	-1.464766E-001	4.214909E-001	-1.466180E-001	-6.009395E-002	6.704595E-003
8.600000E+008	7.522660E-002	-4.607505E-002	4.205217E-001	-1.480043E-001	4.207776E-001	-1.481394E-001	-6.010011E-002	6.879018E-003
8.700000E+008	7.487082E-002	-4.638009E-002	4.198726E-001	-1.495535E-001	4.201179E-001	-1.496493E-001	-6.010971E-002	7.003107E-003
8.800000E+008	7.447911E-002	-4.669170E-002	4.191778E-001	-1.510731E-001	4.194611E-001	-1.511469E-001	-6.018579E-002	7.144847E-003
8.900000E+008	7.406503E-002	-4.702546E-002	4.184919E-001	-1.525834E-001	4.187897E-001	-1.527038E-001	-6.019242E-002	7.275087E-003
9.000000E+008	7.366194E-002	-4.733449E-002	4.177720E-001	-1.541169E-001	4.180966E-001	-1.542177E-001	-6.018684E-002	7.432968E-003
9.100000E+008	7.324597E-002	-4.766016E-002	4.170734E-001	-1.556320E-001	4.174209E-001	-1.557179E-001	-6.011211E-002	7.537652E-003
9.200000E+008	7.281653E-002	-4.802744E-002	4.163683E-001	-1.571322E-001	4.167306E-001	-1.572521E-001	-6.005057E-002	7.657387E-003
9.300000E+008	7.239888E-002	-4.836018E-002	4.156925E-001	-1.586193E-001	4.159861E-001	-1.587746E-001	-5.994964E-002	7.766405E-003
9.400000E+008	7.202631E-002	-4.870529E-002	4.149851E-001	-1.601045E-001	4.153288E-001	-1.602625E-001	-5.983716E-002	7.945028E-003
9.500000E+008	7.160165E-002	-4.903803E-002	4.142858E-001	-1.616324E-001	4.145887E-001	-1.617905E-001	-5.970991E-002	8.138210E-003
9.600000E+008	7.125822E-002	-4.932701E-002	4.135470E-001	-1.631237E-001	4.138774E-001	-1.632485E-001	-5.958427E-002	8.356642E-003
9.700000E+008	7.093052E-002	-4.962455E-002	4.128144E-001	-1.645865E-001	4.131470E-001	-1.647460E-001	-5.945191E-002	8.568358E-003
9.800000E+008	7.061688E-002	-4.991952E-002	4.121492E-001	-1.660581E-001	4.124475E-001	-1.662305E-001	-5.934922E-002	8.794891E-003
9.900000E+008	7.026311E-002	-5.020798E-002	4.114316E-001	-1.675538E-001	4.117171E-001	-1.677329E-001	-5.931482E-002	9.010638E-003
1.000000E+009	6.990729E-002	-5.045027E-002	4.106984E-001	-1.690085E-001	4.109619E-001	-1.692017E-001	-5.929084E-002	9.267979E-003
1.010000E+009	6.948636E-002	-5.068872E-002	4.099768E-001	-1.705268E-001	4.102326E-001	-1.706861E-001	-5.927269E-002	9.527267E-003
1.020000E+009	6.908599E-002	-5.090797E-002	4.092471E-001	-1.720064E-001	4.094715E-001	-1.721428E-001	-5.927504E-002	9.805841E-003
1.030000E+009	6.871220E-002	-5.110577E-002	4.084312E-001	-1.734815E-001	4.087260E-001	-1.736185E-001	-5.924582E-002	1.005416E-002
1.040000E+009	6.832804E-002	-5.134486E-002	4.076942E-001	-1.749065E-001	4.080130E-001	-1.750795E-001	-5.923529E-002	1.028770E-002
1.050000E+009	6.791444E-002	-5.162389E-002	4.069817E-001	-1.763765E-001	4.072531E-001	-1.765482E-001	-5.918989E-002	1.052750E-002
1.060000E+009	6.749800E-002	-5.189493E-002	4.062284E-001	-1.778510E-001	4.064942E-001	-1.779766E-001	-5.915364E-002	1.076271E-002
1.070000E+009	6.707121E-002	-5.215169E-002	4.054404E-001	-1.792864E-001	4.057701E-001	-1.793959E-001	-5.911639E-002	1.099215E-002
1.080000E+009	6.669951E-002	-5.240350E-002	4.046706E-001	-1.807806E-001	4.050325E-001	-1.808855E-001	-5.905903E-002	1.122174E-002
1.090000E+009	6.631400E-002	-5.265355E-002	4.039034E-001	-1.822260E-001	4.042625E-001	-1.823328E-001	-5.900735E-002	1.144412E-002
1.100000E+009	6.599307E-002	-5.292131E-002	4.030714E-001	-1.836843E-001	4.034640E-001	-1.837688E-001	-5.897368E-002	1.172317E-002
1.110000E+009	6.562622E-002	-5.312866E-002	4.023293E-001	-1.851274E-001	4.026935E-001	-1.852200E-001	-5.893639E-002	1.191125E-002
1.120000E+009	6.523200E-002	-5.336364E-002	4.015602E-001	-1.865429E-001	4.019212E-001	-1.867319E-001	-5.898146E-002	1.215751E-002
1.130000E+009	6.482937E-002	-5.359970E-002	4.007454E-001	-1.879771E-001	4.010936E-001	-1.881464E-001	-5.898379E-002	1.237964E-002
1.140000E+009	6.440409E-002	-5.382383E-002	3.999423E-001	-1.894449E-001	4.003214E-001	-1.895705E-001	-5.897695E-002	1.266222E-002
1.150000E+009	6.400537E-002	-5.403858E-002	3.991432E-001	-1.908769E-001	3.994842E-001	-1.909929E-001	-5.896095E-002	1.289214E-002
1.160000E+009	6.360060E-002	-5.425308E-002	3.983736E-001	-1.923061E-001	3.986962E-001	-1.924549E-001	-5.894432E-002	1.312280E-002
1.170000E+009	6.318815E-002	-5.449983E-002	3.975278E-001	-1.937250E-001	3.978876E-001	-1.938393E-001	-5.889136E-002	1.337062E-002
1.180000E+009	6.280330E-002	-5.475227E-002	3.966789E-001	-1.951455E-001	3.970826E-001	-1.952881E-001	-5.884330E-002	1.361004E-002
1.190000E+009	6.240982E-002	-5.497483E-002	3.958703E-001	-1.965918E-001	3.961844E-001	-1.967220E-001	-5.878706E-002	1.388237E-002
1.200000E+009	6.199593E-002	-5.521424E-002	3.950368E-001	-1.979870E-001	3.953792E-001	-1.981232E-001	-5.874007E-002	1.414870E-002
1.210000E+009	6.162985E-002	-5.545769E-002	3.941965E-001	-1.994003E-001	3.945044E-001	-1.995612E-001	-5.870732E-002	1.441873E-002
1.220000E+009	6.125414E-002	-5.571099E-002	3.933622E-001	-2.007992E-001	3.937230E-001	-2.009401E-001	-5.866852E-002	1.471839E-002
1.230000E+009	6.087837E-002	-5.591468E-002	3.925186E-001	-2.022124E-001	3.928520E-001	-2.023451E-001	-5.867233E-002	1.497542E-002
1.240000E+009	6.051050E-002	-5.618340E-002	3.916569E-001	-2.035979E-001	3.920082E-001	-2.037275E-001	-5.867528E-002	1.521347E-002
1.250000E+009	6.012661E-002	-5.640087E-002	3.907910E-001	-2.050168E-001	3.912025E-001	-2.051630E-001	-5.870696E-002	1.544889E-002
1.260000E+009	5.972113E-002	-5.661621E-002	3.899456E-001	-2.064281E-001	3.902786E-001	-2.065887E-001	-5.871495E-002	1.564243E-002
1.270000E+009	5.937882E-002	-5.683134E-002	3.890787E-001	-2.078063E-001	3.894017E-001	-2.079404E-001	-5.866199E-002	1.585975E-002
1.280000E+009	5.896738E-002	-5.699249E-002	3.882255E-001	-2.092057E-001	3.885750E-001	-2.093337E-001	-5.866485E-002	1.604404E-002
1.290000E+009	5.859659E-002	-5.718302E-002	3.873407E-001	-2.106267E-001	3.877046E-001	-2.107159E-001	-5.854073E-002	1.622833E-002
1.300000E+009	5.825342E-002	-5.732807E-002	3.864395E-001	-2.119562E-001	3.868435E-001	-2.121233E-001	-5.840337E-002	1.643745E-002
1.310000E+009	5.785909E-002	-5.749247E-002	3.855157E-001	-2.133537E-001	3.859157E-001	-2.135003E-001	-5.831951E-002	1.666584E-002
1.320000E+009	5.745576E-002	-5.763313E-002	3.846453E-001	-2.147305E-001	3.850585E-001	-2.149101E-001	-5.815479E-002	1.696704E-002
1.330000E+009	5.709326E-002	-5.774023E-002	3.837680E-001	-2.160895E-001	3.841534E-001	-2.162959E-001	-5.794585E-002	1.733228E-002
1.340000E+009	5.670099E-002	-5.784336E-002	3.828554E-001	-2.174426E-001	3.832204E-001	-2.176323E-001	-5.782321E-002	1.769977E-002
1.350000E+009	5.629040E-002	-5.794860E-002	3.819336E-001	-2.188222E-001	3.822954E-001	-2.189896E-001	-5.768310E-002	1.809597E-002
1.360000E+009	5.595094E-002	-5.807302E-002	3.810014E-001	-2.201682E-001	3.813959E-001	-2.203562E-001	-5.754028E-002	1.855059E-002
1.370000E+009	5.556670E-002	-5.818890E-002	3.801206E-001	-2.215331E-001	3.805068E-001	-2.217084E-001	-5.747093E-002	1.898394E-002
1.380000E+009	5.515605E-002	-5.833384E-002	3.791768E-001	-2.228605E-001	3.795520E-001	-2.230489E-001	-5.740032E-002	1.936763E-002
1.390000E+009	5.479759E-002	-5.847999E-002	3.782468E-001	-2.242224E-001	3.786101E-001	-2.244163E-001	-5.739013E-002	1.981210E-002
1.400000E+009	5.438929E-002	-5.861493E-002	3.773166E-001	-2.255707E-001	3.776682E-001	-2.256924E-001	-5.735433E-002	2.021466E-002
1.410000E+009	5.397263E-002	-5.872050E-002	3.763598E-001	-2.269111E-001	3.767192E-001	-2.270472E-001	-5.733363E-002	2.062348E-002
1.420000E+009	5.360091E-002	-5.882696E-002	3.753919E-001	-2.282104E-001	3.757933E-001	-2.283754E-001	-5.732228E-002	2.098629E-002
1.430000E+009	5.323267E-002	-5.894457E-002	3.744623E-001	-2.295257E-001	3.748545E-001	-2.297220E-001	-5.725222E-002	2.134577E-002
1.440000E+009	5.282625E-002	-5.905287E-002	3.735120E-001	-2.308442E-001	3.738898E-001	-2.310119E-001	-5.720297E-002	2.170936E-002
1.450000E+009	5.242335E-002	-5.913641E-002	3.725166E-001	-2.321591E-001	3.729113E-001	-2.323481E-001	-5.713430E-002	2.204998E-002
1.460000E+009	5.200752E-002	-5.923039E-002	3.715585E-001	-2.335077E-001	3.719362E-001	-2.336753E-001	-5.706692E-002	2.244514E-002
1.470000E+009	5.162706E-002	-5.934180E-002	3.705969E-001	-2.348152E-001	3.709669E-001	-2.349798E-001	-5.697487E-002	2.288116E-002
1.480000E+009	5.124400E-002	-5.939839E-002	3.695891E-001	-2.360623E-001	3.699616E-001	-2.362629E-001	-5.690308E-002	2.334044E-002
1.490000E+009	5.084844E-002	-5.947762E-002	3.686296E-001	-2.373826E-001	3.690102E-001	-2.375266E-001	-5.680306E-002	2.380470E-002
1.500000E+009	5.046862E-002	-5.958262E-002	3.676611E-001	-2.386789E-001	3.679988E-001	-2.388151E-001	-5.667685E-002	2.423674E-002
