! Device ID: PE43711P
! File Path: z:\PE43711P\CHAR_NOM_04282014\AMB\3p300\LS_ATT_2p00dB\PE43711P_AMB_3p300V_3p000V_0p000V_LS_ATT_2p00dB_S2P_SN_5_A0137A.s2p
! Serial: 5
! Lot: A0137A
! Temp: 25C
! VDD: 3.300
! VSS: 0.000
! Control_Hi: 3.000
! Control_Lo: 0.000
! Attenuation Step: 2.00dB
! Port 1: RF1
! Port 2: RF2
! ThroughPath:1-2
! IDD: 0.0001275157
! ISS: -1.42e-007
!

#  Hz  S   RI  R   50

1.000000E+007	1.052254E-001	-5.973303E-004	7.058638E-001	-3.436618E-003	7.060939E-001	-3.606515E-003	2.384911E-002	-2.172853E-004
2.000000E+007	1.053130E-001	-8.246707E-004	7.059482E-001	-5.990094E-003	7.059353E-001	-6.028564E-003	2.392282E-002	-6.875602E-005
3.000000E+007	1.056285E-001	-1.523896E-003	7.059172E-001	-8.995274E-003	7.059252E-001	-9.064309E-003	2.421433E-002	-1.799489E-004
4.000000E+007	1.056653E-001	-2.132294E-003	7.059455E-001	-1.205523E-002	7.058847E-001	-1.210920E-002	2.473892E-002	-3.847298E-004
5.000000E+007	1.060085E-001	-2.906278E-003	7.058734E-001	-1.533122E-002	7.058330E-001	-1.528697E-002	2.503056E-002	-8.183850E-004
6.000000E+007	1.063143E-001	-3.772965E-003	7.057167E-001	-1.834300E-002	7.057679E-001	-1.832597E-002	2.516984E-002	-1.356288E-003
7.000000E+007	1.064151E-001	-4.690167E-003	7.055374E-001	-2.138498E-002	7.055322E-001	-2.137968E-002	2.513983E-002	-1.881222E-003
8.000000E+007	1.066183E-001	-5.562806E-003	7.053607E-001	-2.433201E-002	7.053681E-001	-2.436066E-002	2.514536E-002	-2.249451E-003
9.000000E+007	1.067120E-001	-6.385922E-003	7.052068E-001	-2.733135E-002	7.051540E-001	-2.737712E-002	2.527940E-002	-2.691889E-003
1.000000E+008	1.067865E-001	-7.180571E-003	7.050155E-001	-3.035337E-002	7.049245E-001	-3.035870E-002	2.558869E-002	-3.182985E-003
1.100000E+008	1.068472E-001	-7.949194E-003	7.047819E-001	-3.343577E-002	7.046918E-001	-3.334201E-002	2.565212E-002	-3.705969E-003
1.200000E+008	1.069938E-001	-8.731373E-003	7.044053E-001	-3.642556E-002	7.044185E-001	-3.638211E-002	2.541235E-002	-4.162989E-003
1.300000E+008	1.071022E-001	-9.697926E-003	7.041813E-001	-3.938932E-002	7.041695E-001	-3.939101E-002	2.551833E-002	-4.818311E-003
1.400000E+008	1.071315E-001	-1.085470E-002	7.039217E-001	-4.240089E-002	7.038680E-001	-4.245289E-002	2.611222E-002	-5.544159E-003
1.500000E+008	1.069745E-001	-1.184904E-002	7.036526E-001	-4.533089E-002	7.034528E-001	-4.537646E-002	2.657183E-002	-6.115981E-003
1.600000E+008	1.066269E-001	-1.246401E-002	7.033401E-001	-4.824651E-002	7.030317E-001	-4.823238E-002	2.617993E-002	-6.488630E-003
1.700000E+008	1.061700E-001	-1.296730E-002	7.030150E-001	-5.137504E-002	7.028909E-001	-5.113806E-002	2.526259E-002	-6.995496E-003
1.800000E+008	1.057839E-001	-1.364881E-002	7.022844E-001	-5.445732E-002	7.024588E-001	-5.425032E-002	2.453262E-002	-7.626003E-003
1.900000E+008	1.056489E-001	-1.464378E-002	7.017906E-001	-5.727894E-002	7.019816E-001	-5.720017E-002	2.449564E-002	-8.260500E-003
2.000000E+008	1.056928E-001	-1.576101E-002	7.014676E-001	-6.016843E-002	7.015713E-001	-6.010098E-002	2.491874E-002	-8.754132E-003
2.100000E+008	1.057592E-001	-1.689646E-002	7.011158E-001	-6.304301E-002	7.011240E-001	-6.300353E-002	2.540329E-002	-9.179382E-003
2.200000E+008	1.057109E-001	-1.788994E-002	7.007671E-001	-6.583566E-002	7.006932E-001	-6.587066E-002	2.563365E-002	-9.601049E-003
2.300000E+008	1.054733E-001	-1.880114E-002	7.002871E-001	-6.871632E-002	7.002281E-001	-6.875100E-002	2.564050E-002	-1.013252E-002
2.400000E+008	1.052158E-001	-1.969291E-002	6.998053E-001	-7.162058E-002	6.997049E-001	-7.163400E-002	2.551569E-002	-1.076929E-002
2.500000E+008	1.049207E-001	-2.058832E-002	6.992589E-001	-7.455740E-002	6.991803E-001	-7.452606E-002	2.535054E-002	-1.151664E-002
2.600000E+008	1.046397E-001	-2.155457E-002	6.987146E-001	-7.750173E-002	6.986458E-001	-7.743152E-002	2.528728E-002	-1.218485E-002
2.700000E+008	1.043896E-001	-2.243784E-002	6.980964E-001	-8.036076E-002	6.980901E-001	-8.030547E-002	2.529799E-002	-1.272846E-002
2.800000E+008	1.041929E-001	-2.327740E-002	6.975173E-001	-8.312686E-002	6.975369E-001	-8.306092E-002	2.534749E-002	-1.319016E-002
2.900000E+008	1.039138E-001	-2.395767E-002	6.970081E-001	-8.587240E-002	6.969032E-001	-8.581059E-002	2.532551E-002	-1.357194E-002
3.000000E+008	1.037645E-001	-2.463241E-002	6.964939E-001	-8.872059E-002	6.964446E-001	-8.862303E-002	2.532015E-002	-1.396356E-002
3.100000E+008	1.035309E-001	-2.527992E-002	6.959379E-001	-9.149407E-002	6.959226E-001	-9.146389E-002	2.533306E-002	-1.431456E-002
3.200000E+008	1.032935E-001	-2.603000E-002	6.953218E-001	-9.434239E-002	6.953891E-001	-9.431272E-002	2.527718E-002	-1.472680E-002
3.300000E+008	1.029569E-001	-2.671206E-002	6.947555E-001	-9.712668E-002	6.947921E-001	-9.725716E-002	2.518884E-002	-1.519206E-002
3.400000E+008	1.025062E-001	-2.741136E-002	6.941051E-001	-1.000055E-001	6.939463E-001	-1.001717E-001	2.512120E-002	-1.571094E-002
3.500000E+008	1.020071E-001	-2.807903E-002	6.934585E-001	-1.028519E-001	6.931236E-001	-1.027975E-001	2.505956E-002	-1.629679E-002
3.600000E+008	1.016315E-001	-2.872917E-002	6.927993E-001	-1.056412E-001	6.924695E-001	-1.053491E-001	2.500102E-002	-1.670322E-002
3.700000E+008	1.012847E-001	-2.944561E-002	6.920336E-001	-1.082686E-001	6.919299E-001	-1.079127E-001	2.509497E-002	-1.712514E-002
3.800000E+008	1.008825E-001	-3.018236E-002	6.914147E-001	-1.109805E-001	6.914493E-001	-1.107386E-001	2.517374E-002	-1.762720E-002
3.900000E+008	1.004231E-001	-3.088434E-002	6.906293E-001	-1.138004E-001	6.907678E-001	-1.135561E-001	2.522229E-002	-1.816078E-002
4.000000E+008	1.000571E-001	-3.165453E-002	6.898745E-001	-1.163586E-001	6.900691E-001	-1.163822E-001	2.524039E-002	-1.862134E-002
4.100000E+008	9.951030E-002	-3.243978E-002	6.892101E-001	-1.189584E-001	6.892846E-001	-1.190931E-001	2.520333E-002	-1.904165E-002
4.200000E+008	9.892032E-002	-3.309904E-002	6.886366E-001	-1.216889E-001	6.885560E-001	-1.217092E-001	2.516867E-002	-1.942722E-002
4.300000E+008	9.854960E-002	-3.369555E-002	6.879427E-001	-1.244385E-001	6.878183E-001	-1.244347E-001	2.512304E-002	-1.983713E-002
4.400000E+008	9.820716E-002	-3.430792E-002	6.872026E-001	-1.271598E-001	6.871171E-001	-1.270924E-001	2.507376E-002	-2.013676E-002
4.500000E+008	9.786896E-002	-3.499967E-002	6.864828E-001	-1.298416E-001	6.863899E-001	-1.298136E-001	2.505282E-002	-2.044870E-002
4.600000E+008	9.749755E-002	-3.567614E-002	6.857014E-001	-1.325672E-001	6.856502E-001	-1.325295E-001	2.494977E-002	-2.071148E-002
4.700000E+008	9.704977E-002	-3.624564E-002	6.849042E-001	-1.352021E-001	6.848310E-001	-1.351717E-001	2.478312E-002	-2.098252E-002
4.800000E+008	9.655651E-002	-3.675642E-002	6.841412E-001	-1.378009E-001	6.840503E-001	-1.377113E-001	2.460241E-002	-2.118972E-002
4.900000E+008	9.604282E-002	-3.727605E-002	6.833789E-001	-1.404381E-001	6.832333E-001	-1.404147E-001	2.443144E-002	-2.140176E-002
5.000000E+008	9.564064E-002	-3.776343E-002	6.825774E-001	-1.430858E-001	6.824826E-001	-1.429798E-001	2.431294E-002	-2.168003E-002
5.100000E+008	9.522138E-002	-3.836914E-002	6.817930E-001	-1.457151E-001	6.817706E-001	-1.455641E-001	2.427495E-002	-2.197696E-002
5.200000E+008	9.475304E-002	-3.906812E-002	6.809974E-001	-1.483567E-001	6.809884E-001	-1.482383E-001	2.422886E-002	-2.239764E-002
5.300000E+008	9.423808E-002	-3.975538E-002	6.801977E-001	-1.509904E-001	6.801824E-001	-1.509363E-001	2.426138E-002	-2.281789E-002
5.400000E+008	9.366712E-002	-4.047994E-002	6.793271E-001	-1.536434E-001	6.793698E-001	-1.536058E-001	2.416238E-002	-2.325728E-002
5.500000E+008	9.315652E-002	-4.097427E-002	6.784929E-001	-1.562559E-001	6.784433E-001	-1.561917E-001	2.406533E-002	-2.353177E-002
5.600000E+008	9.268732E-002	-4.148514E-002	6.776180E-001	-1.588382E-001	6.775680E-001	-1.587807E-001	2.396533E-002	-2.380111E-002
5.700000E+008	9.228471E-002	-4.201214E-002	6.767052E-001	-1.613477E-001	6.767449E-001	-1.613392E-001	2.376523E-002	-2.399076E-002
5.800000E+008	9.184226E-002	-4.250458E-002	6.758901E-001	-1.639308E-001	6.758809E-001	-1.638807E-001	2.361256E-002	-2.427653E-002
5.900000E+008	9.139302E-002	-4.309811E-002	6.750165E-001	-1.665618E-001	6.750709E-001	-1.665119E-001	2.336896E-002	-2.456638E-002
6.000000E+008	9.098473E-002	-4.365437E-002	6.741231E-001	-1.690963E-001	6.741708E-001	-1.690767E-001	2.319797E-002	-2.490157E-002
6.100000E+008	9.056194E-002	-4.418797E-002	6.732332E-001	-1.716296E-001	6.731977E-001	-1.716457E-001	2.291376E-002	-2.514421E-002
6.200000E+008	9.015921E-002	-4.472588E-002	6.723255E-001	-1.741555E-001	6.723075E-001	-1.741401E-001	2.273185E-002	-2.540118E-002
6.300000E+008	8.981539E-002	-4.524822E-002	6.713792E-001	-1.766827E-001	6.714018E-001	-1.766620E-001	2.260924E-002	-2.565448E-002
6.400000E+008	8.947697E-002	-4.577491E-002	6.704735E-001	-1.792179E-001	6.704429E-001	-1.792124E-001	2.252214E-002	-2.586180E-002
6.500000E+008	8.913104E-002	-4.629673E-002	6.695631E-001	-1.816907E-001	6.695479E-001	-1.817057E-001	2.236707E-002	-2.609067E-002
6.600000E+008	8.866720E-002	-4.683890E-002	6.686831E-001	-1.842254E-001	6.685982E-001	-1.842481E-001	2.223115E-002	-2.631364E-002
6.700000E+008	8.809220E-002	-4.727448E-002	6.677548E-001	-1.867785E-001	6.676857E-001	-1.867590E-001	2.192019E-002	-2.650854E-002
6.800000E+008	8.754858E-002	-4.768962E-002	6.667610E-001	-1.892576E-001	6.667428E-001	-1.892679E-001	2.166669E-002	-2.660335E-002
6.900000E+008	8.697599E-002	-4.807480E-002	6.657644E-001	-1.917559E-001	6.656976E-001	-1.917289E-001	2.139606E-002	-2.671029E-002
7.000000E+008	8.651277E-002	-4.848608E-002	6.648255E-001	-1.942227E-001	6.647744E-001	-1.941473E-001	2.116056E-002	-2.690507E-002
7.100000E+008	8.608571E-002	-4.900341E-002	6.638357E-001	-1.966225E-001	6.638272E-001	-1.966573E-001	2.094074E-002	-2.711414E-002
7.200000E+008	8.558225E-002	-4.952095E-002	6.628878E-001	-1.991285E-001	6.628485E-001	-1.991497E-001	2.073012E-002	-2.746871E-002
7.300000E+008	8.504115E-002	-5.001431E-002	6.618297E-001	-2.015790E-001	6.619578E-001	-2.016395E-001	2.041376E-002	-2.780153E-002
7.400000E+008	8.446242E-002	-5.043982E-002	6.608338E-001	-2.040708E-001	6.609729E-001	-2.040716E-001	2.013007E-002	-2.807027E-002
7.500000E+008	8.398662E-002	-5.087152E-002	6.598965E-001	-2.065291E-001	6.599609E-001	-2.065731E-001	1.985453E-002	-2.834704E-002
7.600000E+008	8.342063E-002	-5.133591E-002	6.588456E-001	-2.090186E-001	6.589306E-001	-2.090119E-001	1.962590E-002	-2.863428E-002
7.700000E+008	8.288964E-002	-5.184375E-002	6.578498E-001	-2.114609E-001	6.579066E-001	-2.114421E-001	1.940835E-002	-2.895391E-002
7.800000E+008	8.226551E-002	-5.230270E-002	6.568115E-001	-2.138642E-001	6.569326E-001	-2.138741E-001	1.911923E-002	-2.928144E-002
7.900000E+008	8.170839E-002	-5.284094E-002	6.558085E-001	-2.162942E-001	6.559123E-001	-2.163514E-001	1.878875E-002	-2.958598E-002
8.000000E+008	8.112405E-002	-5.334624E-002	6.547297E-001	-2.186913E-001	6.548157E-001	-2.187308E-001	1.851194E-002	-2.986696E-002
8.100000E+008	8.059611E-002	-5.382576E-002	6.536542E-001	-2.210692E-001	6.537494E-001	-2.211549E-001	1.827985E-002	-3.003648E-002
8.200000E+008	8.012828E-002	-5.425248E-002	6.526304E-001	-2.235491E-001	6.526701E-001	-2.235093E-001	1.805860E-002	-3.024561E-002
8.300000E+008	7.973795E-002	-5.468952E-002	6.515668E-001	-2.258876E-001	6.516903E-001	-2.259354E-001	1.784905E-002	-3.044257E-002
8.400000E+008	7.934061E-002	-5.509305E-002	6.504807E-001	-2.282865E-001	6.505978E-001	-2.283269E-001	1.760801E-002	-3.063865E-002
8.500000E+008	7.891513E-002	-5.551666E-002	6.494892E-001	-2.306766E-001	6.495313E-001	-2.307248E-001	1.731683E-002	-3.085599E-002
8.600000E+008	7.840164E-002	-5.594498E-002	6.483551E-001	-2.330468E-001	6.483864E-001	-2.330715E-001	1.699255E-002	-3.102317E-002
8.700000E+008	7.783689E-002	-5.626877E-002	6.472901E-001	-2.354521E-001	6.472921E-001	-2.354454E-001	1.668839E-002	-3.121572E-002
8.800000E+008	7.725491E-002	-5.658204E-002	6.461936E-001	-2.378417E-001	6.462426E-001	-2.377980E-001	1.632408E-002	-3.137008E-002
8.900000E+008	7.669438E-002	-5.695501E-002	6.450801E-001	-2.402032E-001	6.451170E-001	-2.401903E-001	1.605899E-002	-3.155650E-002
9.000000E+008	7.616901E-002	-5.729443E-002	6.438869E-001	-2.425692E-001	6.440308E-001	-2.425555E-001	1.580726E-002	-3.173375E-002
9.100000E+008	7.556999E-002	-5.773397E-002	6.427835E-001	-2.449089E-001	6.429064E-001	-2.449046E-001	1.562188E-002	-3.202731E-002
9.200000E+008	7.500792E-002	-5.813612E-002	6.416559E-001	-2.472250E-001	6.418127E-001	-2.472915E-001	1.542699E-002	-3.231546E-002
9.300000E+008	7.440746E-002	-5.849379E-002	6.405565E-001	-2.495723E-001	6.405756E-001	-2.496223E-001	1.521065E-002	-3.252841E-002
9.400000E+008	7.386805E-002	-5.883514E-002	6.393933E-001	-2.518985E-001	6.395454E-001	-2.519489E-001	1.504631E-002	-3.265402E-002
9.500000E+008	7.329181E-002	-5.912170E-002	6.382689E-001	-2.542174E-001	6.383477E-001	-2.543416E-001	1.490166E-002	-3.275353E-002
9.600000E+008	7.283500E-002	-5.941275E-002	6.370770E-001	-2.565395E-001	6.372334E-001	-2.565876E-001	1.479724E-002	-3.280989E-002
9.700000E+008	7.236321E-002	-5.968892E-002	6.358812E-001	-2.588028E-001	6.360495E-001	-2.589040E-001	1.468489E-002	-3.291793E-002
9.800000E+008	7.190825E-002	-6.002411E-002	6.348099E-001	-2.610847E-001	6.348932E-001	-2.612140E-001	1.450259E-002	-3.307780E-002
9.900000E+008	7.139405E-002	-6.034355E-002	6.336528E-001	-2.634204E-001	6.337659E-001	-2.635284E-001	1.417638E-002	-3.318660E-002
1.000000E+009	7.086490E-002	-6.060867E-002	6.324526E-001	-2.656976E-001	6.325309E-001	-2.658058E-001	1.388216E-002	-3.321176E-002
1.010000E+009	7.026454E-002	-6.081184E-002	6.313124E-001	-2.680412E-001	6.313421E-001	-2.680903E-001	1.360387E-002	-3.322102E-002
1.020000E+009	6.970728E-002	-6.098630E-002	6.301534E-001	-2.703367E-001	6.301336E-001	-2.703803E-001	1.335642E-002	-3.322916E-002
1.030000E+009	6.925085E-002	-6.118228E-002	6.288441E-001	-2.726048E-001	6.289597E-001	-2.726340E-001	1.313442E-002	-3.326498E-002
1.040000E+009	6.875021E-002	-6.142510E-002	6.276506E-001	-2.748298E-001	6.277409E-001	-2.749098E-001	1.290190E-002	-3.337206E-002
1.050000E+009	6.815263E-002	-6.178901E-002	6.265088E-001	-2.771204E-001	6.265557E-001	-2.771765E-001	1.261521E-002	-3.346907E-002
1.060000E+009	6.756319E-002	-6.204554E-002	6.252837E-001	-2.793834E-001	6.253767E-001	-2.794053E-001	1.232438E-002	-3.349868E-002
1.070000E+009	6.693742E-002	-6.224456E-002	6.239950E-001	-2.815977E-001	6.241965E-001	-2.816336E-001	1.204917E-002	-3.357409E-002
1.080000E+009	6.645161E-002	-6.247297E-002	6.227864E-001	-2.839015E-001	6.230167E-001	-2.839343E-001	1.178792E-002	-3.357870E-002
1.090000E+009	6.594618E-002	-6.268501E-002	6.215663E-001	-2.861686E-001	6.217884E-001	-2.861564E-001	1.156462E-002	-3.362137E-002
1.100000E+009	6.554274E-002	-6.294354E-002	6.202350E-001	-2.884405E-001	6.204948E-001	-2.883914E-001	1.135777E-002	-3.363800E-002
1.110000E+009	6.507755E-002	-6.319130E-002	6.190595E-001	-2.906477E-001	6.192891E-001	-2.906592E-001	1.108524E-002	-3.381997E-002
1.120000E+009	6.456021E-002	-6.342077E-002	6.178174E-001	-2.928382E-001	6.180369E-001	-2.929317E-001	1.075021E-002	-3.386599E-002
1.130000E+009	6.400204E-002	-6.366669E-002	6.165210E-001	-2.950818E-001	6.167520E-001	-2.951540E-001	1.040464E-002	-3.392022E-002
1.140000E+009	6.338555E-002	-6.382293E-002	6.152670E-001	-2.973257E-001	6.154768E-001	-2.973529E-001	1.006457E-002	-3.391806E-002
1.150000E+009	6.285921E-002	-6.399615E-002	6.139692E-001	-2.995152E-001	6.141410E-001	-2.995738E-001	9.813992E-003	-3.396199E-002
1.160000E+009	6.237171E-002	-6.416736E-002	6.127039E-001	-3.017375E-001	6.129215E-001	-3.017994E-001	9.539703E-003	-3.402701E-002
1.170000E+009	6.184536E-002	-6.440101E-002	6.114006E-001	-3.039582E-001	6.115909E-001	-3.039530E-001	9.350618E-003	-3.404326E-002
1.180000E+009	6.133604E-002	-6.471202E-002	6.100416E-001	-3.061442E-001	6.103294E-001	-3.061967E-001	9.034548E-003	-3.412276E-002
1.190000E+009	6.077722E-002	-6.491139E-002	6.087235E-001	-3.083530E-001	6.089063E-001	-3.083962E-001	8.809225E-003	-3.411457E-002
1.200000E+009	6.018398E-002	-6.508023E-002	6.074187E-001	-3.105389E-001	6.076481E-001	-3.105773E-001	8.514872E-003	-3.410184E-002
1.210000E+009	5.973816E-002	-6.529267E-002	6.060483E-001	-3.127459E-001	6.062969E-001	-3.127858E-001	8.254003E-003	-3.405969E-002
1.220000E+009	5.924389E-002	-6.546308E-002	6.047466E-001	-3.148729E-001	6.049818E-001	-3.149497E-001	7.985573E-003	-3.403170E-002
1.230000E+009	5.879569E-002	-6.562950E-002	6.033644E-001	-3.170743E-001	6.035993E-001	-3.171198E-001	7.658528E-003	-3.404868E-002
1.240000E+009	5.832190E-002	-6.590561E-002	6.020192E-001	-3.192197E-001	6.022343E-001	-3.192705E-001	7.365423E-003	-3.405953E-002
1.250000E+009	5.772602E-002	-6.610361E-002	6.006512E-001	-3.213945E-001	6.009465E-001	-3.214284E-001	7.004418E-003	-3.413526E-002
1.260000E+009	5.717389E-002	-6.627634E-002	5.992681E-001	-3.235542E-001	5.994906E-001	-3.236486E-001	6.620476E-003	-3.421368E-002
1.270000E+009	5.669147E-002	-6.643868E-002	5.978918E-001	-3.256956E-001	5.981256E-001	-3.257350E-001	6.322852E-003	-3.422940E-002
1.280000E+009	5.611840E-002	-6.654038E-002	5.965455E-001	-3.278696E-001	5.967901E-001	-3.278684E-001	6.032433E-003	-3.428370E-002
1.290000E+009	5.558936E-002	-6.663902E-002	5.951221E-001	-3.300296E-001	5.953813E-001	-3.299859E-001	5.830620E-003	-3.437491E-002
1.300000E+009	5.511560E-002	-6.674015E-002	5.936818E-001	-3.320723E-001	5.940312E-001	-3.321656E-001	5.672197E-003	-3.437465E-002
1.310000E+009	5.456493E-002	-6.683698E-002	5.922710E-001	-3.342453E-001	5.925753E-001	-3.343093E-001	5.422178E-003	-3.438770E-002
1.320000E+009	5.399887E-002	-6.689453E-002	5.908470E-001	-3.363929E-001	5.911755E-001	-3.364256E-001	5.229979E-003	-3.436134E-002
1.330000E+009	5.352218E-002	-6.688384E-002	5.894427E-001	-3.384369E-001	5.897640E-001	-3.385735E-001	5.145554E-003	-3.422821E-002
1.340000E+009	5.298511E-002	-6.687598E-002	5.879729E-001	-3.405125E-001	5.882762E-001	-3.406388E-001	4.950725E-003	-3.403621E-002
1.350000E+009	5.245122E-002	-6.688630E-002	5.865535E-001	-3.426374E-001	5.867843E-001	-3.427311E-001	4.776708E-003	-3.387949E-002
1.360000E+009	5.205605E-002	-6.691399E-002	5.850838E-001	-3.446710E-001	5.854341E-001	-3.448168E-001	4.604043E-003	-3.362910E-002
1.370000E+009	5.155487E-002	-6.698985E-002	5.836702E-001	-3.467743E-001	5.839278E-001	-3.468833E-001	4.371381E-003	-3.343342E-002
1.380000E+009	5.102291E-002	-6.706500E-002	5.821564E-001	-3.488786E-001	5.824685E-001	-3.489579E-001	4.098029E-003	-3.329985E-002
1.390000E+009	5.053868E-002	-6.717631E-002	5.806925E-001	-3.509530E-001	5.809724E-001	-3.510654E-001	3.760179E-003	-3.304369E-002
1.400000E+009	4.999329E-002	-6.720470E-002	5.792071E-001	-3.529975E-001	5.794836E-001	-3.530509E-001	3.483514E-003	-3.283522E-002
1.410000E+009	4.949806E-002	-6.717804E-002	5.777435E-001	-3.550828E-001	5.779818E-001	-3.551278E-001	3.145603E-003	-3.260630E-002
1.420000E+009	4.902288E-002	-6.722049E-002	5.761984E-001	-3.570897E-001	5.765260E-001	-3.571548E-001	2.848617E-003	-3.240545E-002
1.430000E+009	4.859177E-002	-6.726422E-002	5.747011E-001	-3.590936E-001	5.750370E-001	-3.592337E-001	2.611557E-003	-3.225857E-002
1.440000E+009	4.807699E-002	-6.727595E-002	5.732061E-001	-3.611167E-001	5.735196E-001	-3.612023E-001	2.349283E-003	-3.211238E-002
1.450000E+009	4.758680E-002	-6.727670E-002	5.716713E-001	-3.631282E-001	5.720160E-001	-3.632743E-001	2.038246E-003	-3.193711E-002
1.460000E+009	4.707139E-002	-6.726613E-002	5.701256E-001	-3.651912E-001	5.704081E-001	-3.653133E-001	1.752061E-003	-3.174649E-002
1.470000E+009	4.658638E-002	-6.725319E-002	5.686461E-001	-3.671715E-001	5.689252E-001	-3.673039E-001	1.471484E-003	-3.144651E-002
1.480000E+009	4.610134E-002	-6.717427E-002	5.670699E-001	-3.691438E-001	5.673406E-001	-3.692664E-001	1.218603E-003	-3.111381E-002
1.490000E+009	4.565885E-002	-6.712950E-002	5.655425E-001	-3.711021E-001	5.658408E-001	-3.712187E-001	9.693054E-004	-3.081297E-002
1.500000E+009	4.523210E-002	-6.713970E-002	5.640099E-001	-3.730949E-001	5.642777E-001	-3.731942E-001	7.847474E-004	-3.058017E-002
