! Device ID: PE43711P
! File Path: z:\PE43711P\CHAR_NOM_04282014\AMB\3p300\LS_ATT_11p00dB\PE43711P_AMB_3p300V_3p000V_0p000V_LS_ATT_11p00dB_S2P_SN_5_A0137A.s2p
! Serial: 5
! Lot: A0137A
! Temp: 25C
! VDD: 3.300
! VSS: 0.000
! Control_Hi: 3.000
! Control_Lo: 0.000
! Attenuation Step: 11.00dB
! Port 1: RF1
! Port 2: RF2
! ThroughPath:1-2
! IDD: 0.0001279692
! ISS: -8.47e-008
!

#  Hz  S   RI  R   50

1.000000E+007	7.438018E-002	-8.524497E-005	2.476394E-001	-1.238463E-003	2.478571E-001	-1.317515E-003	-1.163364E-001	8.972388E-004
2.000000E+007	7.457720E-002	-2.572579E-004	2.476264E-001	-1.933444E-003	2.477683E-001	-1.976605E-003	-1.160568E-001	1.432512E-003
3.000000E+007	7.483092E-002	-5.633893E-004	2.476158E-001	-2.915357E-003	2.477761E-001	-2.932954E-003	-1.157511E-001	1.897225E-003
4.000000E+007	7.496768E-002	-8.970245E-004	2.476176E-001	-3.900798E-003	2.477636E-001	-3.912200E-003	-1.155560E-001	2.410607E-003
5.000000E+007	7.506808E-002	-1.248655E-003	2.476026E-001	-4.970365E-003	2.478174E-001	-4.937435E-003	-1.154914E-001	2.910920E-003
6.000000E+007	7.522353E-002	-1.652283E-003	2.475284E-001	-5.914120E-003	2.477804E-001	-5.920293E-003	-1.153582E-001	3.297781E-003
7.000000E+007	7.532342E-002	-2.068193E-003	2.474529E-001	-6.879862E-003	2.477054E-001	-6.874310E-003	-1.151891E-001	3.678782E-003
8.000000E+007	7.543841E-002	-2.475590E-003	2.474109E-001	-7.794621E-003	2.476426E-001	-7.801501E-003	-1.150483E-001	4.053951E-003
9.000000E+007	7.553570E-002	-2.877223E-003	2.473673E-001	-8.749492E-003	2.475772E-001	-8.763840E-003	-1.149129E-001	4.394751E-003
1.000000E+008	7.562093E-002	-3.271188E-003	2.473260E-001	-9.745394E-003	2.475058E-001	-9.712328E-003	-1.148276E-001	4.722361E-003
1.100000E+008	7.569894E-002	-3.683067E-003	2.472363E-001	-1.072328E-002	2.474527E-001	-1.067135E-002	-1.147514E-001	5.053538E-003
1.200000E+008	7.577681E-002	-4.119180E-003	2.471075E-001	-1.167132E-002	2.473515E-001	-1.166030E-002	-1.146772E-001	5.330934E-003
1.300000E+008	7.584659E-002	-4.552123E-003	2.470338E-001	-1.261340E-002	2.472687E-001	-1.262245E-002	-1.145807E-001	5.605516E-003
1.400000E+008	7.585538E-002	-4.963129E-003	2.469590E-001	-1.355933E-002	2.471738E-001	-1.357104E-002	-1.144218E-001	5.888420E-003
1.500000E+008	7.583106E-002	-5.354522E-003	2.468641E-001	-1.445661E-002	2.470288E-001	-1.448196E-002	-1.142707E-001	6.155055E-003
1.600000E+008	7.578150E-002	-5.689606E-003	2.467992E-001	-1.538013E-002	2.469299E-001	-1.538227E-002	-1.142645E-001	6.429391E-003
1.700000E+008	7.575396E-002	-6.050908E-003	2.467095E-001	-1.639438E-002	2.469511E-001	-1.633459E-002	-1.143128E-001	6.723778E-003
1.800000E+008	7.566164E-002	-6.439256E-003	2.464795E-001	-1.739937E-002	2.468375E-001	-1.735935E-002	-1.143033E-001	6.976891E-003
1.900000E+008	7.557156E-002	-6.874678E-003	2.463123E-001	-1.829436E-002	2.466818E-001	-1.830054E-002	-1.142548E-001	7.186260E-003
2.000000E+008	7.547637E-002	-7.323525E-003	2.462069E-001	-1.920137E-002	2.465270E-001	-1.920962E-002	-1.141529E-001	7.407966E-003
2.100000E+008	7.538998E-002	-7.813724E-003	2.461019E-001	-2.010513E-002	2.463782E-001	-2.010330E-002	-1.140074E-001	7.598443E-003
2.200000E+008	7.530313E-002	-8.272133E-003	2.460040E-001	-2.099453E-002	2.462473E-001	-2.099789E-002	-1.138831E-001	7.752771E-003
2.300000E+008	7.521357E-002	-8.742658E-003	2.458887E-001	-2.191907E-002	2.461051E-001	-2.191749E-002	-1.137710E-001	7.919330E-003
2.400000E+008	7.511697E-002	-9.193076E-003	2.457624E-001	-2.284676E-002	2.459742E-001	-2.283657E-002	-1.136363E-001	8.117586E-003
2.500000E+008	7.501636E-002	-9.623046E-003	2.456076E-001	-2.377540E-002	2.458162E-001	-2.375384E-002	-1.135036E-001	8.299355E-003
2.600000E+008	7.495430E-002	-1.009329E-002	2.454293E-001	-2.471166E-002	2.456484E-001	-2.469729E-002	-1.133268E-001	8.535047E-003
2.700000E+008	7.490485E-002	-1.050977E-002	2.452399E-001	-2.560370E-002	2.454886E-001	-2.562023E-002	-1.131090E-001	8.813487E-003
2.800000E+008	7.486112E-002	-1.091990E-002	2.450775E-001	-2.649501E-002	2.453209E-001	-2.648434E-002	-1.129210E-001	9.065134E-003
2.900000E+008	7.478173E-002	-1.128831E-002	2.449349E-001	-2.737495E-002	2.451455E-001	-2.735404E-002	-1.127909E-001	9.351767E-003
3.000000E+008	7.470709E-002	-1.163293E-002	2.448103E-001	-2.829747E-002	2.450161E-001	-2.825941E-002	-1.126534E-001	9.676801E-003
3.100000E+008	7.460862E-002	-1.196104E-002	2.446457E-001	-2.920212E-002	2.448663E-001	-2.917743E-002	-1.125652E-001	1.001162E-002
3.200000E+008	7.448725E-002	-1.226414E-002	2.444571E-001	-3.013557E-002	2.447052E-001	-3.010932E-002	-1.124681E-001	1.033365E-002
3.300000E+008	7.432933E-002	-1.258219E-002	2.443039E-001	-3.104294E-002	2.445309E-001	-3.106585E-002	-1.123989E-001	1.063074E-002
3.400000E+008	7.410563E-002	-1.292479E-002	2.441045E-001	-3.193397E-002	2.442740E-001	-3.200645E-002	-1.122917E-001	1.087674E-002
3.500000E+008	7.387207E-002	-1.325362E-002	2.439270E-001	-3.284484E-002	2.440062E-001	-3.284207E-002	-1.121659E-001	1.108822E-002
3.600000E+008	7.367797E-002	-1.359497E-002	2.437380E-001	-3.374847E-002	2.438282E-001	-3.364786E-002	-1.120310E-001	1.134038E-002
3.700000E+008	7.346249E-002	-1.396518E-002	2.434952E-001	-3.458825E-002	2.436554E-001	-3.446750E-002	-1.118567E-001	1.154840E-002
3.800000E+008	7.326541E-002	-1.435264E-002	2.433135E-001	-3.547765E-002	2.435433E-001	-3.538523E-002	-1.116770E-001	1.177804E-002
3.900000E+008	7.305756E-002	-1.475219E-002	2.430752E-001	-3.638061E-002	2.433471E-001	-3.630686E-002	-1.114312E-001	1.205929E-002
4.000000E+008	7.290087E-002	-1.519165E-002	2.428389E-001	-3.720724E-002	2.431308E-001	-3.722057E-002	-1.111524E-001	1.233482E-002
4.100000E+008	7.269904E-002	-1.557097E-002	2.426468E-001	-3.800602E-002	2.428994E-001	-3.808607E-002	-1.108940E-001	1.261835E-002
4.200000E+008	7.250818E-002	-1.597560E-002	2.425032E-001	-3.888266E-002	2.426760E-001	-3.891411E-002	-1.106942E-001	1.295634E-002
4.300000E+008	7.235552E-002	-1.632821E-002	2.423115E-001	-3.978178E-002	2.424699E-001	-3.980336E-002	-1.105153E-001	1.332468E-002
4.400000E+008	7.220212E-002	-1.666106E-002	2.420875E-001	-4.067528E-002	2.422885E-001	-4.065871E-002	-1.103420E-001	1.374339E-002
4.500000E+008	7.206765E-002	-1.698764E-002	2.418856E-001	-4.154087E-002	2.420861E-001	-4.156573E-002	-1.101982E-001	1.418178E-002
4.600000E+008	7.189276E-002	-1.734270E-002	2.416558E-001	-4.244081E-002	2.418586E-001	-4.244335E-002	-1.100270E-001	1.461359E-002
4.700000E+008	7.171956E-002	-1.764641E-002	2.414189E-001	-4.327706E-002	2.415966E-001	-4.331883E-002	-1.098907E-001	1.499577E-002
4.800000E+008	7.151683E-002	-1.793917E-002	2.411920E-001	-4.411491E-002	2.413755E-001	-4.412444E-002	-1.097954E-001	1.537139E-002
4.900000E+008	7.127258E-002	-1.824095E-002	2.409860E-001	-4.497833E-002	2.411194E-001	-4.498999E-002	-1.096884E-001	1.575137E-002
5.000000E+008	7.107118E-002	-1.852486E-002	2.407521E-001	-4.582450E-002	2.409188E-001	-4.582535E-002	-1.095656E-001	1.609196E-002
5.100000E+008	7.088556E-002	-1.884630E-002	2.405326E-001	-4.667708E-002	2.407106E-001	-4.666746E-002	-1.094195E-001	1.643831E-002
5.200000E+008	7.064956E-002	-1.917969E-002	2.402859E-001	-4.753997E-002	2.404945E-001	-4.754587E-002	-1.092507E-001	1.677253E-002
5.300000E+008	7.043321E-002	-1.951899E-002	2.400589E-001	-4.838361E-002	2.402598E-001	-4.841956E-002	-1.090271E-001	1.710446E-002
5.400000E+008	7.018089E-002	-1.991057E-002	2.397898E-001	-4.925305E-002	2.400104E-001	-4.928383E-002	-1.088213E-001	1.744320E-002
5.500000E+008	6.995878E-002	-2.021699E-002	2.395560E-001	-5.009395E-002	2.397231E-001	-5.013461E-002	-1.086322E-001	1.781266E-002
5.600000E+008	6.972390E-002	-2.058724E-002	2.393060E-001	-5.092081E-002	2.394515E-001	-5.095237E-002	-1.084422E-001	1.819975E-002
5.700000E+008	6.952648E-002	-2.094012E-002	2.390481E-001	-5.176329E-002	2.392316E-001	-5.179406E-002	-1.083281E-001	1.863359E-002
5.800000E+008	6.932491E-002	-2.126561E-002	2.387950E-001	-5.258244E-002	2.389916E-001	-5.262413E-002	-1.081866E-001	1.905838E-002
5.900000E+008	6.912839E-002	-2.164510E-002	2.385368E-001	-5.346239E-002	2.387327E-001	-5.350891E-002	-1.080500E-001	1.953307E-002
6.000000E+008	6.898931E-002	-2.199171E-002	2.382625E-001	-5.429207E-002	2.384578E-001	-5.435194E-002	-1.079119E-001	1.992404E-002
6.100000E+008	6.881839E-002	-2.232877E-002	2.380054E-001	-5.512315E-002	2.381631E-001	-5.518270E-002	-1.077873E-001	2.032722E-002
6.200000E+008	6.867929E-002	-2.262463E-002	2.377220E-001	-5.593709E-002	2.379183E-001	-5.599498E-002	-1.076308E-001	2.069842E-002
6.300000E+008	6.857621E-002	-2.291143E-002	2.374521E-001	-5.676030E-002	2.376436E-001	-5.680754E-002	-1.074975E-001	2.109590E-002
6.400000E+008	6.843037E-002	-2.318278E-002	2.371807E-001	-5.756942E-002	2.373614E-001	-5.763280E-002	-1.073301E-001	2.148803E-002
6.500000E+008	6.830964E-002	-2.343458E-002	2.369184E-001	-5.839723E-002	2.370878E-001	-5.844549E-002	-1.071725E-001	2.191028E-002
6.600000E+008	6.812376E-002	-2.371226E-002	2.366737E-001	-5.922140E-002	2.368315E-001	-5.928390E-002	-1.070090E-001	2.232222E-002
6.700000E+008	6.790069E-002	-2.393697E-002	2.363781E-001	-6.005409E-002	2.365342E-001	-6.010886E-002	-1.068868E-001	2.276411E-002
6.800000E+008	6.766317E-002	-2.416766E-002	2.361097E-001	-6.085865E-002	2.362622E-001	-6.093609E-002	-1.067413E-001	2.322206E-002
6.900000E+008	6.742249E-002	-2.438642E-002	2.357868E-001	-6.168587E-002	2.359590E-001	-6.173408E-002	-1.066028E-001	2.370731E-002
7.000000E+008	6.720591E-002	-2.462063E-002	2.355194E-001	-6.247534E-002	2.356836E-001	-6.250681E-002	-1.065117E-001	2.413936E-002
7.100000E+008	6.699123E-002	-2.489206E-002	2.352456E-001	-6.326796E-002	2.354115E-001	-6.334936E-002	-1.064399E-001	2.456298E-002
7.200000E+008	6.674524E-002	-2.515391E-002	2.349513E-001	-6.408238E-002	2.351290E-001	-6.416389E-002	-1.063355E-001	2.496584E-002
7.300000E+008	6.649310E-002	-2.544876E-002	2.346440E-001	-6.489752E-002	2.348632E-001	-6.498389E-002	-1.062513E-001	2.532397E-002
7.400000E+008	6.625534E-002	-2.571612E-002	2.343375E-001	-6.571016E-002	2.345542E-001	-6.577572E-002	-1.061994E-001	2.571421E-002
7.500000E+008	6.603307E-002	-2.597961E-002	2.340594E-001	-6.652021E-002	2.342451E-001	-6.659262E-002	-1.061079E-001	2.603844E-002
7.600000E+008	6.580591E-002	-2.627420E-002	2.337577E-001	-6.730051E-002	2.339498E-001	-6.739713E-002	-1.060028E-001	2.639504E-002
7.700000E+008	6.556608E-002	-2.657129E-002	2.334836E-001	-6.810011E-002	2.336661E-001	-6.819392E-002	-1.058797E-001	2.671363E-002
7.800000E+008	6.535181E-002	-2.684865E-002	2.331690E-001	-6.890139E-002	2.333702E-001	-6.899268E-002	-1.057331E-001	2.706766E-002
7.900000E+008	6.510630E-002	-2.717437E-002	2.328896E-001	-6.971328E-002	2.330923E-001	-6.981110E-002	-1.056287E-001	2.740417E-002
8.000000E+008	6.488908E-002	-2.747212E-002	2.325697E-001	-7.050520E-002	2.327466E-001	-7.060221E-002	-1.054614E-001	2.780284E-002
8.100000E+008	6.470016E-002	-2.778830E-002	2.322389E-001	-7.127515E-002	2.324097E-001	-7.137648E-002	-1.052508E-001	2.818137E-002
8.200000E+008	6.452291E-002	-2.806535E-002	2.319351E-001	-7.208856E-002	2.320965E-001	-7.216321E-002	-1.050670E-001	2.857080E-002
8.300000E+008	6.436371E-002	-2.835422E-002	2.316130E-001	-7.287621E-002	2.318028E-001	-7.295547E-002	-1.049069E-001	2.898459E-002
8.400000E+008	6.422614E-002	-2.862567E-002	2.312982E-001	-7.365636E-002	2.314904E-001	-7.372976E-002	-1.047524E-001	2.936331E-002
8.500000E+008	6.406708E-002	-2.886458E-002	2.309951E-001	-7.443409E-002	2.311655E-001	-7.454912E-002	-1.046430E-001	2.975303E-002
8.600000E+008	6.388541E-002	-2.909807E-002	2.306682E-001	-7.522259E-002	2.308447E-001	-7.532407E-002	-1.045122E-001	3.016022E-002
8.700000E+008	6.372796E-002	-2.928734E-002	2.303611E-001	-7.602892E-002	2.305254E-001	-7.611357E-002	-1.043818E-001	3.054295E-002
8.800000E+008	6.352785E-002	-2.949890E-002	2.300306E-001	-7.681779E-002	2.302211E-001	-7.689604E-002	-1.042769E-001	3.091089E-002
8.900000E+008	6.329919E-002	-2.969481E-002	2.297009E-001	-7.757797E-002	2.298860E-001	-7.768259E-002	-1.041471E-001	3.127042E-002
9.000000E+008	6.308507E-002	-2.990014E-002	2.293341E-001	-7.836534E-002	2.295623E-001	-7.847021E-002	-1.039928E-001	3.163580E-002
9.100000E+008	6.282603E-002	-3.012251E-002	2.290385E-001	-7.913933E-002	2.292525E-001	-7.923530E-002	-1.038164E-001	3.198564E-002
9.200000E+008	6.257047E-002	-3.036445E-002	2.287192E-001	-7.990357E-002	2.288964E-001	-8.001784E-002	-1.036040E-001	3.236197E-002
9.300000E+008	6.238220E-002	-3.059702E-002	2.283639E-001	-8.067857E-002	2.285397E-001	-8.080754E-002	-1.033697E-001	3.273162E-002
9.400000E+008	6.217036E-002	-3.083886E-002	2.280191E-001	-8.143482E-002	2.282287E-001	-8.154321E-002	-1.030809E-001	3.313294E-002
9.500000E+008	6.195722E-002	-3.111896E-002	2.276832E-001	-8.222964E-002	2.278715E-001	-8.236684E-002	-1.028096E-001	3.357850E-002
9.600000E+008	6.177118E-002	-3.132192E-002	2.273349E-001	-8.298252E-002	2.275377E-001	-8.309055E-002	-1.025327E-001	3.401061E-002
9.700000E+008	6.162426E-002	-3.152588E-002	2.269820E-001	-8.374464E-002	2.271938E-001	-8.387603E-002	-1.022456E-001	3.445074E-002
9.800000E+008	6.144780E-002	-3.173381E-002	2.266803E-001	-8.449306E-002	2.268416E-001	-8.465484E-002	-1.020103E-001	3.491780E-002
9.900000E+008	6.130902E-002	-3.191627E-002	2.263409E-001	-8.528205E-002	2.265134E-001	-8.543644E-002	-1.017937E-001	3.539167E-002
1.000000E+009	6.111188E-002	-3.208622E-002	2.259810E-001	-8.604846E-002	2.261490E-001	-8.618699E-002	-1.016269E-001	3.584794E-002
1.010000E+009	6.091083E-002	-3.223008E-002	2.256494E-001	-8.682527E-002	2.258237E-001	-8.693259E-002	-1.014346E-001	3.634412E-002
1.020000E+009	6.067725E-002	-3.237850E-002	2.252933E-001	-8.759953E-002	2.254355E-001	-8.768657E-002	-1.012779E-001	3.682363E-002
1.030000E+009	6.047598E-002	-3.252743E-002	2.249044E-001	-8.834199E-002	2.250888E-001	-8.846611E-002	-1.011181E-001	3.729443E-002
1.040000E+009	6.023985E-002	-3.266892E-002	2.245652E-001	-8.908536E-002	2.247293E-001	-8.920626E-002	-1.009305E-001	3.775258E-002
1.050000E+009	6.001150E-002	-3.288420E-002	2.242123E-001	-8.983518E-002	2.243936E-001	-8.996871E-002	-1.007443E-001	3.823078E-002
1.060000E+009	5.980413E-002	-3.304744E-002	2.238564E-001	-9.060525E-002	2.240050E-001	-9.070953E-002	-1.005357E-001	3.866707E-002
1.070000E+009	5.955743E-002	-3.324134E-002	2.234763E-001	-9.135101E-002	2.236485E-001	-9.145101E-002	-1.003303E-001	3.910307E-002
1.080000E+009	5.934866E-002	-3.341737E-002	2.231103E-001	-9.212528E-002	2.233115E-001	-9.222022E-002	-1.000978E-001	3.958860E-002
1.090000E+009	5.914065E-002	-3.360681E-002	2.227289E-001	-9.288007E-002	2.229364E-001	-9.295336E-002	-9.989622E-002	4.002583E-002
1.100000E+009	5.896279E-002	-3.377788E-002	2.223432E-001	-9.361751E-002	2.225480E-001	-9.370372E-002	-9.969883E-002	4.051516E-002
1.110000E+009	5.877221E-002	-3.394022E-002	2.219662E-001	-9.436174E-002	2.221812E-001	-9.447375E-002	-9.948855E-002	4.093638E-002
1.120000E+009	5.855150E-002	-3.411761E-002	2.216211E-001	-9.509865E-002	2.218055E-001	-9.523052E-002	-9.936374E-002	4.138922E-002
1.130000E+009	5.832926E-002	-3.427880E-002	2.212335E-001	-9.584128E-002	2.214273E-001	-9.596887E-002	-9.919996E-002	4.184634E-002
1.140000E+009	5.806670E-002	-3.442487E-002	2.208561E-001	-9.661224E-002	2.210479E-001	-9.671866E-002	-9.903075E-002	4.232917E-002
1.150000E+009	5.783910E-002	-3.459145E-002	2.204473E-001	-9.735801E-002	2.206518E-001	-9.746720E-002	-9.882959E-002	4.274889E-002
1.160000E+009	5.761571E-002	-3.474903E-002	2.200819E-001	-9.810096E-002	2.202594E-001	-9.821738E-002	-9.862776E-002	4.319533E-002
1.170000E+009	5.738490E-002	-3.491375E-002	2.196891E-001	-9.884373E-002	2.198665E-001	-9.891940E-002	-9.840126E-002	4.366263E-002
1.180000E+009	5.717600E-002	-3.510658E-002	2.192666E-001	-9.959204E-002	2.194942E-001	-9.968020E-002	-9.817462E-002	4.410773E-002
1.190000E+009	5.692213E-002	-3.527176E-002	2.188870E-001	-1.003396E-001	2.190439E-001	-1.004036E-001	-9.795308E-002	4.460944E-002
1.200000E+009	5.670323E-002	-3.544959E-002	2.184761E-001	-1.010644E-001	2.186667E-001	-1.011443E-001	-9.769295E-002	4.509511E-002
1.210000E+009	5.651730E-002	-3.565080E-002	2.180876E-001	-1.018062E-001	2.182473E-001	-1.018989E-001	-9.748533E-002	4.558312E-002
1.220000E+009	5.629360E-002	-3.582901E-002	2.176847E-001	-1.025312E-001	2.178515E-001	-1.026181E-001	-9.730061E-002	4.604279E-002
1.230000E+009	5.609118E-002	-3.599939E-002	2.172741E-001	-1.032590E-001	2.174501E-001	-1.033617E-001	-9.711975E-002	4.650033E-002
1.240000E+009	5.588882E-002	-3.620399E-002	2.168593E-001	-1.039714E-001	2.170426E-001	-1.040663E-001	-9.694618E-002	4.694488E-002
1.250000E+009	5.569880E-002	-3.638374E-002	2.164599E-001	-1.047406E-001	2.166625E-001	-1.048059E-001	-9.676322E-002	4.740182E-002
1.260000E+009	5.548461E-002	-3.656716E-002	2.160319E-001	-1.054307E-001	2.162181E-001	-1.055524E-001	-9.656388E-002	4.779423E-002
1.270000E+009	5.532842E-002	-3.672157E-002	2.156297E-001	-1.061619E-001	2.157959E-001	-1.062596E-001	-9.636161E-002	4.819911E-002
1.280000E+009	5.512170E-002	-3.688154E-002	2.152435E-001	-1.069068E-001	2.154229E-001	-1.070043E-001	-9.614059E-002	4.858058E-002
1.290000E+009	5.494588E-002	-3.701794E-002	2.148161E-001	-1.076483E-001	2.149866E-001	-1.077253E-001	-9.584133E-002	4.896405E-002
1.300000E+009	5.475633E-002	-3.711744E-002	2.143613E-001	-1.083460E-001	2.145576E-001	-1.084377E-001	-9.555118E-002	4.938970E-002
1.310000E+009	5.457928E-002	-3.727196E-002	2.139294E-001	-1.090716E-001	2.141604E-001	-1.091913E-001	-9.524684E-002	4.980604E-002
1.320000E+009	5.435542E-002	-3.737240E-002	2.134901E-001	-1.098014E-001	2.137144E-001	-1.099078E-001	-9.489652E-002	5.028319E-002
1.330000E+009	5.417691E-002	-3.747233E-002	2.130838E-001	-1.105107E-001	2.132876E-001	-1.106419E-001	-9.451902E-002	5.082856E-002
1.340000E+009	5.394919E-002	-3.756203E-002	2.126293E-001	-1.112181E-001	2.128256E-001	-1.113562E-001	-9.416670E-002	5.138940E-002
1.350000E+009	5.371426E-002	-3.766299E-002	2.122004E-001	-1.119511E-001	2.123693E-001	-1.120592E-001	-9.383877E-002	5.197085E-002
1.360000E+009	5.353146E-002	-3.777363E-002	2.117545E-001	-1.126530E-001	2.119423E-001	-1.127767E-001	-9.350800E-002	5.259369E-002
1.370000E+009	5.331106E-002	-3.786632E-002	2.113142E-001	-1.133698E-001	2.114989E-001	-1.134836E-001	-9.325544E-002	5.319123E-002
1.380000E+009	5.309390E-002	-3.798711E-002	2.108576E-001	-1.140545E-001	2.110614E-001	-1.141881E-001	-9.299932E-002	5.377208E-002
1.390000E+009	5.289072E-002	-3.810643E-002	2.103988E-001	-1.147927E-001	2.105964E-001	-1.149091E-001	-9.277270E-002	5.439912E-002
1.400000E+009	5.266591E-002	-3.822682E-002	2.099374E-001	-1.154823E-001	2.101360E-001	-1.155734E-001	-9.253988E-002	5.496183E-002
1.410000E+009	5.244374E-002	-3.833272E-002	2.094979E-001	-1.161849E-001	2.096657E-001	-1.162866E-001	-9.233640E-002	5.554163E-002
1.420000E+009	5.219373E-002	-3.842741E-002	2.090192E-001	-1.168767E-001	2.092488E-001	-1.169816E-001	-9.210580E-002	5.607128E-002
1.430000E+009	5.202219E-002	-3.852574E-002	2.085634E-001	-1.175664E-001	2.087776E-001	-1.176910E-001	-9.184856E-002	5.660046E-002
1.440000E+009	5.179302E-002	-3.864134E-002	2.080955E-001	-1.182637E-001	2.082920E-001	-1.183816E-001	-9.156388E-002	5.710439E-002
1.450000E+009	5.154736E-002	-3.873184E-002	2.076275E-001	-1.189734E-001	2.078184E-001	-1.191006E-001	-9.130719E-002	5.764545E-002
1.460000E+009	5.130602E-002	-3.883116E-002	2.071624E-001	-1.196655E-001	2.073411E-001	-1.197780E-001	-9.101404E-002	5.816459E-002
1.470000E+009	5.106326E-002	-3.892655E-002	2.066824E-001	-1.203684E-001	2.068761E-001	-1.204773E-001	-9.072564E-002	5.876316E-002
1.480000E+009	5.082212E-002	-3.899493E-002	2.061810E-001	-1.210242E-001	2.063664E-001	-1.211369E-001	-9.043677E-002	5.935806E-002
1.490000E+009	5.061586E-002	-3.909908E-002	2.057379E-001	-1.217022E-001	2.059211E-001	-1.218124E-001	-9.011488E-002	5.996993E-002
1.500000E+009	5.038350E-002	-3.921246E-002	2.052487E-001	-1.223902E-001	2.054290E-001	-1.224831E-001	-8.979996E-002	6.057480E-002
