! Device ID: PE43711P
! File Path: z:\PE43711P\CHAR_NOM_04282014\AMB\3p300\LS_ATT_2p75dB\PE43711P_AMB_3p300V_3p000V_0p000V_LS_ATT_2p75dB_S2P_SN_5_A0137A.s2p
! Serial: 5
! Lot: A0137A
! Temp: 25C
! VDD: 3.300
! VSS: 0.000
! Control_Hi: 3.000
! Control_Lo: 0.000
! Attenuation Step: 2.75dB
! Port 1: RF1
! Port 2: RF2
! ThroughPath:1-2
! IDD: 0.000127662
! ISS: -2.49e-008
!

#  Hz  S   RI  R   50

1.000000E+007	1.063767E-001	-6.100745E-004	6.456380E-001	-3.157146E-003	6.458269E-001	-3.293560E-003	1.334544E-002	-9.152414E-005
2.000000E+007	1.064529E-001	-9.310054E-004	6.456048E-001	-5.550313E-003	6.455541E-001	-5.610994E-003	1.345207E-002	6.422091E-005
3.000000E+007	1.067706E-001	-1.616911E-003	6.455924E-001	-8.379672E-003	6.456031E-001	-8.419436E-003	1.375249E-002	-3.010649E-006
4.000000E+007	1.068129E-001	-2.251390E-003	6.455833E-001	-1.117579E-002	6.454977E-001	-1.125572E-002	1.421249E-002	-1.335871E-004
5.000000E+007	1.071093E-001	-3.035535E-003	6.455602E-001	-1.421199E-002	6.454812E-001	-1.418535E-002	1.445670E-002	-4.545263E-004
6.000000E+007	1.073877E-001	-3.917878E-003	6.454015E-001	-1.700234E-002	6.454367E-001	-1.700601E-002	1.459723E-002	-8.964369E-004
7.000000E+007	1.074736E-001	-4.813955E-003	6.452429E-001	-1.981391E-002	6.452182E-001	-1.981609E-002	1.461803E-002	-1.333140E-003
8.000000E+007	1.076461E-001	-5.680542E-003	6.450664E-001	-2.255003E-002	6.450863E-001	-2.256530E-002	1.464294E-002	-1.612998E-003
9.000000E+007	1.077372E-001	-6.507813E-003	6.449039E-001	-2.533996E-002	6.448789E-001	-2.534675E-002	1.477401E-002	-1.972594E-003
1.000000E+008	1.078040E-001	-7.321380E-003	6.447783E-001	-2.815298E-002	6.446804E-001	-2.813394E-002	1.504623E-002	-2.394456E-003
1.100000E+008	1.078691E-001	-8.104242E-003	6.445464E-001	-3.100274E-002	6.444941E-001	-3.090011E-002	1.510066E-002	-2.817207E-003
1.200000E+008	1.079698E-001	-8.891156E-003	6.442117E-001	-3.376542E-002	6.441997E-001	-3.369884E-002	1.493095E-002	-3.211962E-003
1.300000E+008	1.080736E-001	-9.857778E-003	6.439788E-001	-3.650135E-002	6.439792E-001	-3.650262E-002	1.503439E-002	-3.745193E-003
1.400000E+008	1.080864E-001	-1.095546E-002	6.437570E-001	-3.930372E-002	6.436932E-001	-3.935057E-002	1.555596E-002	-4.356747E-003
1.500000E+008	1.079311E-001	-1.193798E-002	6.434907E-001	-4.200303E-002	6.432971E-001	-4.203177E-002	1.596615E-002	-4.839631E-003
1.600000E+008	1.076257E-001	-1.256656E-002	6.432299E-001	-4.469654E-002	6.429189E-001	-4.467673E-002	1.564816E-002	-5.166069E-003
1.700000E+008	1.072393E-001	-1.313289E-002	6.429352E-001	-4.759747E-002	6.428366E-001	-4.738791E-002	1.490150E-002	-5.589451E-003
1.800000E+008	1.069003E-001	-1.384685E-002	6.422874E-001	-5.047546E-002	6.424508E-001	-5.026492E-002	1.430383E-002	-6.139197E-003
1.900000E+008	1.067673E-001	-1.481407E-002	6.418084E-001	-5.306963E-002	6.419968E-001	-5.300049E-002	1.427767E-002	-6.684538E-003
2.000000E+008	1.067545E-001	-1.589031E-002	6.415254E-001	-5.576552E-002	6.416170E-001	-5.568254E-002	1.464378E-002	-7.106468E-003
2.100000E+008	1.067598E-001	-1.700057E-002	6.411970E-001	-5.841127E-002	6.411936E-001	-5.840081E-002	1.507301E-002	-7.490031E-003
2.200000E+008	1.066950E-001	-1.796112E-002	6.408575E-001	-6.103391E-002	6.408360E-001	-6.103051E-002	1.529174E-002	-7.865229E-003
2.300000E+008	1.064681E-001	-1.888796E-002	6.404670E-001	-6.369556E-002	6.404042E-001	-6.370613E-002	1.532417E-002	-8.355677E-003
2.400000E+008	1.062024E-001	-1.977053E-002	6.400375E-001	-6.640925E-002	6.399237E-001	-6.640049E-002	1.524039E-002	-8.897973E-003
2.500000E+008	1.059241E-001	-2.065132E-002	6.395287E-001	-6.912621E-002	6.394417E-001	-6.906419E-002	1.513114E-002	-9.554179E-003
2.600000E+008	1.056776E-001	-2.161174E-002	6.389754E-001	-7.185631E-002	6.389669E-001	-7.173745E-002	1.511996E-002	-1.011665E-002
2.700000E+008	1.054306E-001	-2.247492E-002	6.384369E-001	-7.448741E-002	6.384472E-001	-7.444411E-002	1.519231E-002	-1.058926E-002
2.800000E+008	1.052339E-001	-2.333319E-002	6.379051E-001	-7.707549E-002	6.379350E-001	-7.699900E-002	1.524330E-002	-1.098305E-002
2.900000E+008	1.049752E-001	-2.403004E-002	6.374510E-001	-7.960809E-002	6.373987E-001	-7.954043E-002	1.524782E-002	-1.130458E-002
3.000000E+008	1.048046E-001	-2.472184E-002	6.370091E-001	-8.228176E-002	6.369665E-001	-8.214165E-002	1.527209E-002	-1.165490E-002
3.100000E+008	1.045778E-001	-2.539436E-002	6.364659E-001	-8.486841E-002	6.365021E-001	-8.480326E-002	1.531060E-002	-1.193631E-002
3.200000E+008	1.043510E-001	-2.613828E-002	6.359226E-001	-8.753824E-002	6.359939E-001	-8.744388E-002	1.526661E-002	-1.229277E-002
3.300000E+008	1.039968E-001	-2.683190E-002	6.354272E-001	-9.011879E-002	6.354361E-001	-9.020219E-002	1.523346E-002	-1.268384E-002
3.400000E+008	1.035509E-001	-2.753188E-002	6.347977E-001	-9.276505E-002	6.346533E-001	-9.291309E-002	1.519100E-002	-1.313447E-002
3.500000E+008	1.030773E-001	-2.823147E-002	6.341966E-001	-9.542031E-002	6.338984E-001	-9.535566E-002	1.516372E-002	-1.365609E-002
3.600000E+008	1.026935E-001	-2.889709E-002	6.335904E-001	-9.803176E-002	6.333003E-001	-9.772624E-002	1.513590E-002	-1.403842E-002
3.700000E+008	1.023497E-001	-2.961156E-002	6.328804E-001	-1.004699E-001	6.328153E-001	-1.001208E-001	1.524547E-002	-1.440179E-002
3.800000E+008	1.019715E-001	-3.033951E-002	6.323255E-001	-1.029894E-001	6.323709E-001	-1.027234E-001	1.534014E-002	-1.484327E-002
3.900000E+008	1.015430E-001	-3.108679E-002	6.316263E-001	-1.056227E-001	6.317437E-001	-1.053487E-001	1.544481E-002	-1.529801E-002
4.000000E+008	1.011529E-001	-3.187931E-002	6.309238E-001	-1.080026E-001	6.310830E-001	-1.079942E-001	1.547659E-002	-1.570857E-002
4.100000E+008	1.006423E-001	-3.265285E-002	6.302962E-001	-1.104148E-001	6.303867E-001	-1.105181E-001	1.550189E-002	-1.607373E-002
4.200000E+008	1.000850E-001	-3.335458E-002	6.297608E-001	-1.129531E-001	6.296948E-001	-1.129549E-001	1.550158E-002	-1.640230E-002
4.300000E+008	9.971947E-002	-3.397868E-002	6.291261E-001	-1.155056E-001	6.290507E-001	-1.155063E-001	1.550756E-002	-1.674391E-002
4.400000E+008	9.937388E-002	-3.460835E-002	6.284420E-001	-1.180432E-001	6.284035E-001	-1.179985E-001	1.547624E-002	-1.697050E-002
4.500000E+008	9.905480E-002	-3.529694E-002	6.277748E-001	-1.205610E-001	6.277845E-001	-1.205211E-001	1.550835E-002	-1.724454E-002
4.600000E+008	9.868314E-002	-3.597828E-002	6.270757E-001	-1.230922E-001	6.270551E-001	-1.230485E-001	1.545784E-002	-1.745778E-002
4.700000E+008	9.824375E-002	-3.658002E-002	6.263314E-001	-1.255457E-001	6.262722E-001	-1.255204E-001	1.533555E-002	-1.769218E-002
4.800000E+008	9.778950E-002	-3.711993E-002	6.256268E-001	-1.279558E-001	6.255761E-001	-1.278986E-001	1.521089E-002	-1.786221E-002
4.900000E+008	9.727903E-002	-3.766557E-002	6.249040E-001	-1.304334E-001	6.247994E-001	-1.303928E-001	1.508236E-002	-1.806351E-002
5.000000E+008	9.685639E-002	-3.818643E-002	6.241649E-001	-1.328809E-001	6.241317E-001	-1.327960E-001	1.499845E-002	-1.828486E-002
5.100000E+008	9.644617E-002	-3.882004E-002	6.234559E-001	-1.353278E-001	6.234407E-001	-1.352068E-001	1.499605E-002	-1.854746E-002
5.200000E+008	9.598456E-002	-3.950829E-002	6.227407E-001	-1.377883E-001	6.227280E-001	-1.377163E-001	1.498919E-002	-1.888793E-002
5.300000E+008	9.548680E-002	-4.019684E-002	6.219876E-001	-1.402794E-001	6.219995E-001	-1.402044E-001	1.503186E-002	-1.926598E-002
5.400000E+008	9.492465E-002	-4.092588E-002	6.211597E-001	-1.427507E-001	6.212304E-001	-1.426852E-001	1.498834E-002	-1.964157E-002
5.500000E+008	9.444220E-002	-4.146460E-002	6.203963E-001	-1.451861E-001	6.203975E-001	-1.451219E-001	1.493562E-002	-1.988692E-002
5.600000E+008	9.394370E-002	-4.201652E-002	6.195741E-001	-1.475748E-001	6.195624E-001	-1.475427E-001	1.486619E-002	-2.011760E-002
5.700000E+008	9.356350E-002	-4.257333E-002	6.187763E-001	-1.499375E-001	6.188311E-001	-1.499366E-001	1.472266E-002	-2.026935E-002
5.800000E+008	9.313615E-002	-4.310750E-002	6.179786E-001	-1.523536E-001	6.180378E-001	-1.522931E-001	1.462571E-002	-2.048728E-002
5.900000E+008	9.268484E-002	-4.373900E-002	6.171770E-001	-1.547730E-001	6.172930E-001	-1.547561E-001	1.442793E-002	-2.072706E-002
6.000000E+008	9.226859E-002	-4.430637E-002	6.163417E-001	-1.571512E-001	6.164673E-001	-1.571590E-001	1.431104E-002	-2.100334E-002
6.100000E+008	9.186384E-002	-4.487533E-002	6.155263E-001	-1.595177E-001	6.155492E-001	-1.595633E-001	1.410353E-002	-2.122437E-002
6.200000E+008	9.147158E-002	-4.543584E-002	6.146443E-001	-1.618724E-001	6.147447E-001	-1.619206E-001	1.396924E-002	-2.143541E-002
6.300000E+008	9.111087E-002	-4.598076E-002	6.137961E-001	-1.642450E-001	6.138525E-001	-1.642471E-001	1.387522E-002	-2.165571E-002
6.400000E+008	9.075379E-002	-4.652904E-002	6.129744E-001	-1.665874E-001	6.130220E-001	-1.666149E-001	1.383719E-002	-2.181994E-002
6.500000E+008	9.041089E-002	-4.704379E-002	6.121179E-001	-1.689100E-001	6.121571E-001	-1.689324E-001	1.371232E-002	-2.202068E-002
6.600000E+008	8.994749E-002	-4.761717E-002	6.113052E-001	-1.712847E-001	6.112549E-001	-1.713106E-001	1.361959E-002	-2.220298E-002
6.700000E+008	8.939593E-002	-4.806803E-002	6.104182E-001	-1.736440E-001	6.104267E-001	-1.736762E-001	1.339452E-002	-2.236600E-002
6.800000E+008	8.887113E-002	-4.850153E-002	6.095166E-001	-1.759719E-001	6.095663E-001	-1.760138E-001	1.319988E-002	-2.243961E-002
6.900000E+008	8.831005E-002	-4.890781E-002	6.085703E-001	-1.783196E-001	6.085824E-001	-1.782967E-001	1.299834E-002	-2.251869E-002
7.000000E+008	8.784272E-002	-4.936673E-002	6.076609E-001	-1.806230E-001	6.077334E-001	-1.805596E-001	1.278150E-002	-2.268463E-002
7.100000E+008	8.739545E-002	-4.989711E-002	6.068052E-001	-1.828836E-001	6.068310E-001	-1.829276E-001	1.260779E-002	-2.286646E-002
7.200000E+008	8.687631E-002	-5.042875E-002	6.058968E-001	-1.851976E-001	6.059372E-001	-1.852305E-001	1.244630E-002	-2.315316E-002
7.300000E+008	8.635521E-002	-5.095381E-002	6.049180E-001	-1.875157E-001	6.050852E-001	-1.875862E-001	1.217789E-002	-2.342232E-002
7.400000E+008	8.581262E-002	-5.139499E-002	6.039946E-001	-1.898043E-001	6.041530E-001	-1.898313E-001	1.194261E-002	-2.367849E-002
7.500000E+008	8.531661E-002	-5.186801E-002	6.031183E-001	-1.921273E-001	6.032284E-001	-1.921955E-001	1.172308E-002	-2.390829E-002
7.600000E+008	8.475116E-002	-5.233985E-002	6.021232E-001	-1.944322E-001	6.022859E-001	-1.944664E-001	1.153132E-002	-2.415856E-002
7.700000E+008	8.423319E-002	-5.287612E-002	6.012095E-001	-1.967095E-001	6.013341E-001	-1.967137E-001	1.137326E-002	-2.444996E-002
7.800000E+008	8.364334E-002	-5.335125E-002	6.002171E-001	-1.989778E-001	6.003702E-001	-1.990017E-001	1.113251E-002	-2.473308E-002
7.900000E+008	8.309286E-002	-5.392054E-002	5.992537E-001	-2.012332E-001	5.994372E-001	-2.013079E-001	1.087236E-002	-2.497641E-002
8.000000E+008	8.252219E-002	-5.442836E-002	5.982751E-001	-2.034875E-001	5.984095E-001	-2.035531E-001	1.066355E-002	-2.522907E-002
8.100000E+008	8.199351E-002	-5.495064E-002	5.972745E-001	-2.057141E-001	5.974261E-001	-2.058247E-001	1.047710E-002	-2.539331E-002
8.200000E+008	8.152324E-002	-5.538725E-002	5.963220E-001	-2.080097E-001	5.964488E-001	-2.080155E-001	1.030628E-002	-2.557645E-002
8.300000E+008	8.112634E-002	-5.585315E-002	5.952778E-001	-2.102098E-001	5.954987E-001	-2.102795E-001	1.013983E-002	-2.575279E-002
8.400000E+008	8.071999E-002	-5.628297E-002	5.942846E-001	-2.124401E-001	5.944676E-001	-2.125131E-001	9.966950E-003	-2.589715E-002
8.500000E+008	8.028665E-002	-5.672528E-002	5.933330E-001	-2.146714E-001	5.934742E-001	-2.147412E-001	9.721068E-003	-2.609611E-002
8.600000E+008	7.979298E-002	-5.718048E-002	5.923109E-001	-2.168914E-001	5.923724E-001	-2.169414E-001	9.460541E-003	-2.624924E-002
8.700000E+008	7.925922E-002	-5.754061E-002	5.913101E-001	-2.191228E-001	5.913624E-001	-2.191741E-001	9.213558E-003	-2.640768E-002
8.800000E+008	7.869613E-002	-5.786561E-002	5.902818E-001	-2.213896E-001	5.904264E-001	-2.213343E-001	8.909736E-003	-2.655249E-002
8.900000E+008	7.814617E-002	-5.827898E-002	5.892170E-001	-2.235767E-001	5.893534E-001	-2.236193E-001	8.703865E-003	-2.672109E-002
9.000000E+008	7.759832E-002	-5.864592E-002	5.881097E-001	-2.257603E-001	5.882985E-001	-2.258105E-001	8.491811E-003	-2.685790E-002
9.100000E+008	7.700763E-002	-5.908728E-002	5.870800E-001	-2.279997E-001	5.872766E-001	-2.280102E-001	8.365647E-003	-2.712706E-002
9.200000E+008	7.645818E-002	-5.951262E-002	5.860308E-001	-2.301691E-001	5.862283E-001	-2.302487E-001	8.207220E-003	-2.735709E-002
9.300000E+008	7.587060E-002	-5.989573E-002	5.849542E-001	-2.323309E-001	5.851117E-001	-2.324513E-001	8.083128E-003	-2.756369E-002
9.400000E+008	7.533375E-002	-6.026905E-002	5.839097E-001	-2.344864E-001	5.841207E-001	-2.346132E-001	7.961185E-003	-2.768861E-002
9.500000E+008	7.475929E-002	-6.061451E-002	5.828490E-001	-2.366906E-001	5.830012E-001	-2.368104E-001	7.849667E-003	-2.776548E-002
9.600000E+008	7.428586E-002	-6.092711E-002	5.817133E-001	-2.388516E-001	5.819439E-001	-2.389373E-001	7.792645E-003	-2.780173E-002
9.700000E+008	7.383513E-002	-6.123096E-002	5.806027E-001	-2.409728E-001	5.808401E-001	-2.411132E-001	7.709535E-003	-2.791384E-002
9.800000E+008	7.338456E-002	-6.159580E-002	5.795653E-001	-2.430912E-001	5.797401E-001	-2.432936E-001	7.590920E-003	-2.801166E-002
9.900000E+008	7.288172E-002	-6.193011E-002	5.784885E-001	-2.453000E-001	5.786592E-001	-2.454344E-001	7.332471E-003	-2.809430E-002
1.000000E+009	7.235020E-002	-6.221627E-002	5.774064E-001	-2.474182E-001	5.775140E-001	-2.475718E-001	7.125502E-003	-2.810937E-002
1.010000E+009	7.176477E-002	-6.245589E-002	5.762964E-001	-2.496055E-001	5.764057E-001	-2.497078E-001	6.880639E-003	-2.812374E-002
1.020000E+009	7.121566E-002	-6.269564E-002	5.751907E-001	-2.517455E-001	5.752573E-001	-2.518392E-001	6.683108E-003	-2.812481E-002
1.030000E+009	7.073273E-002	-6.289776E-002	5.739851E-001	-2.538783E-001	5.741312E-001	-2.539657E-001	6.492974E-003	-2.814254E-002
1.040000E+009	7.022212E-002	-6.318280E-002	5.728508E-001	-2.559702E-001	5.730172E-001	-2.560746E-001	6.295127E-003	-2.820555E-002
1.050000E+009	6.963822E-002	-6.354209E-002	5.717605E-001	-2.581129E-001	5.718804E-001	-2.582043E-001	6.064114E-003	-2.829524E-002
1.060000E+009	6.905908E-002	-6.383979E-002	5.706071E-001	-2.602079E-001	5.707794E-001	-2.602804E-001	5.853928E-003	-2.832880E-002
1.070000E+009	6.845839E-002	-6.409541E-002	5.694068E-001	-2.623230E-001	5.696458E-001	-2.623512E-001	5.615072E-003	-2.837664E-002
1.080000E+009	6.795245E-002	-6.437276E-002	5.682447E-001	-2.644349E-001	5.685385E-001	-2.645101E-001	5.437284E-003	-2.838587E-002
1.090000E+009	6.745131E-002	-6.461459E-002	5.671076E-001	-2.665669E-001	5.673834E-001	-2.665659E-001	5.242061E-003	-2.842759E-002
1.100000E+009	6.701383E-002	-6.490170E-002	5.658387E-001	-2.686824E-001	5.662123E-001	-2.686842E-001	5.093959E-003	-2.842431E-002
1.110000E+009	6.653797E-002	-6.515197E-002	5.647190E-001	-2.707425E-001	5.650122E-001	-2.707800E-001	4.881173E-003	-2.853595E-002
1.120000E+009	6.600727E-002	-6.539653E-002	5.635476E-001	-2.727779E-001	5.638393E-001	-2.729288E-001	4.590981E-003	-2.856826E-002
1.130000E+009	6.544104E-002	-6.566506E-002	5.623480E-001	-2.748686E-001	5.626279E-001	-2.749957E-001	4.309009E-003	-2.861629E-002
1.140000E+009	6.486731E-002	-6.587248E-002	5.611685E-001	-2.769885E-001	5.614330E-001	-2.770643E-001	4.010550E-003	-2.863809E-002
1.150000E+009	6.431984E-002	-6.608729E-002	5.599326E-001	-2.790623E-001	5.601687E-001	-2.791104E-001	3.797595E-003	-2.865313E-002
1.160000E+009	6.380864E-002	-6.630004E-002	5.587317E-001	-2.811178E-001	5.590007E-001	-2.812080E-001	3.589587E-003	-2.868544E-002
1.170000E+009	6.327079E-002	-6.655499E-002	5.574863E-001	-2.831912E-001	5.577700E-001	-2.832459E-001	3.432744E-003	-2.869966E-002
1.180000E+009	6.273344E-002	-6.688078E-002	5.561994E-001	-2.852270E-001	5.565656E-001	-2.853461E-001	3.197418E-003	-2.873468E-002
1.190000E+009	6.219317E-002	-6.710305E-002	5.549618E-001	-2.872877E-001	5.552227E-001	-2.874044E-001	2.990822E-003	-2.873751E-002
1.200000E+009	6.162460E-002	-6.731818E-002	5.537257E-001	-2.893147E-001	5.540220E-001	-2.893944E-001	2.759713E-003	-2.872903E-002
1.210000E+009	6.114572E-002	-6.756883E-002	5.524527E-001	-2.913554E-001	5.527261E-001	-2.914958E-001	2.559893E-003	-2.868304E-002
1.220000E+009	6.064740E-002	-6.777470E-002	5.511829E-001	-2.933740E-001	5.515008E-001	-2.935012E-001	2.342582E-003	-2.862736E-002
1.230000E+009	6.015589E-002	-6.799339E-002	5.499135E-001	-2.954334E-001	5.502238E-001	-2.955333E-001	2.059858E-003	-2.864886E-002
1.240000E+009	5.966498E-002	-6.829220E-002	5.486309E-001	-2.974572E-001	5.489102E-001	-2.975268E-001	1.779531E-003	-2.867778E-002
1.250000E+009	5.909902E-002	-6.851014E-002	5.473223E-001	-2.994851E-001	5.476804E-001	-2.995569E-001	1.488608E-003	-2.869661E-002
1.260000E+009	5.855600E-002	-6.869442E-002	5.460164E-001	-3.014694E-001	5.463186E-001	-3.016040E-001	1.205212E-003	-2.876990E-002
1.270000E+009	5.804165E-002	-6.889518E-002	5.447488E-001	-3.034761E-001	5.450101E-001	-3.035681E-001	9.575810E-004	-2.878405E-002
1.280000E+009	5.748780E-002	-6.902644E-002	5.434529E-001	-3.055081E-001	5.437437E-001	-3.055642E-001	7.001382E-004	-2.884987E-002
1.290000E+009	5.695263E-002	-6.920884E-002	5.420802E-001	-3.075191E-001	5.424169E-001	-3.075762E-001	5.674812E-004	-2.890557E-002
1.300000E+009	5.647518E-002	-6.932714E-002	5.407327E-001	-3.094337E-001	5.411232E-001	-3.095794E-001	4.488642E-004	-2.891383E-002
1.310000E+009	5.593108E-002	-6.946363E-002	5.393859E-001	-3.114422E-001	5.397737E-001	-3.115970E-001	2.601379E-004	-2.892373E-002
1.320000E+009	5.535184E-002	-6.957383E-002	5.380314E-001	-3.134385E-001	5.384545E-001	-3.135780E-001	1.393635E-004	-2.887841E-002
1.330000E+009	5.486011E-002	-6.959397E-002	5.367159E-001	-3.153731E-001	5.370947E-001	-3.155692E-001	6.995604E-005	-2.875307E-002
1.340000E+009	5.433087E-002	-6.964250E-002	5.353588E-001	-3.173132E-001	5.357216E-001	-3.175093E-001	-7.079583E-005	-2.856545E-002
1.350000E+009	5.376796E-002	-6.969398E-002	5.340076E-001	-3.193084E-001	5.342992E-001	-3.194549E-001	-1.882126E-004	-2.839292E-002
1.360000E+009	5.334125E-002	-6.977832E-002	5.325737E-001	-3.212538E-001	5.329755E-001	-3.214010E-001	-3.122325E-004	-2.814485E-002
1.370000E+009	5.282336E-002	-6.986781E-002	5.312494E-001	-3.231889E-001	5.315899E-001	-3.233426E-001	-4.799441E-004	-2.794600E-002
1.380000E+009	5.231576E-002	-6.997468E-002	5.298501E-001	-3.251112E-001	5.301963E-001	-3.252740E-001	-7.073170E-004	-2.779743E-002
1.390000E+009	5.179760E-002	-7.011990E-002	5.284432E-001	-3.270871E-001	5.287723E-001	-3.272219E-001	-9.892110E-004	-2.758330E-002
1.400000E+009	5.124165E-002	-7.019750E-002	5.270166E-001	-3.289726E-001	5.273563E-001	-3.290823E-001	-1.228102E-003	-2.736317E-002
1.410000E+009	5.071635E-002	-7.022742E-002	5.256294E-001	-3.308745E-001	5.259316E-001	-3.309930E-001	-1.506185E-003	-2.714066E-002
1.420000E+009	5.021611E-002	-7.031729E-002	5.241574E-001	-3.327764E-001	5.245823E-001	-3.328856E-001	-1.768204E-003	-2.694947E-002
1.430000E+009	4.977561E-002	-7.038940E-002	5.227832E-001	-3.346643E-001	5.231240E-001	-3.348297E-001	-1.944463E-003	-2.679546E-002
1.440000E+009	4.924559E-002	-7.043695E-002	5.213404E-001	-3.365427E-001	5.217073E-001	-3.366776E-001	-2.173380E-003	-2.664718E-002
1.450000E+009	4.873116E-002	-7.048471E-002	5.198741E-001	-3.384119E-001	5.202752E-001	-3.385980E-001	-2.426138E-003	-2.652234E-002
1.460000E+009	4.818315E-002	-7.051430E-002	5.184164E-001	-3.403326E-001	5.187766E-001	-3.405108E-001	-2.629488E-003	-2.628975E-002
1.470000E+009	4.769748E-002	-7.054140E-002	5.169774E-001	-3.422032E-001	5.173627E-001	-3.423635E-001	-2.855420E-003	-2.601392E-002
1.480000E+009	4.718124E-002	-7.053600E-002	5.155121E-001	-3.440184E-001	5.158597E-001	-3.442008E-001	-3.060967E-003	-2.572541E-002
1.490000E+009	4.669715E-002	-7.053245E-002	5.140427E-001	-3.458497E-001	5.143997E-001	-3.459973E-001	-3.278883E-003	-2.544626E-002
1.500000E+009	4.624159E-002	-7.058978E-002	5.126274E-001	-3.477198E-001	5.129375E-001	-3.478583E-001	-3.402779E-003	-2.518769E-002
