! Device ID: PE43711P
! File Path: z:\PE43711P\CHAR_NOM_04282014\AMB\3p300\LS_ATT_16p50dB\PE43711P_AMB_3p300V_3p000V_0p000V_LS_ATT_16p50dB_S2P_SN_5_A0137A.s2p
! Serial: 5
! Lot: A0137A
! Temp: 25C
! VDD: 3.300
! VSS: 0.000
! Control_Hi: 3.000
! Control_Lo: 0.000
! Attenuation Step: 16.50dB
! Port 1: RF1
! Port 2: RF2
! ThroughPath:1-2
! IDD: 0.0001270817
! ISS: -9.71e-008
!

#  Hz  S   RI  R   50

1.000000E+007	6.395227E-002	3.173182E-005	1.308399E-001	-5.905694E-004	1.309633E-001	-6.528679E-004	-1.218444E-001	9.220674E-004
2.000000E+007	6.414547E-002	-5.936749E-005	1.308053E-001	-9.598659E-004	1.308836E-001	-9.727784E-004	-1.215336E-001	1.508810E-003
3.000000E+007	6.439626E-002	-2.680862E-004	1.307937E-001	-1.435415E-003	1.308901E-001	-1.461528E-003	-1.212300E-001	1.996340E-003
4.000000E+007	6.453149E-002	-4.686889E-004	1.308118E-001	-1.934001E-003	1.308843E-001	-1.937657E-003	-1.210588E-001	2.537662E-003
5.000000E+007	6.464096E-002	-7.151688E-004	1.307821E-001	-2.445540E-003	1.308890E-001	-2.439152E-003	-1.210131E-001	3.112017E-003
6.000000E+007	6.478418E-002	-9.924001E-004	1.307590E-001	-2.922702E-003	1.308775E-001	-2.925262E-003	-1.208631E-001	3.550367E-003
7.000000E+007	6.488959E-002	-1.285018E-003	1.307210E-001	-3.390395E-003	1.308375E-001	-3.394087E-003	-1.206925E-001	3.971997E-003
8.000000E+007	6.500003E-002	-1.570480E-003	1.306966E-001	-3.847027E-003	1.308131E-001	-3.845966E-003	-1.205205E-001	4.396944E-003
9.000000E+007	6.510359E-002	-1.857437E-003	1.306769E-001	-4.312061E-003	1.307813E-001	-4.330563E-003	-1.204037E-001	4.780267E-003
1.000000E+008	6.518795E-002	-2.148042E-003	1.306621E-001	-4.801939E-003	1.307615E-001	-4.790052E-003	-1.203311E-001	5.159924E-003
1.100000E+008	6.528131E-002	-2.446936E-003	1.306202E-001	-5.286279E-003	1.307177E-001	-5.270687E-003	-1.202326E-001	5.525380E-003
1.200000E+008	6.538002E-002	-2.786246E-003	1.305496E-001	-5.764364E-003	1.306725E-001	-5.768947E-003	-1.201310E-001	5.834742E-003
1.300000E+008	6.545257E-002	-3.082635E-003	1.305118E-001	-6.215644E-003	1.306419E-001	-6.229841E-003	-1.200174E-001	6.168845E-003
1.400000E+008	6.547279E-002	-3.357060E-003	1.304857E-001	-6.693005E-003	1.305852E-001	-6.713121E-003	-1.198983E-001	6.495309E-003
1.500000E+008	6.546241E-002	-3.621604E-003	1.304350E-001	-7.135616E-003	1.305129E-001	-7.150229E-003	-1.197914E-001	6.808728E-003
1.600000E+008	6.545722E-002	-3.837825E-003	1.304021E-001	-7.593751E-003	1.304551E-001	-7.594778E-003	-1.197168E-001	7.125277E-003
1.700000E+008	6.549053E-002	-4.125249E-003	1.303575E-001	-8.089367E-003	1.304815E-001	-8.069400E-003	-1.196721E-001	7.459747E-003
1.800000E+008	6.546693E-002	-4.410779E-003	1.302632E-001	-8.591194E-003	1.304361E-001	-8.580168E-003	-1.195833E-001	7.771690E-003
1.900000E+008	6.537500E-002	-4.721681E-003	1.301610E-001	-9.042731E-003	1.303506E-001	-9.050673E-003	-1.195043E-001	8.018291E-003
2.000000E+008	6.527887E-002	-5.034488E-003	1.301223E-001	-9.478415E-003	1.302854E-001	-9.485700E-003	-1.194451E-001	8.270531E-003
2.100000E+008	6.520294E-002	-5.411495E-003	1.300786E-001	-9.936454E-003	1.302070E-001	-9.933250E-003	-1.193411E-001	8.461837E-003
2.200000E+008	6.511528E-002	-5.738260E-003	1.300330E-001	-1.036843E-002	1.301351E-001	-1.037729E-002	-1.192132E-001	8.651326E-003
2.300000E+008	6.505958E-002	-6.085676E-003	1.299715E-001	-1.083235E-002	1.300793E-001	-1.082346E-002	-1.190756E-001	8.841534E-003
2.400000E+008	6.501346E-002	-6.433469E-003	1.299154E-001	-1.129197E-002	1.300011E-001	-1.128887E-002	-1.189141E-001	9.086414E-003
2.500000E+008	6.495547E-002	-6.768345E-003	1.298378E-001	-1.175875E-002	1.299297E-001	-1.175173E-002	-1.187182E-001	9.309573E-003
2.600000E+008	6.494881E-002	-7.114612E-003	1.297534E-001	-1.221691E-002	1.298793E-001	-1.220691E-002	-1.185165E-001	9.587494E-003
2.700000E+008	6.492229E-002	-7.411125E-003	1.296602E-001	-1.265305E-002	1.297844E-001	-1.264998E-002	-1.182666E-001	9.900777E-003
2.800000E+008	6.491670E-002	-7.722336E-003	1.295859E-001	-1.310020E-002	1.297017E-001	-1.308588E-002	-1.180455E-001	1.019350E-002
2.900000E+008	6.487783E-002	-7.994055E-003	1.295302E-001	-1.352806E-002	1.296248E-001	-1.352076E-002	-1.179039E-001	1.050852E-002
3.000000E+008	6.483286E-002	-8.221233E-003	1.294673E-001	-1.398820E-002	1.295544E-001	-1.397921E-002	-1.177491E-001	1.086810E-002
3.100000E+008	6.477136E-002	-8.446934E-003	1.294010E-001	-1.444998E-002	1.294893E-001	-1.444108E-002	-1.176136E-001	1.123655E-002
3.200000E+008	6.468420E-002	-8.655731E-003	1.293051E-001	-1.490199E-002	1.294249E-001	-1.489568E-002	-1.175319E-001	1.157907E-002
3.300000E+008	6.456076E-002	-8.878441E-003	1.292228E-001	-1.536707E-002	1.293279E-001	-1.537451E-002	-1.174204E-001	1.189419E-002
3.400000E+008	6.437735E-002	-9.116564E-003	1.291264E-001	-1.578505E-002	1.291989E-001	-1.584741E-002	-1.172813E-001	1.217134E-002
3.500000E+008	6.419663E-002	-9.370242E-003	1.290314E-001	-1.625385E-002	1.290783E-001	-1.627263E-002	-1.171355E-001	1.239756E-002
3.600000E+008	6.404123E-002	-9.611732E-003	1.289413E-001	-1.670667E-002	1.289834E-001	-1.666277E-002	-1.169751E-001	1.266335E-002
3.700000E+008	6.387684E-002	-9.891352E-003	1.288381E-001	-1.712424E-002	1.288999E-001	-1.705977E-002	-1.167743E-001	1.291323E-002
3.800000E+008	6.373180E-002	-1.017423E-002	1.287425E-001	-1.754860E-002	1.288507E-001	-1.749829E-002	-1.165698E-001	1.315402E-002
3.900000E+008	6.359069E-002	-1.050115E-002	1.286311E-001	-1.802163E-002	1.287602E-001	-1.795796E-002	-1.162853E-001	1.347795E-002
4.000000E+008	6.347073E-002	-1.082915E-002	1.285023E-001	-1.841377E-002	1.286519E-001	-1.842249E-002	-1.159701E-001	1.377569E-002
4.100000E+008	6.332722E-002	-1.113008E-002	1.284252E-001	-1.882603E-002	1.285502E-001	-1.884857E-002	-1.156832E-001	1.407730E-002
4.200000E+008	6.320489E-002	-1.143662E-002	1.283673E-001	-1.925714E-002	1.284489E-001	-1.925994E-002	-1.154708E-001	1.445056E-002
4.300000E+008	6.309158E-002	-1.169764E-002	1.282670E-001	-1.968592E-002	1.283415E-001	-1.970510E-002	-1.152601E-001	1.484713E-002
4.400000E+008	6.299443E-002	-1.192287E-002	1.281641E-001	-2.013663E-002	1.282622E-001	-2.013244E-002	-1.150481E-001	1.526850E-002
4.500000E+008	6.289040E-002	-1.219884E-002	1.280623E-001	-2.057881E-002	1.281610E-001	-2.057104E-002	-1.148573E-001	1.572733E-002
4.600000E+008	6.278902E-002	-1.244873E-002	1.279511E-001	-2.102097E-002	1.280601E-001	-2.101898E-002	-1.146790E-001	1.616861E-002
4.700000E+008	6.266572E-002	-1.269039E-002	1.278532E-001	-2.143990E-002	1.279340E-001	-2.144535E-002	-1.145123E-001	1.655602E-002
4.800000E+008	6.250879E-002	-1.289559E-002	1.277414E-001	-2.185490E-002	1.278295E-001	-2.185879E-002	-1.143732E-001	1.694593E-002
4.900000E+008	6.234956E-002	-1.309912E-002	1.276356E-001	-2.226717E-002	1.277091E-001	-2.227511E-002	-1.142184E-001	1.732198E-002
5.000000E+008	6.218119E-002	-1.330949E-002	1.275379E-001	-2.269045E-002	1.276150E-001	-2.268803E-002	-1.140529E-001	1.768430E-002
5.100000E+008	6.206073E-002	-1.354129E-002	1.274222E-001	-2.312125E-002	1.275168E-001	-2.310768E-002	-1.138776E-001	1.805187E-002
5.200000E+008	6.188518E-002	-1.379438E-002	1.273052E-001	-2.356532E-002	1.274092E-001	-2.355187E-002	-1.136954E-001	1.839568E-002
5.300000E+008	6.169923E-002	-1.404523E-002	1.271950E-001	-2.397470E-002	1.273095E-001	-2.399912E-002	-1.134512E-001	1.876817E-002
5.400000E+008	6.150433E-002	-1.434800E-002	1.270709E-001	-2.439240E-002	1.271812E-001	-2.441547E-002	-1.132065E-001	1.911554E-002
5.500000E+008	6.134189E-002	-1.459690E-002	1.269649E-001	-2.482832E-002	1.270463E-001	-2.482971E-002	-1.129976E-001	1.950701E-002
5.600000E+008	6.116437E-002	-1.487643E-002	1.268321E-001	-2.523655E-002	1.269239E-001	-2.524238E-002	-1.127744E-001	1.989878E-002
5.700000E+008	6.101838E-002	-1.516680E-002	1.267120E-001	-2.565198E-002	1.267970E-001	-2.565733E-002	-1.126044E-001	2.034206E-002
5.800000E+008	6.087788E-002	-1.543279E-002	1.266051E-001	-2.606206E-002	1.266928E-001	-2.607760E-002	-1.124339E-001	2.077110E-002
5.900000E+008	6.075373E-002	-1.573522E-002	1.264811E-001	-2.649711E-002	1.265839E-001	-2.651823E-002	-1.122823E-001	2.123494E-002
6.000000E+008	6.065856E-002	-1.603808E-002	1.263474E-001	-2.691422E-002	1.264506E-001	-2.693539E-002	-1.120603E-001	2.164121E-002
6.100000E+008	6.056660E-002	-1.629147E-002	1.262251E-001	-2.731605E-002	1.262936E-001	-2.735131E-002	-1.119132E-001	2.206945E-002
6.200000E+008	6.048213E-002	-1.649625E-002	1.260876E-001	-2.772742E-002	1.261773E-001	-2.775038E-002	-1.117336E-001	2.244873E-002
6.300000E+008	6.041575E-002	-1.671139E-002	1.259496E-001	-2.814231E-002	1.260468E-001	-2.816319E-002	-1.115399E-001	2.285557E-002
6.400000E+008	6.035269E-002	-1.691116E-002	1.258203E-001	-2.854566E-002	1.259175E-001	-2.856973E-002	-1.113554E-001	2.324861E-002
6.500000E+008	6.026062E-002	-1.709096E-002	1.256968E-001	-2.895020E-002	1.257940E-001	-2.896611E-002	-1.111677E-001	2.368439E-002
6.600000E+008	6.013815E-002	-1.729099E-002	1.255899E-001	-2.936035E-002	1.256566E-001	-2.939254E-002	-1.109822E-001	2.409398E-002
6.700000E+008	5.998294E-002	-1.744347E-002	1.254496E-001	-2.977940E-002	1.255221E-001	-2.981290E-002	-1.108174E-001	2.453989E-002
6.800000E+008	5.982058E-002	-1.761691E-002	1.253224E-001	-3.018608E-002	1.254045E-001	-3.021670E-002	-1.106427E-001	2.498009E-002
6.900000E+008	5.964699E-002	-1.776344E-002	1.251706E-001	-3.059850E-002	1.252575E-001	-3.060883E-002	-1.104547E-001	2.546222E-002
7.000000E+008	5.949287E-002	-1.793798E-002	1.250439E-001	-3.100597E-002	1.251255E-001	-3.101066E-002	-1.103344E-001	2.590799E-002
7.100000E+008	5.932656E-002	-1.813685E-002	1.249067E-001	-3.137226E-002	1.250018E-001	-3.140654E-002	-1.102106E-001	2.632028E-002
7.200000E+008	5.914619E-002	-1.834378E-002	1.247695E-001	-3.178084E-002	1.248521E-001	-3.181188E-002	-1.100949E-001	2.673688E-002
7.300000E+008	5.896286E-002	-1.854349E-002	1.246290E-001	-3.218161E-002	1.247330E-001	-3.222142E-002	-1.099717E-001	2.712870E-002
7.400000E+008	5.878145E-002	-1.874452E-002	1.244838E-001	-3.259527E-002	1.245949E-001	-3.262647E-002	-1.098582E-001	2.747698E-002
7.500000E+008	5.860949E-002	-1.895405E-002	1.243513E-001	-3.299748E-002	1.244549E-001	-3.303024E-002	-1.097624E-001	2.786010E-002
7.600000E+008	5.844360E-002	-1.917909E-002	1.242075E-001	-3.340235E-002	1.243110E-001	-3.342046E-002	-1.096195E-001	2.821750E-002
7.700000E+008	5.828034E-002	-1.941261E-002	1.240628E-001	-3.379740E-002	1.241625E-001	-3.383211E-002	-1.094720E-001	2.853113E-002
7.800000E+008	5.813788E-002	-1.962909E-002	1.239193E-001	-3.419780E-002	1.240300E-001	-3.423429E-002	-1.092869E-001	2.888919E-002
7.900000E+008	5.797355E-002	-1.989875E-002	1.237796E-001	-3.459586E-002	1.238904E-001	-3.462921E-002	-1.091366E-001	2.922890E-002
8.000000E+008	5.782172E-002	-2.013300E-002	1.236365E-001	-3.499825E-002	1.237278E-001	-3.503454E-002	-1.089212E-001	2.961052E-002
8.100000E+008	5.769200E-002	-2.037714E-002	1.234747E-001	-3.537704E-002	1.235679E-001	-3.542395E-002	-1.086724E-001	2.999644E-002
8.200000E+008	5.759716E-002	-2.060435E-002	1.233430E-001	-3.577959E-002	1.234184E-001	-3.581273E-002	-1.084486E-001	3.036497E-002
8.300000E+008	5.750288E-002	-2.083163E-002	1.231836E-001	-3.615961E-002	1.232767E-001	-3.620492E-002	-1.082525E-001	3.076214E-002
8.400000E+008	5.741440E-002	-2.103784E-002	1.230323E-001	-3.656379E-002	1.231368E-001	-3.661786E-002	-1.080568E-001	3.115715E-002
8.500000E+008	5.734007E-002	-2.120120E-002	1.228921E-001	-3.695573E-002	1.229737E-001	-3.700790E-002	-1.079279E-001	3.155142E-002
8.600000E+008	5.721731E-002	-2.138423E-002	1.227278E-001	-3.734333E-002	1.228174E-001	-3.739271E-002	-1.077519E-001	3.195358E-002
8.700000E+008	5.710627E-002	-2.152492E-002	1.225892E-001	-3.774189E-002	1.226655E-001	-3.778909E-002	-1.075934E-001	3.232367E-002
8.800000E+008	5.699204E-002	-2.166269E-002	1.224419E-001	-3.814185E-002	1.225187E-001	-3.815822E-002	-1.074459E-001	3.269979E-002
8.900000E+008	5.683384E-002	-2.181024E-002	1.222742E-001	-3.852643E-002	1.223757E-001	-3.857865E-002	-1.072859E-001	3.305183E-002
9.000000E+008	5.667752E-002	-2.196957E-002	1.220997E-001	-3.891093E-002	1.222095E-001	-3.894900E-002	-1.071032E-001	3.340591E-002
9.100000E+008	5.650594E-002	-2.210430E-002	1.219306E-001	-3.929931E-002	1.220519E-001	-3.934411E-002	-1.068731E-001	3.372650E-002
9.200000E+008	5.632442E-002	-2.231470E-002	1.217907E-001	-3.969273E-002	1.219134E-001	-3.973738E-002	-1.066314E-001	3.409879E-002
9.300000E+008	5.620259E-002	-2.249455E-002	1.216250E-001	-4.006187E-002	1.217316E-001	-4.012334E-002	-1.063734E-001	3.446503E-002
9.400000E+008	5.606868E-002	-2.270532E-002	1.214595E-001	-4.045060E-002	1.215838E-001	-4.050580E-002	-1.060467E-001	3.484822E-002
9.500000E+008	5.594127E-002	-2.291467E-002	1.213179E-001	-4.083788E-002	1.214126E-001	-4.090559E-002	-1.057510E-001	3.528772E-002
9.600000E+008	5.581618E-002	-2.306575E-002	1.211370E-001	-4.121352E-002	1.212636E-001	-4.127067E-002	-1.054403E-001	3.570696E-002
9.700000E+008	5.573517E-002	-2.322883E-002	1.209809E-001	-4.160431E-002	1.210773E-001	-4.165263E-002	-1.051457E-001	3.613068E-002
9.800000E+008	5.565490E-002	-2.339829E-002	1.208328E-001	-4.196872E-002	1.209452E-001	-4.204761E-002	-1.048810E-001	3.662219E-002
9.900000E+008	5.555548E-002	-2.351728E-002	1.206776E-001	-4.238060E-002	1.207722E-001	-4.242851E-002	-1.046048E-001	3.707990E-002
1.000000E+009	5.543107E-002	-2.361832E-002	1.205071E-001	-4.275713E-002	1.205975E-001	-4.281267E-002	-1.044172E-001	3.753222E-002
1.010000E+009	5.529427E-002	-2.372155E-002	1.203535E-001	-4.313522E-002	1.204463E-001	-4.318864E-002	-1.041884E-001	3.801594E-002
1.020000E+009	5.515953E-002	-2.384109E-002	1.201886E-001	-4.351312E-002	1.202678E-001	-4.357669E-002	-1.040171E-001	3.845556E-002
1.030000E+009	5.501096E-002	-2.392995E-002	1.199960E-001	-4.390801E-002	1.200983E-001	-4.395877E-002	-1.038036E-001	3.891520E-002
1.040000E+009	5.485903E-002	-2.404741E-002	1.198160E-001	-4.428158E-002	1.199411E-001	-4.432284E-002	-1.036154E-001	3.935008E-002
1.050000E+009	5.470830E-002	-2.420158E-002	1.196657E-001	-4.465787E-002	1.197552E-001	-4.469293E-002	-1.033645E-001	3.980469E-002
1.060000E+009	5.458299E-002	-2.433651E-002	1.195065E-001	-4.501623E-002	1.195880E-001	-4.506908E-002	-1.031433E-001	4.025855E-002
1.070000E+009	5.441123E-002	-2.446354E-002	1.193223E-001	-4.541376E-002	1.194207E-001	-4.545050E-002	-1.028934E-001	4.069550E-002
1.080000E+009	5.426795E-002	-2.460093E-002	1.191475E-001	-4.578489E-002	1.192623E-001	-4.581751E-002	-1.026355E-001	4.115502E-002
1.090000E+009	5.410381E-002	-2.473777E-002	1.189727E-001	-4.617298E-002	1.190876E-001	-4.621137E-002	-1.023983E-001	4.158997E-002
1.100000E+009	5.399357E-002	-2.488201E-002	1.187798E-001	-4.654044E-002	1.189044E-001	-4.657920E-002	-1.021712E-001	4.206329E-002
1.110000E+009	5.385611E-002	-2.499529E-002	1.186156E-001	-4.691680E-002	1.187187E-001	-4.696333E-002	-1.019699E-001	4.251354E-002
1.120000E+009	5.368779E-002	-2.512669E-002	1.184425E-001	-4.729259E-002	1.185583E-001	-4.734433E-002	-1.018022E-001	4.292297E-002
1.130000E+009	5.354913E-002	-2.523644E-002	1.182654E-001	-4.767600E-002	1.183733E-001	-4.771997E-002	-1.015897E-001	4.335513E-002
1.140000E+009	5.337435E-002	-2.537175E-002	1.181022E-001	-4.804809E-002	1.182060E-001	-4.809680E-002	-1.013920E-001	4.381643E-002
1.150000E+009	5.323903E-002	-2.549370E-002	1.179154E-001	-4.842581E-002	1.179991E-001	-4.846448E-002	-1.011523E-001	4.424269E-002
1.160000E+009	5.306752E-002	-2.561809E-002	1.177155E-001	-4.879448E-002	1.178224E-001	-4.885641E-002	-1.009287E-001	4.465780E-002
1.170000E+009	5.292012E-002	-2.576127E-002	1.175290E-001	-4.917261E-002	1.176398E-001	-4.921364E-002	-1.006880E-001	4.511142E-002
1.180000E+009	5.277419E-002	-2.588454E-002	1.173351E-001	-4.954979E-002	1.174546E-001	-4.957706E-002	-1.004078E-001	4.555518E-002
1.190000E+009	5.259724E-002	-2.600934E-002	1.171567E-001	-4.991117E-002	1.172450E-001	-4.996088E-002	-1.001649E-001	4.601917E-002
1.200000E+009	5.244911E-002	-2.614171E-002	1.169638E-001	-5.028836E-002	1.170601E-001	-5.031088E-002	-9.987954E-002	4.649512E-002
1.210000E+009	5.232376E-002	-2.629129E-002	1.167650E-001	-5.066526E-002	1.168796E-001	-5.069414E-002	-9.963970E-002	4.696969E-002
1.220000E+009	5.216220E-002	-2.646397E-002	1.165689E-001	-5.100719E-002	1.166766E-001	-5.106525E-002	-9.942544E-002	4.744219E-002
1.230000E+009	5.201725E-002	-2.659933E-002	1.163769E-001	-5.138656E-002	1.164804E-001	-5.142184E-002	-9.920418E-002	4.787834E-002
1.240000E+009	5.190352E-002	-2.676841E-002	1.161906E-001	-5.175470E-002	1.162874E-001	-5.179858E-002	-9.902883E-002	4.829447E-002
1.250000E+009	5.178156E-002	-2.692316E-002	1.160003E-001	-5.213016E-002	1.161319E-001	-5.215908E-002	-9.882287E-002	4.872513E-002
1.260000E+009	5.165395E-002	-2.706214E-002	1.158045E-001	-5.249420E-002	1.158884E-001	-5.253027E-002	-9.857602E-002	4.911062E-002
1.270000E+009	5.158446E-002	-2.720016E-002	1.155942E-001	-5.284583E-002	1.156881E-001	-5.289242E-002	-9.834817E-002	4.949123E-002
1.280000E+009	5.144662E-002	-2.731585E-002	1.154158E-001	-5.322059E-002	1.155186E-001	-5.325945E-002	-9.809165E-002	4.986121E-002
1.290000E+009	5.134160E-002	-2.741133E-002	1.152031E-001	-5.360657E-002	1.153068E-001	-5.362568E-002	-9.776295E-002	5.024172E-002
1.300000E+009	5.124183E-002	-2.749717E-002	1.150100E-001	-5.395687E-002	1.151184E-001	-5.400233E-002	-9.742507E-002	5.059903E-002
1.310000E+009	5.111917E-002	-2.760107E-002	1.147930E-001	-5.432099E-002	1.149111E-001	-5.437002E-002	-9.709575E-002	5.102424E-002
1.320000E+009	5.099372E-002	-2.768837E-002	1.146044E-001	-5.468608E-002	1.147009E-001	-5.473927E-002	-9.672553E-002	5.150537E-002
1.330000E+009	5.087720E-002	-2.775263E-002	1.144030E-001	-5.502647E-002	1.145066E-001	-5.510143E-002	-9.631993E-002	5.200763E-002
1.340000E+009	5.071947E-002	-2.781495E-002	1.141881E-001	-5.540123E-002	1.142842E-001	-5.543995E-002	-9.593532E-002	5.253949E-002
1.350000E+009	5.055242E-002	-2.791461E-002	1.139838E-001	-5.576979E-002	1.140629E-001	-5.581960E-002	-9.559008E-002	5.309282E-002
1.360000E+009	5.044760E-002	-2.797933E-002	1.137519E-001	-5.611202E-002	1.138920E-001	-5.617395E-002	-9.523805E-002	5.368053E-002
1.370000E+009	5.029173E-002	-2.806576E-002	1.135494E-001	-5.646748E-002	1.136622E-001	-5.652830E-002	-9.495713E-002	5.427361E-002
1.380000E+009	5.013982E-002	-2.815637E-002	1.133312E-001	-5.683269E-002	1.134485E-001	-5.688458E-002	-9.466700E-002	5.482968E-002
1.390000E+009	5.002746E-002	-2.827156E-002	1.131188E-001	-5.720215E-002	1.132361E-001	-5.724953E-002	-9.440965E-002	5.541840E-002
1.400000E+009	4.987333E-002	-2.835146E-002	1.128816E-001	-5.754606E-002	1.130003E-001	-5.759291E-002	-9.414318E-002	5.596544E-002
1.410000E+009	4.973109E-002	-2.841295E-002	1.126885E-001	-5.790608E-002	1.127769E-001	-5.793608E-002	-9.389151E-002	5.651014E-002
1.420000E+009	4.956949E-002	-2.849808E-002	1.124525E-001	-5.824303E-002	1.125681E-001	-5.828669E-002	-9.366694E-002	5.700497E-002
1.430000E+009	4.943606E-002	-2.857852E-002	1.122374E-001	-5.858727E-002	1.123543E-001	-5.864431E-002	-9.337442E-002	5.750219E-002
1.440000E+009	4.925479E-002	-2.863867E-002	1.120245E-001	-5.895817E-002	1.121290E-001	-5.899943E-002	-9.308985E-002	5.797961E-002
1.450000E+009	4.910084E-002	-2.871487E-002	1.117922E-001	-5.929413E-002	1.119164E-001	-5.935428E-002	-9.277404E-002	5.850075E-002
1.460000E+009	4.892764E-002	-2.880345E-002	1.115734E-001	-5.967451E-002	1.116568E-001	-5.969759E-002	-9.249331E-002	5.901585E-002
1.470000E+009	4.876909E-002	-2.890254E-002	1.113522E-001	-6.001865E-002	1.114455E-001	-6.004914E-002	-9.216422E-002	5.954425E-002
1.480000E+009	4.859461E-002	-2.896671E-002	1.111298E-001	-6.034079E-002	1.111983E-001	-6.039662E-002	-9.184196E-002	6.011081E-002
1.490000E+009	4.843753E-002	-2.905291E-002	1.108910E-001	-6.069442E-002	1.110110E-001	-6.072914E-002	-9.149125E-002	6.067469E-002
1.500000E+009	4.829612E-002	-2.915662E-002	1.106624E-001	-6.103603E-002	1.107549E-001	-6.107870E-002	-9.115592E-002	6.125466E-002
