! Device ID: PE43711P
! File Path: z:\PE43711P\CHAR_NOM_04282014\AMB\3p300\LS_ATT_20p75dB\PE43711P_AMB_3p300V_3p000V_0p000V_LS_ATT_20p75dB_S2P_SN_5_A0137A.s2p
! Serial: 5
! Lot: A0137A
! Temp: 25C
! VDD: 3.300
! VSS: 0.000
! Control_Hi: 3.000
! Control_Lo: 0.000
! Attenuation Step: 20.75dB
! Port 1: RF1
! Port 2: RF2
! ThroughPath:1-2
! IDD: 0.0001271646
! ISS: -1.37e-007
!

#  Hz  S   RI  R   50

1.000000E+007	5.318807E-002	1.721405E-004	7.974174E-002	-3.615055E-004	7.979548E-002	-3.913459E-004	-1.132820E-001	9.472363E-004
2.000000E+007	5.340844E-002	1.501218E-004	7.971631E-002	-5.408934E-004	7.977148E-002	-5.676638E-004	-1.129730E-001	1.478063E-003
3.000000E+007	5.367069E-002	5.200635E-005	7.973634E-002	-8.308465E-004	7.976694E-002	-8.383165E-004	-1.126653E-001	1.966828E-003
4.000000E+007	5.382598E-002	-5.079557E-005	7.973967E-002	-1.107638E-003	7.976507E-002	-1.114232E-003	-1.124972E-001	2.503751E-003
5.000000E+007	5.392349E-002	-1.804337E-004	7.971702E-002	-1.401141E-003	7.978120E-002	-1.399901E-003	-1.124499E-001	3.063651E-003
6.000000E+007	5.407355E-002	-3.486775E-004	7.969751E-002	-1.677958E-003	7.977199E-002	-1.672943E-003	-1.123164E-001	3.491395E-003
7.000000E+007	5.419882E-002	-5.303030E-004	7.967385E-002	-1.949749E-003	7.974932E-002	-1.952866E-003	-1.121343E-001	3.920964E-003
8.000000E+007	5.431194E-002	-7.226608E-004	7.966889E-002	-2.212791E-003	7.973884E-002	-2.210852E-003	-1.119812E-001	4.335535E-003
9.000000E+007	5.441281E-002	-9.043169E-004	7.965369E-002	-2.485688E-003	7.971747E-002	-2.482985E-003	-1.118585E-001	4.703835E-003
1.000000E+008	5.452233E-002	-1.072813E-003	7.965051E-002	-2.768109E-003	7.969841E-002	-2.754956E-003	-1.117827E-001	5.085018E-003
1.100000E+008	5.462043E-002	-1.268745E-003	7.963069E-002	-3.059284E-003	7.967691E-002	-3.024850E-003	-1.116924E-001	5.435937E-003
1.200000E+008	5.473585E-002	-1.507552E-003	7.958014E-002	-3.320272E-003	7.965531E-002	-3.312935E-003	-1.115823E-001	5.739129E-003
1.300000E+008	5.482799E-002	-1.705414E-003	7.956805E-002	-3.571125E-003	7.964573E-002	-3.590435E-003	-1.114529E-001	6.068245E-003
1.400000E+008	5.486836E-002	-1.873629E-003	7.954867E-002	-3.861423E-003	7.960708E-002	-3.859635E-003	-1.113635E-001	6.393256E-003
1.500000E+008	5.488438E-002	-2.023204E-003	7.953020E-002	-4.110574E-003	7.957978E-002	-4.118624E-003	-1.112497E-001	6.699845E-003
1.600000E+008	5.491044E-002	-2.145679E-003	7.950695E-002	-4.365817E-003	7.953898E-002	-4.367604E-003	-1.111814E-001	7.023771E-003
1.700000E+008	5.496253E-002	-2.324745E-003	7.948702E-002	-4.665989E-003	7.955919E-002	-4.654732E-003	-1.110966E-001	7.336398E-003
1.800000E+008	5.495907E-002	-2.515872E-003	7.943168E-002	-4.967007E-003	7.954057E-002	-4.940662E-003	-1.109891E-001	7.641039E-003
1.900000E+008	5.490807E-002	-2.715108E-003	7.938661E-002	-5.210649E-003	7.949765E-002	-5.215735E-003	-1.109408E-001	7.893522E-003
2.000000E+008	5.483771E-002	-2.933631E-003	7.935636E-002	-5.455282E-003	7.944505E-002	-5.470155E-003	-1.108748E-001	8.123675E-003
2.100000E+008	5.477488E-002	-3.196726E-003	7.932516E-002	-5.724466E-003	7.940804E-002	-5.722603E-003	-1.107743E-001	8.312538E-003
2.200000E+008	5.471060E-002	-3.433836E-003	7.930283E-002	-5.971523E-003	7.937424E-002	-5.970450E-003	-1.106636E-001	8.494679E-003
2.300000E+008	5.468638E-002	-3.699176E-003	7.926583E-002	-6.242783E-003	7.933127E-002	-6.245262E-003	-1.105128E-001	8.687067E-003
2.400000E+008	5.468035E-002	-3.945312E-003	7.923738E-002	-6.511380E-003	7.929821E-002	-6.494015E-003	-1.103511E-001	8.923555E-003
2.500000E+008	5.464658E-002	-4.177358E-003	7.920020E-002	-6.789198E-003	7.926731E-002	-6.772987E-003	-1.101373E-001	9.122113E-003
2.600000E+008	5.467431E-002	-4.428544E-003	7.915473E-002	-7.039836E-003	7.921612E-002	-7.033757E-003	-1.099319E-001	9.399013E-003
2.700000E+008	5.469665E-002	-4.636193E-003	7.910321E-002	-7.307229E-003	7.918305E-002	-7.298367E-003	-1.096855E-001	9.699451E-003
2.800000E+008	5.474598E-002	-4.823218E-003	7.907180E-002	-7.551394E-003	7.913739E-002	-7.543275E-003	-1.094716E-001	1.000581E-002
2.900000E+008	5.471219E-002	-5.012900E-003	7.902831E-002	-7.810280E-003	7.907642E-002	-7.801545E-003	-1.093217E-001	1.030408E-002
3.000000E+008	5.469980E-002	-5.148712E-003	7.900118E-002	-8.068447E-003	7.905425E-002	-8.048844E-003	-1.091623E-001	1.064919E-002
3.100000E+008	5.465941E-002	-5.294069E-003	7.896069E-002	-8.335025E-003	7.901830E-002	-8.332544E-003	-1.090289E-001	1.101140E-002
3.200000E+008	5.461499E-002	-5.406182E-003	7.891419E-002	-8.612501E-003	7.897710E-002	-8.598850E-003	-1.089171E-001	1.134625E-002
3.300000E+008	5.453099E-002	-5.536738E-003	7.886236E-002	-8.861665E-003	7.893541E-002	-8.872216E-003	-1.088244E-001	1.165416E-002
3.400000E+008	5.439499E-002	-5.708746E-003	7.880678E-002	-9.123497E-003	7.884488E-002	-9.147055E-003	-1.086684E-001	1.192491E-002
3.500000E+008	5.426823E-002	-5.869849E-003	7.876807E-002	-9.390976E-003	7.878591E-002	-9.391569E-003	-1.085182E-001	1.215148E-002
3.600000E+008	5.414269E-002	-6.023324E-003	7.871804E-002	-9.641039E-003	7.874104E-002	-9.622207E-003	-1.083571E-001	1.240838E-002
3.700000E+008	5.402678E-002	-6.204666E-003	7.865014E-002	-9.892495E-003	7.868964E-002	-9.845235E-003	-1.081433E-001	1.262775E-002
3.800000E+008	5.391370E-002	-6.407071E-003	7.860137E-002	-1.014905E-002	7.865530E-002	-1.010169E-002	-1.079517E-001	1.288709E-002
3.900000E+008	5.380086E-002	-6.634874E-003	7.853006E-002	-1.040450E-002	7.860478E-002	-1.037217E-002	-1.076537E-001	1.318411E-002
4.000000E+008	5.372856E-002	-6.890766E-003	7.846434E-002	-1.064062E-002	7.854815E-002	-1.061842E-002	-1.073464E-001	1.347675E-002
4.100000E+008	5.363292E-002	-7.105271E-003	7.841021E-002	-1.086581E-002	7.848683E-002	-1.088148E-002	-1.070479E-001	1.379087E-002
4.200000E+008	5.355891E-002	-7.322269E-003	7.837689E-002	-1.113407E-002	7.843444E-002	-1.112427E-002	-1.068214E-001	1.414293E-002
4.300000E+008	5.349318E-002	-7.511655E-003	7.833362E-002	-1.138824E-002	7.837745E-002	-1.138478E-002	-1.065990E-001	1.454329E-002
4.400000E+008	5.342182E-002	-7.684858E-003	7.827627E-002	-1.163019E-002	7.833090E-002	-1.162923E-002	-1.064028E-001	1.494064E-002
4.500000E+008	5.336942E-002	-7.862037E-003	7.821572E-002	-1.188210E-002	7.827725E-002	-1.188534E-002	-1.062068E-001	1.538956E-002
4.600000E+008	5.331170E-002	-8.042822E-003	7.815652E-002	-1.213525E-002	7.821965E-002	-1.214450E-002	-1.060024E-001	1.580972E-002
4.700000E+008	5.322352E-002	-8.201850E-003	7.809775E-002	-1.238735E-002	7.815307E-002	-1.239964E-002	-1.058256E-001	1.619554E-002
4.800000E+008	5.313069E-002	-8.337165E-003	7.804304E-002	-1.263728E-002	7.809274E-002	-1.263576E-002	-1.056928E-001	1.657643E-002
4.900000E+008	5.300811E-002	-8.470807E-003	7.797912E-002	-1.286635E-002	7.802459E-002	-1.288545E-002	-1.055374E-001	1.694568E-002
5.000000E+008	5.290488E-002	-8.598943E-003	7.790934E-002	-1.311733E-002	7.796490E-002	-1.311718E-002	-1.053561E-001	1.728997E-002
5.100000E+008	5.282485E-002	-8.749228E-003	7.786020E-002	-1.337868E-002	7.791293E-002	-1.336017E-002	-1.051687E-001	1.764765E-002
5.200000E+008	5.268906E-002	-8.928261E-003	7.779886E-002	-1.361577E-002	7.786071E-002	-1.361783E-002	-1.049813E-001	1.799380E-002
5.300000E+008	5.255185E-002	-9.103598E-003	7.773609E-002	-1.387559E-002	7.780268E-002	-1.387072E-002	-1.047446E-001	1.834649E-002
5.400000E+008	5.241151E-002	-9.324917E-003	7.767660E-002	-1.410985E-002	7.772713E-002	-1.412798E-002	-1.045111E-001	1.869342E-002
5.500000E+008	5.227442E-002	-9.509269E-003	7.760121E-002	-1.436047E-002	7.765821E-002	-1.435748E-002	-1.042882E-001	1.907076E-002
5.600000E+008	5.215135E-002	-9.732230E-003	7.752656E-002	-1.460017E-002	7.758534E-002	-1.460914E-002	-1.040700E-001	1.946116E-002
5.700000E+008	5.205867E-002	-9.953099E-003	7.745962E-002	-1.483255E-002	7.752672E-002	-1.484523E-002	-1.038866E-001	1.986569E-002
5.800000E+008	5.196741E-002	-1.014430E-002	7.740094E-002	-1.508477E-002	7.746336E-002	-1.507211E-002	-1.037088E-001	2.031253E-002
5.900000E+008	5.186943E-002	-1.038663E-002	7.732120E-002	-1.533781E-002	7.739419E-002	-1.534687E-002	-1.035359E-001	2.075570E-002
6.000000E+008	5.183267E-002	-1.059073E-002	7.725425E-002	-1.556850E-002	7.732901E-002	-1.558707E-002	-1.033253E-001	2.115450E-002
6.100000E+008	5.180462E-002	-1.079380E-002	7.719865E-002	-1.581610E-002	7.723111E-002	-1.583387E-002	-1.031563E-001	2.156039E-002
6.200000E+008	5.176412E-002	-1.094006E-002	7.711874E-002	-1.606200E-002	7.718212E-002	-1.607199E-002	-1.029741E-001	2.195737E-002
6.300000E+008	5.175585E-002	-1.107895E-002	7.702568E-002	-1.629276E-002	7.710221E-002	-1.631027E-002	-1.027879E-001	2.234288E-002
6.400000E+008	5.171207E-002	-1.119940E-002	7.697429E-002	-1.652884E-002	7.703209E-002	-1.653387E-002	-1.025928E-001	2.273570E-002
6.500000E+008	5.168141E-002	-1.132496E-002	7.689405E-002	-1.676740E-002	7.695551E-002	-1.677205E-002	-1.024083E-001	2.313806E-002
6.600000E+008	5.162140E-002	-1.144759E-002	7.681908E-002	-1.701392E-002	7.688449E-002	-1.702109E-002	-1.022104E-001	2.354361E-002
6.700000E+008	5.151558E-002	-1.154322E-002	7.675237E-002	-1.724483E-002	7.680154E-002	-1.724978E-002	-1.020259E-001	2.396899E-002
6.800000E+008	5.138299E-002	-1.165904E-002	7.667073E-002	-1.748011E-002	7.673999E-002	-1.749810E-002	-1.018402E-001	2.441089E-002
6.900000E+008	5.128501E-002	-1.173907E-002	7.659729E-002	-1.771225E-002	7.665429E-002	-1.773421E-002	-1.016519E-001	2.484828E-002
7.000000E+008	5.116433E-002	-1.187083E-002	7.653524E-002	-1.796506E-002	7.657471E-002	-1.794249E-002	-1.015028E-001	2.528997E-002
7.100000E+008	5.105890E-002	-1.200472E-002	7.644868E-002	-1.817378E-002	7.650684E-002	-1.817970E-002	-1.013907E-001	2.569958E-002
7.200000E+008	5.092381E-002	-1.213065E-002	7.637718E-002	-1.840493E-002	7.643534E-002	-1.842308E-002	-1.012643E-001	2.611638E-002
7.300000E+008	5.080275E-002	-1.227003E-002	7.630033E-002	-1.865259E-002	7.637222E-002	-1.866966E-002	-1.011432E-001	2.647669E-002
7.400000E+008	5.066688E-002	-1.241351E-002	7.622659E-002	-1.889709E-002	7.628587E-002	-1.890766E-002	-1.010379E-001	2.686097E-002
7.500000E+008	5.056535E-002	-1.255893E-002	7.614729E-002	-1.912455E-002	7.620389E-002	-1.913979E-002	-1.009028E-001	2.720364E-002
7.600000E+008	5.045127E-002	-1.272510E-002	7.607256E-002	-1.934446E-002	7.612105E-002	-1.936301E-002	-1.007656E-001	2.754409E-002
7.700000E+008	5.032032E-002	-1.289653E-002	7.598055E-002	-1.958714E-002	7.604050E-002	-1.960628E-002	-1.006141E-001	2.785688E-002
7.800000E+008	5.022196E-002	-1.306350E-002	7.591069E-002	-1.981434E-002	7.598394E-002	-1.983404E-002	-1.004446E-001	2.817058E-002
7.900000E+008	5.012045E-002	-1.325365E-002	7.582858E-002	-2.005337E-002	7.588926E-002	-2.006689E-002	-1.002601E-001	2.852569E-002
8.000000E+008	5.003741E-002	-1.345955E-002	7.574296E-002	-2.026942E-002	7.578605E-002	-2.030450E-002	-1.000431E-001	2.887444E-002
8.100000E+008	4.994352E-002	-1.364732E-002	7.565115E-002	-2.050687E-002	7.570395E-002	-2.052941E-002	-9.978468E-002	2.925939E-002
8.200000E+008	4.990684E-002	-1.381009E-002	7.557474E-002	-2.074288E-002	7.562736E-002	-2.074970E-002	-9.956074E-002	2.963191E-002
8.300000E+008	4.988729E-002	-1.397405E-002	7.548909E-002	-2.096837E-002	7.555529E-002	-2.098012E-002	-9.935489E-002	2.999690E-002
8.400000E+008	4.982980E-002	-1.411412E-002	7.539544E-002	-2.118653E-002	7.546702E-002	-2.121380E-002	-9.913762E-002	3.039088E-002
8.500000E+008	4.980688E-002	-1.423752E-002	7.532230E-002	-2.142730E-002	7.538817E-002	-2.143623E-002	-9.898739E-002	3.076666E-002
8.600000E+008	4.974715E-002	-1.434935E-002	7.523929E-002	-2.166398E-002	7.529962E-002	-2.165823E-002	-9.881022E-002	3.115099E-002
8.700000E+008	4.967324E-002	-1.443611E-002	7.516065E-002	-2.187770E-002	7.520249E-002	-2.190956E-002	-9.866158E-002	3.151499E-002
8.800000E+008	4.962703E-002	-1.451084E-002	7.507516E-002	-2.210241E-002	7.511991E-002	-2.212767E-002	-9.849631E-002	3.185935E-002
8.900000E+008	4.953227E-002	-1.462101E-002	7.497891E-002	-2.233581E-002	7.503121E-002	-2.236155E-002	-9.833365E-002	3.220484E-002
9.000000E+008	4.944133E-002	-1.471724E-002	7.488328E-002	-2.257240E-002	7.495086E-002	-2.257980E-002	-9.814376E-002	3.253941E-002
9.100000E+008	4.929990E-002	-1.483028E-002	7.479651E-002	-2.279308E-002	7.485723E-002	-2.282361E-002	-9.791618E-002	3.285758E-002
9.200000E+008	4.919077E-002	-1.496815E-002	7.471220E-002	-2.301471E-002	7.476791E-002	-2.305485E-002	-9.765614E-002	3.320147E-002
9.300000E+008	4.912175E-002	-1.510092E-002	7.461636E-002	-2.324567E-002	7.468277E-002	-2.326321E-002	-9.737279E-002	3.355192E-002
9.400000E+008	4.904363E-002	-1.526671E-002	7.452198E-002	-2.346138E-002	7.459186E-002	-2.349076E-002	-9.704995E-002	3.391149E-002
9.500000E+008	4.897217E-002	-1.539802E-002	7.444605E-002	-2.370380E-002	7.450350E-002	-2.371477E-002	-9.674049E-002	3.433224E-002
9.600000E+008	4.890773E-002	-1.550290E-002	7.434756E-002	-2.391042E-002	7.441049E-002	-2.393675E-002	-9.642301E-002	3.475047E-002
9.700000E+008	4.887160E-002	-1.561213E-002	7.425545E-002	-2.413144E-002	7.432714E-002	-2.415764E-002	-9.610878E-002	3.517709E-002
9.800000E+008	4.882788E-002	-1.571484E-002	7.416847E-002	-2.435192E-002	7.423261E-002	-2.437978E-002	-9.583896E-002	3.563924E-002
9.900000E+008	4.878862E-002	-1.579366E-002	7.410509E-002	-2.457925E-002	7.413956E-002	-2.460921E-002	-9.557575E-002	3.609244E-002
1.000000E+009	4.872279E-002	-1.586974E-002	7.399794E-002	-2.480806E-002	7.403074E-002	-2.483990E-002	-9.538746E-002	3.651793E-002
1.010000E+009	4.864767E-002	-1.591724E-002	7.390413E-002	-2.503271E-002	7.394723E-002	-2.505407E-002	-9.514792E-002	3.697955E-002
1.020000E+009	4.855768E-002	-1.598430E-002	7.381539E-002	-2.526244E-002	7.385999E-002	-2.527381E-002	-9.494475E-002	3.740494E-002
1.030000E+009	4.847300E-002	-1.605551E-002	7.369906E-002	-2.547464E-002	7.377372E-002	-2.548950E-002	-9.474932E-002	3.784173E-002
1.040000E+009	4.836974E-002	-1.610454E-002	7.359343E-002	-2.570675E-002	7.366915E-002	-2.571791E-002	-9.453004E-002	3.827593E-002
1.050000E+009	4.827543E-002	-1.621525E-002	7.351804E-002	-2.591907E-002	7.356799E-002	-2.593596E-002	-9.428196E-002	3.870895E-002
1.060000E+009	4.819733E-002	-1.628662E-002	7.342223E-002	-2.614708E-002	7.347760E-002	-2.616333E-002	-9.403498E-002	3.912999E-002
1.070000E+009	4.808121E-002	-1.638832E-002	7.333674E-002	-2.635283E-002	7.338545E-002	-2.637367E-002	-9.378233E-002	3.957313E-002
1.080000E+009	4.799738E-002	-1.647362E-002	7.322996E-002	-2.657626E-002	7.329679E-002	-2.659414E-002	-9.351051E-002	4.000718E-002
1.090000E+009	4.791543E-002	-1.653781E-002	7.314306E-002	-2.680290E-002	7.319981E-002	-2.681920E-002	-9.330226E-002	4.043411E-002
1.100000E+009	4.783241E-002	-1.664971E-002	7.301833E-002	-2.703088E-002	7.309555E-002	-2.704046E-002	-9.305932E-002	4.086499E-002
1.110000E+009	4.773958E-002	-1.675072E-002	7.292454E-002	-2.724521E-002	7.300316E-002	-2.726921E-002	-9.283149E-002	4.131429E-002
1.120000E+009	4.763855E-002	-1.681320E-002	7.284185E-002	-2.745725E-002	7.289625E-002	-2.749505E-002	-9.266311E-002	4.171636E-002
1.130000E+009	4.755335E-002	-1.689409E-002	7.274772E-002	-2.767219E-002	7.281671E-002	-2.769814E-002	-9.244823E-002	4.212616E-002
1.140000E+009	4.744340E-002	-1.698000E-002	7.263114E-002	-2.790288E-002	7.271547E-002	-2.792640E-002	-9.222347E-002	4.254535E-002
1.150000E+009	4.736279E-002	-1.707323E-002	7.253968E-002	-2.811197E-002	7.260338E-002	-2.814671E-002	-9.200124E-002	4.296105E-002
1.160000E+009	4.724632E-002	-1.714295E-002	7.243389E-002	-2.832923E-002	7.248611E-002	-2.837519E-002	-9.174973E-002	4.335446E-002
1.170000E+009	4.717117E-002	-1.722496E-002	7.231372E-002	-2.856564E-002	7.239238E-002	-2.857714E-002	-9.149412E-002	4.381261E-002
1.180000E+009	4.708275E-002	-1.732112E-002	7.222271E-002	-2.877669E-002	7.229711E-002	-2.879843E-002	-9.121182E-002	4.422752E-002
1.190000E+009	4.695359E-002	-1.737891E-002	7.210697E-002	-2.899617E-002	7.217389E-002	-2.901898E-002	-9.095500E-002	4.467997E-002
1.200000E+009	4.684914E-002	-1.748030E-002	7.200938E-002	-2.922373E-002	7.205653E-002	-2.922221E-002	-9.068149E-002	4.513998E-002
1.210000E+009	4.679376E-002	-1.758918E-002	7.189672E-002	-2.942120E-002	7.196236E-002	-2.945583E-002	-9.043561E-002	4.560232E-002
1.220000E+009	4.670103E-002	-1.771535E-002	7.178977E-002	-2.962641E-002	7.183722E-002	-2.966272E-002	-9.018049E-002	4.604892E-002
1.230000E+009	4.658655E-002	-1.781903E-002	7.167878E-002	-2.986048E-002	7.173210E-002	-2.987638E-002	-8.997942E-002	4.645330E-002
1.240000E+009	4.652690E-002	-1.793598E-002	7.157038E-002	-3.008439E-002	7.163966E-002	-3.009512E-002	-8.977412E-002	4.688391E-002
1.250000E+009	4.645803E-002	-1.805497E-002	7.145915E-002	-3.027669E-002	7.153138E-002	-3.031731E-002	-8.957822E-002	4.727384E-002
1.260000E+009	4.637733E-002	-1.814763E-002	7.134986E-002	-3.050220E-002	7.141120E-002	-3.051751E-002	-8.934832E-002	4.761698E-002
1.270000E+009	4.637933E-002	-1.825687E-002	7.124329E-002	-3.070992E-002	7.130858E-002	-3.073674E-002	-8.907560E-002	4.797627E-002
1.280000E+009	4.631765E-002	-1.833387E-002	7.115552E-002	-3.093457E-002	7.120566E-002	-3.096805E-002	-8.879327E-002	4.831446E-002
1.290000E+009	4.628074E-002	-1.839620E-002	7.102877E-002	-3.115432E-002	7.109165E-002	-3.117583E-002	-8.846505E-002	4.868602E-002
1.300000E+009	4.622986E-002	-1.843730E-002	7.090318E-002	-3.136816E-002	7.097440E-002	-3.139449E-002	-8.813209E-002	4.905919E-002
1.310000E+009	4.616635E-002	-1.849383E-002	7.079210E-002	-3.157688E-002	7.086580E-002	-3.159522E-002	-8.780710E-002	4.946093E-002
1.320000E+009	4.609275E-002	-1.853917E-002	7.067322E-002	-3.179354E-002	7.073104E-002	-3.182608E-002	-8.740883E-002	4.990927E-002
1.330000E+009	4.602245E-002	-1.856532E-002	7.057429E-002	-3.200055E-002	7.063387E-002	-3.202474E-002	-8.700289E-002	5.040908E-002
1.340000E+009	4.592115E-002	-1.861323E-002	7.044684E-002	-3.221174E-002	7.050907E-002	-3.224273E-002	-8.662220E-002	5.092129E-002
1.350000E+009	4.582044E-002	-1.865542E-002	7.032630E-002	-3.242965E-002	7.038986E-002	-3.244883E-002	-8.627007E-002	5.143782E-002
1.360000E+009	4.578035E-002	-1.867945E-002	7.020851E-002	-3.264081E-002	7.029231E-002	-3.267663E-002	-8.592799E-002	5.198921E-002
1.370000E+009	4.567869E-002	-1.874295E-002	7.008858E-002	-3.285009E-002	7.013950E-002	-3.285739E-002	-8.561920E-002	5.256228E-002
1.380000E+009	4.560625E-002	-1.879978E-002	6.996501E-002	-3.306499E-002	7.003611E-002	-3.307332E-002	-8.530642E-002	5.308620E-002
1.390000E+009	4.552625E-002	-1.887370E-002	6.984981E-002	-3.327371E-002	6.990647E-002	-3.329756E-002	-8.505308E-002	5.366727E-002
1.400000E+009	4.544768E-002	-1.893117E-002	6.970779E-002	-3.348623E-002	6.978436E-002	-3.349768E-002	-8.478150E-002	5.419988E-002
1.410000E+009	4.535510E-002	-1.897589E-002	6.960856E-002	-3.367843E-002	6.965974E-002	-3.371474E-002	-8.452110E-002	5.471594E-002
1.420000E+009	4.524861E-002	-1.899754E-002	6.947312E-002	-3.387860E-002	6.954384E-002	-3.391684E-002	-8.426907E-002	5.520405E-002
1.430000E+009	4.517229E-002	-1.905059E-002	6.935788E-002	-3.408652E-002	6.942416E-002	-3.411789E-002	-8.397920E-002	5.566487E-002
1.440000E+009	4.507274E-002	-1.908668E-002	6.922422E-002	-3.429983E-002	6.929286E-002	-3.433911E-002	-8.371092E-002	5.614892E-002
1.450000E+009	4.497481E-002	-1.913071E-002	6.908741E-002	-3.452117E-002	6.916759E-002	-3.452036E-002	-8.339621E-002	5.662428E-002
1.460000E+009	4.484372E-002	-1.918800E-002	6.897622E-002	-3.471149E-002	6.903786E-002	-3.474266E-002	-8.309315E-002	5.710549E-002
1.470000E+009	4.474643E-002	-1.925725E-002	6.884391E-002	-3.492364E-002	6.892467E-002	-3.497247E-002	-8.275876E-002	5.761925E-002
1.480000E+009	4.463364E-002	-1.929584E-002	6.870510E-002	-3.511521E-002	6.876028E-002	-3.514660E-002	-8.241135E-002	5.815459E-002
1.490000E+009	4.454117E-002	-1.933018E-002	6.857439E-002	-3.533615E-002	6.865699E-002	-3.535324E-002	-8.206637E-002	5.870082E-002
1.500000E+009	4.445215E-002	-1.941448E-002	6.845520E-002	-3.552489E-002	6.850806E-002	-3.553867E-002	-8.172073E-002	5.924146E-002
