! Device ID: PE43711P
! File Path: z:\PE43711P\CHAR_NOM_04282014\AMB\3p300\LS_ATT_15p00dB\PE43711P_AMB_3p300V_3p000V_0p000V_LS_ATT_15p00dB_S2P_SN_5_A0137A.s2p
! Serial: 5
! Lot: A0137A
! Temp: 25C
! VDD: 3.300
! VSS: 0.000
! Control_Hi: 3.000
! Control_Lo: 0.000
! Attenuation Step: 15.00dB
! Port 1: RF1
! Port 2: RF2
! ThroughPath:1-2
! IDD: 0.0001284032
! ISS: -1.818e-007
!

#  Hz  S   RI  R   50

1.000000E+007	6.389522E-002	5.378078E-005	1.555950E-001	-7.537765E-004	1.557175E-001	-7.949774E-004	-1.173509E-001	9.460289E-004
2.000000E+007	6.409158E-002	-5.599759E-005	1.555688E-001	-1.136910E-003	1.556591E-001	-1.182451E-003	-1.170746E-001	1.508428E-003
3.000000E+007	6.434954E-002	-2.380288E-004	1.555591E-001	-1.735061E-003	1.556737E-001	-1.737198E-003	-1.167568E-001	1.993817E-003
4.000000E+007	6.450605E-002	-4.527821E-004	1.555769E-001	-2.308174E-003	1.556641E-001	-2.317512E-003	-1.165698E-001	2.571797E-003
5.000000E+007	6.460386E-002	-6.922351E-004	1.555453E-001	-2.931238E-003	1.556864E-001	-2.926641E-003	-1.165309E-001	3.138201E-003
6.000000E+007	6.474467E-002	-9.815976E-004	1.555150E-001	-3.503871E-003	1.556605E-001	-3.512224E-003	-1.164077E-001	3.571800E-003
7.000000E+007	6.485529E-002	-1.277747E-003	1.554746E-001	-4.065570E-003	1.556113E-001	-4.082303E-003	-1.162255E-001	4.018931E-003
8.000000E+007	6.496893E-002	-1.565453E-003	1.554477E-001	-4.611252E-003	1.555825E-001	-4.628739E-003	-1.160568E-001	4.429026E-003
9.000000E+007	6.506250E-002	-1.833172E-003	1.554192E-001	-5.169670E-003	1.555407E-001	-5.189040E-003	-1.159430E-001	4.814983E-003
1.000000E+008	6.515354E-002	-2.122923E-003	1.553983E-001	-5.753736E-003	1.555004E-001	-5.770591E-003	-1.158801E-001	5.209189E-003
1.100000E+008	6.524791E-002	-2.418429E-003	1.553612E-001	-6.343295E-003	1.554686E-001	-6.329279E-003	-1.157985E-001	5.587359E-003
1.200000E+008	6.535856E-002	-2.756991E-003	1.552705E-001	-6.911301E-003	1.554176E-001	-6.921327E-003	-1.157053E-001	5.916167E-003
1.300000E+008	6.542290E-002	-3.056760E-003	1.552318E-001	-7.468293E-003	1.553593E-001	-7.482635E-003	-1.155997E-001	6.250721E-003
1.400000E+008	6.546165E-002	-3.338470E-003	1.551939E-001	-8.036241E-003	1.553036E-001	-8.044509E-003	-1.154859E-001	6.579158E-003
1.500000E+008	6.542833E-002	-3.606626E-003	1.551278E-001	-8.570466E-003	1.552273E-001	-8.602707E-003	-1.153781E-001	6.888247E-003
1.600000E+008	6.541916E-002	-3.820448E-003	1.550964E-001	-9.129429E-003	1.551612E-001	-9.117998E-003	-1.153447E-001	7.226356E-003
1.700000E+008	6.544383E-002	-4.095223E-003	1.550438E-001	-9.725028E-003	1.551752E-001	-9.696260E-003	-1.153083E-001	7.561361E-003
1.800000E+008	6.542589E-002	-4.385096E-003	1.549196E-001	-1.032959E-002	1.551308E-001	-1.031961E-002	-1.152399E-001	7.879929E-003
1.900000E+008	6.534567E-002	-4.696256E-003	1.548234E-001	-1.084700E-002	1.550227E-001	-1.086760E-002	-1.151868E-001	8.142895E-003
2.000000E+008	6.525916E-002	-5.003741E-003	1.547578E-001	-1.139734E-002	1.549323E-001	-1.138768E-002	-1.151236E-001	8.410330E-003
2.100000E+008	6.517515E-002	-5.386603E-003	1.546995E-001	-1.192257E-002	1.548462E-001	-1.194013E-002	-1.150313E-001	8.633600E-003
2.200000E+008	6.510245E-002	-5.715775E-003	1.546464E-001	-1.244891E-002	1.547726E-001	-1.246404E-002	-1.149053E-001	8.836618E-003
2.300000E+008	6.503987E-002	-6.061344E-003	1.545807E-001	-1.299146E-002	1.546983E-001	-1.300770E-002	-1.147920E-001	9.040374E-003
2.400000E+008	6.498856E-002	-6.409382E-003	1.545005E-001	-1.356353E-002	1.546118E-001	-1.354913E-002	-1.146441E-001	9.302325E-003
2.500000E+008	6.494348E-002	-6.734570E-003	1.544118E-001	-1.412127E-002	1.545224E-001	-1.410490E-002	-1.144847E-001	9.528260E-003
2.600000E+008	6.490992E-002	-7.080108E-003	1.543027E-001	-1.467127E-002	1.544328E-001	-1.465737E-002	-1.142863E-001	9.831191E-003
2.700000E+008	6.489859E-002	-7.407903E-003	1.541971E-001	-1.520024E-002	1.543368E-001	-1.521143E-002	-1.140706E-001	1.015645E-002
2.800000E+008	6.492815E-002	-7.693555E-003	1.541085E-001	-1.572279E-002	1.542465E-001	-1.572883E-002	-1.138626E-001	1.046006E-002
2.900000E+008	6.485843E-002	-7.958214E-003	1.540390E-001	-1.624422E-002	1.541500E-001	-1.624724E-002	-1.137197E-001	1.079591E-002
3.000000E+008	6.481621E-002	-8.188076E-003	1.539610E-001	-1.679575E-002	1.540640E-001	-1.678241E-002	-1.135927E-001	1.117067E-002
3.100000E+008	6.475493E-002	-8.433299E-003	1.538590E-001	-1.734785E-002	1.539759E-001	-1.732456E-002	-1.134718E-001	1.155295E-002
3.200000E+008	6.466061E-002	-8.631507E-003	1.537651E-001	-1.789553E-002	1.538995E-001	-1.788327E-002	-1.133817E-001	1.193559E-002
3.300000E+008	6.453770E-002	-8.852327E-003	1.536743E-001	-1.842363E-002	1.537875E-001	-1.845734E-002	-1.132980E-001	1.227547E-002
3.400000E+008	6.437885E-002	-9.092560E-003	1.535447E-001	-1.896557E-002	1.536377E-001	-1.902759E-002	-1.131875E-001	1.257919E-002
3.500000E+008	6.419862E-002	-9.335827E-003	1.534436E-001	-1.951828E-002	1.534991E-001	-1.951430E-002	-1.130590E-001	1.284259E-002
3.600000E+008	6.402517E-002	-9.586105E-003	1.533377E-001	-2.005060E-002	1.533720E-001	-2.000342E-002	-1.129109E-001	1.312535E-002
3.700000E+008	6.386908E-002	-9.858305E-003	1.531903E-001	-2.054903E-002	1.532836E-001	-2.048946E-002	-1.127380E-001	1.336993E-002
3.800000E+008	6.372858E-002	-1.014963E-002	1.530872E-001	-2.107591E-002	1.532261E-001	-2.102702E-002	-1.125543E-001	1.366534E-002
3.900000E+008	6.357573E-002	-1.045506E-002	1.529521E-001	-2.162079E-002	1.531021E-001	-2.156678E-002	-1.122716E-001	1.400052E-002
4.000000E+008	6.346561E-002	-1.078904E-002	1.528099E-001	-2.211357E-002	1.529718E-001	-2.211353E-002	-1.119711E-001	1.432939E-002
4.100000E+008	6.332051E-002	-1.109337E-002	1.527204E-001	-2.258937E-002	1.528483E-001	-2.263209E-002	-1.117112E-001	1.465949E-002
4.200000E+008	6.319226E-002	-1.140840E-002	1.526228E-001	-2.310901E-002	1.527299E-001	-2.313673E-002	-1.115065E-001	1.506196E-002
4.300000E+008	6.309816E-002	-1.166736E-002	1.525070E-001	-2.362896E-002	1.526117E-001	-2.366848E-002	-1.112759E-001	1.547305E-002
4.400000E+008	6.299144E-002	-1.191167E-002	1.523829E-001	-2.416619E-002	1.525027E-001	-2.417400E-002	-1.111230E-001	1.593682E-002
4.500000E+008	6.290157E-002	-1.215743E-002	1.522730E-001	-2.468551E-002	1.523902E-001	-2.469624E-002	-1.109456E-001	1.642375E-002
4.600000E+008	6.278222E-002	-1.241935E-002	1.521457E-001	-2.522119E-002	1.522443E-001	-2.523683E-002	-1.107660E-001	1.689842E-002
4.700000E+008	6.265555E-002	-1.266573E-002	1.520067E-001	-2.572594E-002	1.521003E-001	-2.574720E-002	-1.106222E-001	1.731453E-002
4.800000E+008	6.251787E-002	-1.286097E-002	1.518854E-001	-2.623181E-002	1.519647E-001	-2.624010E-002	-1.104907E-001	1.774864E-002
4.900000E+008	6.234049E-002	-1.306629E-002	1.517567E-001	-2.673920E-002	1.518392E-001	-2.674043E-002	-1.103654E-001	1.816060E-002
5.000000E+008	6.219257E-002	-1.327760E-002	1.516118E-001	-2.724706E-002	1.516990E-001	-2.724313E-002	-1.102086E-001	1.854985E-002
5.100000E+008	6.204265E-002	-1.349892E-002	1.514900E-001	-2.775368E-002	1.515808E-001	-2.775292E-002	-1.100440E-001	1.893941E-002
5.200000E+008	6.187444E-002	-1.376203E-002	1.513522E-001	-2.827325E-002	1.514648E-001	-2.827906E-002	-1.098770E-001	1.932957E-002
5.300000E+008	6.170049E-002	-1.401572E-002	1.512216E-001	-2.877901E-002	1.513277E-001	-2.880881E-002	-1.096381E-001	1.971406E-002
5.400000E+008	6.150274E-002	-1.431861E-002	1.510717E-001	-2.927503E-002	1.511849E-001	-2.930523E-002	-1.094283E-001	2.010517E-002
5.500000E+008	6.133608E-002	-1.455416E-002	1.509425E-001	-2.978570E-002	1.510219E-001	-2.980687E-002	-1.092168E-001	2.053004E-002
5.600000E+008	6.116178E-002	-1.485303E-002	1.507835E-001	-3.028985E-002	1.508676E-001	-3.031187E-002	-1.089984E-001	2.095331E-002
5.700000E+008	6.102012E-002	-1.513394E-002	1.506388E-001	-3.077956E-002	1.507407E-001	-3.079757E-002	-1.088589E-001	2.145669E-002
5.800000E+008	6.087722E-002	-1.539416E-002	1.504821E-001	-3.129500E-002	1.505918E-001	-3.130383E-002	-1.086973E-001	2.190131E-002
5.900000E+008	6.074524E-002	-1.569477E-002	1.503380E-001	-3.179999E-002	1.504585E-001	-3.183638E-002	-1.085350E-001	2.242408E-002
6.000000E+008	6.064692E-002	-1.597350E-002	1.501848E-001	-3.231001E-002	1.502991E-001	-3.233074E-002	-1.083582E-001	2.286500E-002
6.100000E+008	6.055071E-002	-1.623985E-002	1.500368E-001	-3.278478E-002	1.501235E-001	-3.283784E-002	-1.081944E-001	2.331257E-002
6.200000E+008	6.047978E-002	-1.645384E-002	1.498833E-001	-3.328416E-002	1.499640E-001	-3.330032E-002	-1.080350E-001	2.374676E-002
6.300000E+008	6.041568E-002	-1.667044E-002	1.497197E-001	-3.376938E-002	1.498128E-001	-3.380227E-002	-1.078620E-001	2.417909E-002
6.400000E+008	6.033358E-002	-1.687535E-002	1.495598E-001	-3.426052E-002	1.496564E-001	-3.428501E-002	-1.076793E-001	2.461821E-002
6.500000E+008	6.024853E-002	-1.706462E-002	1.494063E-001	-3.474052E-002	1.495114E-001	-3.475927E-002	-1.075009E-001	2.508786E-002
6.600000E+008	6.014149E-002	-1.724360E-002	1.492681E-001	-3.523886E-002	1.493429E-001	-3.527824E-002	-1.073115E-001	2.555422E-002
6.700000E+008	5.997694E-002	-1.740562E-002	1.491177E-001	-3.573160E-002	1.491811E-001	-3.575788E-002	-1.071491E-001	2.602163E-002
6.800000E+008	5.980722E-002	-1.757076E-002	1.489450E-001	-3.621194E-002	1.490223E-001	-3.625591E-002	-1.069786E-001	2.652167E-002
6.900000E+008	5.964543E-002	-1.770607E-002	1.487569E-001	-3.669765E-002	1.488456E-001	-3.673059E-002	-1.068078E-001	2.703400E-002
7.000000E+008	5.949123E-002	-1.789407E-002	1.486021E-001	-3.719259E-002	1.486914E-001	-3.720524E-002	-1.066883E-001	2.751459E-002
7.100000E+008	5.931728E-002	-1.809391E-002	1.484500E-001	-3.765697E-002	1.485342E-001	-3.768031E-002	-1.065882E-001	2.797586E-002
7.200000E+008	5.913323E-002	-1.828927E-002	1.482642E-001	-3.813584E-002	1.483816E-001	-3.817640E-002	-1.064562E-001	2.844974E-002
7.300000E+008	5.896208E-002	-1.850916E-002	1.481021E-001	-3.862119E-002	1.482232E-001	-3.868408E-002	-1.063551E-001	2.884713E-002
7.400000E+008	5.877197E-002	-1.868908E-002	1.479297E-001	-3.910633E-002	1.480557E-001	-3.915596E-002	-1.062695E-001	2.929542E-002
7.500000E+008	5.860690E-002	-1.891201E-002	1.477506E-001	-3.959685E-002	1.478740E-001	-3.963745E-002	-1.061369E-001	2.966298E-002
7.600000E+008	5.844576E-002	-1.913633E-002	1.476032E-001	-4.006867E-002	1.477245E-001	-4.011523E-002	-1.060158E-001	3.008180E-002
7.700000E+008	5.827773E-002	-1.937274E-002	1.474285E-001	-4.054364E-002	1.475395E-001	-4.057250E-002	-1.058459E-001	3.042400E-002
7.800000E+008	5.810568E-002	-1.957961E-002	1.472496E-001	-4.103025E-002	1.473722E-001	-4.106403E-002	-1.056811E-001	3.081124E-002
7.900000E+008	5.797274E-002	-1.985215E-002	1.470938E-001	-4.150828E-002	1.471930E-001	-4.155769E-002	-1.055339E-001	3.121332E-002
8.000000E+008	5.782543E-002	-2.008135E-002	1.469078E-001	-4.197852E-002	1.469968E-001	-4.202218E-002	-1.053319E-001	3.163023E-002
8.100000E+008	5.767732E-002	-2.033641E-002	1.467107E-001	-4.244053E-002	1.468245E-001	-4.250342E-002	-1.050740E-001	3.209075E-002
8.200000E+008	5.758269E-002	-2.054920E-002	1.465451E-001	-4.292333E-002	1.466235E-001	-4.296171E-002	-1.048637E-001	3.249778E-002
8.300000E+008	5.749894E-002	-2.077380E-002	1.463495E-001	-4.340571E-002	1.464815E-001	-4.344012E-002	-1.046723E-001	3.293304E-002
8.400000E+008	5.740804E-002	-2.097677E-002	1.461752E-001	-4.386121E-002	1.462829E-001	-4.391755E-002	-1.044674E-001	3.337073E-002
8.500000E+008	5.732843E-002	-2.116608E-002	1.460103E-001	-4.432660E-002	1.461139E-001	-4.438923E-002	-1.043164E-001	3.380386E-002
8.600000E+008	5.722128E-002	-2.133781E-002	1.458174E-001	-4.479084E-002	1.459203E-001	-4.484825E-002	-1.041642E-001	3.425133E-002
8.700000E+008	5.709119E-002	-2.148146E-002	1.456319E-001	-4.527505E-002	1.457316E-001	-4.532812E-002	-1.039972E-001	3.467761E-002
8.800000E+008	5.699945E-002	-2.162498E-002	1.454632E-001	-4.575452E-002	1.455575E-001	-4.577519E-002	-1.038570E-001	3.507769E-002
8.900000E+008	5.683048E-002	-2.176538E-002	1.452560E-001	-4.620744E-002	1.453613E-001	-4.626532E-002	-1.037027E-001	3.548170E-002
9.000000E+008	5.668768E-002	-2.190707E-002	1.450558E-001	-4.668327E-002	1.451838E-001	-4.672729E-002	-1.035083E-001	3.589233E-002
9.100000E+008	5.651191E-002	-2.206445E-002	1.448621E-001	-4.714204E-002	1.449851E-001	-4.719723E-002	-1.032864E-001	3.627369E-002
9.200000E+008	5.632203E-002	-2.226236E-002	1.446906E-001	-4.761237E-002	1.448016E-001	-4.766955E-002	-1.030374E-001	3.667999E-002
9.300000E+008	5.619669E-002	-2.244850E-002	1.444860E-001	-4.807187E-002	1.445858E-001	-4.813703E-002	-1.027803E-001	3.709352E-002
9.400000E+008	5.605242E-002	-2.264376E-002	1.442917E-001	-4.850262E-002	1.444147E-001	-4.857526E-002	-1.024566E-001	3.752746E-002
9.500000E+008	5.592553E-002	-2.285227E-002	1.441199E-001	-4.899112E-002	1.442107E-001	-4.904051E-002	-1.021584E-001	3.801668E-002
9.600000E+008	5.582957E-002	-2.301746E-002	1.438970E-001	-4.944228E-002	1.440292E-001	-4.951089E-002	-1.018250E-001	3.847162E-002
9.700000E+008	5.571033E-002	-2.318219E-002	1.437044E-001	-4.989404E-002	1.438301E-001	-4.996730E-002	-1.015072E-001	3.896066E-002
9.800000E+008	5.562752E-002	-2.331597E-002	1.435408E-001	-5.034658E-002	1.436426E-001	-5.041871E-002	-1.012305E-001	3.947115E-002
9.900000E+008	5.553467E-002	-2.345990E-002	1.433360E-001	-5.081115E-002	1.434354E-001	-5.088388E-002	-1.009750E-001	3.998275E-002
1.000000E+009	5.542395E-002	-2.355268E-002	1.431419E-001	-5.126886E-002	1.432303E-001	-5.135015E-002	-1.007602E-001	4.048115E-002
1.010000E+009	5.528795E-002	-2.366173E-002	1.429419E-001	-5.174028E-002	1.430364E-001	-5.179059E-002	-1.005370E-001	4.100566E-002
1.020000E+009	5.514460E-002	-2.378930E-002	1.427299E-001	-5.219897E-002	1.428189E-001	-5.225102E-002	-1.003318E-001	4.150867E-002
1.030000E+009	5.499871E-002	-2.388262E-002	1.425084E-001	-5.265891E-002	1.426216E-001	-5.271742E-002	-1.001317E-001	4.199907E-002
1.040000E+009	5.482533E-002	-2.399671E-002	1.423199E-001	-5.311218E-002	1.424016E-001	-5.316503E-002	-9.993402E-002	4.248549E-002
1.050000E+009	5.468932E-002	-2.413432E-002	1.421130E-001	-5.354304E-002	1.422057E-001	-5.360462E-002	-9.968435E-002	4.301657E-002
1.060000E+009	5.454646E-002	-2.424915E-002	1.419130E-001	-5.400550E-002	1.419970E-001	-5.405166E-002	-9.944618E-002	4.349708E-002
1.070000E+009	5.436381E-002	-2.440242E-002	1.416892E-001	-5.445778E-002	1.418132E-001	-5.449605E-002	-9.918362E-002	4.397960E-002
1.080000E+009	5.425190E-002	-2.455509E-002	1.414818E-001	-5.491210E-002	1.416017E-001	-5.495866E-002	-9.890924E-002	4.447413E-002
1.090000E+009	5.409574E-002	-2.470007E-002	1.412876E-001	-5.535920E-002	1.413865E-001	-5.540735E-002	-9.866559E-002	4.496858E-002
1.100000E+009	5.395515E-002	-2.480530E-002	1.410383E-001	-5.582050E-002	1.411663E-001	-5.585664E-002	-9.843513E-002	4.545430E-002
1.110000E+009	5.382204E-002	-2.493656E-002	1.408462E-001	-5.627372E-002	1.409633E-001	-5.630342E-002	-9.818397E-002	4.595744E-002
1.120000E+009	5.366090E-002	-2.506823E-002	1.406440E-001	-5.670398E-002	1.407471E-001	-5.675867E-002	-9.801521E-002	4.642033E-002
1.130000E+009	5.350586E-002	-2.519129E-002	1.404193E-001	-5.715917E-002	1.405313E-001	-5.721675E-002	-9.780715E-002	4.690828E-002
1.140000E+009	5.335198E-002	-2.529836E-002	1.402118E-001	-5.762402E-002	1.403169E-001	-5.766348E-002	-9.759805E-002	4.740155E-002
1.150000E+009	5.321488E-002	-2.541196E-002	1.399854E-001	-5.806803E-002	1.400895E-001	-5.811122E-002	-9.732681E-002	4.787847E-002
1.160000E+009	5.302961E-002	-2.554013E-002	1.397628E-001	-5.852023E-002	1.398650E-001	-5.856444E-002	-9.709045E-002	4.833114E-002
1.170000E+009	5.289318E-002	-2.568378E-002	1.395245E-001	-5.895724E-002	1.396344E-001	-5.899682E-002	-9.684965E-002	4.885398E-002
1.180000E+009	5.275204E-002	-2.580598E-002	1.393031E-001	-5.940289E-002	1.394195E-001	-5.943811E-002	-9.654458E-002	4.932703E-002
1.190000E+009	5.258283E-002	-2.591330E-002	1.390745E-001	-5.983598E-002	1.391780E-001	-5.988654E-002	-9.627959E-002	4.983026E-002
1.200000E+009	5.240946E-002	-2.606840E-002	1.388292E-001	-6.028632E-002	1.389602E-001	-6.031206E-002	-9.598808E-002	5.035788E-002
1.210000E+009	5.229540E-002	-2.622447E-002	1.386029E-001	-6.072761E-002	1.387108E-001	-6.075903E-002	-9.572963E-002	5.086338E-002
1.220000E+009	5.213558E-002	-2.638219E-002	1.383988E-001	-6.117623E-002	1.384937E-001	-6.122107E-002	-9.550749E-002	5.140218E-002
1.230000E+009	5.200197E-002	-2.652857E-002	1.381529E-001	-6.160645E-002	1.382736E-001	-6.165738E-002	-9.527392E-002	5.186569E-002
1.240000E+009	5.187806E-002	-2.667784E-002	1.379050E-001	-6.203947E-002	1.380231E-001	-6.208043E-002	-9.506350E-002	5.236315E-002
1.250000E+009	5.174715E-002	-2.683337E-002	1.376811E-001	-6.247838E-002	1.378069E-001	-6.252823E-002	-9.484709E-002	5.284276E-002
1.260000E+009	5.160808E-002	-2.696125E-002	1.374398E-001	-6.293674E-002	1.375329E-001	-6.298750E-002	-9.459700E-002	5.324506E-002
1.270000E+009	5.153825E-002	-2.709469E-002	1.372242E-001	-6.336985E-002	1.373105E-001	-6.340566E-002	-9.432499E-002	5.366487E-002
1.280000E+009	5.140957E-002	-2.723295E-002	1.369827E-001	-6.381645E-002	1.370893E-001	-6.384044E-002	-9.405623E-002	5.409177E-002
1.290000E+009	5.130128E-002	-2.731988E-002	1.367254E-001	-6.426261E-002	1.368453E-001	-6.427930E-002	-9.372951E-002	5.450782E-002
1.300000E+009	5.120053E-002	-2.740610E-002	1.364990E-001	-6.468813E-002	1.366137E-001	-6.472993E-002	-9.338515E-002	5.493671E-002
1.310000E+009	5.108508E-002	-2.751120E-002	1.362297E-001	-6.513589E-002	1.363497E-001	-6.517252E-002	-9.302250E-002	5.540227E-002
1.320000E+009	5.093830E-002	-2.758683E-002	1.359896E-001	-6.556316E-002	1.361151E-001	-6.562720E-002	-9.261324E-002	5.591919E-002
1.330000E+009	5.084309E-002	-2.766026E-002	1.357322E-001	-6.598006E-002	1.358431E-001	-6.604013E-002	-9.218777E-002	5.646961E-002
1.340000E+009	5.067100E-002	-2.772087E-002	1.355023E-001	-6.641620E-002	1.356123E-001	-6.645866E-002	-9.182370E-002	5.705494E-002
1.350000E+009	5.051375E-002	-2.780175E-002	1.352515E-001	-6.684956E-002	1.353365E-001	-6.688628E-002	-9.143962E-002	5.764851E-002
1.360000E+009	5.039604E-002	-2.787821E-002	1.349761E-001	-6.727835E-002	1.350920E-001	-6.733203E-002	-9.107733E-002	5.827723E-002
1.370000E+009	5.024498E-002	-2.794004E-002	1.347373E-001	-6.770188E-002	1.348508E-001	-6.775771E-002	-9.075274E-002	5.890386E-002
1.380000E+009	5.012098E-002	-2.805210E-002	1.344632E-001	-6.813653E-002	1.345861E-001	-6.818053E-002	-9.042000E-002	5.951726E-002
1.390000E+009	4.998891E-002	-2.814466E-002	1.342054E-001	-6.858122E-002	1.343373E-001	-6.863208E-002	-9.018121E-002	6.014323E-002
1.400000E+009	4.982781E-002	-2.823727E-002	1.339327E-001	-6.899644E-002	1.340436E-001	-6.903287E-002	-8.991169E-002	6.074462E-002
1.410000E+009	4.966871E-002	-2.831652E-002	1.336773E-001	-6.942173E-002	1.337754E-001	-6.946943E-002	-8.963591E-002	6.132376E-002
1.420000E+009	4.951605E-002	-2.838256E-002	1.334066E-001	-6.982870E-002	1.335260E-001	-6.988198E-002	-8.934588E-002	6.188600E-002
1.430000E+009	4.939524E-002	-2.844610E-002	1.331433E-001	-7.025048E-002	1.332842E-001	-7.029211E-002	-8.903145E-002	6.243374E-002
1.440000E+009	4.923799E-002	-2.854146E-002	1.328858E-001	-7.066350E-002	1.330002E-001	-7.073565E-002	-8.874878E-002	6.294704E-002
1.450000E+009	4.905274E-002	-2.861612E-002	1.326220E-001	-7.106990E-002	1.327437E-001	-7.114134E-002	-8.841213E-002	6.350377E-002
1.460000E+009	4.887594E-002	-2.867798E-002	1.323321E-001	-7.151233E-002	1.324491E-001	-7.156539E-002	-8.805657E-002	6.405377E-002
1.470000E+009	4.873836E-002	-2.877272E-002	1.320650E-001	-7.192797E-002	1.321748E-001	-7.196982E-002	-8.772969E-002	6.464054E-002
1.480000E+009	4.854483E-002	-2.883710E-002	1.317812E-001	-7.234073E-002	1.319065E-001	-7.239217E-002	-8.740645E-002	6.526097E-002
1.490000E+009	4.839656E-002	-2.891532E-002	1.315286E-001	-7.273951E-002	1.316169E-001	-7.278807E-002	-8.700966E-002	6.588637E-002
1.500000E+009	4.825256E-002	-2.901519E-002	1.312210E-001	-7.316089E-002	1.313359E-001	-7.320937E-002	-8.664526E-002	6.651010E-002
