! Device ID: PE43711P
! File Path: z:\PE43711P\CHAR_NOM_04282014\AMB\3p300\LS_ATT_3p25dB\PE43711P_AMB_3p300V_3p000V_0p000V_LS_ATT_3p25dB_S2P_SN_5_A0137A.s2p
! Serial: 5
! Lot: A0137A
! Temp: 25C
! VDD: 3.300
! VSS: 0.000
! Control_Hi: 3.000
! Control_Lo: 0.000
! Attenuation Step: 3.25dB
! Port 1: RF1
! Port 2: RF2
! ThroughPath:1-2
! IDD: 0.0001281009
! ISS: -1.37e-007
!

#  Hz  S   RI  R   50

1.000000E+007	1.042831E-001	-5.551488E-004	6.085795E-001	-3.217465E-003	6.086557E-001	-3.335436E-003	4.323458E-003	1.717785E-005
2.000000E+007	1.043848E-001	-8.355767E-004	6.084402E-001	-5.243253E-003	6.084189E-001	-5.288766E-003	4.423168E-003	1.981228E-004
3.000000E+007	1.046952E-001	-1.468290E-003	6.084506E-001	-7.877705E-003	6.084249E-001	-7.920557E-003	4.733180E-003	1.760870E-004
4.000000E+007	1.047474E-001	-2.072887E-003	6.084267E-001	-1.052025E-002	6.083942E-001	-1.058924E-002	5.154594E-003	1.258463E-004
5.000000E+007	1.050146E-001	-2.794512E-003	6.083761E-001	-1.339131E-002	6.083498E-001	-1.334955E-002	5.373492E-003	-1.189981E-004
6.000000E+007	1.052741E-001	-3.594371E-003	6.082559E-001	-1.600074E-002	6.082976E-001	-1.598928E-002	5.522717E-003	-4.670809E-004
7.000000E+007	1.053675E-001	-4.435403E-003	6.080915E-001	-1.865864E-002	6.080899E-001	-1.865256E-002	5.558052E-003	-8.062810E-004
8.000000E+007	1.055448E-001	-5.245033E-003	6.079249E-001	-2.121819E-002	6.079552E-001	-2.121609E-002	5.599465E-003	-1.028321E-003
9.000000E+007	1.056262E-001	-6.019072E-003	6.077885E-001	-2.382475E-002	6.077465E-001	-2.384435E-002	5.720470E-003	-1.310905E-003
1.000000E+008	1.056940E-001	-6.772443E-003	6.076698E-001	-2.648415E-002	6.075586E-001	-2.645274E-002	5.980343E-003	-1.657298E-003
1.100000E+008	1.057550E-001	-7.495761E-003	6.074598E-001	-2.915161E-002	6.074058E-001	-2.905891E-002	6.039101E-003	-2.001687E-003
1.200000E+008	1.058649E-001	-8.247555E-003	6.071224E-001	-3.176290E-002	6.071527E-001	-3.171433E-002	5.893328E-003	-2.329596E-003
1.300000E+008	1.059586E-001	-9.122051E-003	6.069322E-001	-3.434743E-002	6.069259E-001	-3.433070E-002	5.996812E-003	-2.764898E-003
1.400000E+008	1.059743E-001	-1.013773E-002	6.067185E-001	-3.696798E-002	6.066511E-001	-3.700532E-002	6.460257E-003	-3.282395E-003
1.500000E+008	1.058223E-001	-1.101719E-002	6.064431E-001	-3.951485E-002	6.062901E-001	-3.951519E-002	6.837270E-003	-3.692413E-003
1.600000E+008	1.055592E-001	-1.162136E-002	6.062112E-001	-4.203245E-002	6.059271E-001	-4.201636E-002	6.562184E-003	-3.950948E-003
1.700000E+008	1.052073E-001	-1.215682E-002	6.059369E-001	-4.477240E-002	6.058425E-001	-4.456461E-002	5.893589E-003	-4.308400E-003
1.800000E+008	1.049077E-001	-1.283584E-002	6.053184E-001	-4.745399E-002	6.054982E-001	-4.727457E-002	5.381580E-003	-4.773667E-003
1.900000E+008	1.047626E-001	-1.372702E-002	6.048870E-001	-4.992092E-002	6.050633E-001	-4.985115E-002	5.364767E-003	-5.224149E-003
2.000000E+008	1.047551E-001	-1.471508E-002	6.046019E-001	-5.244276E-002	6.046921E-001	-5.237542E-002	5.715285E-003	-5.581098E-003
2.100000E+008	1.047602E-001	-1.572370E-002	6.042981E-001	-5.492408E-002	6.043095E-001	-5.490927E-002	6.095231E-003	-5.917727E-003
2.200000E+008	1.046782E-001	-1.664528E-002	6.039895E-001	-5.737153E-002	6.039548E-001	-5.740291E-002	6.299657E-003	-6.236370E-003
2.300000E+008	1.044737E-001	-1.749377E-002	6.036078E-001	-5.991623E-002	6.035368E-001	-5.989630E-002	6.330853E-003	-6.646229E-003
2.400000E+008	1.042381E-001	-1.832495E-002	6.032002E-001	-6.244650E-002	6.031239E-001	-6.241499E-002	6.284059E-003	-7.106579E-003
2.500000E+008	1.039801E-001	-1.913924E-002	6.027350E-001	-6.500510E-002	6.026653E-001	-6.495492E-002	6.204926E-003	-7.676566E-003
2.600000E+008	1.037606E-001	-2.003454E-002	6.022518E-001	-6.757188E-002	6.022192E-001	-6.746935E-002	6.209849E-003	-8.156398E-003
2.700000E+008	1.035420E-001	-2.083634E-002	6.017228E-001	-7.003712E-002	6.017461E-001	-6.999789E-002	6.298416E-003	-8.557762E-003
2.800000E+008	1.033715E-001	-2.161348E-002	6.012098E-001	-7.246001E-002	6.012587E-001	-7.239308E-002	6.369615E-003	-8.884752E-003
2.900000E+008	1.031212E-001	-2.228294E-002	6.007621E-001	-7.488893E-002	6.007687E-001	-7.482075E-002	6.400452E-003	-9.159368E-003
3.000000E+008	1.029787E-001	-2.291415E-002	6.003624E-001	-7.734500E-002	6.003657E-001	-7.725574E-002	6.451633E-003	-9.412121E-003
3.100000E+008	1.027696E-001	-2.354293E-002	5.998637E-001	-7.979915E-002	5.999201E-001	-7.975306E-002	6.475870E-003	-9.642341E-003
3.200000E+008	1.025482E-001	-2.420111E-002	5.993338E-001	-8.230643E-002	5.994368E-001	-8.224415E-002	6.468972E-003	-9.922902E-003
3.300000E+008	1.022358E-001	-2.484592E-002	5.988742E-001	-8.474119E-002	5.989296E-001	-8.480873E-002	6.415129E-003	-1.024392E-002
3.400000E+008	1.018213E-001	-2.551119E-002	5.982701E-001	-8.722357E-002	5.981823E-001	-8.736186E-002	6.433661E-003	-1.063243E-002
3.500000E+008	1.013763E-001	-2.615807E-002	5.977227E-001	-8.973579E-002	5.974689E-001	-8.965226E-002	6.399350E-003	-1.106693E-002
3.600000E+008	1.010255E-001	-2.677515E-002	5.971531E-001	-9.217175E-002	5.969154E-001	-9.189401E-002	6.398121E-003	-1.138118E-002
3.700000E+008	1.006978E-001	-2.742153E-002	5.964883E-001	-9.445888E-002	5.964451E-001	-9.412533E-002	6.515381E-003	-1.170085E-002
3.800000E+008	1.003361E-001	-2.812609E-002	5.959772E-001	-9.683780E-002	5.960257E-001	-9.659659E-002	6.624991E-003	-1.206986E-002
3.900000E+008	9.992574E-002	-2.881231E-002	5.952944E-001	-9.931033E-002	5.954521E-001	-9.906897E-002	6.719503E-003	-1.244771E-002
4.000000E+008	9.959112E-002	-2.953748E-002	5.946359E-001	-1.015592E-001	5.948621E-001	-1.015307E-001	6.815850E-003	-1.277613E-002
4.100000E+008	9.912419E-002	-3.027198E-002	5.940501E-001	-1.038241E-001	5.942099E-001	-1.039042E-001	6.873260E-003	-1.307711E-002
4.200000E+008	9.863520E-002	-3.091539E-002	5.935436E-001	-1.062110E-001	5.935884E-001	-1.062008E-001	6.894889E-003	-1.334350E-002
4.300000E+008	9.828703E-002	-3.149998E-002	5.929661E-001	-1.086201E-001	5.929598E-001	-1.086048E-001	6.910098E-003	-1.360906E-002
4.400000E+008	9.795975E-002	-3.209713E-002	5.923411E-001	-1.110165E-001	5.923650E-001	-1.109564E-001	6.918306E-003	-1.376664E-002
4.500000E+008	9.766976E-002	-3.273913E-002	5.917128E-001	-1.133636E-001	5.917727E-001	-1.133340E-001	6.945749E-003	-1.396059E-002
4.600000E+008	9.732775E-002	-3.336989E-002	5.910391E-001	-1.157297E-001	5.910776E-001	-1.157164E-001	6.921881E-003	-1.410566E-002
4.700000E+008	9.693746E-002	-3.393040E-002	5.903715E-001	-1.180337E-001	5.903720E-001	-1.180462E-001	6.831855E-003	-1.427941E-002
4.800000E+008	9.649956E-002	-3.442001E-002	5.897073E-001	-1.203050E-001	5.896936E-001	-1.202706E-001	6.754487E-003	-1.440379E-002
4.900000E+008	9.605907E-002	-3.492885E-002	5.890103E-001	-1.226423E-001	5.889504E-001	-1.225962E-001	6.632372E-003	-1.453745E-002
5.000000E+008	9.564626E-002	-3.543055E-002	5.883467E-001	-1.249566E-001	5.883036E-001	-1.248688E-001	6.576570E-003	-1.471949E-002
5.100000E+008	9.527920E-002	-3.600375E-002	5.876637E-001	-1.272539E-001	5.877074E-001	-1.271453E-001	6.594371E-003	-1.490785E-002
5.200000E+008	9.485904E-002	-3.665772E-002	5.869775E-001	-1.295814E-001	5.870209E-001	-1.295001E-001	6.614413E-003	-1.518919E-002
5.300000E+008	9.439026E-002	-3.728364E-002	5.862711E-001	-1.319083E-001	5.863296E-001	-1.318409E-001	6.682556E-003	-1.549516E-002
5.400000E+008	9.389393E-002	-3.797118E-002	5.855186E-001	-1.342385E-001	5.856209E-001	-1.341940E-001	6.673155E-003	-1.578850E-002
5.500000E+008	9.344100E-002	-3.847459E-002	5.847963E-001	-1.365191E-001	5.848228E-001	-1.364712E-001	6.647241E-003	-1.596288E-002
5.600000E+008	9.300401E-002	-3.901209E-002	5.840065E-001	-1.387628E-001	5.840354E-001	-1.387448E-001	6.617691E-003	-1.613408E-002
5.700000E+008	9.262062E-002	-3.953373E-002	5.832646E-001	-1.409573E-001	5.833730E-001	-1.409640E-001	6.500203E-003	-1.623045E-002
5.800000E+008	9.223628E-002	-4.002513E-002	5.825211E-001	-1.432381E-001	5.826071E-001	-1.432086E-001	6.419407E-003	-1.637555E-002
5.900000E+008	9.182748E-002	-4.060170E-002	5.817541E-001	-1.455504E-001	5.819223E-001	-1.455473E-001	6.274488E-003	-1.654340E-002
6.000000E+008	9.145267E-002	-4.116617E-002	5.809840E-001	-1.477900E-001	5.811491E-001	-1.478063E-001	6.206193E-003	-1.674738E-002
6.100000E+008	9.107753E-002	-4.168520E-002	5.802209E-001	-1.500086E-001	5.802864E-001	-1.500450E-001	6.033032E-003	-1.691309E-002
6.200000E+008	9.071746E-002	-4.221246E-002	5.793931E-001	-1.522119E-001	5.795299E-001	-1.522408E-001	5.934756E-003	-1.705660E-002
6.300000E+008	9.040142E-002	-4.271005E-002	5.785804E-001	-1.544345E-001	5.787058E-001	-1.544607E-001	5.864978E-003	-1.723303E-002
6.400000E+008	9.009088E-002	-4.322622E-002	5.777829E-001	-1.566573E-001	5.779236E-001	-1.567008E-001	5.843370E-003	-1.734373E-002
6.500000E+008	8.976797E-002	-4.369984E-002	5.770091E-001	-1.588601E-001	5.771342E-001	-1.588665E-001	5.755548E-003	-1.745558E-002
6.600000E+008	8.936705E-002	-4.422962E-002	5.762522E-001	-1.610810E-001	5.762925E-001	-1.611015E-001	5.690562E-003	-1.759051E-002
6.700000E+008	8.886475E-002	-4.464477E-002	5.754109E-001	-1.632861E-001	5.754718E-001	-1.633161E-001	5.532957E-003	-1.769388E-002
6.800000E+008	8.839460E-002	-4.504744E-002	5.745776E-001	-1.654940E-001	5.746574E-001	-1.655119E-001	5.386946E-003	-1.773391E-002
6.900000E+008	8.787455E-002	-4.544467E-002	5.736575E-001	-1.677044E-001	5.737632E-001	-1.676722E-001	5.196327E-003	-1.776373E-002
7.000000E+008	8.744436E-002	-4.585264E-002	5.728511E-001	-1.698499E-001	5.729613E-001	-1.698172E-001	5.045484E-003	-1.785595E-002
7.100000E+008	8.702185E-002	-4.633786E-002	5.720045E-001	-1.719940E-001	5.721085E-001	-1.720179E-001	4.886165E-003	-1.796652E-002
7.200000E+008	8.655868E-002	-4.682712E-002	5.711517E-001	-1.741614E-001	5.712679E-001	-1.741931E-001	4.752694E-003	-1.818124E-002
7.300000E+008	8.609317E-002	-4.732560E-002	5.702626E-001	-1.763279E-001	5.704761E-001	-1.764180E-001	4.525594E-003	-1.841045E-002
7.400000E+008	8.558378E-002	-4.776195E-002	5.693835E-001	-1.785238E-001	5.696073E-001	-1.785530E-001	4.348677E-003	-1.857920E-002
7.500000E+008	8.515217E-002	-4.819051E-002	5.685575E-001	-1.806728E-001	5.687387E-001	-1.807373E-001	4.159465E-003	-1.877026E-002
7.600000E+008	8.461020E-002	-4.864019E-002	5.676332E-001	-1.828519E-001	5.678284E-001	-1.828677E-001	4.009943E-003	-1.896555E-002
7.700000E+008	8.414754E-002	-4.913449E-002	5.667735E-001	-1.849892E-001	5.669528E-001	-1.850067E-001	3.875576E-003	-1.918444E-002
7.800000E+008	8.361204E-002	-4.958078E-002	5.658483E-001	-1.871282E-001	5.660823E-001	-1.871374E-001	3.682585E-003	-1.939930E-002
7.900000E+008	8.311467E-002	-5.011307E-002	5.649488E-001	-1.892497E-001	5.651834E-001	-1.893384E-001	3.484204E-003	-1.958926E-002
8.000000E+008	8.260326E-002	-5.060261E-002	5.640191E-001	-1.913728E-001	5.641957E-001	-1.914330E-001	3.319841E-003	-1.977077E-002
8.100000E+008	8.213941E-002	-5.109946E-002	5.631108E-001	-1.934791E-001	5.632838E-001	-1.935673E-001	3.183920E-003	-1.988143E-002
8.200000E+008	8.171498E-002	-5.150501E-002	5.621750E-001	-1.956122E-001	5.623702E-001	-1.956538E-001	3.059749E-003	-2.000734E-002
8.300000E+008	8.134643E-002	-5.194681E-002	5.612109E-001	-1.976941E-001	5.614716E-001	-1.977561E-001	2.927585E-003	-2.012368E-002
8.400000E+008	8.100429E-002	-5.235909E-002	5.602723E-001	-1.997800E-001	5.605207E-001	-1.998834E-001	2.786049E-003	-2.022249E-002
8.500000E+008	8.061240E-002	-5.277845E-002	5.593740E-001	-2.018969E-001	5.595895E-001	-2.019891E-001	2.603027E-003	-2.035679E-002
8.600000E+008	8.016366E-002	-5.318417E-002	5.584125E-001	-2.039680E-001	5.585660E-001	-2.040600E-001	2.400733E-003	-2.045165E-002
8.700000E+008	7.969205E-002	-5.352823E-002	5.574819E-001	-2.060958E-001	5.576133E-001	-2.061590E-001	2.190775E-003	-2.057327E-002
8.800000E+008	7.917819E-002	-5.385877E-002	5.564976E-001	-2.081947E-001	5.566830E-001	-2.082118E-001	1.962877E-003	-2.067468E-002
8.900000E+008	7.867479E-002	-5.421521E-002	5.555263E-001	-2.102607E-001	5.557142E-001	-2.103497E-001	1.773870E-003	-2.079368E-002
9.000000E+008	7.818181E-002	-5.457758E-002	5.545026E-001	-2.123443E-001	5.547490E-001	-2.124011E-001	1.600853E-003	-2.089610E-002
9.100000E+008	7.765379E-002	-5.497261E-002	5.535199E-001	-2.144372E-001	5.537338E-001	-2.144836E-001	1.506222E-003	-2.108145E-002
9.200000E+008	7.714532E-002	-5.537119E-002	5.525234E-001	-2.164790E-001	5.527892E-001	-2.165841E-001	1.406067E-003	-2.125226E-002
9.300000E+008	7.661645E-002	-5.571963E-002	5.515246E-001	-2.185242E-001	5.517170E-001	-2.186483E-001	1.327165E-003	-2.138701E-002
9.400000E+008	7.614369E-002	-5.608765E-002	5.505200E-001	-2.205301E-001	5.508037E-001	-2.206779E-001	1.257107E-003	-2.145937E-002
9.500000E+008	7.563902E-002	-5.642044E-002	5.495460E-001	-2.226181E-001	5.497678E-001	-2.227492E-001	1.209202E-003	-2.150425E-002
9.600000E+008	7.519520E-002	-5.669413E-002	5.485051E-001	-2.246817E-001	5.487545E-001	-2.247497E-001	1.170007E-003	-2.152953E-002
9.700000E+008	7.479965E-002	-5.702557E-002	5.474310E-001	-2.266499E-001	5.477105E-001	-2.267883E-001	1.139162E-003	-2.154484E-002
9.800000E+008	7.438487E-002	-5.735758E-002	5.465005E-001	-2.286497E-001	5.467109E-001	-2.288312E-001	1.062383E-003	-2.158831E-002
9.900000E+008	7.394423E-002	-5.767000E-002	5.454622E-001	-2.307321E-001	5.456613E-001	-2.308702E-001	8.796778E-004	-2.163277E-002
1.000000E+009	7.348065E-002	-5.794744E-002	5.444324E-001	-2.327268E-001	5.446142E-001	-2.328630E-001	7.260146E-004	-2.160324E-002
1.010000E+009	7.294671E-002	-5.815800E-002	5.434020E-001	-2.347683E-001	5.435567E-001	-2.348813E-001	5.347779E-004	-2.158101E-002
1.020000E+009	7.246845E-002	-5.838513E-002	5.423462E-001	-2.368043E-001	5.424895E-001	-2.369165E-001	3.567674E-004	-2.152648E-002
1.030000E+009	7.199942E-002	-5.859480E-002	5.412275E-001	-2.388023E-001	5.414122E-001	-2.389098E-001	2.299452E-004	-2.151623E-002
1.040000E+009	7.156329E-002	-5.885013E-002	5.401567E-001	-2.407734E-001	5.403866E-001	-2.408567E-001	7.721173E-005	-2.152743E-002
1.050000E+009	7.104353E-002	-5.918892E-002	5.391365E-001	-2.427728E-001	5.393206E-001	-2.428805E-001	-1.039035E-004	-2.155390E-002
1.060000E+009	7.051587E-002	-5.946617E-002	5.380568E-001	-2.447678E-001	5.382443E-001	-2.448577E-001	-2.632120E-004	-2.152775E-002
1.070000E+009	6.997766E-002	-5.972919E-002	5.369175E-001	-2.467422E-001	5.372033E-001	-2.467895E-001	-4.393256E-004	-2.155535E-002
1.080000E+009	6.952929E-002	-5.998262E-002	5.358316E-001	-2.487395E-001	5.361650E-001	-2.488158E-001	-5.974675E-004	-2.151208E-002
1.090000E+009	6.909052E-002	-6.021504E-002	5.347429E-001	-2.507469E-001	5.350668E-001	-2.507996E-001	-7.120296E-004	-2.150918E-002
1.100000E+009	6.867930E-002	-6.049230E-002	5.336008E-001	-2.527277E-001	5.339737E-001	-2.527583E-001	-8.487749E-004	-2.147474E-002
1.110000E+009	6.824042E-002	-6.073678E-002	5.325115E-001	-2.546764E-001	5.328816E-001	-2.547757E-001	-1.003379E-003	-2.152327E-002
1.120000E+009	6.778341E-002	-6.096801E-002	5.314435E-001	-2.566364E-001	5.317323E-001	-2.567461E-001	-1.235295E-003	-2.152195E-002
1.130000E+009	6.729804E-002	-6.122834E-002	5.303053E-001	-2.585624E-001	5.306208E-001	-2.587093E-001	-1.446717E-003	-2.153805E-002
1.140000E+009	6.675337E-002	-6.142438E-002	5.291656E-001	-2.605917E-001	5.294934E-001	-2.606349E-001	-1.674859E-003	-2.148968E-002
1.150000E+009	6.624620E-002	-6.165011E-002	5.280131E-001	-2.625113E-001	5.283034E-001	-2.625901E-001	-1.832730E-003	-2.147033E-002
1.160000E+009	6.580709E-002	-6.182962E-002	5.268919E-001	-2.644427E-001	5.271845E-001	-2.645596E-001	-2.004344E-003	-2.146280E-002
1.170000E+009	6.530898E-002	-6.207715E-002	5.257240E-001	-2.664174E-001	5.260445E-001	-2.664795E-001	-2.122416E-003	-2.141285E-002
1.180000E+009	6.485081E-002	-6.240995E-002	5.244968E-001	-2.683200E-001	5.249036E-001	-2.684576E-001	-2.310146E-003	-2.142019E-002
1.190000E+009	6.436634E-002	-6.262479E-002	5.233537E-001	-2.702896E-001	5.236430E-001	-2.703869E-001	-2.446693E-003	-2.137615E-002
1.200000E+009	6.385040E-002	-6.283000E-002	5.221899E-001	-2.722022E-001	5.225260E-001	-2.722869E-001	-2.610251E-003	-2.133049E-002
1.210000E+009	6.342251E-002	-6.308248E-002	5.210227E-001	-2.741036E-001	5.213289E-001	-2.742321E-001	-2.775166E-003	-2.125345E-002
1.220000E+009	6.297361E-002	-6.328609E-002	5.198273E-001	-2.760132E-001	5.201435E-001	-2.761136E-001	-2.938091E-003	-2.117558E-002
1.230000E+009	6.251201E-002	-6.349110E-002	5.186191E-001	-2.779425E-001	5.189422E-001	-2.780410E-001	-3.145655E-003	-2.113816E-002
1.240000E+009	6.207963E-002	-6.378285E-002	5.174054E-001	-2.798184E-001	5.177287E-001	-2.799313E-001	-3.381638E-003	-2.108493E-002
1.250000E+009	6.157344E-002	-6.400350E-002	5.161927E-001	-2.817577E-001	5.166007E-001	-2.818517E-001	-3.603439E-003	-2.108808E-002
1.260000E+009	6.107909E-002	-6.418421E-002	5.149714E-001	-2.836325E-001	5.152852E-001	-2.837655E-001	-3.829585E-003	-2.113469E-002
1.270000E+009	6.064340E-002	-6.439643E-002	5.137723E-001	-2.855335E-001	5.140550E-001	-2.855978E-001	-4.014009E-003	-2.110480E-002
1.280000E+009	6.013596E-002	-6.454075E-002	5.125619E-001	-2.874270E-001	5.128577E-001	-2.875058E-001	-4.233621E-003	-2.113804E-002
1.290000E+009	5.968874E-002	-6.468407E-002	5.112773E-001	-2.893493E-001	5.116250E-001	-2.893468E-001	-4.318433E-003	-2.115678E-002
1.300000E+009	5.926106E-002	-6.482049E-002	5.100137E-001	-2.911415E-001	5.103913E-001	-2.912661E-001	-4.381497E-003	-2.113349E-002
1.310000E+009	5.875932E-002	-6.496159E-002	5.087231E-001	-2.930429E-001	5.091288E-001	-2.931453E-001	-4.508576E-003	-2.109115E-002
1.320000E+009	5.824069E-002	-6.507099E-002	5.074702E-001	-2.949126E-001	5.078901E-001	-2.950357E-001	-4.566063E-003	-2.101975E-002
1.330000E+009	5.782032E-002	-6.513192E-002	5.062279E-001	-2.967314E-001	5.066273E-001	-2.969133E-001	-4.575382E-003	-2.086385E-002
1.340000E+009	5.733695E-002	-6.516910E-002	5.049516E-001	-2.985574E-001	5.052752E-001	-2.987130E-001	-4.649488E-003	-2.066369E-002
1.350000E+009	5.681891E-002	-6.524621E-002	5.036668E-001	-3.004256E-001	5.039728E-001	-3.005628E-001	-4.731082E-003	-2.043366E-002
1.360000E+009	5.644798E-002	-6.531975E-002	5.023323E-001	-3.022172E-001	5.027398E-001	-3.024003E-001	-4.791312E-003	-2.016521E-002
1.370000E+009	5.599530E-002	-6.542646E-002	5.010701E-001	-3.040760E-001	5.014303E-001	-3.042394E-001	-4.921332E-003	-1.992077E-002
1.380000E+009	5.550612E-002	-6.556903E-002	4.997595E-001	-3.059016E-001	5.001254E-001	-3.060428E-001	-5.081178E-003	-1.976010E-002
1.390000E+009	5.507230E-002	-6.569407E-002	4.984211E-001	-3.077398E-001	4.987875E-001	-3.078999E-001	-5.312469E-003	-1.948792E-002
1.400000E+009	5.458025E-002	-6.576464E-002	4.971219E-001	-3.095431E-001	4.974650E-001	-3.096158E-001	-5.488401E-003	-1.926476E-002
1.410000E+009	5.410710E-002	-6.582373E-002	4.957842E-001	-3.113607E-001	4.961145E-001	-3.114570E-001	-5.705345E-003	-1.902957E-002
1.420000E+009	5.365903E-002	-6.591170E-002	4.944403E-001	-3.131232E-001	4.948167E-001	-3.132430E-001	-5.892723E-003	-1.880439E-002
1.430000E+009	5.326359E-002	-6.598837E-002	4.931088E-001	-3.148859E-001	4.934992E-001	-3.150855E-001	-6.024424E-003	-1.860035E-002
1.440000E+009	5.279237E-002	-6.607483E-002	4.917613E-001	-3.166599E-001	4.921396E-001	-3.167965E-001	-6.197945E-003	-1.844642E-002
1.450000E+009	5.231310E-002	-6.611950E-002	4.903624E-001	-3.184451E-001	4.908056E-001	-3.186160E-001	-6.373306E-003	-1.824502E-002
1.460000E+009	5.183124E-002	-6.615512E-002	4.890094E-001	-3.202316E-001	4.893865E-001	-3.204115E-001	-6.521603E-003	-1.803097E-002
1.470000E+009	5.138958E-002	-6.621309E-002	4.876385E-001	-3.220013E-001	4.880305E-001	-3.221611E-001	-6.664962E-003	-1.773758E-002
1.480000E+009	5.093955E-002	-6.621088E-002	4.862404E-001	-3.236890E-001	4.866323E-001	-3.238922E-001	-6.841612E-003	-1.741735E-002
1.490000E+009	5.050123E-002	-6.623333E-002	4.848779E-001	-3.254351E-001	4.852695E-001	-3.255887E-001	-6.964202E-003	-1.711574E-002
1.500000E+009	5.008940E-002	-6.631133E-002	4.835321E-001	-3.272122E-001	4.838776E-001	-3.273327E-001	-7.040415E-003	-1.684118E-002
