! Device ID: PE43711P
! File Path: z:\PE43711P\CHAR_NOM_04282014\AMB\3p300\LS_ATT_30p00dB\PE43711P_AMB_3p300V_3p000V_0p000V_LS_ATT_30p00dB_S2P_SN_5_A0137A.s2p
! Serial: 5
! Lot: A0137A
! Temp: 25C
! VDD: 3.300
! VSS: 0.000
! Control_Hi: 3.000
! Control_Lo: 0.000
! Attenuation Step: 30.00dB
! Port 1: RF1
! Port 2: RF2
! ThroughPath:1-2
! IDD: 0.0001278229
! ISS: -1.171e-007
!

#  Hz  S   RI  R   50

1.000000E+007	1.959597E-002	5.473690E-004	2.740405E-002	-9.130990E-005	2.744656E-002	-7.506224E-005	-1.357691E-001	9.826547E-004
2.000000E+007	1.985680E-002	7.357865E-004	2.740546E-002	-1.570418E-004	2.744837E-002	-1.507741E-004	-1.354985E-001	1.601290E-003
3.000000E+007	2.010346E-002	9.354654E-004	2.742491E-002	-2.210558E-004	2.742188E-002	-2.335601E-004	-1.351967E-001	2.149391E-003
4.000000E+007	2.028204E-002	1.115283E-003	2.742211E-002	-3.081588E-004	2.743315E-002	-3.054293E-004	-1.350292E-001	2.752236E-003
5.000000E+007	2.039777E-002	1.286193E-003	2.740933E-002	-3.998418E-004	2.742444E-002	-3.839918E-004	-1.350016E-001	3.381212E-003
6.000000E+007	2.055826E-002	1.395009E-003	2.739844E-002	-4.652687E-004	2.742657E-002	-4.556878E-004	-1.348564E-001	3.888630E-003
7.000000E+007	2.071175E-002	1.504861E-003	2.739873E-002	-5.355146E-004	2.741910E-002	-5.361387E-004	-1.346651E-001	4.371603E-003
8.000000E+007	2.085329E-002	1.607267E-003	2.739166E-002	-6.105828E-004	2.743018E-002	-6.104893E-004	-1.345103E-001	4.841044E-003
9.000000E+007	2.097819E-002	1.708492E-003	2.739839E-002	-6.788096E-004	2.741861E-002	-6.776970E-004	-1.343868E-001	5.262835E-003
1.000000E+008	2.113072E-002	1.810702E-003	2.739463E-002	-7.626318E-004	2.740568E-002	-7.565297E-004	-1.343373E-001	5.717308E-003
1.100000E+008	2.127354E-002	1.887895E-003	2.738978E-002	-8.350582E-004	2.741823E-002	-8.266575E-004	-1.342351E-001	6.127793E-003
1.200000E+008	2.144353E-002	1.940635E-003	2.737895E-002	-9.171274E-004	2.740031E-002	-9.094215E-004	-1.341287E-001	6.499118E-003
1.300000E+008	2.157228E-002	2.029076E-003	2.737591E-002	-9.905669E-004	2.738843E-002	-9.920728E-004	-1.340144E-001	6.878200E-003
1.400000E+008	2.168445E-002	2.148601E-003	2.737168E-002	-1.061126E-003	2.738554E-002	-1.056110E-003	-1.338932E-001	7.268225E-003
1.500000E+008	2.174251E-002	2.257225E-003	2.736461E-002	-1.120202E-003	2.738105E-002	-1.126136E-003	-1.338075E-001	7.629981E-003
1.600000E+008	2.183059E-002	2.396060E-003	2.735687E-002	-1.207190E-003	2.737052E-002	-1.202394E-003	-1.337230E-001	8.006681E-003
1.700000E+008	2.192943E-002	2.498477E-003	2.735699E-002	-1.281921E-003	2.737617E-002	-1.276537E-003	-1.336370E-001	8.406344E-003
1.800000E+008	2.199801E-002	2.594126E-003	2.734062E-002	-1.362886E-003	2.736850E-002	-1.362968E-003	-1.335355E-001	8.769489E-003
1.900000E+008	2.201640E-002	2.660990E-003	2.732690E-002	-1.430191E-003	2.735707E-002	-1.426164E-003	-1.334836E-001	9.077948E-003
2.000000E+008	2.200912E-002	2.716325E-003	2.731256E-002	-1.501342E-003	2.734649E-002	-1.509660E-003	-1.334168E-001	9.379044E-003
2.100000E+008	2.201182E-002	2.707559E-003	2.730809E-002	-1.578759E-003	2.734423E-002	-1.572076E-003	-1.333253E-001	9.629037E-003
2.200000E+008	2.202710E-002	2.719734E-003	2.730473E-002	-1.663533E-003	2.733485E-002	-1.646550E-003	-1.332208E-001	9.856740E-003
2.300000E+008	2.208246E-002	2.725760E-003	2.730812E-002	-1.717708E-003	2.732527E-002	-1.703810E-003	-1.330686E-001	1.009868E-002
2.400000E+008	2.214780E-002	2.729277E-003	2.728949E-002	-1.796077E-003	2.730705E-002	-1.776364E-003	-1.329173E-001	1.039633E-002
2.500000E+008	2.219961E-002	2.757085E-003	2.727239E-002	-1.858341E-003	2.729415E-002	-1.859035E-003	-1.327117E-001	1.067309E-002
2.600000E+008	2.231261E-002	2.763579E-003	2.726524E-002	-1.928230E-003	2.729629E-002	-1.935214E-003	-1.324660E-001	1.102621E-002
2.700000E+008	2.243700E-002	2.794254E-003	2.725526E-002	-2.010890E-003	2.728997E-002	-2.012459E-003	-1.322514E-001	1.139119E-002
2.800000E+008	2.255193E-002	2.854378E-003	2.725103E-002	-2.083150E-003	2.728002E-002	-2.075291E-003	-1.320278E-001	1.175154E-002
2.900000E+008	2.262094E-002	2.925639E-003	2.723745E-002	-2.143620E-003	2.725981E-002	-2.158339E-003	-1.318735E-001	1.212302E-002
3.000000E+008	2.269064E-002	3.024184E-003	2.722908E-002	-2.232528E-003	2.725881E-002	-2.218270E-003	-1.317237E-001	1.253504E-002
3.100000E+008	2.273613E-002	3.131367E-003	2.722307E-002	-2.300445E-003	2.723343E-002	-2.285285E-003	-1.316093E-001	1.294604E-002
3.200000E+008	2.277093E-002	3.248837E-003	2.720440E-002	-2.378139E-003	2.723146E-002	-2.360631E-003	-1.315035E-001	1.335403E-002
3.300000E+008	2.277570E-002	3.369032E-003	2.719498E-002	-2.448575E-003	2.721734E-002	-2.435792E-003	-1.314114E-001	1.371657E-002
3.400000E+008	2.276210E-002	3.453596E-003	2.718887E-002	-2.512907E-003	2.720166E-002	-2.535331E-003	-1.312790E-001	1.407113E-002
3.500000E+008	2.273043E-002	3.496663E-003	2.717242E-002	-2.590821E-003	2.717992E-002	-2.580622E-003	-1.311197E-001	1.433831E-002
3.600000E+008	2.270734E-002	3.568316E-003	2.715444E-002	-2.656951E-003	2.715426E-002	-2.653858E-003	-1.309498E-001	1.467518E-002
3.700000E+008	2.268585E-002	3.596691E-003	2.714144E-002	-2.732899E-003	2.714169E-002	-2.717220E-003	-1.307388E-001	1.495612E-002
3.800000E+008	2.266844E-002	3.631910E-003	2.713824E-002	-2.789597E-003	2.715297E-002	-2.782026E-003	-1.305205E-001	1.528150E-002
3.900000E+008	2.265936E-002	3.622075E-003	2.711325E-002	-2.875694E-003	2.713763E-002	-2.858726E-003	-1.302470E-001	1.564774E-002
4.000000E+008	2.269113E-002	3.618966E-003	2.709721E-002	-2.937977E-003	2.712779E-002	-2.944286E-003	-1.299177E-001	1.602446E-002
4.100000E+008	2.270845E-002	3.618770E-003	2.708783E-002	-2.999224E-003	2.711320E-002	-3.005089E-003	-1.296233E-001	1.637735E-002
4.200000E+008	2.272776E-002	3.615868E-003	2.708333E-002	-3.063363E-003	2.709808E-002	-3.062723E-003	-1.294049E-001	1.679753E-002
4.300000E+008	2.275741E-002	3.642283E-003	2.706242E-002	-3.136959E-003	2.707197E-002	-3.126583E-003	-1.291897E-001	1.725685E-002
4.400000E+008	2.281104E-002	3.689552E-003	2.703506E-002	-3.214720E-003	2.706526E-002	-3.200616E-003	-1.290107E-001	1.773531E-002
4.500000E+008	2.285330E-002	3.721741E-003	2.704079E-002	-3.281274E-003	2.705648E-002	-3.282110E-003	-1.288124E-001	1.824277E-002
4.600000E+008	2.290981E-002	3.750997E-003	2.701701E-002	-3.352381E-003	2.703766E-002	-3.346425E-003	-1.286077E-001	1.872410E-002
4.700000E+008	2.294679E-002	3.800261E-003	2.700229E-002	-3.426764E-003	2.701924E-002	-3.424924E-003	-1.284459E-001	1.917512E-002
4.800000E+008	2.295404E-002	3.875022E-003	2.699537E-002	-3.487700E-003	2.700462E-002	-3.487850E-003	-1.282654E-001	1.961964E-002
4.900000E+008	2.295728E-002	3.938232E-003	2.696878E-002	-3.569012E-003	2.699216E-002	-3.551644E-003	-1.281091E-001	2.005487E-002
5.000000E+008	2.297226E-002	4.015424E-003	2.696089E-002	-3.621587E-003	2.697471E-002	-3.611564E-003	-1.279453E-001	2.047871E-002
5.100000E+008	2.298409E-002	4.076680E-003	2.694926E-002	-3.691306E-003	2.696890E-002	-3.687931E-003	-1.277628E-001	2.089923E-002
5.200000E+008	2.297081E-002	4.114657E-003	2.693160E-002	-3.761605E-003	2.695052E-002	-3.741668E-003	-1.275983E-001	2.133041E-002
5.300000E+008	2.293572E-002	4.130287E-003	2.692702E-002	-3.828721E-003	2.693037E-002	-3.834869E-003	-1.273558E-001	2.175021E-002
5.400000E+008	2.290882E-002	4.112875E-003	2.690511E-002	-3.904978E-003	2.692201E-002	-3.900887E-003	-1.271047E-001	2.214537E-002
5.500000E+008	2.288177E-002	4.137995E-003	2.688044E-002	-3.968380E-003	2.690315E-002	-3.973090E-003	-1.268998E-001	2.258705E-002
5.600000E+008	2.288413E-002	4.096274E-003	2.687394E-002	-4.033587E-003	2.688113E-002	-4.028094E-003	-1.266816E-001	2.304139E-002
5.700000E+008	2.288578E-002	4.058482E-003	2.684458E-002	-4.090994E-003	2.685222E-002	-4.095835E-003	-1.264968E-001	2.352400E-002
5.800000E+008	2.291342E-002	4.048028E-003	2.683345E-002	-4.162271E-003	2.685813E-002	-4.162678E-003	-1.262985E-001	2.401241E-002
5.900000E+008	2.295062E-002	4.004971E-003	2.681567E-002	-4.230179E-003	2.683075E-002	-4.235841E-003	-1.260982E-001	2.455063E-002
6.000000E+008	2.304581E-002	3.988200E-003	2.679783E-002	-4.305405E-003	2.681380E-002	-4.304893E-003	-1.258819E-001	2.502407E-002
6.100000E+008	2.313143E-002	3.989285E-003	2.677834E-002	-4.360924E-003	2.680643E-002	-4.361074E-003	-1.257091E-001	2.551225E-002
6.200000E+008	2.321084E-002	4.030113E-003	2.675689E-002	-4.433049E-003	2.679037E-002	-4.430068E-003	-1.255298E-001	2.597203E-002
6.300000E+008	2.331427E-002	4.069768E-003	2.673926E-002	-4.497227E-003	2.676160E-002	-4.516994E-003	-1.253422E-001	2.643098E-002
6.400000E+008	2.341740E-002	4.123624E-003	2.673050E-002	-4.560994E-003	2.675022E-002	-4.572763E-003	-1.251617E-001	2.687330E-002
6.500000E+008	2.347606E-002	4.191612E-003	2.670436E-002	-4.625960E-003	2.672734E-002	-4.633851E-003	-1.249878E-001	2.736992E-002
6.600000E+008	2.352905E-002	4.229012E-003	2.669498E-002	-4.710571E-003	2.670873E-002	-4.701381E-003	-1.247858E-001	2.783145E-002
6.700000E+008	2.353728E-002	4.322622E-003	2.667966E-002	-4.770255E-003	2.669247E-002	-4.763613E-003	-1.245957E-001	2.832030E-002
6.800000E+008	2.355240E-002	4.385260E-003	2.665865E-002	-4.832587E-003	2.667293E-002	-4.827943E-003	-1.244071E-001	2.881985E-002
6.900000E+008	2.357088E-002	4.464284E-003	2.663900E-002	-4.881482E-003	2.665443E-002	-4.897260E-003	-1.241980E-001	2.932617E-002
7.000000E+008	2.358281E-002	4.516043E-003	2.660276E-002	-4.956853E-003	2.664224E-002	-4.956449E-003	-1.240575E-001	2.982281E-002
7.100000E+008	2.358363E-002	4.570153E-003	2.659835E-002	-5.020821E-003	2.662265E-002	-5.021722E-003	-1.239107E-001	3.031336E-002
7.200000E+008	2.357781E-002	4.615848E-003	2.658044E-002	-5.082868E-003	2.660244E-002	-5.089817E-003	-1.237676E-001	3.081653E-002
7.300000E+008	2.357298E-002	4.634739E-003	2.655586E-002	-5.148955E-003	2.657421E-002	-5.148861E-003	-1.236546E-001	3.124480E-002
7.400000E+008	2.356875E-002	4.675152E-003	2.653715E-002	-5.223545E-003	2.654972E-002	-5.230829E-003	-1.235437E-001	3.170431E-002
7.500000E+008	2.358250E-002	4.694698E-003	2.653055E-002	-5.286540E-003	2.653657E-002	-5.285529E-003	-1.234469E-001	3.211295E-002
7.600000E+008	2.358014E-002	4.698015E-003	2.650727E-002	-5.366322E-003	2.651678E-002	-5.352164E-003	-1.232922E-001	3.253933E-002
7.700000E+008	2.357287E-002	4.695322E-003	2.647661E-002	-5.410793E-003	2.650654E-002	-5.423585E-003	-1.231326E-001	3.290394E-002
7.800000E+008	2.360570E-002	4.690969E-003	2.646981E-002	-5.475834E-003	2.648012E-002	-5.489664E-003	-1.229343E-001	3.330434E-002
7.900000E+008	2.362745E-002	4.643583E-003	2.644008E-002	-5.541433E-003	2.646754E-002	-5.542192E-003	-1.227755E-001	3.370739E-002
8.000000E+008	2.366868E-002	4.625875E-003	2.641934E-002	-5.612139E-003	2.645192E-002	-5.610823E-003	-1.225129E-001	3.413229E-002
8.100000E+008	2.372700E-002	4.609358E-003	2.640184E-002	-5.672752E-003	2.642031E-002	-5.684791E-003	-1.222494E-001	3.457675E-002
8.200000E+008	2.380372E-002	4.611161E-003	2.638232E-002	-5.730342E-003	2.640416E-002	-5.749372E-003	-1.219951E-001	3.500849E-002
8.300000E+008	2.389825E-002	4.611309E-003	2.636658E-002	-5.801623E-003	2.639752E-002	-5.803944E-003	-1.217718E-001	3.547303E-002
8.400000E+008	2.397596E-002	4.631044E-003	2.634610E-002	-5.852639E-003	2.637495E-002	-5.858777E-003	-1.215649E-001	3.592873E-002
8.500000E+008	2.407468E-002	4.652427E-003	2.631740E-002	-5.937713E-003	2.634598E-002	-5.926461E-003	-1.214183E-001	3.639357E-002
8.600000E+008	2.413094E-002	4.704397E-003	2.629989E-002	-5.990527E-003	2.632787E-002	-5.994230E-003	-1.212548E-001	3.684350E-002
8.700000E+008	2.422919E-002	4.791444E-003	2.628425E-002	-6.061615E-003	2.629884E-002	-6.054936E-003	-1.210933E-001	3.729219E-002
8.800000E+008	2.427059E-002	4.850628E-003	2.625730E-002	-6.122454E-003	2.628304E-002	-6.124385E-003	-1.209198E-001	3.769814E-002
8.900000E+008	2.429923E-002	4.914160E-003	2.623468E-002	-6.179965E-003	2.625715E-002	-6.189088E-003	-1.207678E-001	3.810198E-002
9.000000E+008	2.433246E-002	4.960832E-003	2.621151E-002	-6.236205E-003	2.624281E-002	-6.239544E-003	-1.205577E-001	3.849969E-002
9.100000E+008	2.434498E-002	4.996865E-003	2.619786E-002	-6.310344E-003	2.621883E-002	-6.314969E-003	-1.203113E-001	3.888384E-002
9.200000E+008	2.436460E-002	5.017258E-003	2.618271E-002	-6.381291E-003	2.619193E-002	-6.384691E-003	-1.200413E-001	3.929977E-002
9.300000E+008	2.441342E-002	5.026464E-003	2.615704E-002	-6.438768E-003	2.618026E-002	-6.441477E-003	-1.197554E-001	3.971710E-002
9.400000E+008	2.446573E-002	5.024466E-003	2.614121E-002	-6.495738E-003	2.615608E-002	-6.491174E-003	-1.194092E-001	4.015447E-002
9.500000E+008	2.453778E-002	5.023790E-003	2.611035E-002	-6.553380E-003	2.614789E-002	-6.553677E-003	-1.190810E-001	4.067514E-002
9.600000E+008	2.458993E-002	5.056391E-003	2.608219E-002	-6.618779E-003	2.611421E-002	-6.626250E-003	-1.187483E-001	4.114890E-002
9.700000E+008	2.467479E-002	5.106509E-003	2.606923E-002	-6.678048E-003	2.608660E-002	-6.674067E-003	-1.184377E-001	4.166910E-002
9.800000E+008	2.475105E-002	5.161341E-003	2.605122E-002	-6.755202E-003	2.607366E-002	-6.751958E-003	-1.181662E-001	4.218159E-002
9.900000E+008	2.484822E-002	5.226921E-003	2.602818E-002	-6.803366E-003	2.606398E-002	-6.803538E-003	-1.179098E-001	4.270937E-002
1.000000E+009	2.489078E-002	5.300647E-003	2.599798E-002	-6.878089E-003	2.603202E-002	-6.879805E-003	-1.176733E-001	4.320769E-002
1.010000E+009	2.494764E-002	5.386301E-003	2.598580E-002	-6.931531E-003	2.601698E-002	-6.945831E-003	-1.174479E-001	4.371926E-002
1.020000E+009	2.500236E-002	5.444957E-003	2.595968E-002	-6.993232E-003	2.597467E-002	-6.992409E-003	-1.172451E-001	4.423919E-002
1.030000E+009	2.505433E-002	5.528565E-003	2.593546E-002	-7.037954E-003	2.595945E-002	-7.043588E-003	-1.170022E-001	4.473076E-002
1.040000E+009	2.505578E-002	5.599107E-003	2.591040E-002	-7.116725E-003	2.594629E-002	-7.121519E-003	-1.167970E-001	4.521129E-002
1.050000E+009	2.511829E-002	5.650978E-003	2.588783E-002	-7.171400E-003	2.592324E-002	-7.180041E-003	-1.165311E-001	4.573845E-002
1.060000E+009	2.516706E-002	5.713423E-003	2.587720E-002	-7.236048E-003	2.590123E-002	-7.257781E-003	-1.162554E-001	4.622554E-002
1.070000E+009	2.518433E-002	5.763110E-003	2.584182E-002	-7.296474E-003	2.587144E-002	-7.290749E-003	-1.159857E-001	4.674520E-002
1.080000E+009	2.521260E-002	5.810231E-003	2.582988E-002	-7.356080E-003	2.586192E-002	-7.361058E-003	-1.157090E-001	4.727754E-002
1.090000E+009	2.526717E-002	5.870358E-003	2.581293E-002	-7.440563E-003	2.582262E-002	-7.415981E-003	-1.154752E-001	4.777136E-002
1.100000E+009	2.530306E-002	5.929567E-003	2.578061E-002	-7.482789E-003	2.579649E-002	-7.497697E-003	-1.152340E-001	4.827971E-002
1.110000E+009	2.533655E-002	5.983392E-003	2.575427E-002	-7.550791E-003	2.577655E-002	-7.554100E-003	-1.150029E-001	4.878423E-002
1.120000E+009	2.535660E-002	6.030290E-003	2.572530E-002	-7.608851E-003	2.576059E-002	-7.604526E-003	-1.148152E-001	4.926639E-002
1.130000E+009	2.543072E-002	6.072008E-003	2.572812E-002	-7.670570E-003	2.573251E-002	-7.685719E-003	-1.146133E-001	4.973262E-002
1.140000E+009	2.542357E-002	6.126988E-003	2.568261E-002	-7.726559E-003	2.572268E-002	-7.737486E-003	-1.143596E-001	5.021956E-002
1.150000E+009	2.550591E-002	6.176750E-003	2.567541E-002	-7.788305E-003	2.569504E-002	-7.799695E-003	-1.140941E-001	5.070928E-002
1.160000E+009	2.550377E-002	6.223705E-003	2.564836E-002	-7.849567E-003	2.567000E-002	-7.862021E-003	-1.138499E-001	5.116636E-002
1.170000E+009	2.555384E-002	6.292611E-003	2.561608E-002	-7.914071E-003	2.563784E-002	-7.925746E-003	-1.135687E-001	5.170532E-002
1.180000E+009	2.559583E-002	6.333332E-003	2.557732E-002	-7.972473E-003	2.562182E-002	-7.965643E-003	-1.132619E-001	5.219155E-002
1.190000E+009	2.560009E-002	6.398102E-003	2.555467E-002	-8.040541E-003	2.558298E-002	-8.047190E-003	-1.129675E-001	5.272072E-002
1.200000E+009	2.563478E-002	6.439964E-003	2.554569E-002	-8.107889E-003	2.556219E-002	-8.096088E-003	-1.126918E-001	5.326024E-002
1.210000E+009	2.568712E-002	6.445201E-003	2.550444E-002	-8.163349E-003	2.554025E-002	-8.171665E-003	-1.124365E-001	5.380615E-002
1.220000E+009	2.570722E-002	6.461833E-003	2.547594E-002	-8.237148E-003	2.552627E-002	-8.234233E-003	-1.122159E-001	5.432049E-002
1.230000E+009	2.577171E-002	6.480579E-003	2.546166E-002	-8.295747E-003	2.549239E-002	-8.298674E-003	-1.119765E-001	5.478876E-002
1.240000E+009	2.583403E-002	6.482589E-003	2.545129E-002	-8.360674E-003	2.547446E-002	-8.349226E-003	-1.117678E-001	5.525625E-002
1.250000E+009	2.589115E-002	6.493271E-003	2.541995E-002	-8.411618E-003	2.543557E-002	-8.419891E-003	-1.115110E-001	5.572821E-002
1.260000E+009	2.597327E-002	6.516468E-003	2.538789E-002	-8.472896E-003	2.540392E-002	-8.471643E-003	-1.112716E-001	5.614151E-002
1.270000E+009	2.609145E-002	6.566309E-003	2.535811E-002	-8.525818E-003	2.539841E-002	-8.531079E-003	-1.109789E-001	5.659137E-002
1.280000E+009	2.617388E-002	6.585644E-003	2.534738E-002	-8.592684E-003	2.536769E-002	-8.602186E-003	-1.106953E-001	5.700129E-002
1.290000E+009	2.627075E-002	6.651279E-003	2.530793E-002	-8.663607E-003	2.533809E-002	-8.671066E-003	-1.103263E-001	5.744280E-002
1.300000E+009	2.635980E-002	6.743580E-003	2.528859E-002	-8.719261E-003	2.531422E-002	-8.709713E-003	-1.099726E-001	5.789821E-002
1.310000E+009	2.641206E-002	6.809774E-003	2.525739E-002	-8.792291E-003	2.529396E-002	-8.771825E-003	-1.096145E-001	5.838391E-002
1.320000E+009	2.647985E-002	6.890034E-003	2.522520E-002	-8.839228E-003	2.525006E-002	-8.845960E-003	-1.091955E-001	5.889583E-002
1.330000E+009	2.655124E-002	6.994521E-003	2.521597E-002	-8.909290E-003	2.524124E-002	-8.902017E-003	-1.088133E-001	5.945865E-002
1.340000E+009	2.658994E-002	7.082092E-003	2.518562E-002	-8.966214E-003	2.518536E-002	-8.970231E-003	-1.084152E-001	6.003111E-002
1.350000E+009	2.661592E-002	7.143216E-003	2.515263E-002	-9.033095E-003	2.517249E-002	-9.023219E-003	-1.080432E-001	6.061252E-002
1.360000E+009	2.668714E-002	7.201293E-003	2.511292E-002	-9.081529E-003	2.515524E-002	-9.101699E-003	-1.076527E-001	6.125236E-002
1.370000E+009	2.674842E-002	7.291504E-003	2.510688E-002	-9.143318E-003	2.512267E-002	-9.150410E-003	-1.073490E-001	6.187099E-002
1.380000E+009	2.680525E-002	7.335149E-003	2.506183E-002	-9.207600E-003	2.509300E-002	-9.216070E-003	-1.070054E-001	6.249594E-002
1.390000E+009	2.688970E-002	7.400094E-003	2.503839E-002	-9.274353E-003	2.505199E-002	-9.277204E-003	-1.067238E-001	6.311968E-002
1.400000E+009	2.693791E-002	7.460367E-003	2.500263E-002	-9.326023E-003	2.503600E-002	-9.342700E-003	-1.064340E-001	6.371208E-002
1.410000E+009	2.699780E-002	7.555601E-003	2.497005E-002	-9.397167E-003	2.499092E-002	-9.397103E-003	-1.061281E-001	6.433316E-002
1.420000E+009	2.704171E-002	7.617738E-003	2.494512E-002	-9.437668E-003	2.496721E-002	-9.449264E-003	-1.058510E-001	6.487340E-002
1.430000E+009	2.709643E-002	7.722098E-003	2.490974E-002	-9.506077E-003	2.492870E-002	-9.509924E-003	-1.055733E-001	6.543113E-002
1.440000E+009	2.712705E-002	7.790958E-003	2.489215E-002	-9.552109E-003	2.490947E-002	-9.585453E-003	-1.052621E-001	6.597389E-002
1.450000E+009	2.715257E-002	7.855723E-003	2.484012E-002	-9.606281E-003	2.488302E-002	-9.618425E-003	-1.049313E-001	6.651785E-002
1.460000E+009	2.716680E-002	7.924624E-003	2.482486E-002	-9.685348E-003	2.484421E-002	-9.694997E-003	-1.045862E-001	6.707283E-002
1.470000E+009	2.721749E-002	7.972000E-003	2.479604E-002	-9.747577E-003	2.481457E-002	-9.750014E-003	-1.042387E-001	6.766368E-002
1.480000E+009	2.725974E-002	8.052350E-003	2.475083E-002	-9.805095E-003	2.479088E-002	-9.792287E-003	-1.038723E-001	6.825762E-002
1.490000E+009	2.730717E-002	8.085332E-003	2.471548E-002	-9.856826E-003	2.473943E-002	-9.863825E-003	-1.034954E-001	6.886209E-002
1.500000E+009	2.734615E-002	8.142732E-003	2.470304E-002	-9.925349E-003	2.471608E-002	-9.912158E-003	-1.031054E-001	6.946202E-002
1.510000E+009	2.745201E-002	8.184269E-003	2.465561E-002	-9.984848E-003	2.471679E-002	-9.975543E-003	-1.027537E-001	7.011366E-002
