! Device ID: PE43711P
! File Path: z:\PE43711P\CHAR_NOM_04282014\AMB\3p300\LS_ATT_21p75dB\PE43711P_AMB_3p300V_3p000V_0p000V_LS_ATT_21p75dB_S2P_SN_5_A0137A.s2p
! Serial: 5
! Lot: A0137A
! Temp: 25C
! VDD: 3.300
! VSS: 0.000
! Control_Hi: 3.000
! Control_Lo: 0.000
! Attenuation Step: 21.75dB
! Port 1: RF1
! Port 2: RF2
! ThroughPath:1-2
! IDD: 0.0001274962
! ISS: -7.22e-008
!

#  Hz  S   RI  R   50

1.000000E+007	4.248909E-002	3.167427E-004	7.105740E-002	-3.197319E-004	7.112029E-002	-3.231145E-004	-1.229143E-001	9.655621E-004
2.000000E+007	4.271693E-002	3.505481E-004	7.105746E-002	-4.704890E-004	7.109635E-002	-4.788051E-004	-1.225951E-001	1.522631E-003
3.000000E+007	4.296304E-002	3.497624E-004	7.105958E-002	-7.105106E-004	7.109721E-002	-7.289435E-004	-1.223116E-001	2.031020E-003
4.000000E+007	4.312980E-002	3.431914E-004	7.107106E-002	-9.590325E-004	7.110120E-002	-9.616100E-004	-1.221267E-001	2.612931E-003
5.000000E+007	4.323680E-002	3.199877E-004	7.105237E-002	-1.201290E-003	7.110136E-002	-1.201360E-003	-1.220996E-001	3.193055E-003
6.000000E+007	4.338998E-002	2.550026E-004	7.102818E-002	-1.440481E-003	7.109037E-002	-1.440726E-003	-1.219662E-001	3.651801E-003
7.000000E+007	4.351870E-002	1.553283E-004	7.101198E-002	-1.681319E-003	7.108163E-002	-1.679953E-003	-1.217853E-001	4.107973E-003
8.000000E+007	4.364510E-002	8.259063E-005	7.101120E-002	-1.899896E-003	7.107205E-002	-1.898809E-003	-1.216240E-001	4.545609E-003
9.000000E+007	4.376018E-002	-2.502075E-006	7.099987E-002	-2.131850E-003	7.105543E-002	-2.142270E-003	-1.215128E-001	4.941133E-003
1.000000E+008	4.386947E-002	-7.345812E-005	7.100727E-002	-2.375132E-003	7.105063E-002	-2.365384E-003	-1.214377E-001	5.347740E-003
1.100000E+008	4.400129E-002	-1.963475E-004	7.097843E-002	-2.627681E-003	7.103625E-002	-2.597792E-003	-1.213575E-001	5.737338E-003
1.200000E+008	4.412173E-002	-3.280710E-004	7.094839E-002	-2.858971E-003	7.100883E-002	-2.850557E-003	-1.212547E-001	6.066668E-003
1.300000E+008	4.422628E-002	-4.231885E-004	7.093211E-002	-3.088528E-003	7.098746E-002	-3.084943E-003	-1.211400E-001	6.420531E-003
1.400000E+008	4.430152E-002	-4.928859E-004	7.090852E-002	-3.311490E-003	7.096782E-002	-3.329974E-003	-1.210310E-001	6.770243E-003
1.500000E+008	4.432029E-002	-5.589319E-004	7.088155E-002	-3.537547E-003	7.092560E-002	-3.539337E-003	-1.209314E-001	7.103294E-003
1.600000E+008	4.437656E-002	-5.998612E-004	7.087632E-002	-3.755182E-003	7.090383E-002	-3.751540E-003	-1.208702E-001	7.439325E-003
1.700000E+008	4.444702E-002	-6.690469E-004	7.085219E-002	-4.015538E-003	7.091537E-002	-3.989095E-003	-1.207944E-001	7.812080E-003
1.800000E+008	4.448291E-002	-7.558411E-004	7.082297E-002	-4.252740E-003	7.091490E-002	-4.244285E-003	-1.206954E-001	8.145678E-003
1.900000E+008	4.443497E-002	-8.719312E-004	7.077003E-002	-4.482483E-003	7.085775E-002	-4.487294E-003	-1.206564E-001	8.429880E-003
2.000000E+008	4.439110E-002	-9.988483E-004	7.075239E-002	-4.701936E-003	7.082671E-002	-4.705360E-003	-1.205890E-001	8.676108E-003
2.100000E+008	4.434530E-002	-1.189446E-003	7.073012E-002	-4.928987E-003	7.079470E-002	-4.921940E-003	-1.205034E-001	8.898595E-003
2.200000E+008	4.431641E-002	-1.321969E-003	7.070864E-002	-5.140136E-003	7.077234E-002	-5.144121E-003	-1.203958E-001	9.104568E-003
2.300000E+008	4.431156E-002	-1.491900E-003	7.069062E-002	-5.380808E-003	7.074111E-002	-5.363367E-003	-1.202658E-001	9.327009E-003
2.400000E+008	4.432995E-002	-1.665042E-003	7.065740E-002	-5.600355E-003	7.070260E-002	-5.583264E-003	-1.201007E-001	9.589175E-003
2.500000E+008	4.434517E-002	-1.814809E-003	7.061416E-002	-5.836300E-003	7.067067E-002	-5.821487E-003	-1.199101E-001	9.833142E-003
2.600000E+008	4.438918E-002	-1.976839E-003	7.058048E-002	-6.054667E-003	7.063859E-002	-6.039917E-003	-1.196996E-001	1.014323E-002
2.700000E+008	4.445434E-002	-2.097813E-003	7.054078E-002	-6.283150E-003	7.060259E-002	-6.275975E-003	-1.194702E-001	1.048359E-002
2.800000E+008	4.451203E-002	-2.197942E-003	7.051885E-002	-6.500451E-003	7.056537E-002	-6.489176E-003	-1.192516E-001	1.082018E-002
2.900000E+008	4.452360E-002	-2.299761E-003	7.048028E-002	-6.721839E-003	7.053386E-002	-6.706353E-003	-1.191089E-001	1.115590E-002
3.000000E+008	4.455167E-002	-2.353583E-003	7.046062E-002	-6.949836E-003	7.051132E-002	-6.929699E-003	-1.189719E-001	1.152965E-002
3.100000E+008	4.453476E-002	-2.413639E-003	7.042381E-002	-7.176264E-003	7.045767E-002	-7.165265E-003	-1.188530E-001	1.191978E-002
3.200000E+008	4.451703E-002	-2.444060E-003	7.037419E-002	-7.416347E-003	7.043923E-002	-7.389292E-003	-1.187639E-001	1.230037E-002
3.300000E+008	4.446406E-002	-2.500033E-003	7.033826E-002	-7.620338E-003	7.040052E-002	-7.641118E-003	-1.186666E-001	1.263046E-002
3.400000E+008	4.437125E-002	-2.572144E-003	7.029745E-002	-7.852276E-003	7.034014E-002	-7.858201E-003	-1.185487E-001	1.293062E-002
3.500000E+008	4.426963E-002	-2.676959E-003	7.026102E-002	-8.076692E-003	7.028752E-002	-8.073387E-003	-1.184009E-001	1.321563E-002
3.600000E+008	4.418140E-002	-2.745418E-003	7.021584E-002	-8.298725E-003	7.023789E-002	-8.275764E-003	-1.182411E-001	1.350219E-002
3.700000E+008	4.409700E-002	-2.857437E-003	7.016394E-002	-8.514503E-003	7.020072E-002	-8.481558E-003	-1.180450E-001	1.376161E-002
3.800000E+008	4.402251E-002	-2.979085E-003	7.011169E-002	-8.744194E-003	7.016966E-002	-8.708468E-003	-1.178517E-001	1.404849E-002
3.900000E+008	4.396414E-002	-3.134876E-003	7.006270E-002	-8.962089E-003	7.013398E-002	-8.930790E-003	-1.175734E-001	1.439562E-002
4.000000E+008	4.390864E-002	-3.296428E-003	7.000776E-002	-9.170322E-003	7.008413E-002	-9.165795E-003	-1.172624E-001	1.471831E-002
4.100000E+008	4.386398E-002	-3.447787E-003	6.997795E-002	-9.352379E-003	7.003735E-002	-9.367025E-003	-1.169781E-001	1.505626E-002
4.200000E+008	4.382879E-002	-3.589890E-003	6.993715E-002	-9.569081E-003	6.999254E-002	-9.574967E-003	-1.167856E-001	1.545657E-002
4.300000E+008	4.379159E-002	-3.712283E-003	6.989983E-002	-9.792880E-003	6.995044E-002	-9.799222E-003	-1.165664E-001	1.588159E-002
4.400000E+008	4.374372E-002	-3.804793E-003	6.985894E-002	-1.003045E-002	6.990647E-002	-1.000841E-002	-1.163641E-001	1.635366E-002
4.500000E+008	4.373210E-002	-3.903986E-003	6.979963E-002	-1.023756E-002	6.985081E-002	-1.023405E-002	-1.161759E-001	1.682644E-002
4.600000E+008	4.372294E-002	-4.016766E-003	6.976168E-002	-1.047038E-002	6.980474E-002	-1.046227E-002	-1.159979E-001	1.729655E-002
4.700000E+008	4.368953E-002	-4.112621E-003	6.970027E-002	-1.067367E-002	6.974650E-002	-1.066904E-002	-1.158364E-001	1.772242E-002
4.800000E+008	4.362607E-002	-4.165281E-003	6.966432E-002	-1.088748E-002	6.969597E-002	-1.089011E-002	-1.156930E-001	1.813738E-002
4.900000E+008	4.355140E-002	-4.238268E-003	6.960120E-002	-1.108853E-002	6.963856E-002	-1.109035E-002	-1.155392E-001	1.854169E-002
5.000000E+008	4.349076E-002	-4.304000E-003	6.955420E-002	-1.131364E-002	6.959902E-002	-1.131503E-002	-1.153921E-001	1.893596E-002
5.100000E+008	4.342279E-002	-4.386026E-003	6.950483E-002	-1.151830E-002	6.955840E-002	-1.151300E-002	-1.152080E-001	1.932606E-002
5.200000E+008	4.335978E-002	-4.481394E-003	6.944772E-002	-1.173324E-002	6.951165E-002	-1.173695E-002	-1.150400E-001	1.973626E-002
5.300000E+008	4.323838E-002	-4.593534E-003	6.939794E-002	-1.194343E-002	6.945440E-002	-1.194503E-002	-1.148100E-001	2.013036E-002
5.400000E+008	4.314512E-002	-4.750888E-003	6.933302E-002	-1.216062E-002	6.941107E-002	-1.218146E-002	-1.145781E-001	2.050810E-002
5.500000E+008	4.304364E-002	-4.865654E-003	6.929235E-002	-1.236415E-002	6.933879E-002	-1.239170E-002	-1.143747E-001	2.094000E-002
5.600000E+008	4.297261E-002	-5.008860E-003	6.923187E-002	-1.258136E-002	6.926983E-002	-1.258685E-002	-1.141583E-001	2.135901E-002
5.700000E+008	4.290501E-002	-5.168471E-003	6.918476E-002	-1.278951E-002	6.923899E-002	-1.280008E-002	-1.139969E-001	2.181738E-002
5.800000E+008	4.285512E-002	-5.309239E-003	6.912001E-002	-1.300918E-002	6.917391E-002	-1.299424E-002	-1.138015E-001	2.229962E-002
5.900000E+008	4.282857E-002	-5.486482E-003	6.906768E-002	-1.322183E-002	6.911413E-002	-1.321044E-002	-1.136406E-001	2.280696E-002
6.000000E+008	4.281468E-002	-5.644582E-003	6.900932E-002	-1.343189E-002	6.904933E-002	-1.343430E-002	-1.134226E-001	2.324222E-002
6.100000E+008	4.283229E-002	-5.756848E-003	6.895111E-002	-1.362268E-002	6.897455E-002	-1.364295E-002	-1.132656E-001	2.370487E-002
6.200000E+008	4.284130E-002	-5.834070E-003	6.887440E-002	-1.383452E-002	6.892924E-002	-1.383731E-002	-1.130944E-001	2.414299E-002
6.300000E+008	4.286799E-002	-5.927661E-003	6.881637E-002	-1.404097E-002	6.885979E-002	-1.405621E-002	-1.129234E-001	2.458007E-002
6.400000E+008	4.286992E-002	-6.000873E-003	6.875736E-002	-1.424430E-002	6.881594E-002	-1.425810E-002	-1.127313E-001	2.501407E-002
6.500000E+008	4.287340E-002	-6.045167E-003	6.870200E-002	-1.445261E-002	6.874588E-002	-1.445668E-002	-1.125544E-001	2.547651E-002
6.600000E+008	4.285561E-002	-6.108239E-003	6.865376E-002	-1.466610E-002	6.868630E-002	-1.467160E-002	-1.123717E-001	2.591993E-002
6.700000E+008	4.278667E-002	-6.152246E-003	6.859180E-002	-1.486427E-002	6.862070E-002	-1.488028E-002	-1.122051E-001	2.639719E-002
6.800000E+008	4.271561E-002	-6.218096E-003	6.851652E-002	-1.507051E-002	6.855685E-002	-1.508453E-002	-1.120166E-001	2.688109E-002
6.900000E+008	4.265069E-002	-6.235284E-003	6.845062E-002	-1.528436E-002	6.848793E-002	-1.528770E-002	-1.118383E-001	2.737480E-002
7.000000E+008	4.258589E-002	-6.301570E-003	6.838070E-002	-1.548420E-002	6.842619E-002	-1.547251E-002	-1.116919E-001	2.786126E-002
7.100000E+008	4.251936E-002	-6.367695E-003	6.833393E-002	-1.566958E-002	6.837879E-002	-1.567672E-002	-1.115710E-001	2.830995E-002
7.200000E+008	4.242760E-002	-6.441189E-003	6.826411E-002	-1.588007E-002	6.830915E-002	-1.588519E-002	-1.114383E-001	2.877972E-002
7.300000E+008	4.234981E-002	-6.536261E-003	6.820179E-002	-1.607727E-002	6.826096E-002	-1.608607E-002	-1.113217E-001	2.919306E-002
7.400000E+008	4.226434E-002	-6.602964E-003	6.812907E-002	-1.627003E-002	6.818239E-002	-1.628858E-002	-1.112252E-001	2.963273E-002
7.500000E+008	4.219661E-002	-6.700787E-003	6.805561E-002	-1.648308E-002	6.812069E-002	-1.650057E-002	-1.111022E-001	3.002867E-002
7.600000E+008	4.212488E-002	-6.812466E-003	6.799929E-002	-1.669484E-002	6.805630E-002	-1.670260E-002	-1.109675E-001	3.042192E-002
7.700000E+008	4.203437E-002	-6.928606E-003	6.793772E-002	-1.689348E-002	6.799925E-002	-1.691748E-002	-1.108140E-001	3.078085E-002
7.800000E+008	4.198099E-002	-7.046963E-003	6.787634E-002	-1.710186E-002	6.792663E-002	-1.709108E-002	-1.106532E-001	3.114651E-002
7.900000E+008	4.193308E-002	-7.177869E-003	6.780073E-002	-1.730273E-002	6.786167E-002	-1.730274E-002	-1.104819E-001	3.154562E-002
8.000000E+008	4.189528E-002	-7.317050E-003	6.774099E-002	-1.749329E-002	6.777926E-002	-1.752791E-002	-1.102491E-001	3.195272E-002
8.100000E+008	4.185423E-002	-7.461871E-003	6.764389E-002	-1.769752E-002	6.771303E-002	-1.772850E-002	-1.100118E-001	3.238017E-002
8.200000E+008	4.185604E-002	-7.560650E-003	6.758918E-002	-1.789563E-002	6.763762E-002	-1.790343E-002	-1.097752E-001	3.281535E-002
8.300000E+008	4.186857E-002	-7.685832E-003	6.752956E-002	-1.808581E-002	6.756449E-002	-1.811524E-002	-1.095694E-001	3.323417E-002
8.400000E+008	4.187660E-002	-7.762504E-003	6.744991E-002	-1.828548E-002	6.749783E-002	-1.829839E-002	-1.093534E-001	3.366037E-002
8.500000E+008	4.189757E-002	-7.836051E-003	6.738034E-002	-1.849705E-002	6.743998E-002	-1.850279E-002	-1.092159E-001	3.410617E-002
8.600000E+008	4.188323E-002	-7.896984E-003	6.732001E-002	-1.867370E-002	6.737277E-002	-1.870601E-002	-1.090432E-001	3.454587E-002
8.700000E+008	4.187106E-002	-7.918196E-003	6.723508E-002	-1.889511E-002	6.729071E-002	-1.889797E-002	-1.088799E-001	3.497824E-002
8.800000E+008	4.184826E-002	-7.962100E-003	6.716727E-002	-1.908486E-002	6.721471E-002	-1.908779E-002	-1.087231E-001	3.537378E-002
8.900000E+008	4.179874E-002	-8.008343E-003	6.711078E-002	-1.928556E-002	6.714180E-002	-1.929082E-002	-1.085614E-001	3.574722E-002
9.000000E+008	4.172494E-002	-8.055298E-003	6.701764E-002	-1.947147E-002	6.708022E-002	-1.950502E-002	-1.083651E-001	3.612700E-002
9.100000E+008	4.168155E-002	-8.105554E-003	6.694913E-002	-1.967575E-002	6.699706E-002	-1.969189E-002	-1.081451E-001	3.650888E-002
9.200000E+008	4.158943E-002	-8.199452E-003	6.687324E-002	-1.987070E-002	6.692417E-002	-1.988479E-002	-1.078958E-001	3.690401E-002
9.300000E+008	4.157958E-002	-8.288785E-003	6.680531E-002	-2.006782E-002	6.683632E-002	-2.009342E-002	-1.076060E-001	3.731929E-002
9.400000E+008	4.155113E-002	-8.392335E-003	6.672212E-002	-2.025621E-002	6.677937E-002	-2.027240E-002	-1.072796E-001	3.774403E-002
9.500000E+008	4.152927E-002	-8.503352E-003	6.664724E-002	-2.044786E-002	6.669959E-002	-2.049359E-002	-1.069552E-001	3.822076E-002
9.600000E+008	4.151078E-002	-8.559233E-003	6.655576E-002	-2.066135E-002	6.662163E-002	-2.067319E-002	-1.066420E-001	3.868518E-002
9.700000E+008	4.151015E-002	-8.626323E-003	6.650828E-002	-2.083065E-002	6.654812E-002	-2.086892E-002	-1.063250E-001	3.918041E-002
9.800000E+008	4.151018E-002	-8.658948E-003	6.641134E-002	-2.101245E-002	6.647724E-002	-2.105032E-002	-1.060390E-001	3.968338E-002
9.900000E+008	4.151527E-002	-8.699613E-003	6.635893E-002	-2.122430E-002	6.641932E-002	-2.126304E-002	-1.057816E-001	4.019130E-002
1.000000E+009	4.149355E-002	-8.712602E-003	6.629846E-002	-2.141983E-002	6.633560E-002	-2.145407E-002	-1.055734E-001	4.067311E-002
1.010000E+009	4.145366E-002	-8.729159E-003	6.621320E-002	-2.160817E-002	6.625950E-002	-2.163058E-002	-1.053361E-001	4.117659E-002
1.020000E+009	4.142097E-002	-8.754517E-003	6.612496E-002	-2.181332E-002	6.616435E-002	-2.183079E-002	-1.051425E-001	4.167256E-002
1.030000E+009	4.137572E-002	-8.771966E-003	6.603430E-002	-2.199959E-002	6.609222E-002	-2.202043E-002	-1.049297E-001	4.214509E-002
1.040000E+009	4.131970E-002	-8.786918E-003	6.597451E-002	-2.219916E-002	6.602361E-002	-2.222068E-002	-1.047115E-001	4.262042E-002
1.050000E+009	4.129172E-002	-8.840419E-003	6.588189E-002	-2.237799E-002	6.593549E-002	-2.240763E-002	-1.044552E-001	4.312966E-002
1.060000E+009	4.124139E-002	-8.882654E-003	6.581805E-002	-2.258488E-002	6.585169E-002	-2.260631E-002	-1.042191E-001	4.361104E-002
1.070000E+009	4.118791E-002	-8.914547E-003	6.573516E-002	-2.277081E-002	6.577647E-002	-2.276493E-002	-1.039435E-001	4.410741E-002
1.080000E+009	4.115221E-002	-8.970377E-003	6.564457E-002	-2.297142E-002	6.570470E-002	-2.298539E-002	-1.036589E-001	4.459588E-002
1.090000E+009	4.109483E-002	-9.000477E-003	6.555788E-002	-2.315991E-002	6.562184E-002	-2.316627E-002	-1.034172E-001	4.508303E-002
1.100000E+009	4.105932E-002	-9.044006E-003	6.547428E-002	-2.334795E-002	6.554538E-002	-2.336158E-002	-1.031728E-001	4.557410E-002
1.110000E+009	4.102122E-002	-9.079465E-003	6.540000E-002	-2.354287E-002	6.546716E-002	-2.356266E-002	-1.029510E-001	4.605513E-002
1.120000E+009	4.094862E-002	-9.115439E-003	6.532236E-002	-2.373551E-002	6.538116E-002	-2.374938E-002	-1.027812E-001	4.651460E-002
1.130000E+009	4.092996E-002	-9.144504E-003	6.523705E-002	-2.391469E-002	6.529052E-002	-2.393649E-002	-1.025521E-001	4.698229E-002
1.140000E+009	4.084809E-002	-9.193904E-003	6.514913E-002	-2.410457E-002	6.520683E-002	-2.412811E-002	-1.023355E-001	4.746988E-002
1.150000E+009	4.081101E-002	-9.234364E-003	6.506659E-002	-2.431045E-002	6.510574E-002	-2.432585E-002	-1.020874E-001	4.792494E-002
1.160000E+009	4.075909E-002	-9.275875E-003	6.498190E-002	-2.450226E-002	6.502393E-002	-2.451837E-002	-1.018433E-001	4.837459E-002
1.170000E+009	4.072492E-002	-9.320295E-003	6.487738E-002	-2.468271E-002	6.495303E-002	-2.470941E-002	-1.015791E-001	4.887328E-002
1.180000E+009	4.068362E-002	-9.353447E-003	6.479884E-002	-2.486862E-002	6.485870E-002	-2.490290E-002	-1.013051E-001	4.936586E-002
1.190000E+009	4.060835E-002	-9.385106E-003	6.470358E-002	-2.507647E-002	6.475705E-002	-2.507510E-002	-1.009994E-001	4.988643E-002
1.200000E+009	4.054157E-002	-9.420669E-003	6.462636E-002	-2.524680E-002	6.466140E-002	-2.526336E-002	-1.007276E-001	5.039204E-002
1.210000E+009	4.054098E-002	-9.517461E-003	6.455104E-002	-2.545440E-002	6.457591E-002	-2.544741E-002	-1.004633E-001	5.091153E-002
1.220000E+009	4.048406E-002	-9.611443E-003	6.444429E-002	-2.561449E-002	6.449656E-002	-2.565170E-002	-1.002407E-001	5.138445E-002
1.230000E+009	4.042413E-002	-9.655142E-003	6.435521E-002	-2.581389E-002	6.442361E-002	-2.583663E-002	-1.000092E-001	5.186367E-002
1.240000E+009	4.042305E-002	-9.724789E-003	6.426000E-002	-2.600944E-002	6.433333E-002	-2.601234E-002	-9.978991E-002	5.231736E-002
1.250000E+009	4.040662E-002	-9.812575E-003	6.417706E-002	-2.618978E-002	6.423747E-002	-2.620449E-002	-9.958827E-002	5.279274E-002
1.260000E+009	4.037049E-002	-9.877774E-003	6.408367E-002	-2.637427E-002	6.413075E-002	-2.640700E-002	-9.930082E-002	5.320546E-002
1.270000E+009	4.041174E-002	-9.927945E-003	6.399389E-002	-2.657704E-002	6.404058E-002	-2.659211E-002	-9.903595E-002	5.360623E-002
1.280000E+009	4.040131E-002	-9.964421E-003	6.390568E-002	-2.676024E-002	6.394640E-002	-2.677415E-002	-9.876811E-002	5.401615E-002
1.290000E+009	4.041398E-002	-1.000175E-002	6.380940E-002	-2.695073E-002	6.388277E-002	-2.696083E-002	-9.842457E-002	5.443169E-002
1.300000E+009	4.040782E-002	-9.987426E-003	6.370633E-002	-2.713232E-002	6.378075E-002	-2.714416E-002	-9.807409E-002	5.487063E-002
1.310000E+009	4.039763E-002	-1.002794E-002	6.360024E-002	-2.732482E-002	6.367407E-002	-2.734719E-002	-9.773691E-002	5.531582E-002
1.320000E+009	4.036525E-002	-1.003142E-002	6.351615E-002	-2.752907E-002	6.358278E-002	-2.751934E-002	-9.730791E-002	5.583340E-002
1.330000E+009	4.034649E-002	-9.982429E-003	6.341595E-002	-2.769059E-002	6.347617E-002	-2.770963E-002	-9.689985E-002	5.635536E-002
1.340000E+009	4.030968E-002	-9.998636E-003	6.331843E-002	-2.787370E-002	6.338288E-002	-2.791713E-002	-9.651933E-002	5.694060E-002
1.350000E+009	4.024344E-002	-1.001353E-002	6.322821E-002	-2.807488E-002	6.327461E-002	-2.807328E-002	-9.614166E-002	5.753438E-002
1.360000E+009	4.022592E-002	-1.000611E-002	6.311634E-002	-2.825856E-002	6.317375E-002	-2.827208E-002	-9.578299E-002	5.812934E-002
1.370000E+009	4.020461E-002	-1.001601E-002	6.302200E-002	-2.843037E-002	6.306760E-002	-2.845226E-002	-9.547377E-002	5.874297E-002
1.380000E+009	4.016023E-002	-1.003287E-002	6.291410E-002	-2.862481E-002	6.298024E-002	-2.865039E-002	-9.515050E-002	5.933672E-002
1.390000E+009	4.015665E-002	-1.006423E-002	6.281449E-002	-2.880594E-002	6.286271E-002	-2.881650E-002	-9.486527E-002	5.996883E-002
1.400000E+009	4.011459E-002	-1.009470E-002	6.270166E-002	-2.900132E-002	6.276417E-002	-2.898849E-002	-9.459223E-002	6.054405E-002
1.410000E+009	4.007198E-002	-1.008494E-002	6.259601E-002	-2.916706E-002	6.265130E-002	-2.918696E-002	-9.429006E-002	6.111863E-002
1.420000E+009	4.000202E-002	-1.008991E-002	6.251108E-002	-2.934449E-002	6.256294E-002	-2.937482E-002	-9.402694E-002	6.166880E-002
1.430000E+009	4.000983E-002	-1.008801E-002	6.240009E-002	-2.953210E-002	6.246464E-002	-2.954024E-002	-9.372674E-002	6.220124E-002
1.440000E+009	3.994970E-002	-1.011751E-002	6.230228E-002	-2.972067E-002	6.233790E-002	-2.971803E-002	-9.343141E-002	6.272900E-002
1.450000E+009	3.988731E-002	-1.010867E-002	6.216936E-002	-2.989070E-002	6.225110E-002	-2.990432E-002	-9.310715E-002	6.326567E-002
1.460000E+009	3.981239E-002	-1.010795E-002	6.206765E-002	-3.007340E-002	6.213017E-002	-3.008294E-002	-9.278404E-002	6.379364E-002
1.470000E+009	3.976581E-002	-1.013544E-002	6.195697E-002	-3.026222E-002	6.201416E-002	-3.027420E-002	-9.243734E-002	6.436597E-002
1.480000E+009	3.970860E-002	-1.014758E-002	6.185713E-002	-3.041978E-002	6.192223E-002	-3.045126E-002	-9.208040E-002	6.495915E-002
1.490000E+009	3.966288E-002	-1.019056E-002	6.173491E-002	-3.060842E-002	6.180171E-002	-3.062367E-002	-9.169383E-002	6.556872E-002
1.500000E+009	3.963278E-002	-1.021609E-002	6.164931E-002	-3.078048E-002	6.169181E-002	-3.080332E-002	-9.134271E-002	6.615885E-002
