! Device ID: PE43711P
! File Path: z:\PE43711P\CHAR_NOM_04282014\AMB\3p300\LS_ATT_12p00dB\PE43711P_AMB_3p300V_3p000V_0p000V_LS_ATT_12p00dB_S2P_SN_5_A0137A.s2p
! Serial: 5
! Lot: A0137A
! Temp: 25C
! VDD: 3.300
! VSS: 0.000
! Control_Hi: 3.000
! Control_Lo: 0.000
! Attenuation Step: 12.00dB
! Port 1: RF1
! Port 2: RF2
! ThroughPath:1-2
! IDD: 0.00012774
! ISS: -1.744e-007
!

#  Hz  S   RI  R   50

1.000000E+007	7.422545E-002	-7.178119E-005	2.201612E-001	-1.053067E-003	2.204185E-001	-1.156508E-003	-9.751763E-002	7.983971E-004
2.000000E+007	7.441253E-002	-2.556626E-004	2.201169E-001	-1.729540E-003	2.202533E-001	-1.753155E-003	-9.725092E-002	1.343838E-003
3.000000E+007	7.466489E-002	-5.662574E-004	2.201024E-001	-2.594477E-003	2.202735E-001	-2.615531E-003	-9.692848E-002	1.764535E-003
4.000000E+007	7.479198E-002	-8.733794E-004	2.200916E-001	-3.467150E-003	2.202371E-001	-3.476655E-003	-9.673536E-002	2.246367E-003
5.000000E+007	7.490060E-002	-1.235621E-003	2.200858E-001	-4.408745E-003	2.202899E-001	-4.393755E-003	-9.667573E-002	2.706669E-003
6.000000E+007	7.504550E-002	-1.632568E-003	2.200356E-001	-5.260881E-003	2.202588E-001	-5.257725E-003	-9.654690E-002	3.046904E-003
7.000000E+007	7.515308E-002	-2.042590E-003	2.199625E-001	-6.113638E-003	2.201749E-001	-6.103835E-003	-9.637159E-002	3.394887E-003
8.000000E+007	7.526815E-002	-2.445121E-003	2.199256E-001	-6.927975E-003	2.201323E-001	-6.937687E-003	-9.623769E-002	3.744841E-003
9.000000E+007	7.535050E-002	-2.843156E-003	2.198941E-001	-7.786708E-003	2.200890E-001	-7.795762E-003	-9.610312E-002	4.039278E-003
1.000000E+008	7.543273E-002	-3.225285E-003	2.198752E-001	-8.657792E-003	2.200191E-001	-8.640457E-003	-9.601753E-002	4.351902E-003
1.100000E+008	7.551824E-002	-3.638221E-003	2.197773E-001	-9.531157E-003	2.199758E-001	-9.497339E-003	-9.593151E-002	4.635813E-003
1.200000E+008	7.559774E-002	-4.072472E-003	2.196653E-001	-1.039631E-002	2.198803E-001	-1.038402E-002	-9.587060E-002	4.875652E-003
1.300000E+008	7.566413E-002	-4.491474E-003	2.196003E-001	-1.120713E-002	2.198127E-001	-1.123585E-002	-9.577034E-002	5.117487E-003
1.400000E+008	7.567347E-002	-4.883186E-003	2.195360E-001	-1.206823E-002	2.197185E-001	-1.208499E-002	-9.562406E-002	5.372299E-003
1.500000E+008	7.563064E-002	-5.266418E-003	2.194463E-001	-1.286994E-002	2.195938E-001	-1.290332E-002	-9.548999E-002	5.592523E-003
1.600000E+008	7.559514E-002	-5.609411E-003	2.193953E-001	-1.369543E-002	2.195053E-001	-1.369664E-002	-9.546538E-002	5.846606E-003
1.700000E+008	7.558084E-002	-5.956770E-003	2.193148E-001	-1.458856E-002	2.195136E-001	-1.452732E-002	-9.549267E-002	6.096092E-003
1.800000E+008	7.549361E-002	-6.343383E-003	2.191253E-001	-1.548546E-002	2.194258E-001	-1.545620E-002	-9.546094E-002	6.322620E-003
1.900000E+008	7.540148E-002	-6.766281E-003	2.189694E-001	-1.628265E-002	2.192670E-001	-1.629593E-002	-9.541831E-002	6.486029E-003
2.000000E+008	7.530374E-002	-7.204090E-003	2.188827E-001	-1.709233E-002	2.191400E-001	-1.709631E-002	-9.532689E-002	6.665588E-003
2.100000E+008	7.520795E-002	-7.694398E-003	2.187863E-001	-1.790712E-002	2.190043E-001	-1.791100E-002	-9.519664E-002	6.821859E-003
2.200000E+008	7.510849E-002	-8.152191E-003	2.187011E-001	-1.868301E-002	2.188909E-001	-1.870246E-002	-9.507824E-002	6.947392E-003
2.300000E+008	7.501739E-002	-8.599743E-003	2.185880E-001	-1.950081E-002	2.187767E-001	-1.951160E-002	-9.494950E-002	7.080295E-003
2.400000E+008	7.494223E-002	-9.054288E-003	2.184676E-001	-2.033962E-002	2.186451E-001	-2.035099E-002	-9.482511E-002	7.237080E-003
2.500000E+008	7.483076E-002	-9.471250E-003	2.183325E-001	-2.118896E-002	2.185124E-001	-2.115641E-002	-9.467052E-002	7.382089E-003
2.600000E+008	7.478009E-002	-9.928369E-003	2.181698E-001	-2.202374E-002	2.183744E-001	-2.199396E-002	-9.449058E-002	7.593104E-003
2.700000E+008	7.472420E-002	-1.034551E-002	2.180115E-001	-2.279834E-002	2.182199E-001	-2.280854E-002	-9.427847E-002	7.826150E-003
2.800000E+008	7.470067E-002	-1.074957E-002	2.178778E-001	-2.358492E-002	2.180789E-001	-2.359198E-002	-9.408642E-002	8.055928E-003
2.900000E+008	7.461807E-002	-1.110417E-002	2.177566E-001	-2.437975E-002	2.179349E-001	-2.437553E-002	-9.394624E-002	8.297701E-003
3.000000E+008	7.453516E-002	-1.143866E-002	2.176345E-001	-2.521078E-002	2.178100E-001	-2.517998E-002	-9.381947E-002	8.591390E-003
3.100000E+008	7.443683E-002	-1.176582E-002	2.174788E-001	-2.601127E-002	2.176631E-001	-2.599637E-002	-9.370136E-002	8.879415E-003
3.200000E+008	7.431894E-002	-1.207144E-002	2.173264E-001	-2.683450E-002	2.175345E-001	-2.681841E-002	-9.361831E-002	9.176617E-003
3.300000E+008	7.415538E-002	-1.236737E-002	2.171846E-001	-2.763669E-002	2.173781E-001	-2.767994E-002	-9.352749E-002	9.429743E-003
3.400000E+008	7.393354E-002	-1.269639E-002	2.170036E-001	-2.845822E-002	2.171349E-001	-2.852247E-002	-9.341912E-002	9.655394E-003
3.500000E+008	7.371396E-002	-1.304641E-002	2.168430E-001	-2.927482E-002	2.169235E-001	-2.926541E-002	-9.331037E-002	9.820751E-003
3.600000E+008	7.350774E-002	-1.336644E-002	2.166708E-001	-3.006772E-002	2.167508E-001	-2.998393E-002	-9.316549E-002	1.001885E-002
3.700000E+008	7.329939E-002	-1.372506E-002	2.164643E-001	-3.082601E-002	2.166064E-001	-3.072777E-002	-9.299313E-002	1.019736E-002
3.800000E+008	7.311670E-002	-1.411591E-002	2.162951E-001	-3.159407E-002	2.165010E-001	-3.153248E-002	-9.280862E-002	1.038549E-002
3.900000E+008	7.291255E-002	-1.450804E-002	2.160893E-001	-3.240743E-002	2.163167E-001	-3.235646E-002	-9.257066E-002	1.063781E-002
4.000000E+008	7.274541E-002	-1.493513E-002	2.158675E-001	-3.314763E-002	2.161263E-001	-3.316292E-002	-9.227696E-002	1.087586E-002
4.100000E+008	7.255243E-002	-1.533749E-002	2.157159E-001	-3.387491E-002	2.159343E-001	-3.393984E-002	-9.202634E-002	1.110890E-002
4.200000E+008	7.236565E-002	-1.571593E-002	2.155697E-001	-3.464607E-002	2.157113E-001	-3.469807E-002	-9.180762E-002	1.142789E-002
4.300000E+008	7.222201E-002	-1.606864E-002	2.154057E-001	-3.545398E-002	2.155609E-001	-3.546349E-002	-9.162082E-002	1.175655E-002
4.400000E+008	7.207834E-002	-1.638897E-002	2.152145E-001	-3.623091E-002	2.153750E-001	-3.625050E-002	-9.145641E-002	1.212488E-002
4.500000E+008	7.193868E-002	-1.673367E-002	2.150276E-001	-3.700623E-002	2.151944E-001	-3.702391E-002	-9.127519E-002	1.252941E-002
4.600000E+008	7.178095E-002	-1.707053E-002	2.148262E-001	-3.781157E-002	2.149899E-001	-3.783231E-002	-9.112938E-002	1.290609E-002
4.700000E+008	7.159421E-002	-1.739313E-002	2.146072E-001	-3.856482E-002	2.147600E-001	-3.860877E-002	-9.098588E-002	1.325302E-002
4.800000E+008	7.140671E-002	-1.765335E-002	2.144158E-001	-3.930725E-002	2.145643E-001	-3.932429E-002	-9.087416E-002	1.358955E-002
4.900000E+008	7.117437E-002	-1.795377E-002	2.142080E-001	-4.007749E-002	2.143524E-001	-4.009471E-002	-9.075776E-002	1.392788E-002
5.000000E+008	7.097548E-002	-1.824304E-002	2.140091E-001	-4.083583E-002	2.141606E-001	-4.085011E-002	-9.063166E-002	1.422500E-002
5.100000E+008	7.077049E-002	-1.855729E-002	2.138002E-001	-4.159647E-002	2.139799E-001	-4.159348E-002	-9.046789E-002	1.452230E-002
5.200000E+008	7.055707E-002	-1.887971E-002	2.135948E-001	-4.236238E-002	2.137835E-001	-4.236737E-002	-9.031275E-002	1.482131E-002
5.300000E+008	7.032571E-002	-1.923474E-002	2.133940E-001	-4.312988E-002	2.135715E-001	-4.314811E-002	-9.008436E-002	1.512529E-002
5.400000E+008	7.010354E-002	-1.960376E-002	2.131602E-001	-4.389301E-002	2.133445E-001	-4.391571E-002	-8.987290E-002	1.542151E-002
5.500000E+008	6.986277E-002	-1.992353E-002	2.129471E-001	-4.465398E-002	2.130909E-001	-4.467730E-002	-8.969821E-002	1.577078E-002
5.600000E+008	6.964027E-002	-2.026892E-002	2.127116E-001	-4.539537E-002	2.128480E-001	-4.542716E-002	-8.950817E-002	1.611121E-002
5.700000E+008	6.943935E-002	-2.061714E-002	2.124910E-001	-4.611728E-002	2.126480E-001	-4.615388E-002	-8.935440E-002	1.650309E-002
5.800000E+008	6.924615E-002	-2.095590E-002	2.122483E-001	-4.687855E-002	2.124335E-001	-4.690450E-002	-8.923109E-002	1.688965E-002
5.900000E+008	6.905345E-002	-2.133773E-002	2.120427E-001	-4.765023E-002	2.122176E-001	-4.767098E-002	-8.908585E-002	1.730129E-002
6.000000E+008	6.892211E-002	-2.168399E-002	2.118086E-001	-4.839693E-002	2.119667E-001	-4.843519E-002	-8.892366E-002	1.765085E-002
6.100000E+008	6.875588E-002	-2.200192E-002	2.115521E-001	-4.912506E-002	2.116758E-001	-4.918692E-002	-8.878773E-002	1.800788E-002
6.200000E+008	6.863822E-002	-2.230807E-002	2.113157E-001	-4.985272E-002	2.114660E-001	-4.990758E-002	-8.864795E-002	1.835992E-002
6.300000E+008	6.852610E-002	-2.258878E-002	2.110476E-001	-5.058902E-002	2.112199E-001	-5.063561E-002	-8.849615E-002	1.870156E-002
6.400000E+008	6.838707E-002	-2.286387E-002	2.108203E-001	-5.132616E-002	2.109750E-001	-5.137761E-002	-8.832440E-002	1.906838E-002
6.500000E+008	6.824588E-002	-2.311117E-002	2.105924E-001	-5.203866E-002	2.107450E-001	-5.210188E-002	-8.817759E-002	1.945342E-002
6.600000E+008	6.809270E-002	-2.336374E-002	2.103523E-001	-5.278670E-002	2.104924E-001	-5.286265E-002	-8.800154E-002	1.982427E-002
6.700000E+008	6.785109E-002	-2.359206E-002	2.100904E-001	-5.353041E-002	2.102482E-001	-5.358218E-002	-8.786719E-002	2.020551E-002
6.800000E+008	6.764182E-002	-2.380476E-002	2.098552E-001	-5.423953E-002	2.099792E-001	-5.430581E-002	-8.772059E-002	2.062393E-002
6.900000E+008	6.739666E-002	-2.403432E-002	2.095922E-001	-5.499108E-002	2.097084E-001	-5.502508E-002	-8.758401E-002	2.106165E-002
7.000000E+008	6.718475E-002	-2.427066E-002	2.093241E-001	-5.570889E-002	2.094755E-001	-5.573336E-002	-8.748290E-002	2.145123E-002
7.100000E+008	6.697840E-002	-2.454454E-002	2.090835E-001	-5.641147E-002	2.092319E-001	-5.647182E-002	-8.739775E-002	2.183598E-002
7.200000E+008	6.672329E-002	-2.479407E-002	2.088360E-001	-5.711077E-002	2.089684E-001	-5.718527E-002	-8.729821E-002	2.220622E-002
7.300000E+008	6.649658E-002	-2.508338E-002	2.085484E-001	-5.783975E-002	2.087369E-001	-5.792554E-002	-8.720597E-002	2.252023E-002
7.400000E+008	6.625114E-002	-2.535148E-002	2.082828E-001	-5.857095E-002	2.084757E-001	-5.862727E-002	-8.714192E-002	2.285955E-002
7.500000E+008	6.604942E-002	-2.561718E-002	2.080321E-001	-5.928546E-002	2.081821E-001	-5.936546E-002	-8.705640E-002	2.314928E-002
7.600000E+008	6.580402E-002	-2.590040E-002	2.077588E-001	-6.001108E-002	2.079274E-001	-6.006685E-002	-8.693766E-002	2.345254E-002
7.700000E+008	6.559240E-002	-2.619142E-002	2.074887E-001	-6.072199E-002	2.076692E-001	-6.078201E-002	-8.682409E-002	2.375225E-002
7.800000E+008	6.536767E-002	-2.647497E-002	2.072357E-001	-6.143300E-002	2.074051E-001	-6.149421E-002	-8.666143E-002	2.403693E-002
7.900000E+008	6.515958E-002	-2.680897E-002	2.069703E-001	-6.214002E-002	2.071390E-001	-6.223406E-002	-8.652817E-002	2.435049E-002
8.000000E+008	6.494747E-002	-2.708685E-002	2.066731E-001	-6.285438E-002	2.068244E-001	-6.293342E-002	-8.636502E-002	2.468456E-002
8.100000E+008	6.474119E-002	-2.740251E-002	2.064106E-001	-6.354883E-002	2.065294E-001	-6.363454E-002	-8.616513E-002	2.506031E-002
8.200000E+008	6.458239E-002	-2.768440E-002	2.061213E-001	-6.426773E-002	2.062465E-001	-6.431192E-002	-8.597030E-002	2.537466E-002
8.300000E+008	6.443226E-002	-2.797716E-002	2.058309E-001	-6.496617E-002	2.060023E-001	-6.504237E-002	-8.579468E-002	2.572554E-002
8.400000E+008	6.427883E-002	-2.822686E-002	2.055441E-001	-6.565342E-002	2.057061E-001	-6.573304E-002	-8.563336E-002	2.606871E-002
8.500000E+008	6.414129E-002	-2.846453E-002	2.052892E-001	-6.637001E-002	2.054266E-001	-6.645918E-002	-8.553009E-002	2.642334E-002
8.600000E+008	6.396241E-002	-2.869954E-002	2.049859E-001	-6.706042E-002	2.051275E-001	-6.714619E-002	-8.538798E-002	2.678388E-002
8.700000E+008	6.379781E-002	-2.889769E-002	2.047114E-001	-6.777231E-002	2.048452E-001	-6.784407E-002	-8.524696E-002	2.711379E-002
8.800000E+008	6.361422E-002	-2.907319E-002	2.044051E-001	-6.848079E-002	2.045624E-001	-6.852111E-002	-8.513895E-002	2.745614E-002
8.900000E+008	6.340156E-002	-2.929769E-002	2.041014E-001	-6.917866E-002	2.042562E-001	-6.924990E-002	-8.501581E-002	2.775833E-002
9.000000E+008	6.317733E-002	-2.948925E-002	2.037921E-001	-6.985836E-002	2.039775E-001	-6.993667E-002	-8.483819E-002	2.806272E-002
9.100000E+008	6.294468E-002	-2.969834E-002	2.035061E-001	-7.055539E-002	2.037059E-001	-7.062354E-002	-8.465976E-002	2.838906E-002
9.200000E+008	6.269617E-002	-2.993821E-002	2.032168E-001	-7.123433E-002	2.033882E-001	-7.133140E-002	-8.445075E-002	2.870360E-002
9.300000E+008	6.250215E-002	-3.018724E-002	2.029131E-001	-7.194170E-002	2.030652E-001	-7.203832E-002	-8.420149E-002	2.902216E-002
9.400000E+008	6.228724E-002	-3.043439E-002	2.026031E-001	-7.259748E-002	2.027750E-001	-7.271723E-002	-8.393388E-002	2.937650E-002
9.500000E+008	6.209053E-002	-3.068933E-002	2.023143E-001	-7.330026E-002	2.024617E-001	-7.340721E-002	-8.365184E-002	2.977469E-002
9.600000E+008	6.190514E-002	-3.089514E-002	2.019822E-001	-7.400437E-002	2.021623E-001	-7.408418E-002	-8.336421E-002	3.016314E-002
9.700000E+008	6.175841E-002	-3.111120E-002	2.016723E-001	-7.464110E-002	2.018512E-001	-7.477071E-002	-8.308105E-002	3.056527E-002
9.800000E+008	6.160792E-002	-3.130340E-002	2.013858E-001	-7.533147E-002	2.015461E-001	-7.545456E-002	-8.284001E-002	3.098129E-002
9.900000E+008	6.146289E-002	-3.149616E-002	2.011094E-001	-7.604025E-002	2.012404E-001	-7.613633E-002	-8.261704E-002	3.140212E-002
1.000000E+009	6.127907E-002	-3.164718E-002	2.007808E-001	-7.669281E-002	2.009157E-001	-7.681386E-002	-8.242579E-002	3.183653E-002
1.010000E+009	6.107822E-002	-3.178962E-002	2.004690E-001	-7.740399E-002	2.006076E-001	-7.748849E-002	-8.223004E-002	3.225226E-002
1.020000E+009	6.087289E-002	-3.195045E-002	2.001639E-001	-7.809095E-002	2.002891E-001	-7.819178E-002	-8.207021E-002	3.269892E-002
1.030000E+009	6.066134E-002	-3.208031E-002	1.998068E-001	-7.876884E-002	1.999683E-001	-7.885469E-002	-8.189961E-002	3.309963E-002
1.040000E+009	6.042848E-002	-3.225442E-002	1.994874E-001	-7.942199E-002	1.996712E-001	-7.953027E-002	-8.173442E-002	3.351328E-002
1.050000E+009	6.023883E-002	-3.244314E-002	1.991721E-001	-8.008888E-002	1.993416E-001	-8.018776E-002	-8.154352E-002	3.394835E-002
1.060000E+009	6.000458E-002	-3.261740E-002	1.988586E-001	-8.075861E-002	1.990035E-001	-8.083729E-002	-8.133484E-002	3.432895E-002
1.070000E+009	5.977169E-002	-3.280789E-002	1.985276E-001	-8.143182E-002	1.986718E-001	-8.149909E-002	-8.111116E-002	3.472482E-002
1.080000E+009	5.957664E-002	-3.300144E-002	1.981894E-001	-8.211626E-002	1.983789E-001	-8.217286E-002	-8.086921E-002	3.514228E-002
1.090000E+009	5.935277E-002	-3.317685E-002	1.978623E-001	-8.277571E-002	1.980412E-001	-8.285419E-002	-8.067371E-002	3.555417E-002
1.100000E+009	5.920077E-002	-3.334676E-002	1.975126E-001	-8.344801E-002	1.977043E-001	-8.352496E-002	-8.046441E-002	3.599192E-002
1.110000E+009	5.900227E-002	-3.351305E-002	1.971767E-001	-8.412902E-002	1.973559E-001	-8.420468E-002	-8.025765E-002	3.638673E-002
1.120000E+009	5.876941E-002	-3.367486E-002	1.968618E-001	-8.480121E-002	1.970250E-001	-8.488253E-002	-8.012052E-002	3.677034E-002
1.130000E+009	5.855930E-002	-3.384808E-002	1.964935E-001	-8.545086E-002	1.966888E-001	-8.555088E-002	-7.993770E-002	3.716638E-002
1.140000E+009	5.831629E-002	-3.399310E-002	1.961828E-001	-8.611577E-002	1.963379E-001	-8.621084E-002	-7.976292E-002	3.759098E-002
1.150000E+009	5.810125E-002	-3.416309E-002	1.958046E-001	-8.679934E-002	1.959811E-001	-8.687059E-002	-7.956384E-002	3.797655E-002
1.160000E+009	5.788616E-002	-3.433504E-002	1.954733E-001	-8.746235E-002	1.956321E-001	-8.753668E-002	-7.937711E-002	3.836050E-002
1.170000E+009	5.765898E-002	-3.448004E-002	1.951040E-001	-8.813384E-002	1.952806E-001	-8.817176E-002	-7.916712E-002	3.879843E-002
1.180000E+009	5.744783E-002	-3.467567E-002	1.947628E-001	-8.877042E-002	1.949362E-001	-8.883383E-002	-7.891231E-002	3.920895E-002
1.190000E+009	5.722168E-002	-3.484141E-002	1.944064E-001	-8.941533E-002	1.945520E-001	-8.951026E-002	-7.870345E-002	3.962510E-002
1.200000E+009	5.699291E-002	-3.501361E-002	1.940536E-001	-9.009107E-002	1.941981E-001	-9.015408E-002	-7.844342E-002	4.006081E-002
1.210000E+009	5.680783E-002	-3.521055E-002	1.936834E-001	-9.073494E-002	1.938268E-001	-9.082688E-002	-7.822133E-002	4.048763E-002
1.220000E+009	5.659803E-002	-3.539646E-002	1.933404E-001	-9.137881E-002	1.934912E-001	-9.146286E-002	-7.802199E-002	4.093097E-002
1.230000E+009	5.639772E-002	-3.557523E-002	1.929534E-001	-9.203734E-002	1.931308E-001	-9.212858E-002	-7.784577E-002	4.132727E-002
1.240000E+009	5.620875E-002	-3.577073E-002	1.926036E-001	-9.269222E-002	1.927403E-001	-9.276584E-002	-7.767354E-002	4.172823E-002
1.250000E+009	5.603302E-002	-3.596372E-002	1.922090E-001	-9.332711E-002	1.924119E-001	-9.342150E-002	-7.750697E-002	4.211298E-002
1.260000E+009	5.579471E-002	-3.612534E-002	1.918524E-001	-9.399539E-002	1.920007E-001	-9.408385E-002	-7.728984E-002	4.247453E-002
1.270000E+009	5.566465E-002	-3.629591E-002	1.914778E-001	-9.463341E-002	1.916261E-001	-9.472583E-002	-7.706537E-002	4.281384E-002
1.280000E+009	5.547503E-002	-3.644957E-002	1.911350E-001	-9.528180E-002	1.912858E-001	-9.535531E-002	-7.684353E-002	4.314016E-002
1.290000E+009	5.528553E-002	-3.660157E-002	1.907351E-001	-9.595519E-002	1.908976E-001	-9.599397E-002	-7.654949E-002	4.347777E-002
1.300000E+009	5.513253E-002	-3.670588E-002	1.903406E-001	-9.655736E-002	1.905311E-001	-9.666363E-002	-7.627263E-002	4.383799E-002
1.310000E+009	5.493422E-002	-3.687114E-002	1.899415E-001	-9.722642E-002	1.901313E-001	-9.731648E-002	-7.595493E-002	4.421921E-002
1.320000E+009	5.473556E-002	-3.697411E-002	1.895744E-001	-9.786676E-002	1.897587E-001	-9.794387E-002	-7.558695E-002	4.467417E-002
1.330000E+009	5.454002E-002	-3.707496E-002	1.891699E-001	-9.849409E-002	1.893543E-001	-9.861235E-002	-7.521424E-002	4.514228E-002
1.340000E+009	5.432885E-002	-3.715867E-002	1.887985E-001	-9.912060E-002	1.889467E-001	-9.924132E-002	-7.485450E-002	4.563900E-002
1.350000E+009	5.410133E-002	-3.726016E-002	1.884001E-001	-9.976536E-002	1.885371E-001	-9.985981E-002	-7.453520E-002	4.616405E-002
1.360000E+009	5.392529E-002	-3.734647E-002	1.879988E-001	-1.003947E-001	1.881579E-001	-1.004961E-001	-7.422562E-002	4.673075E-002
1.370000E+009	5.370864E-002	-3.744955E-002	1.876054E-001	-1.010265E-001	1.877858E-001	-1.011253E-001	-7.395635E-002	4.727230E-002
1.380000E+009	5.349409E-002	-3.759544E-002	1.871778E-001	-1.016563E-001	1.873575E-001	-1.017755E-001	-7.370052E-002	4.781284E-002
1.390000E+009	5.331799E-002	-3.772610E-002	1.867806E-001	-1.022997E-001	1.869600E-001	-1.023992E-001	-7.345518E-002	4.837539E-002
1.400000E+009	5.306905E-002	-3.783939E-002	1.863766E-001	-1.029275E-001	1.865423E-001	-1.029956E-001	-7.325462E-002	4.888390E-002
1.410000E+009	5.285210E-002	-3.793404E-002	1.859618E-001	-1.035365E-001	1.861148E-001	-1.036349E-001	-7.301241E-002	4.941227E-002
1.420000E+009	5.263353E-002	-3.805260E-002	1.855305E-001	-1.041447E-001	1.857240E-001	-1.042371E-001	-7.277399E-002	4.986518E-002
1.430000E+009	5.244668E-002	-3.815176E-002	1.851373E-001	-1.047610E-001	1.853173E-001	-1.048757E-001	-7.254705E-002	5.035645E-002
1.440000E+009	5.222586E-002	-3.825337E-002	1.847291E-001	-1.053783E-001	1.848941E-001	-1.054857E-001	-7.228768E-002	5.080094E-002
1.450000E+009	5.198696E-002	-3.836382E-002	1.842828E-001	-1.059942E-001	1.844743E-001	-1.060907E-001	-7.200768E-002	5.128189E-002
1.460000E+009	5.174124E-002	-3.843611E-002	1.838626E-001	-1.066324E-001	1.840427E-001	-1.067038E-001	-7.171635E-002	5.176206E-002
1.470000E+009	5.152959E-002	-3.856000E-002	1.834600E-001	-1.072449E-001	1.836228E-001	-1.073173E-001	-7.140794E-002	5.227482E-002
1.480000E+009	5.129298E-002	-3.864516E-002	1.830149E-001	-1.078281E-001	1.831620E-001	-1.079393E-001	-7.113649E-002	5.281674E-002
1.490000E+009	5.108474E-002	-3.873778E-002	1.825821E-001	-1.084485E-001	1.827561E-001	-1.085221E-001	-7.082058E-002	5.337287E-002
1.500000E+009	5.084294E-002	-3.885774E-002	1.821597E-001	-1.090415E-001	1.823314E-001	-1.091391E-001	-7.051106E-002	5.391156E-002
