! Device ID: PE43711P
! File Path: z:\PE43711P\CHAR_NOM_04282014\AMB\3p300\LS_ATT_1p50dB\PE43711P_AMB_3p300V_3p000V_0p000V_LS_ATT_1p50dB_S2P_SN_5_A0137A.s2p
! Serial: 5
! Lot: A0137A
! Temp: 25C
! VDD: 3.300
! VSS: 0.000
! Control_Hi: 3.000
! Control_Lo: 0.000
! Attenuation Step: 1.50dB
! Port 1: RF1
! Port 2: RF2
! ThroughPath:1-2
! IDD: 0.0001275108
! ISS: -9.22e-008
!

#  Hz  S   RI  R   50

1.000000E+007	1.039341E-001	-5.498732E-004	7.459212E-001	-3.704993E-003	7.461661E-001	-4.005644E-003	6.746696E-002	-4.920192E-004
2.000000E+007	1.039953E-001	-6.849466E-004	7.457062E-001	-6.403668E-003	7.456934E-001	-6.477358E-003	6.749644E-002	-4.873322E-004
3.000000E+007	1.043454E-001	-1.330242E-003	7.457147E-001	-9.680933E-003	7.457070E-001	-9.748652E-003	6.779492E-002	-7.726377E-004
4.000000E+007	1.043995E-001	-1.884077E-003	7.457077E-001	-1.295490E-002	7.456581E-001	-1.303316E-002	6.837258E-002	-1.144798E-003
5.000000E+007	1.047568E-001	-2.623177E-003	7.456588E-001	-1.646261E-002	7.456168E-001	-1.643149E-002	6.869633E-002	-1.806319E-003
6.000000E+007	1.050876E-001	-3.444230E-003	7.455312E-001	-1.974091E-002	7.455111E-001	-1.973723E-002	6.883027E-002	-2.584867E-003
7.000000E+007	1.052010E-001	-4.327796E-003	7.453189E-001	-2.300198E-002	7.452865E-001	-2.304517E-002	6.878250E-002	-3.326827E-003
8.000000E+007	1.054257E-001	-5.165706E-003	7.451109E-001	-2.619540E-002	7.451262E-001	-2.624455E-002	6.871727E-002	-3.890190E-003
9.000000E+007	1.055521E-001	-5.937637E-003	7.449409E-001	-2.947290E-002	7.449117E-001	-2.950417E-002	6.884345E-002	-4.516610E-003
1.000000E+008	1.056532E-001	-6.697732E-003	7.448230E-001	-3.273523E-002	7.446634E-001	-3.273408E-002	6.919307E-002	-5.217275E-003
1.100000E+008	1.057453E-001	-7.436623E-003	7.445436E-001	-3.602623E-002	7.444658E-001	-3.596269E-002	6.922169E-002	-5.938932E-003
1.200000E+008	1.059080E-001	-8.154979E-003	7.441532E-001	-3.926992E-002	7.441530E-001	-3.923449E-002	6.897072E-002	-6.612927E-003
1.300000E+008	1.060562E-001	-9.104583E-003	7.438852E-001	-4.247050E-002	7.438909E-001	-4.248802E-002	6.905262E-002	-7.490955E-003
1.400000E+008	1.061133E-001	-1.026059E-002	7.436416E-001	-4.573737E-002	7.435751E-001	-4.580780E-002	6.967611E-002	-8.443409E-003
1.500000E+008	1.059664E-001	-1.122461E-002	7.433127E-001	-4.889584E-002	7.431304E-001	-4.896656E-002	7.015793E-002	-9.193518E-003
1.600000E+008	1.056102E-001	-1.179201E-002	7.430243E-001	-5.205923E-002	7.426609E-001	-5.206828E-002	6.970435E-002	-9.767440E-003
1.700000E+008	1.051507E-001	-1.224423E-002	7.426432E-001	-5.541757E-002	7.424539E-001	-5.521607E-002	6.866450E-002	-1.046361E-002
1.800000E+008	1.047469E-001	-1.288311E-002	7.419098E-001	-5.876782E-002	7.419789E-001	-5.855606E-002	6.782716E-002	-1.131361E-002
1.900000E+008	1.046378E-001	-1.385618E-002	7.413937E-001	-6.180272E-002	7.414984E-001	-6.169912E-002	6.777153E-002	-1.216031E-002
2.000000E+008	1.047295E-001	-1.498621E-002	7.410378E-001	-6.495934E-002	7.411154E-001	-6.489485E-002	6.819608E-002	-1.284227E-002
2.100000E+008	1.048509E-001	-1.610428E-002	7.406531E-001	-6.806845E-002	7.406260E-001	-6.805671E-002	6.870184E-002	-1.344231E-002
2.200000E+008	1.048664E-001	-1.708932E-002	7.402381E-001	-7.110366E-002	7.401983E-001	-7.114873E-002	6.894175E-002	-1.402542E-002
2.300000E+008	1.046754E-001	-1.798301E-002	7.397518E-001	-7.424886E-002	7.397047E-001	-7.429708E-002	6.891117E-002	-1.474750E-002
2.400000E+008	1.044306E-001	-1.887964E-002	7.392311E-001	-7.739840E-002	7.391132E-001	-7.742426E-002	6.874365E-002	-1.558008E-002
2.500000E+008	1.041300E-001	-1.972947E-002	7.386448E-001	-8.056248E-002	7.385566E-001	-8.057165E-002	6.850177E-002	-1.655724E-002
2.600000E+008	1.038937E-001	-2.070911E-002	7.380650E-001	-8.374481E-002	7.379599E-001	-8.370835E-002	6.838700E-002	-1.743625E-002
2.700000E+008	1.036368E-001	-2.155303E-002	7.373869E-001	-8.681694E-002	7.373953E-001	-8.682184E-002	6.835724E-002	-1.818458E-002
2.800000E+008	1.034760E-001	-2.237821E-002	7.367829E-001	-8.986048E-002	7.368021E-001	-8.983123E-002	6.834530E-002	-1.882692E-002
2.900000E+008	1.032382E-001	-2.304697E-002	7.362205E-001	-9.285903E-002	7.361242E-001	-9.279376E-002	6.827761E-002	-1.937784E-002
3.000000E+008	1.031080E-001	-2.370020E-002	7.356625E-001	-9.592297E-002	7.356471E-001	-9.584783E-002	6.825034E-002	-1.994651E-002
3.100000E+008	1.029225E-001	-2.433140E-002	7.350444E-001	-9.893386E-002	7.350806E-001	-9.891235E-002	6.822090E-002	-2.046626E-002
3.200000E+008	1.027238E-001	-2.505625E-002	7.343874E-001	-1.020271E-001	7.344658E-001	-1.020062E-001	6.814335E-002	-2.110402E-002
3.300000E+008	1.023977E-001	-2.572174E-002	7.337803E-001	-1.050406E-001	7.338393E-001	-1.051802E-001	6.799457E-002	-2.173891E-002
3.400000E+008	1.019411E-001	-2.639368E-002	7.330930E-001	-1.081205E-001	7.329278E-001	-1.083575E-001	6.787088E-002	-2.245587E-002
3.500000E+008	1.014765E-001	-2.704306E-002	7.323708E-001	-1.112281E-001	7.320397E-001	-1.112066E-001	6.775575E-002	-2.321667E-002
3.600000E+008	1.011208E-001	-2.766842E-002	7.316381E-001	-1.142673E-001	7.313286E-001	-1.139563E-001	6.763911E-002	-2.381612E-002
3.700000E+008	1.008111E-001	-2.837177E-002	7.308440E-001	-1.171062E-001	7.307438E-001	-1.167627E-001	6.770560E-002	-2.439064E-002
3.800000E+008	1.004559E-001	-2.910273E-002	7.301694E-001	-1.200414E-001	7.302571E-001	-1.198024E-001	6.775047E-002	-2.508907E-002
3.900000E+008	1.000045E-001	-2.979005E-002	7.293394E-001	-1.230872E-001	7.294970E-001	-1.228601E-001	6.774012E-002	-2.581785E-002
4.000000E+008	9.963890E-002	-3.055060E-002	7.285153E-001	-1.259056E-001	7.287461E-001	-1.259249E-001	6.766128E-002	-2.646477E-002
4.100000E+008	9.911189E-002	-3.130099E-002	7.277706E-001	-1.287123E-001	7.278897E-001	-1.288346E-001	6.757282E-002	-2.704426E-002
4.200000E+008	9.852838E-002	-3.195312E-002	7.271402E-001	-1.316834E-001	7.270701E-001	-1.316990E-001	6.748639E-002	-2.760331E-002
4.300000E+008	9.819201E-002	-3.252872E-002	7.263977E-001	-1.346434E-001	7.262541E-001	-1.346594E-001	6.737588E-002	-2.818625E-002
4.400000E+008	9.787554E-002	-3.315172E-002	7.255891E-001	-1.375689E-001	7.255206E-001	-1.375672E-001	6.725032E-002	-2.866466E-002
4.500000E+008	9.755942E-002	-3.381967E-002	7.248089E-001	-1.405252E-001	7.247796E-001	-1.404905E-001	6.720027E-002	-2.918680E-002
4.600000E+008	9.721417E-002	-3.448531E-002	7.239594E-001	-1.434399E-001	7.239032E-001	-1.434324E-001	6.700574E-002	-2.963242E-002
4.700000E+008	9.679156E-002	-3.503978E-002	7.231176E-001	-1.463009E-001	7.230467E-001	-1.463178E-001	6.677942E-002	-3.006853E-002
4.800000E+008	9.632464E-002	-3.553371E-002	7.222947E-001	-1.491276E-001	7.221904E-001	-1.490858E-001	6.651648E-002	-3.041270E-002
4.900000E+008	9.583388E-002	-3.602785E-002	7.214337E-001	-1.520145E-001	7.212673E-001	-1.519753E-001	6.629007E-002	-3.078195E-002
5.000000E+008	9.544916E-002	-3.650267E-002	7.205928E-001	-1.548544E-001	7.205064E-001	-1.547742E-001	6.609521E-002	-3.122752E-002
5.100000E+008	9.505980E-002	-3.710624E-002	7.197084E-001	-1.577193E-001	7.196720E-001	-1.575866E-001	6.601953E-002	-3.169307E-002
5.200000E+008	9.459644E-002	-3.779878E-002	7.188422E-001	-1.606007E-001	7.188222E-001	-1.605015E-001	6.592979E-002	-3.228252E-002
5.300000E+008	9.409604E-002	-3.848060E-002	7.179730E-001	-1.634691E-001	7.179710E-001	-1.634212E-001	6.587097E-002	-3.289708E-002
5.400000E+008	9.354881E-002	-3.921264E-002	7.170030E-001	-1.663397E-001	7.170483E-001	-1.662919E-001	6.568891E-002	-3.350471E-002
5.500000E+008	9.307269E-002	-3.968573E-002	7.161258E-001	-1.691699E-001	7.160617E-001	-1.691047E-001	6.551910E-002	-3.393269E-002
5.600000E+008	9.260542E-002	-4.018072E-002	7.151517E-001	-1.719730E-001	7.150861E-001	-1.719209E-001	6.534359E-002	-3.437734E-002
5.700000E+008	9.223751E-002	-4.069732E-002	7.141771E-001	-1.746906E-001	7.141951E-001	-1.746994E-001	6.507142E-002	-3.473152E-002
5.800000E+008	9.183265E-002	-4.117879E-002	7.132418E-001	-1.774924E-001	7.132860E-001	-1.774519E-001	6.484350E-002	-3.518412E-002
5.900000E+008	9.139453E-002	-4.176421E-002	7.122927E-001	-1.803240E-001	7.123514E-001	-1.803008E-001	6.452646E-002	-3.565000E-002
6.000000E+008	9.100232E-002	-4.231398E-002	7.113418E-001	-1.830819E-001	7.113687E-001	-1.830753E-001	6.427222E-002	-3.615552E-002
6.100000E+008	9.058712E-002	-4.283444E-002	7.103854E-001	-1.858510E-001	7.103207E-001	-1.858565E-001	6.389226E-002	-3.655622E-002
6.200000E+008	9.021737E-002	-4.336200E-002	7.093469E-001	-1.885891E-001	7.093525E-001	-1.885906E-001	6.363625E-002	-3.694924E-002
6.300000E+008	8.992377E-002	-4.388428E-002	7.083110E-001	-1.913207E-001	7.083504E-001	-1.913315E-001	6.344420E-002	-3.736115E-002
6.400000E+008	8.959871E-002	-4.441386E-002	7.073393E-001	-1.940896E-001	7.073609E-001	-1.940875E-001	6.328511E-002	-3.774098E-002
6.500000E+008	8.928514E-002	-4.491782E-002	7.063353E-001	-1.967794E-001	7.063328E-001	-1.967869E-001	6.305637E-002	-3.811917E-002
6.600000E+008	8.883665E-002	-4.548118E-002	7.054041E-001	-1.995361E-001	7.053070E-001	-1.995686E-001	6.281527E-002	-3.850866E-002
6.700000E+008	8.827054E-002	-4.591820E-002	7.043443E-001	-2.022686E-001	7.042752E-001	-2.022832E-001	6.243108E-002	-3.884355E-002
6.800000E+008	8.772210E-002	-4.631477E-002	7.032811E-001	-2.049876E-001	7.032536E-001	-2.050108E-001	6.208573E-002	-3.909647E-002
6.900000E+008	8.717270E-002	-4.668263E-002	7.021507E-001	-2.077182E-001	7.021415E-001	-2.076595E-001	6.173827E-002	-3.933617E-002
7.000000E+008	8.673369E-002	-4.709769E-002	7.011449E-001	-2.103752E-001	7.011317E-001	-2.103108E-001	6.141081E-002	-3.970291E-002
7.100000E+008	8.633880E-002	-4.760644E-002	7.000531E-001	-2.130257E-001	7.000636E-001	-2.130275E-001	6.111163E-002	-4.007591E-002
7.200000E+008	8.583644E-002	-4.813708E-002	6.990105E-001	-2.156965E-001	6.990234E-001	-2.157299E-001	6.082749E-002	-4.057645E-002
7.300000E+008	8.531502E-002	-4.864367E-002	6.978749E-001	-2.183775E-001	6.980090E-001	-2.184424E-001	6.041637E-002	-4.106289E-002
7.400000E+008	8.476148E-002	-4.905446E-002	6.967961E-001	-2.210627E-001	6.968940E-001	-2.210742E-001	6.004314E-002	-4.149498E-002
7.500000E+008	8.429811E-002	-4.947837E-002	6.957604E-001	-2.237470E-001	6.958179E-001	-2.237816E-001	5.969174E-002	-4.190047E-002
7.600000E+008	8.375111E-002	-4.993038E-002	6.945994E-001	-2.264326E-001	6.946984E-001	-2.264478E-001	5.936044E-002	-4.235095E-002
7.700000E+008	8.321746E-002	-5.045374E-002	6.935097E-001	-2.290955E-001	6.935724E-001	-2.290632E-001	5.906281E-002	-4.283469E-002
7.800000E+008	8.259420E-002	-5.089768E-002	6.923468E-001	-2.317102E-001	6.924304E-001	-2.316879E-001	5.866679E-002	-4.333353E-002
7.900000E+008	8.205514E-002	-5.146094E-002	6.911993E-001	-2.343491E-001	6.912930E-001	-2.343966E-001	5.826401E-002	-4.377364E-002
8.000000E+008	8.144917E-002	-5.196754E-002	6.900283E-001	-2.369684E-001	6.900934E-001	-2.369752E-001	5.786913E-002	-4.421647E-002
8.100000E+008	8.095403E-002	-5.243348E-002	6.888573E-001	-2.395458E-001	6.889272E-001	-2.396093E-001	5.753902E-002	-4.453958E-002
8.200000E+008	8.050277E-002	-5.285401E-002	6.877279E-001	-2.421906E-001	6.877860E-001	-2.421653E-001	5.723199E-002	-4.488311E-002
8.300000E+008	8.011864E-002	-5.328148E-002	6.865452E-001	-2.447810E-001	6.866659E-001	-2.447996E-001	5.693334E-002	-4.522812E-002
8.400000E+008	7.976810E-002	-5.369979E-002	6.853436E-001	-2.473599E-001	6.854555E-001	-2.473982E-001	5.662320E-002	-4.555039E-002
8.500000E+008	7.933962E-002	-5.413119E-002	6.841976E-001	-2.499532E-001	6.842631E-001	-2.499920E-001	5.620288E-002	-4.592527E-002
8.600000E+008	7.881923E-002	-5.455724E-002	6.830026E-001	-2.524936E-001	6.830321E-001	-2.525566E-001	5.577940E-002	-4.623373E-002
8.700000E+008	7.826426E-002	-5.488290E-002	6.818272E-001	-2.551415E-001	6.818273E-001	-2.551228E-001	5.538032E-002	-4.655628E-002
8.800000E+008	7.770183E-002	-5.516923E-002	6.806133E-001	-2.577503E-001	6.806667E-001	-2.576467E-001	5.491081E-002	-4.683834E-002
8.900000E+008	7.714695E-002	-5.554712E-002	6.793453E-001	-2.602758E-001	6.794383E-001	-2.602778E-001	5.455493E-002	-4.715175E-002
9.000000E+008	7.663947E-002	-5.590845E-002	6.780892E-001	-2.628367E-001	6.782299E-001	-2.628492E-001	5.420791E-002	-4.748657E-002
9.100000E+008	7.603200E-002	-5.634910E-002	6.768333E-001	-2.654224E-001	6.769476E-001	-2.653979E-001	5.393641E-002	-4.791138E-002
9.200000E+008	7.547483E-002	-5.675768E-002	6.755936E-001	-2.679459E-001	6.757327E-001	-2.679735E-001	5.362709E-002	-4.835690E-002
9.300000E+008	7.486523E-002	-5.711172E-002	6.743636E-001	-2.704676E-001	6.743920E-001	-2.705172E-001	5.334462E-002	-4.870979E-002
9.400000E+008	7.433135E-002	-5.742589E-002	6.730852E-001	-2.729544E-001	6.732199E-001	-2.730154E-001	5.303678E-002	-4.894659E-002
9.500000E+008	7.377348E-002	-5.772860E-002	6.718419E-001	-2.755055E-001	6.718986E-001	-2.755765E-001	5.282032E-002	-4.917118E-002
9.600000E+008	7.331455E-002	-5.799018E-002	6.705592E-001	-2.780134E-001	6.706444E-001	-2.780411E-001	5.262454E-002	-4.934753E-002
9.700000E+008	7.288073E-002	-5.826949E-002	6.692174E-001	-2.804635E-001	6.693439E-001	-2.805333E-001	5.241757E-002	-4.961401E-002
9.800000E+008	7.242667E-002	-5.861780E-002	6.680066E-001	-2.829163E-001	6.680896E-001	-2.830414E-001	5.215014E-002	-4.989742E-002
9.900000E+008	7.191334E-002	-5.893525E-002	6.667199E-001	-2.854783E-001	6.667979E-001	-2.855613E-001	5.170300E-002	-5.013835E-002
1.000000E+009	7.136956E-002	-5.919809E-002	6.654278E-001	-2.879218E-001	6.654339E-001	-2.880348E-001	5.131170E-002	-5.029938E-002
1.010000E+009	7.077434E-002	-5.937894E-002	6.641198E-001	-2.904533E-001	6.641401E-001	-2.904926E-001	5.091341E-002	-5.042559E-002
1.020000E+009	7.021604E-002	-5.956797E-002	6.627915E-001	-2.929161E-001	6.627819E-001	-2.929644E-001	5.057460E-002	-5.053878E-002
1.030000E+009	6.977443E-002	-5.973530E-002	6.614186E-001	-2.953876E-001	6.614777E-001	-2.954126E-001	5.027032E-002	-5.073873E-002
1.040000E+009	6.929562E-002	-5.999654E-002	6.600702E-001	-2.978127E-001	6.601460E-001	-2.978649E-001	4.993265E-002	-5.097103E-002
1.050000E+009	6.870595E-002	-6.035498E-002	6.588025E-001	-3.002850E-001	6.588404E-001	-3.003287E-001	4.953109E-002	-5.121307E-002
1.060000E+009	6.809659E-002	-6.061495E-002	6.574330E-001	-3.027622E-001	6.574861E-001	-3.027408E-001	4.912491E-002	-5.135870E-002
1.070000E+009	6.746541E-002	-6.081161E-002	6.560520E-001	-3.051418E-001	6.561748E-001	-3.051334E-001	4.874635E-002	-5.154313E-002
1.080000E+009	6.697448E-002	-6.103959E-002	6.546743E-001	-3.076463E-001	6.548691E-001	-3.076193E-001	4.838223E-002	-5.165465E-002
1.090000E+009	6.652532E-002	-6.123941E-002	6.533192E-001	-3.100818E-001	6.535002E-001	-3.100573E-001	4.806957E-002	-5.182434E-002
1.100000E+009	6.612457E-002	-6.149171E-002	6.518559E-001	-3.125367E-001	6.521249E-001	-3.124641E-001	4.777136E-002	-5.196825E-002
1.110000E+009	6.566451E-002	-6.173861E-002	6.505297E-001	-3.149225E-001	6.507436E-001	-3.149153E-001	4.740893E-002	-5.228843E-002
1.120000E+009	6.515817E-002	-6.195957E-002	6.491640E-001	-3.173186E-001	6.493308E-001	-3.173735E-001	4.692374E-002	-5.246549E-002
1.130000E+009	6.459533E-002	-6.220991E-002	6.477446E-001	-3.197205E-001	6.479326E-001	-3.197809E-001	4.647591E-002	-5.264170E-002
1.140000E+009	6.400276E-002	-6.233784E-002	6.463813E-001	-3.221597E-001	6.465389E-001	-3.221594E-001	4.604558E-002	-5.274512E-002
1.150000E+009	6.346489E-002	-6.250409E-002	6.449172E-001	-3.245317E-001	6.450800E-001	-3.245501E-001	4.568430E-002	-5.290411E-002
1.160000E+009	6.300263E-002	-6.265699E-002	6.435004E-001	-3.269509E-001	6.436915E-001	-3.269646E-001	4.530662E-002	-5.307443E-002
1.170000E+009	6.247081E-002	-6.289925E-002	6.420156E-001	-3.293183E-001	6.422035E-001	-3.293255E-001	4.501874E-002	-5.322272E-002
1.180000E+009	6.196485E-002	-6.321394E-002	6.405284E-001	-3.317021E-001	6.407861E-001	-3.317278E-001	4.459554E-002	-5.342712E-002
1.190000E+009	6.141356E-002	-6.341994E-002	6.390902E-001	-3.340969E-001	6.392175E-001	-3.340939E-001	4.424280E-002	-5.354502E-002
1.200000E+009	6.085823E-002	-6.358178E-002	6.376385E-001	-3.364518E-001	6.378235E-001	-3.364384E-001	4.383543E-002	-5.366183E-002
1.210000E+009	6.037521E-002	-6.376358E-002	6.361235E-001	-3.388155E-001	6.363054E-001	-3.388526E-001	4.345358E-002	-5.371589E-002
1.220000E+009	5.991618E-002	-6.392309E-002	6.346767E-001	-3.411155E-001	6.348705E-001	-3.411725E-001	4.310952E-002	-5.377773E-002
1.230000E+009	5.949026E-002	-6.410749E-002	6.331586E-001	-3.435053E-001	6.333603E-001	-3.435460E-001	4.266690E-002	-5.393232E-002
1.240000E+009	5.900917E-002	-6.439676E-002	6.316725E-001	-3.458335E-001	6.318169E-001	-3.458537E-001	4.224059E-002	-5.407153E-002
1.250000E+009	5.843110E-002	-6.458649E-002	6.301184E-001	-3.481842E-001	6.303907E-001	-3.481666E-001	4.176848E-002	-5.426157E-002
1.260000E+009	5.785082E-002	-6.473172E-002	6.285841E-001	-3.504980E-001	6.287849E-001	-3.505725E-001	4.125611E-002	-5.443652E-002
1.270000E+009	5.736858E-002	-6.488262E-002	6.270613E-001	-3.527731E-001	6.272235E-001	-3.528110E-001	4.085766E-002	-5.456173E-002
1.280000E+009	5.680762E-002	-6.496376E-002	6.255655E-001	-3.551425E-001	6.257735E-001	-3.551278E-001	4.043435E-002	-5.473034E-002
1.290000E+009	5.629108E-002	-6.505919E-002	6.239479E-001	-3.574873E-001	6.242140E-001	-3.574473E-001	4.016547E-002	-5.491031E-002
1.300000E+009	5.583223E-002	-6.515231E-002	6.223880E-001	-3.596835E-001	6.226800E-001	-3.597654E-001	3.989752E-002	-5.506201E-002
1.310000E+009	5.528430E-002	-6.521184E-002	6.207662E-001	-3.619969E-001	6.210764E-001	-3.620587E-001	3.951715E-002	-5.516584E-002
1.320000E+009	5.468515E-002	-6.526138E-002	6.192130E-001	-3.643048E-001	6.195488E-001	-3.643307E-001	3.920722E-002	-5.524299E-002
1.330000E+009	5.423780E-002	-6.524652E-002	6.176374E-001	-3.664901E-001	6.179461E-001	-3.666397E-001	3.900056E-002	-5.519494E-002
1.340000E+009	5.370772E-002	-6.521016E-002	6.160808E-001	-3.687358E-001	6.163199E-001	-3.688671E-001	3.867483E-002	-5.510698E-002
1.350000E+009	5.319662E-002	-6.519994E-002	6.144450E-001	-3.710300E-001	6.146572E-001	-3.711069E-001	3.840706E-002	-5.502985E-002
1.360000E+009	5.281674E-002	-6.521393E-002	6.128237E-001	-3.732461E-001	6.131458E-001	-3.733704E-001	3.813419E-002	-5.488446E-002
1.370000E+009	5.230002E-002	-6.527058E-002	6.112666E-001	-3.755245E-001	6.115129E-001	-3.755979E-001	3.778906E-002	-5.482154E-002
1.380000E+009	5.180786E-002	-6.534323E-002	6.095848E-001	-3.777229E-001	6.098627E-001	-3.778215E-001	3.737984E-002	-5.477790E-002
1.390000E+009	5.132618E-002	-6.541449E-002	6.079561E-001	-3.799950E-001	6.082277E-001	-3.800806E-001	3.693602E-002	-5.462427E-002
1.400000E+009	5.078322E-002	-6.542829E-002	6.063058E-001	-3.822133E-001	6.065429E-001	-3.822059E-001	3.652328E-002	-5.448539E-002
1.410000E+009	5.029939E-002	-6.540974E-002	6.046737E-001	-3.844175E-001	6.048937E-001	-3.844610E-001	3.610195E-002	-5.435674E-002
1.420000E+009	4.987093E-002	-6.541828E-002	6.029503E-001	-3.865792E-001	6.032690E-001	-3.866201E-001	3.568237E-002	-5.423928E-002
1.430000E+009	4.942895E-002	-6.545456E-002	6.013493E-001	-3.887594E-001	6.016325E-001	-3.888799E-001	3.534195E-002	-5.417806E-002
1.440000E+009	4.893478E-002	-6.547153E-002	5.996704E-001	-3.909083E-001	5.999166E-001	-3.909838E-001	3.494977E-002	-5.415875E-002
1.450000E+009	4.843901E-002	-6.545416E-002	5.979444E-001	-3.930869E-001	5.982678E-001	-3.932023E-001	3.450466E-002	-5.404940E-002
1.460000E+009	4.795047E-002	-6.542108E-002	5.962587E-001	-3.952659E-001	5.965107E-001	-3.954060E-001	3.411108E-002	-5.394984E-002
1.470000E+009	4.749918E-002	-6.536693E-002	5.945651E-001	-3.974198E-001	5.948584E-001	-3.975332E-001	3.371429E-002	-5.370791E-002
1.480000E+009	4.703687E-002	-6.527825E-002	5.928615E-001	-3.995078E-001	5.931227E-001	-3.996462E-001	3.334935E-002	-5.347078E-002
1.490000E+009	4.661251E-002	-6.522135E-002	5.911522E-001	-4.016410E-001	5.914436E-001	-4.017379E-001	3.297290E-002	-5.326969E-002
1.500000E+009	4.621750E-002	-6.523957E-002	5.894629E-001	-4.037754E-001	5.897369E-001	-4.038648E-001	3.267357E-002	-5.311137E-002
