! Device ID: PE43711P
! File Path: z:\PE43711P\CHAR_NOM_04282014\AMB\3p300\LS_ATT_5p00dB\PE43711P_AMB_3p300V_3p000V_0p000V_LS_ATT_5p00dB_S2P_SN_5_A0137A.s2p
! Serial: 5
! Lot: A0137A
! Temp: 25C
! VDD: 3.300
! VSS: 0.000
! Control_Hi: 3.000
! Control_Lo: 0.000
! Attenuation Step: 5.00dB
! Port 1: RF1
! Port 2: RF2
! ThroughPath:1-2
! IDD: 0.0001279546
! ISS: -6.48e-008
!

#  Hz  S   RI  R   50

1.000000E+007	9.436358E-002	-3.853682E-004	4.965361E-001	-2.468246E-003	4.967034E-001	-2.691308E-003	-3.560705E-002	3.262024E-004
2.000000E+007	9.446514E-002	-6.441910E-004	4.964186E-001	-4.191706E-003	4.963407E-001	-4.235933E-003	-3.541372E-002	6.340244E-004
3.000000E+007	9.475711E-002	-1.170381E-003	4.964045E-001	-6.319369E-003	4.963665E-001	-6.352132E-003	-3.512160E-002	8.086894E-004
4.000000E+007	9.483979E-002	-1.666979E-003	4.963879E-001	-8.448201E-003	4.963044E-001	-8.470634E-003	-3.479077E-002	9.469833E-004
5.000000E+007	9.505912E-002	-2.272878E-003	4.963639E-001	-1.074326E-002	4.963477E-001	-1.069837E-002	-3.462674E-002	9.804061E-004
6.000000E+007	9.525478E-002	-2.931900E-003	4.962246E-001	-1.283052E-002	4.963012E-001	-1.282209E-002	-3.449910E-002	9.045873E-004
7.000000E+007	9.535676E-002	-3.634075E-003	4.960934E-001	-1.494297E-002	4.961359E-001	-1.493941E-002	-3.440139E-002	8.411887E-004
8.000000E+007	9.550161E-002	-4.291584E-003	4.959723E-001	-1.697699E-002	4.960431E-001	-1.698239E-002	-3.432543E-002	8.441064E-004
9.000000E+007	9.559703E-002	-4.938345E-003	4.958529E-001	-1.907070E-002	4.959057E-001	-1.907282E-002	-3.420098E-002	7.824972E-004
1.000000E+008	9.567519E-002	-5.556304E-003	4.957929E-001	-2.119277E-002	4.957459E-001	-2.116328E-002	-3.401516E-002	6.970144E-004
1.100000E+008	9.573667E-002	-6.184972E-003	4.955906E-001	-2.334528E-002	4.956192E-001	-2.324338E-002	-3.394506E-002	5.947771E-004
1.200000E+008	9.582757E-002	-6.833905E-003	4.953337E-001	-2.541071E-002	4.954106E-001	-2.537981E-002	-3.402519E-002	4.888685E-004
1.300000E+008	9.590052E-002	-7.553194E-003	4.951623E-001	-2.747555E-002	4.952314E-001	-2.747263E-002	-3.391316E-002	3.333608E-004
1.400000E+008	9.593027E-002	-8.336869E-003	4.949860E-001	-2.957275E-002	4.949997E-001	-2.957998E-002	-3.358231E-002	1.230158E-004
1.500000E+008	9.581561E-002	-9.056415E-003	4.947657E-001	-3.156741E-002	4.947120E-001	-3.159147E-002	-3.329709E-002	-2.766826E-005
1.600000E+008	9.561370E-002	-9.562343E-003	4.945981E-001	-3.359066E-002	4.944618E-001	-3.356415E-002	-3.346805E-002	-9.994454E-005
1.700000E+008	9.541893E-002	-1.005783E-002	4.943931E-001	-3.577386E-002	4.944726E-001	-3.562285E-002	-3.388175E-002	-2.280214E-004
1.800000E+008	9.519101E-002	-1.064160E-002	4.938870E-001	-3.794331E-002	4.942024E-001	-3.780686E-002	-3.420432E-002	-4.106152E-004
1.900000E+008	9.506698E-002	-1.137129E-002	4.935362E-001	-3.990778E-002	4.938255E-001	-3.987600E-002	-3.420497E-002	-6.165299E-004
2.000000E+008	9.501522E-002	-1.214768E-002	4.933169E-001	-4.190485E-002	4.935178E-001	-4.187056E-002	-3.396668E-002	-7.606634E-004
2.100000E+008	9.498486E-002	-1.298288E-002	4.930712E-001	-4.389935E-002	4.932001E-001	-4.388471E-002	-3.367166E-002	-9.021009E-004
2.200000E+008	9.490469E-002	-1.372552E-002	4.928349E-001	-4.584063E-002	4.929179E-001	-4.585027E-002	-3.349870E-002	-1.043381E-003
2.300000E+008	9.473043E-002	-1.442854E-002	4.925085E-001	-4.784866E-002	4.926093E-001	-4.783597E-002	-3.344279E-002	-1.226291E-003
2.400000E+008	9.455308E-002	-1.513286E-002	4.922072E-001	-4.989547E-002	4.922787E-001	-4.984708E-002	-3.342984E-002	-1.439545E-003
2.500000E+008	9.434487E-002	-1.582540E-002	4.918604E-001	-5.192472E-002	4.919367E-001	-5.189370E-002	-3.342920E-002	-1.745977E-003
2.600000E+008	9.419480E-002	-1.656064E-002	4.914640E-001	-5.398379E-002	4.916110E-001	-5.390138E-002	-3.335918E-002	-1.941634E-003
2.700000E+008	9.403508E-002	-1.723454E-002	4.910455E-001	-5.592778E-002	4.912355E-001	-5.591389E-002	-3.323565E-002	-2.074122E-003
2.800000E+008	9.390692E-002	-1.787625E-002	4.906616E-001	-5.788520E-002	4.908586E-001	-5.782644E-002	-3.312373E-002	-2.191320E-003
2.900000E+008	9.372533E-002	-1.844856E-002	4.903271E-001	-5.979974E-002	4.904697E-001	-5.974564E-002	-3.304227E-002	-2.261583E-003
3.000000E+008	9.360566E-002	-1.899652E-002	4.900034E-001	-6.180843E-002	4.901728E-001	-6.172958E-002	-3.298346E-002	-2.302558E-003
3.100000E+008	9.342736E-002	-1.951774E-002	4.896196E-001	-6.375533E-002	4.898181E-001	-6.370425E-002	-3.292067E-002	-2.322506E-003
3.200000E+008	9.324022E-002	-2.006633E-002	4.892111E-001	-6.577429E-002	4.894492E-001	-6.569558E-002	-3.290211E-002	-2.371764E-003
3.300000E+008	9.299659E-002	-2.057878E-002	4.888356E-001	-6.771763E-002	4.890241E-001	-6.777385E-002	-3.289664E-002	-2.452385E-003
3.400000E+008	9.266425E-002	-2.111989E-002	4.883638E-001	-6.968995E-002	4.883973E-001	-6.979415E-002	-3.286245E-002	-2.591011E-003
3.500000E+008	9.229771E-002	-2.166985E-002	4.879334E-001	-7.168004E-002	4.878420E-001	-7.163652E-002	-3.282909E-002	-2.794499E-003
3.600000E+008	9.200049E-002	-2.219928E-002	4.874775E-001	-7.363641E-002	4.874040E-001	-7.341954E-002	-3.278093E-002	-2.894654E-003
3.700000E+008	9.170562E-002	-2.275845E-002	4.869482E-001	-7.548287E-002	4.870130E-001	-7.519986E-002	-3.266092E-002	-3.011643E-003
3.800000E+008	9.140105E-002	-2.335280E-002	4.865459E-001	-7.738350E-002	4.867276E-001	-7.719753E-002	-3.253184E-002	-3.158559E-003
3.900000E+008	9.106583E-002	-2.393942E-002	4.860170E-001	-7.936633E-002	4.862870E-001	-7.918773E-002	-3.236066E-002	-3.281358E-003
4.000000E+008	9.080532E-002	-2.457346E-002	4.854990E-001	-8.116898E-002	4.858245E-001	-8.116011E-002	-3.220930E-002	-3.381793E-003
4.100000E+008	9.044903E-002	-2.518558E-002	4.850307E-001	-8.295939E-002	4.852972E-001	-8.305388E-002	-3.207876E-002	-3.460217E-003
4.200000E+008	9.007539E-002	-2.575418E-002	4.846706E-001	-8.487537E-002	4.848403E-001	-8.489715E-002	-3.198461E-002	-3.487530E-003
4.300000E+008	8.979379E-002	-2.626171E-002	4.842022E-001	-8.678186E-002	4.843564E-001	-8.679912E-002	-3.189402E-002	-3.524181E-003
4.400000E+008	8.953785E-002	-2.675999E-002	4.837203E-001	-8.871646E-002	4.838866E-001	-8.867643E-002	-3.185282E-002	-3.462079E-003
4.500000E+008	8.926887E-002	-2.729569E-002	4.832345E-001	-9.061839E-002	4.834303E-001	-9.059013E-002	-3.178464E-002	-3.407975E-003
4.600000E+008	8.901773E-002	-2.782610E-002	4.826909E-001	-9.252297E-002	4.828890E-001	-9.252502E-002	-3.172320E-002	-3.345864E-003
4.700000E+008	8.869895E-002	-2.831284E-002	4.821506E-001	-9.435021E-002	4.822931E-001	-9.436404E-002	-3.172190E-002	-3.291049E-003
4.800000E+008	8.835305E-002	-2.874110E-002	4.816460E-001	-9.618249E-002	4.817607E-001	-9.615965E-002	-3.174959E-002	-3.233666E-003
4.900000E+008	8.797617E-002	-2.921087E-002	4.810954E-001	-9.805154E-002	4.811760E-001	-9.802667E-002	-3.176322E-002	-3.182054E-003
5.000000E+008	8.766286E-002	-2.962079E-002	4.805728E-001	-9.990345E-002	4.806982E-001	-9.984245E-002	-3.176790E-002	-3.180641E-003
5.100000E+008	8.732252E-002	-3.012285E-002	4.800525E-001	-1.017333E-001	4.802324E-001	-1.016553E-001	-3.169600E-002	-3.172079E-003
5.200000E+008	8.697616E-002	-3.065296E-002	4.794811E-001	-1.036134E-001	4.796813E-001	-1.035579E-001	-3.163512E-002	-3.192299E-003
5.300000E+008	8.661747E-002	-3.119550E-002	4.789646E-001	-1.054818E-001	4.791444E-001	-1.054579E-001	-3.150294E-002	-3.236708E-003
5.400000E+008	8.621099E-002	-3.177439E-002	4.783496E-001	-1.073208E-001	4.785934E-001	-1.073254E-001	-3.141755E-002	-3.293802E-003
5.500000E+008	8.583986E-002	-3.222400E-002	4.778056E-001	-1.091443E-001	4.779576E-001	-1.091298E-001	-3.137472E-002	-3.264208E-003
5.600000E+008	8.548023E-002	-3.270002E-002	4.771914E-001	-1.109553E-001	4.773387E-001	-1.109589E-001	-3.131973E-002	-3.222266E-003
5.700000E+008	8.516052E-002	-3.317265E-002	4.766001E-001	-1.127428E-001	4.768195E-001	-1.127529E-001	-3.135365E-002	-3.112887E-003
5.800000E+008	8.482541E-002	-3.363400E-002	4.760141E-001	-1.145456E-001	4.762766E-001	-1.145488E-001	-3.135339E-002	-3.044429E-003
5.900000E+008	8.451195E-002	-3.414247E-002	4.754215E-001	-1.163990E-001	4.757165E-001	-1.164270E-001	-3.139515E-002	-2.980791E-003
6.000000E+008	8.419972E-002	-3.462116E-002	4.748191E-001	-1.182138E-001	4.750757E-001	-1.182632E-001	-3.136216E-002	-2.949929E-003
6.100000E+008	8.391914E-002	-3.509723E-002	4.741982E-001	-1.199761E-001	4.744032E-001	-1.200440E-001	-3.144268E-002	-2.896161E-003
6.200000E+008	8.364360E-002	-3.556428E-002	4.735658E-001	-1.217306E-001	4.737961E-001	-1.218145E-001	-3.144663E-002	-2.848355E-003
6.300000E+008	8.340373E-002	-3.600265E-002	4.729004E-001	-1.235338E-001	4.731828E-001	-1.235943E-001	-3.142784E-002	-2.790353E-003
6.400000E+008	8.313980E-002	-3.642675E-002	4.723107E-001	-1.253166E-001	4.725524E-001	-1.253770E-001	-3.137882E-002	-2.712662E-003
6.500000E+008	8.288839E-002	-3.681469E-002	4.716791E-001	-1.270571E-001	4.719202E-001	-1.270996E-001	-3.137370E-002	-2.626197E-003
6.600000E+008	8.257568E-002	-3.725075E-002	4.710928E-001	-1.288712E-001	4.712670E-001	-1.289316E-001	-3.134517E-002	-2.535073E-003
6.700000E+008	8.218683E-002	-3.761044E-002	4.704391E-001	-1.306477E-001	4.706194E-001	-1.307080E-001	-3.140007E-002	-2.434021E-003
6.800000E+008	8.178196E-002	-3.798675E-002	4.697855E-001	-1.324077E-001	4.699612E-001	-1.324704E-001	-3.144554E-002	-2.277469E-003
6.900000E+008	8.137830E-002	-3.830694E-002	4.690619E-001	-1.341897E-001	4.692574E-001	-1.342026E-001	-3.148773E-002	-2.127842E-003
7.000000E+008	8.100636E-002	-3.868520E-002	4.684313E-001	-1.359099E-001	4.686409E-001	-1.359021E-001	-3.155717E-002	-2.021514E-003
7.100000E+008	8.064636E-002	-3.909307E-002	4.677542E-001	-1.376196E-001	4.680009E-001	-1.376702E-001	-3.163550E-002	-1.931895E-003
7.200000E+008	8.025310E-002	-3.951235E-002	4.671102E-001	-1.393660E-001	4.673418E-001	-1.394327E-001	-3.167564E-002	-1.891628E-003
7.300000E+008	7.987542E-002	-3.991461E-002	4.663873E-001	-1.410997E-001	4.667048E-001	-1.412019E-001	-3.178444E-002	-1.883350E-003
7.400000E+008	7.947240E-002	-4.032088E-002	4.657060E-001	-1.428543E-001	4.660139E-001	-1.429068E-001	-3.185580E-002	-1.851516E-003
7.500000E+008	7.912711E-002	-4.071366E-002	4.650341E-001	-1.445795E-001	4.653438E-001	-1.446893E-001	-3.193949E-002	-1.847526E-003
7.600000E+008	7.871367E-002	-4.112125E-002	4.643289E-001	-1.463191E-001	4.646277E-001	-1.464071E-001	-3.199327E-002	-1.814799E-003
7.700000E+008	7.830296E-002	-4.154862E-002	4.636459E-001	-1.480449E-001	4.639283E-001	-1.481124E-001	-3.202526E-002	-1.843475E-003
7.800000E+008	7.788642E-002	-4.193690E-002	4.629220E-001	-1.497774E-001	4.632673E-001	-1.498194E-001	-3.208566E-002	-1.832299E-003
7.900000E+008	7.749674E-002	-4.240785E-002	4.622601E-001	-1.514713E-001	4.625484E-001	-1.515912E-001	-3.216124E-002	-1.829756E-003
8.000000E+008	7.709824E-002	-4.282999E-002	4.615045E-001	-1.531937E-001	4.617873E-001	-1.532802E-001	-3.219367E-002	-1.778877E-003
8.100000E+008	7.673028E-002	-4.325878E-002	4.607583E-001	-1.548627E-001	4.610492E-001	-1.549999E-001	-3.219098E-002	-1.700016E-003
8.200000E+008	7.640709E-002	-4.364259E-002	4.600647E-001	-1.566076E-001	4.602989E-001	-1.566614E-001	-3.220404E-002	-1.643423E-003
8.300000E+008	7.608064E-002	-4.404687E-002	4.593163E-001	-1.582826E-001	4.596324E-001	-1.583663E-001	-3.222421E-002	-1.563923E-003
8.400000E+008	7.579128E-002	-4.441456E-002	4.585643E-001	-1.599390E-001	4.588587E-001	-1.600717E-001	-3.224703E-002	-1.462705E-003
8.500000E+008	7.548944E-002	-4.477856E-002	4.578686E-001	-1.616374E-001	4.581362E-001	-1.617570E-001	-3.232265E-002	-1.407060E-003
8.600000E+008	7.515247E-002	-4.513131E-002	4.570920E-001	-1.633084E-001	4.573417E-001	-1.634286E-001	-3.239735E-002	-1.283791E-003
8.700000E+008	7.477618E-002	-4.542888E-002	4.563599E-001	-1.650143E-001	4.565920E-001	-1.651119E-001	-3.247340E-002	-1.225395E-003
8.800000E+008	7.441401E-002	-4.572613E-002	4.556215E-001	-1.667341E-001	4.558946E-001	-1.667445E-001	-3.255046E-002	-1.157125E-003
8.900000E+008	7.400078E-002	-4.606363E-002	4.548311E-001	-1.683763E-001	4.550994E-001	-1.684803E-001	-3.263664E-002	-1.084100E-003
9.000000E+008	7.359793E-002	-4.636168E-002	4.540279E-001	-1.700506E-001	4.543517E-001	-1.701313E-001	-3.267937E-002	-9.824489E-004
9.100000E+008	7.316911E-002	-4.667818E-002	4.532547E-001	-1.717201E-001	4.535866E-001	-1.718161E-001	-3.267353E-002	-9.720964E-004
9.200000E+008	7.274718E-002	-4.703157E-002	4.524861E-001	-1.733605E-001	4.528202E-001	-1.735255E-001	-3.262949E-002	-9.232734E-004
9.300000E+008	7.235246E-002	-4.735402E-002	4.516873E-001	-1.750228E-001	4.519784E-001	-1.751673E-001	-3.260071E-002	-8.814829E-004
9.400000E+008	7.196054E-002	-4.768630E-002	4.509265E-001	-1.766417E-001	4.512501E-001	-1.768117E-001	-3.253324E-002	-7.763919E-004
9.500000E+008	7.155938E-002	-4.802518E-002	4.501536E-001	-1.783357E-001	4.504306E-001	-1.784926E-001	-3.243826E-002	-6.502248E-004
9.600000E+008	7.120457E-002	-4.829183E-002	4.492966E-001	-1.799748E-001	4.496562E-001	-1.800938E-001	-3.236042E-002	-4.797163E-004
9.700000E+008	7.088298E-002	-4.860000E-002	4.484809E-001	-1.815702E-001	4.488171E-001	-1.817393E-001	-3.227270E-002	-3.370306E-004
9.800000E+008	7.057126E-002	-4.886992E-002	4.477135E-001	-1.831662E-001	4.480303E-001	-1.833765E-001	-3.220181E-002	-1.784343E-004
9.900000E+008	7.023747E-002	-4.916272E-002	4.469284E-001	-1.848452E-001	4.472207E-001	-1.850364E-001	-3.221575E-002	-3.019396E-005
1.000000E+009	6.985200E-002	-4.938717E-002	4.461152E-001	-1.864585E-001	4.463969E-001	-1.866467E-001	-3.225993E-002	1.566733E-004
1.010000E+009	6.943776E-002	-4.959716E-002	4.453156E-001	-1.881407E-001	4.455481E-001	-1.882381E-001	-3.229133E-002	3.774027E-004
1.020000E+009	6.904770E-002	-4.983121E-002	4.444724E-001	-1.897504E-001	4.446881E-001	-1.898857E-001	-3.233818E-002	5.870203E-004
1.030000E+009	6.868968E-002	-5.000936E-002	4.436121E-001	-1.913599E-001	4.438839E-001	-1.914882E-001	-3.235582E-002	7.751582E-004
1.040000E+009	6.829955E-002	-5.023582E-002	4.427604E-001	-1.929479E-001	4.430773E-001	-1.930888E-001	-3.237204E-002	9.463088E-004
1.050000E+009	6.788844E-002	-5.050983E-002	4.419771E-001	-1.945630E-001	4.422181E-001	-1.947216E-001	-3.240874E-002	1.126585E-003
1.060000E+009	6.748568E-002	-5.077438E-002	4.411141E-001	-1.961707E-001	4.413882E-001	-1.962926E-001	-3.241978E-002	1.290761E-003
1.070000E+009	6.704207E-002	-5.103318E-002	4.402354E-001	-1.977527E-001	4.405346E-001	-1.978640E-001	-3.242567E-002	1.455599E-003
1.080000E+009	6.667892E-002	-5.128038E-002	4.393744E-001	-1.993895E-001	4.397474E-001	-1.995060E-001	-3.241600E-002	1.655131E-003
1.090000E+009	6.632200E-002	-5.151083E-002	4.385213E-001	-2.009828E-001	4.388792E-001	-2.010810E-001	-3.242350E-002	1.807362E-003
1.100000E+009	6.597919E-002	-5.174508E-002	4.375863E-001	-2.025734E-001	4.379834E-001	-2.026764E-001	-3.240554E-002	2.025923E-003
1.110000E+009	6.562863E-002	-5.196944E-002	4.367639E-001	-2.041724E-001	4.371559E-001	-2.042785E-001	-3.242612E-002	2.148449E-003
1.120000E+009	6.524010E-002	-5.220812E-002	4.359049E-001	-2.057247E-001	4.362632E-001	-2.058956E-001	-3.252347E-002	2.323038E-003
1.130000E+009	6.486200E-002	-5.243542E-002	4.350081E-001	-2.073326E-001	4.353489E-001	-2.074829E-001	-3.256713E-002	2.490244E-003
1.140000E+009	6.443310E-002	-5.262174E-002	4.341311E-001	-2.089070E-001	4.344980E-001	-2.090276E-001	-3.264529E-002	2.704680E-003
1.150000E+009	6.402984E-002	-5.280972E-002	4.332179E-001	-2.104696E-001	4.335654E-001	-2.105916E-001	-3.266045E-002	2.876266E-003
1.160000E+009	6.362763E-002	-5.303701E-002	4.323346E-001	-2.120615E-001	4.326976E-001	-2.122086E-001	-3.268379E-002	3.040441E-003
1.170000E+009	6.323285E-002	-5.327417E-002	4.314072E-001	-2.136411E-001	4.317823E-001	-2.137444E-001	-3.267957E-002	3.226961E-003
1.180000E+009	6.286629E-002	-5.352006E-002	4.304578E-001	-2.151890E-001	4.308779E-001	-2.153417E-001	-3.270007E-002	3.430881E-003
1.190000E+009	6.244998E-002	-5.374865E-002	4.295394E-001	-2.167643E-001	4.298816E-001	-2.168909E-001	-3.268216E-002	3.626765E-003
1.200000E+009	6.205051E-002	-5.396898E-002	4.286288E-001	-2.183125E-001	4.289731E-001	-2.184671E-001	-3.267504E-002	3.826953E-003
1.210000E+009	6.168969E-002	-5.420468E-002	4.276953E-001	-2.198640E-001	4.280261E-001	-2.200246E-001	-3.269740E-002	4.058038E-003
1.220000E+009	6.131589E-002	-5.443152E-002	4.267386E-001	-2.214148E-001	4.271168E-001	-2.215448E-001	-3.271482E-002	4.285991E-003
1.230000E+009	6.095264E-002	-5.462730E-002	4.258061E-001	-2.229497E-001	4.261446E-001	-2.230691E-001	-3.277396E-002	4.472727E-003
1.240000E+009	6.060311E-002	-5.488740E-002	4.248486E-001	-2.244893E-001	4.252141E-001	-2.246122E-001	-3.283943E-002	4.671912E-003
1.250000E+009	6.021641E-002	-5.510127E-002	4.238971E-001	-2.260272E-001	4.243060E-001	-2.261493E-001	-3.290726E-002	4.863928E-003
1.260000E+009	5.981484E-002	-5.530253E-002	4.229476E-001	-2.275910E-001	4.232624E-001	-2.277309E-001	-3.296032E-002	4.994448E-003
1.270000E+009	5.947810E-002	-5.551510E-002	4.219696E-001	-2.291223E-001	4.223104E-001	-2.292071E-001	-3.300009E-002	5.148123E-003
1.280000E+009	5.906548E-002	-5.567665E-002	4.210176E-001	-2.306456E-001	4.213825E-001	-2.307356E-001	-3.301488E-002	5.253098E-003
1.290000E+009	5.869806E-002	-5.581834E-002	4.200262E-001	-2.322018E-001	4.204085E-001	-2.322475E-001	-3.295041E-002	5.393274E-003
1.300000E+009	5.834931E-002	-5.595967E-002	4.190261E-001	-2.336562E-001	4.194306E-001	-2.338242E-001	-3.288219E-002	5.561310E-003
1.310000E+009	5.794829E-002	-5.609542E-002	4.180079E-001	-2.351817E-001	4.184034E-001	-2.353178E-001	-3.282919E-002	5.741491E-003
1.320000E+009	5.755587E-002	-5.622685E-002	4.170387E-001	-2.367194E-001	4.174631E-001	-2.368505E-001	-3.271943E-002	5.998126E-003
1.330000E+009	5.720889E-002	-5.630505E-002	4.160434E-001	-2.381807E-001	4.164406E-001	-2.383781E-001	-3.256070E-002	6.279291E-003
1.340000E+009	5.682248E-002	-5.639192E-002	4.150284E-001	-2.396641E-001	4.154046E-001	-2.398571E-001	-3.248279E-002	6.621056E-003
1.350000E+009	5.641480E-002	-5.649718E-002	4.140091E-001	-2.411855E-001	4.143532E-001	-2.413501E-001	-3.239647E-002	6.967554E-003
1.360000E+009	5.608117E-002	-5.659326E-002	4.129529E-001	-2.426386E-001	4.133740E-001	-2.428521E-001	-3.230405E-002	7.366923E-003
1.370000E+009	5.571665E-002	-5.668342E-002	4.119770E-001	-2.441484E-001	4.123558E-001	-2.443156E-001	-3.227115E-002	7.740987E-003
1.380000E+009	5.532129E-002	-5.682777E-002	4.109172E-001	-2.456221E-001	4.113259E-001	-2.458011E-001	-3.225989E-002	8.054208E-003
1.390000E+009	5.494318E-002	-5.695060E-002	4.098903E-001	-2.471114E-001	4.102794E-001	-2.472844E-001	-3.230953E-002	8.472721E-003
1.400000E+009	5.454804E-002	-5.708884E-002	4.088349E-001	-2.485628E-001	4.091891E-001	-2.487234E-001	-3.231779E-002	8.812980E-003
1.410000E+009	5.416149E-002	-5.716076E-002	4.077797E-001	-2.500463E-001	4.081528E-001	-2.501859E-001	-3.234829E-002	9.176717E-003
1.420000E+009	5.377399E-002	-5.726168E-002	4.066727E-001	-2.514761E-001	4.071171E-001	-2.516213E-001	-3.240547E-002	9.506843E-003
1.430000E+009	5.342968E-002	-5.737618E-002	4.056518E-001	-2.529265E-001	4.060652E-001	-2.531212E-001	-3.238871E-002	9.826453E-003
1.440000E+009	5.305134E-002	-5.746281E-002	4.045923E-001	-2.543763E-001	4.049959E-001	-2.545384E-001	-3.237564E-002	1.011332E-002
1.450000E+009	5.265356E-002	-5.754430E-002	4.035144E-001	-2.558163E-001	4.039315E-001	-2.559937E-001	-3.237222E-002	1.043786E-002
1.460000E+009	5.226699E-002	-5.763316E-002	4.024379E-001	-2.572679E-001	4.027982E-001	-2.574714E-001	-3.235518E-002	1.077091E-002
1.470000E+009	5.187405E-002	-5.771703E-002	4.013439E-001	-2.587080E-001	4.017325E-001	-2.588682E-001	-3.231458E-002	1.118758E-002
1.480000E+009	5.150563E-002	-5.774125E-002	4.002454E-001	-2.600714E-001	4.006258E-001	-2.602917E-001	-3.229678E-002	1.158772E-002
1.490000E+009	5.112514E-002	-5.781126E-002	3.991846E-001	-2.615366E-001	3.995389E-001	-2.616731E-001	-3.225922E-002	1.198406E-002
1.500000E+009	5.078113E-002	-5.790091E-002	3.980870E-001	-2.629468E-001	3.984574E-001	-2.631016E-001	-3.218693E-002	1.239767E-002
