! Device ID: PE43711P
! File Path: z:\PE43711P\CHAR_NOM_04282014\AMB\3p300\LS_ATT_7p25dB\PE43711P_AMB_3p300V_3p000V_0p000V_LS_ATT_7p25dB_S2P_SN_5_A0137A.s2p
! Serial: 5
! Lot: A0137A
! Temp: 25C
! VDD: 3.300
! VSS: 0.000
! Control_Hi: 3.000
! Control_Lo: 0.000
! Attenuation Step: 7.25dB
! Port 1: RF1
! Port 2: RF2
! ThroughPath:1-2
! IDD: 0.0001280229
! ISS: -1.221e-007
!

#  Hz  S   RI  R   50

1.000000E+007	9.440062E-002	-3.881046E-004	3.818111E-001	-1.899816E-003	3.820939E-001	-1.926685E-003	-6.276916E-002	5.191631E-004
2.000000E+007	9.454734E-002	-7.122434E-004	3.818496E-001	-3.226110E-003	3.818877E-001	-3.265820E-003	-6.253884E-002	9.478044E-004
3.000000E+007	9.482135E-002	-1.242336E-003	3.818264E-001	-4.845367E-003	3.819144E-001	-4.873531E-003	-6.224643E-002	1.216522E-003
4.000000E+007	9.491355E-002	-1.769242E-003	3.818456E-001	-6.463054E-003	3.819171E-001	-6.502089E-003	-6.196700E-002	1.495147E-003
5.000000E+007	9.506598E-002	-2.390541E-003	3.818208E-001	-8.239040E-003	3.819849E-001	-8.186099E-003	-6.186410E-002	1.725659E-003
6.000000E+007	9.522689E-002	-3.023715E-003	3.817262E-001	-9.833767E-003	3.819649E-001	-9.807976E-003	-6.173690E-002	1.822587E-003
7.000000E+007	9.531186E-002	-3.689796E-003	3.816262E-001	-1.143634E-002	3.818504E-001	-1.142222E-002	-6.160845E-002	1.957141E-003
8.000000E+007	9.542663E-002	-4.349697E-003	3.815591E-001	-1.297545E-002	3.817662E-001	-1.298292E-002	-6.147711E-002	2.112659E-003
9.000000E+007	9.550299E-002	-4.980017E-003	3.814476E-001	-1.456695E-002	3.816543E-001	-1.457304E-002	-6.133773E-002	2.207521E-003
1.000000E+008	9.557092E-002	-5.612796E-003	3.813872E-001	-1.620625E-002	3.815538E-001	-1.616056E-002	-6.119689E-002	2.286128E-003
1.100000E+008	9.561225E-002	-6.252831E-003	3.812476E-001	-1.785381E-002	3.814513E-001	-1.778575E-002	-6.112028E-002	2.339693E-003
1.200000E+008	9.568403E-002	-6.902478E-003	3.810309E-001	-1.943254E-002	3.812808E-001	-1.938484E-002	-6.111794E-002	2.383981E-003
1.300000E+008	9.571762E-002	-7.578292E-003	3.809068E-001	-2.098444E-002	3.811374E-001	-2.100035E-002	-6.101013E-002	2.410628E-003
1.400000E+008	9.570783E-002	-8.278308E-003	3.807843E-001	-2.258381E-002	3.809764E-001	-2.259907E-002	-6.075811E-002	2.404165E-003
1.500000E+008	9.562026E-002	-8.943111E-003	3.806406E-001	-2.410549E-002	3.807453E-001	-2.414187E-002	-6.053392E-002	2.415833E-003
1.600000E+008	9.547176E-002	-9.480715E-003	3.805057E-001	-2.566007E-002	3.805641E-001	-2.564559E-002	-6.058679E-002	2.469323E-003
1.700000E+008	9.534569E-002	-1.002368E-002	3.803400E-001	-2.733644E-002	3.805799E-001	-2.720219E-002	-6.080092E-002	2.483588E-003
1.800000E+008	9.515906E-002	-1.062971E-002	3.799545E-001	-2.899710E-002	3.803850E-001	-2.891564E-002	-6.094586E-002	2.475657E-003
1.900000E+008	9.500786E-002	-1.132170E-002	3.796921E-001	-3.049628E-002	3.800918E-001	-3.048485E-002	-6.091828E-002	2.440107E-003
2.000000E+008	9.489780E-002	-1.203590E-002	3.795211E-001	-3.200830E-002	3.798669E-001	-3.198759E-002	-6.073263E-002	2.439073E-003
2.100000E+008	9.481185E-002	-1.278938E-002	3.793442E-001	-3.351157E-002	3.796291E-001	-3.350335E-002	-6.051499E-002	2.411015E-003
2.200000E+008	9.468648E-002	-1.349048E-002	3.791608E-001	-3.500308E-002	3.794025E-001	-3.500717E-002	-6.034112E-002	2.374912E-003
2.300000E+008	9.453143E-002	-1.417991E-002	3.789503E-001	-3.654784E-002	3.791674E-001	-3.652683E-002	-6.022938E-002	2.308937E-003
2.400000E+008	9.435635E-002	-1.487142E-002	3.787185E-001	-3.810023E-002	3.789056E-001	-3.806935E-002	-6.016130E-002	2.234477E-003
2.500000E+008	9.417187E-002	-1.551836E-002	3.784439E-001	-3.966460E-002	3.786697E-001	-3.961551E-002	-6.008400E-002	2.133994E-003
2.600000E+008	9.399775E-002	-1.622576E-002	3.781273E-001	-4.120791E-002	3.784003E-001	-4.117338E-002	-5.992723E-002	2.100266E-003
2.700000E+008	9.385613E-002	-1.688302E-002	3.778267E-001	-4.273231E-002	3.781348E-001	-4.270982E-002	-5.975166E-002	2.128131E-003
2.800000E+008	9.373702E-002	-1.750184E-002	3.775312E-001	-4.419208E-002	3.778227E-001	-4.416865E-002	-5.957366E-002	2.142905E-003
2.900000E+008	9.356158E-002	-1.806182E-002	3.773062E-001	-4.566776E-002	3.775394E-001	-4.562418E-002	-5.946018E-002	2.192766E-003
3.000000E+008	9.341508E-002	-1.861074E-002	3.770568E-001	-4.720798E-002	3.773157E-001	-4.713325E-002	-5.934460E-002	2.267021E-003
3.100000E+008	9.324495E-002	-1.912735E-002	3.767730E-001	-4.870399E-002	3.770436E-001	-4.864364E-002	-5.925273E-002	2.365593E-003
3.200000E+008	9.304721E-002	-1.965228E-002	3.764501E-001	-5.024274E-002	3.767657E-001	-5.020790E-002	-5.919579E-002	2.452619E-003
3.300000E+008	9.279244E-002	-2.016851E-002	3.761571E-001	-5.174317E-002	3.764620E-001	-5.177707E-002	-5.913796E-002	2.504661E-003
3.400000E+008	9.247741E-002	-2.069686E-002	3.757960E-001	-5.324589E-002	3.760051E-001	-5.334714E-002	-5.905316E-002	2.518209E-003
3.500000E+008	9.212398E-002	-2.121776E-002	3.754943E-001	-5.477849E-002	3.755733E-001	-5.474249E-002	-5.895052E-002	2.450517E-003
3.600000E+008	9.183410E-002	-2.175587E-002	3.751525E-001	-5.627082E-002	3.752427E-001	-5.610959E-002	-5.883261E-002	2.446788E-003
3.700000E+008	9.151266E-002	-2.229737E-002	3.747758E-001	-5.766857E-002	3.749697E-001	-5.747086E-002	-5.867697E-002	2.433636E-003
3.800000E+008	9.122466E-002	-2.288078E-002	3.744415E-001	-5.914205E-002	3.747416E-001	-5.900459E-002	-5.852626E-002	2.426025E-003
3.900000E+008	9.091880E-002	-2.347410E-002	3.740473E-001	-6.065353E-002	3.743997E-001	-6.051701E-002	-5.830959E-002	2.447077E-003
4.000000E+008	9.063638E-002	-2.407070E-002	3.736580E-001	-6.202560E-002	3.740423E-001	-6.202996E-002	-5.807033E-002	2.479994E-003
4.100000E+008	9.032025E-002	-2.468143E-002	3.733187E-001	-6.340180E-002	3.736415E-001	-6.348701E-002	-5.785772E-002	2.499231E-003
4.200000E+008	8.998956E-002	-2.525041E-002	3.730289E-001	-6.485094E-002	3.732739E-001	-6.488863E-002	-5.768085E-002	2.595949E-003
4.300000E+008	8.973344E-002	-2.577462E-002	3.726840E-001	-6.634621E-002	3.729234E-001	-6.634968E-002	-5.753784E-002	2.700825E-003
4.400000E+008	8.947559E-002	-2.627283E-002	3.723144E-001	-6.780137E-002	3.725734E-001	-6.779310E-002	-5.742145E-002	2.875769E-003
4.500000E+008	8.921864E-002	-2.679398E-002	3.719497E-001	-6.925554E-002	3.722158E-001	-6.925084E-002	-5.728653E-002	3.058087E-003
4.600000E+008	8.894551E-002	-2.731377E-002	3.715488E-001	-7.073862E-002	3.718062E-001	-7.073094E-002	-5.716894E-002	3.242724E-003
4.700000E+008	8.865610E-002	-2.777931E-002	3.711370E-001	-7.213642E-002	3.713727E-001	-7.215532E-002	-5.709014E-002	3.394609E-003
4.800000E+008	8.832714E-002	-2.822142E-002	3.707507E-001	-7.354162E-002	3.709696E-001	-7.352581E-002	-5.702842E-002	3.528401E-003
4.900000E+008	8.797152E-002	-2.868465E-002	3.703515E-001	-7.495630E-002	3.705332E-001	-7.495719E-002	-5.696565E-002	3.665803E-003
5.000000E+008	8.765068E-002	-2.912046E-002	3.699427E-001	-7.637163E-002	3.701874E-001	-7.634851E-002	-5.690098E-002	3.780087E-003
5.100000E+008	8.732650E-002	-2.960421E-002	3.695392E-001	-7.779154E-002	3.698078E-001	-7.774765E-002	-5.677125E-002	3.874625E-003
5.200000E+008	8.698612E-002	-3.011073E-002	3.691293E-001	-7.921972E-002	3.694217E-001	-7.920928E-002	-5.666283E-002	3.966117E-003
5.300000E+008	8.663104E-002	-3.062880E-002	3.687204E-001	-8.064136E-002	3.690041E-001	-8.065583E-002	-5.646163E-002	4.039930E-003
5.400000E+008	8.626963E-002	-3.119181E-002	3.682668E-001	-8.206462E-002	3.685799E-001	-8.208713E-002	-5.630514E-002	4.123528E-003
5.500000E+008	8.590595E-002	-3.165322E-002	3.678519E-001	-8.345609E-002	3.681054E-001	-8.349259E-002	-5.616831E-002	4.240027E-003
5.600000E+008	8.556504E-002	-3.214542E-002	3.673842E-001	-8.485217E-002	3.676494E-001	-8.488180E-002	-5.604157E-002	4.378002E-003
5.700000E+008	8.524230E-002	-3.263310E-002	3.669349E-001	-8.620220E-002	3.672117E-001	-8.624673E-002	-5.599277E-002	4.588174E-003
5.800000E+008	8.490926E-002	-3.309791E-002	3.664908E-001	-8.763420E-002	3.668058E-001	-8.763987E-002	-5.590506E-002	4.751121E-003
5.900000E+008	8.458645E-002	-3.361655E-002	3.660519E-001	-8.904969E-002	3.663763E-001	-8.908458E-002	-5.586209E-002	4.954653E-003
6.000000E+008	8.430986E-002	-3.409611E-002	3.655770E-001	-9.043061E-002	3.658988E-001	-9.047143E-002	-5.575529E-002	5.078407E-003
6.100000E+008	8.403127E-002	-3.457920E-002	3.650998E-001	-9.178483E-002	3.653723E-001	-9.185355E-002	-5.570458E-002	5.227851E-003
6.200000E+008	8.377374E-002	-3.502275E-002	3.646290E-001	-9.313676E-002	3.649074E-001	-9.321371E-002	-5.564460E-002	5.385236E-003
6.300000E+008	8.352834E-002	-3.546991E-002	3.641412E-001	-9.450789E-002	3.644230E-001	-9.457498E-002	-5.555510E-002	5.506791E-003
6.400000E+008	8.328607E-002	-3.587192E-002	3.636806E-001	-9.587074E-002	3.639710E-001	-9.592618E-002	-5.543161E-002	5.680323E-003
6.500000E+008	8.301531E-002	-3.628384E-002	3.632018E-001	-9.721826E-002	3.634955E-001	-9.728028E-002	-5.533873E-002	5.856863E-003
6.600000E+008	8.272355E-002	-3.669377E-002	3.627605E-001	-9.859771E-002	3.630010E-001	-9.865763E-002	-5.525042E-002	6.024178E-003
6.700000E+008	8.235165E-002	-3.705519E-002	3.622637E-001	-9.995787E-002	3.625110E-001	-1.000169E-001	-5.520254E-002	6.222788E-003
6.800000E+008	8.198831E-002	-3.742523E-002	3.617670E-001	-1.013182E-001	3.620163E-001	-1.014068E-001	-5.514441E-002	6.452260E-003
6.900000E+008	8.159226E-002	-3.775697E-002	3.612231E-001	-1.026684E-001	3.614880E-001	-1.027178E-001	-5.509741E-002	6.685776E-003
7.000000E+008	8.124488E-002	-3.812532E-002	3.607441E-001	-1.040007E-001	3.610048E-001	-1.040342E-001	-5.508988E-002	6.890135E-003
7.100000E+008	8.088797E-002	-3.852929E-002	3.602474E-001	-1.053048E-001	3.605318E-001	-1.053935E-001	-5.507817E-002	7.055618E-003
7.200000E+008	8.051468E-002	-3.892691E-002	3.597525E-001	-1.066674E-001	3.600237E-001	-1.067384E-001	-5.505563E-002	7.214635E-003
7.300000E+008	8.015012E-002	-3.934633E-002	3.592024E-001	-1.079916E-001	3.595254E-001	-1.081054E-001	-5.505653E-002	7.319304E-003
7.400000E+008	7.975515E-002	-3.972671E-002	3.586750E-001	-1.093403E-001	3.590036E-001	-1.094055E-001	-5.505313E-002	7.423967E-003
7.500000E+008	7.941547E-002	-4.013443E-002	3.581735E-001	-1.106810E-001	3.584865E-001	-1.107777E-001	-5.504140E-002	7.533177E-003
7.600000E+008	7.901203E-002	-4.053987E-002	3.576057E-001	-1.120125E-001	3.579457E-001	-1.120820E-001	-5.501629E-002	7.643429E-003
7.700000E+008	7.865736E-002	-4.096376E-002	3.571125E-001	-1.133264E-001	3.574293E-001	-1.134169E-001	-5.495960E-002	7.707694E-003
7.800000E+008	7.826707E-002	-4.136537E-002	3.565586E-001	-1.146464E-001	3.569265E-001	-1.147271E-001	-5.494031E-002	7.796410E-003
7.900000E+008	7.789908E-002	-4.180853E-002	3.560459E-001	-1.159641E-001	3.563931E-001	-1.160913E-001	-5.489887E-002	7.922825E-003
8.000000E+008	7.753390E-002	-4.223979E-002	3.554774E-001	-1.172794E-001	3.557837E-001	-1.173748E-001	-5.482651E-002	8.042843E-003
8.100000E+008	7.718863E-002	-4.264805E-002	3.549434E-001	-1.185578E-001	3.552277E-001	-1.186866E-001	-5.471551E-002	8.206765E-003
8.200000E+008	7.685651E-002	-4.305169E-002	3.543947E-001	-1.199198E-001	3.546772E-001	-1.199644E-001	-5.464866E-002	8.329577E-003
8.300000E+008	7.656344E-002	-4.345042E-002	3.538231E-001	-1.211945E-001	3.541489E-001	-1.212853E-001	-5.458480E-002	8.489403E-003
8.400000E+008	7.629349E-002	-4.382286E-002	3.532576E-001	-1.224815E-001	3.535873E-001	-1.225698E-001	-5.450837E-002	8.653389E-003
8.500000E+008	7.599483E-002	-4.419546E-002	3.527169E-001	-1.237714E-001	3.530153E-001	-1.239039E-001	-5.450003E-002	8.797562E-003
8.600000E+008	7.568156E-002	-4.452467E-002	3.521217E-001	-1.250715E-001	3.524145E-001	-1.252001E-001	-5.446902E-002	8.953607E-003
8.700000E+008	7.534219E-002	-4.484277E-002	3.515909E-001	-1.263808E-001	3.518503E-001	-1.264839E-001	-5.443299E-002	9.094515E-003
8.800000E+008	7.500558E-002	-4.512816E-002	3.510101E-001	-1.276929E-001	3.513111E-001	-1.277565E-001	-5.443030E-002	9.239891E-003
8.900000E+008	7.463012E-002	-4.545549E-002	3.503973E-001	-1.289524E-001	3.507381E-001	-1.290835E-001	-5.441888E-002	9.360027E-003
9.000000E+008	7.425435E-002	-4.574990E-002	3.498014E-001	-1.302389E-001	3.501724E-001	-1.303541E-001	-5.436075E-002	9.515081E-003
9.100000E+008	7.383902E-002	-4.608154E-002	3.492311E-001	-1.315345E-001	3.495718E-001	-1.316553E-001	-5.425315E-002	9.622160E-003
9.200000E+008	7.345305E-002	-4.643035E-002	3.486359E-001	-1.328096E-001	3.489837E-001	-1.329336E-001	-5.414053E-002	9.743214E-003
9.300000E+008	7.308236E-002	-4.674689E-002	3.480206E-001	-1.340687E-001	3.483322E-001	-1.341992E-001	-5.401426E-002	9.858832E-003
9.400000E+008	7.272988E-002	-4.709387E-002	3.474568E-001	-1.353134E-001	3.477817E-001	-1.354599E-001	-5.385588E-002	1.001679E-002
9.500000E+008	7.236438E-002	-4.743927E-002	3.468584E-001	-1.366088E-001	3.471417E-001	-1.367588E-001	-5.368657E-002	1.023161E-002
9.600000E+008	7.202642E-002	-4.774706E-002	3.462461E-001	-1.378809E-001	3.465412E-001	-1.380135E-001	-5.350712E-002	1.043709E-002
9.700000E+008	7.171460E-002	-4.804623E-002	3.456024E-001	-1.391083E-001	3.459423E-001	-1.392740E-001	-5.334691E-002	1.064993E-002
9.800000E+008	7.141849E-002	-4.832329E-002	3.450188E-001	-1.403354E-001	3.453366E-001	-1.405521E-001	-5.320389E-002	1.087843E-002
9.900000E+008	7.110054E-002	-4.861597E-002	3.444264E-001	-1.416192E-001	3.447262E-001	-1.418016E-001	-5.309836E-002	1.110394E-002
1.000000E+009	7.078449E-002	-4.886742E-002	3.438054E-001	-1.428660E-001	3.440804E-001	-1.430690E-001	-5.304190E-002	1.134682E-002
1.010000E+009	7.040991E-002	-4.909525E-002	3.431946E-001	-1.441586E-001	3.434648E-001	-1.443060E-001	-5.298962E-002	1.160020E-002
1.020000E+009	7.002169E-002	-4.932827E-002	3.425518E-001	-1.454159E-001	3.428242E-001	-1.455527E-001	-5.293689E-002	1.187224E-002
1.030000E+009	6.968385E-002	-4.955158E-002	3.418770E-001	-1.466480E-001	3.421941E-001	-1.467961E-001	-5.287747E-002	1.209683E-002
1.040000E+009	6.931488E-002	-4.977203E-002	3.412499E-001	-1.478545E-001	3.415827E-001	-1.480461E-001	-5.280472E-002	1.233865E-002
1.050000E+009	6.892924E-002	-5.004988E-002	3.406337E-001	-1.491195E-001	3.409288E-001	-1.492600E-001	-5.271752E-002	1.257537E-002
1.060000E+009	6.854634E-002	-5.032007E-002	3.399892E-001	-1.503467E-001	3.402710E-001	-1.504819E-001	-5.263399E-002	1.280125E-002
1.070000E+009	6.816084E-002	-5.056831E-002	3.393132E-001	-1.515526E-001	3.396526E-001	-1.516950E-001	-5.254986E-002	1.301827E-002
1.080000E+009	6.780354E-002	-5.086764E-002	3.386824E-001	-1.528356E-001	3.390149E-001	-1.529443E-001	-5.247201E-002	1.325636E-002
1.090000E+009	6.746728E-002	-5.110937E-002	3.380078E-001	-1.540561E-001	3.383503E-001	-1.541723E-001	-5.238194E-002	1.346536E-002
1.100000E+009	6.713374E-002	-5.134860E-002	3.372989E-001	-1.552985E-001	3.376924E-001	-1.553776E-001	-5.230451E-002	1.372593E-002
1.110000E+009	6.679221E-002	-5.158937E-002	3.366777E-001	-1.565063E-001	3.370536E-001	-1.566317E-001	-5.222679E-002	1.392623E-002
1.120000E+009	6.642331E-002	-5.181068E-002	3.360276E-001	-1.577352E-001	3.363458E-001	-1.578925E-001	-5.220505E-002	1.415914E-002
1.130000E+009	6.605587E-002	-5.205238E-002	3.353397E-001	-1.589442E-001	3.356452E-001	-1.590883E-001	-5.218833E-002	1.438799E-002
1.140000E+009	6.564729E-002	-5.228016E-002	3.346526E-001	-1.601563E-001	3.349851E-001	-1.603061E-001	-5.212913E-002	1.463796E-002
1.150000E+009	6.528332E-002	-5.250340E-002	3.339742E-001	-1.613718E-001	3.342991E-001	-1.615295E-001	-5.204878E-002	1.486672E-002
1.160000E+009	6.490218E-002	-5.273122E-002	3.332926E-001	-1.626030E-001	3.335994E-001	-1.627563E-001	-5.198525E-002	1.507580E-002
1.170000E+009	6.452766E-002	-5.297401E-002	3.325824E-001	-1.638145E-001	3.329093E-001	-1.639156E-001	-5.188911E-002	1.534021E-002
1.180000E+009	6.415195E-002	-5.324087E-002	3.318593E-001	-1.649942E-001	3.322394E-001	-1.651528E-001	-5.179900E-002	1.555439E-002
1.190000E+009	6.376094E-002	-5.349268E-002	3.311765E-001	-1.662191E-001	3.314527E-001	-1.663809E-001	-5.169350E-002	1.581293E-002
1.200000E+009	6.340313E-002	-5.371176E-002	3.304653E-001	-1.674299E-001	3.307834E-001	-1.675345E-001	-5.161489E-002	1.608029E-002
1.210000E+009	6.305242E-002	-5.397721E-002	3.297543E-001	-1.686320E-001	3.300521E-001	-1.687661E-001	-5.151364E-002	1.634336E-002
1.220000E+009	6.269437E-002	-5.421819E-002	3.290542E-001	-1.697925E-001	3.293865E-001	-1.699362E-001	-5.146408E-002	1.661075E-002
1.230000E+009	6.234379E-002	-5.444289E-002	3.283205E-001	-1.709857E-001	3.286473E-001	-1.711384E-001	-5.140115E-002	1.684770E-002
1.240000E+009	6.200677E-002	-5.469826E-002	3.276043E-001	-1.721828E-001	3.278846E-001	-1.722936E-001	-5.137745E-002	1.709182E-002
1.250000E+009	6.165480E-002	-5.494014E-002	3.268592E-001	-1.733816E-001	3.272383E-001	-1.735044E-001	-5.134594E-002	1.730939E-002
1.260000E+009	6.126629E-002	-5.514389E-002	3.261172E-001	-1.745651E-001	3.264254E-001	-1.747337E-001	-5.130025E-002	1.748072E-002
1.270000E+009	6.095868E-002	-5.537621E-002	3.253993E-001	-1.757453E-001	3.256984E-001	-1.758540E-001	-5.123465E-002	1.768338E-002
1.280000E+009	6.059244E-002	-5.557335E-002	3.246553E-001	-1.769321E-001	3.249959E-001	-1.770420E-001	-5.116720E-002	1.786425E-002
1.290000E+009	6.024129E-002	-5.576608E-002	3.238965E-001	-1.781188E-001	3.242316E-001	-1.782419E-001	-5.100489E-002	1.802704E-002
1.300000E+009	5.991524E-002	-5.593641E-002	3.231214E-001	-1.792441E-001	3.234994E-001	-1.794043E-001	-5.084411E-002	1.823505E-002
1.310000E+009	5.955447E-002	-5.612914E-002	3.223765E-001	-1.804634E-001	3.227061E-001	-1.805924E-001	-5.068358E-002	1.846108E-002
1.320000E+009	5.919175E-002	-5.627581E-002	3.216095E-001	-1.816120E-001	3.219708E-001	-1.817494E-001	-5.047903E-002	1.871833E-002
1.330000E+009	5.886867E-002	-5.637832E-002	3.208572E-001	-1.827637E-001	3.211955E-001	-1.829348E-001	-5.023598E-002	1.904947E-002
1.340000E+009	5.848561E-002	-5.651659E-002	3.200806E-001	-1.838717E-001	3.204032E-001	-1.840838E-001	-5.005457E-002	1.941539E-002
1.350000E+009	5.808029E-002	-5.664138E-002	3.193184E-001	-1.850644E-001	3.195924E-001	-1.852434E-001	-4.987823E-002	1.977940E-002
1.360000E+009	5.777526E-002	-5.678649E-002	3.184958E-001	-1.861818E-001	3.188728E-001	-1.863611E-001	-4.968908E-002	2.020374E-002
1.370000E+009	5.741751E-002	-5.691982E-002	3.177557E-001	-1.873495E-001	3.180839E-001	-1.875198E-001	-4.957234E-002	2.060256E-002
1.380000E+009	5.704128E-002	-5.708490E-002	3.169284E-001	-1.884814E-001	3.172618E-001	-1.886692E-001	-4.945212E-002	2.098291E-002
1.390000E+009	5.668821E-002	-5.724900E-002	3.161336E-001	-1.896340E-001	3.164527E-001	-1.898307E-001	-4.941256E-002	2.139646E-002
1.400000E+009	5.629935E-002	-5.740436E-002	3.153234E-001	-1.907591E-001	3.156649E-001	-1.909077E-001	-4.933267E-002	2.175975E-002
1.410000E+009	5.591261E-002	-5.753275E-002	3.145416E-001	-1.919096E-001	3.148531E-001	-1.920431E-001	-4.928183E-002	2.216493E-002
1.420000E+009	5.554369E-002	-5.766120E-002	3.136834E-001	-1.930110E-001	3.140691E-001	-1.931697E-001	-4.920111E-002	2.249904E-002
1.430000E+009	5.521488E-002	-5.780937E-002	3.129038E-001	-1.941371E-001	3.132634E-001	-1.943126E-001	-4.909122E-002	2.282015E-002
1.440000E+009	5.483201E-002	-5.793682E-002	3.120964E-001	-1.952468E-001	3.124256E-001	-1.954102E-001	-4.897852E-002	2.315175E-002
1.450000E+009	5.443826E-002	-5.805791E-002	3.112641E-001	-1.963573E-001	3.116110E-001	-1.965184E-001	-4.887440E-002	2.348946E-002
1.460000E+009	5.404293E-002	-5.816750E-002	3.104235E-001	-1.974982E-001	3.107520E-001	-1.976675E-001	-4.876093E-002	2.384559E-002
1.470000E+009	5.369296E-002	-5.830216E-002	3.096094E-001	-1.986086E-001	3.099237E-001	-1.987651E-001	-4.861819E-002	2.425424E-002
1.480000E+009	5.329783E-002	-5.839026E-002	3.087357E-001	-1.996651E-001	3.090677E-001	-1.998515E-001	-4.850332E-002	2.465786E-002
1.490000E+009	5.292971E-002	-5.848298E-002	3.079234E-001	-2.007611E-001	3.082404E-001	-2.009141E-001	-4.836525E-002	2.507888E-002
1.500000E+009	5.255993E-002	-5.862550E-002	3.070913E-001	-2.018425E-001	3.073931E-001	-2.020209E-001	-4.818761E-002	2.549485E-002
