! Device ID: PE43711P
! File Path: z:\PE43711P\CHAR_NOM_04282014\AMB\3p300\LS_ATT_0p00dB\PE43711P_AMB_3p300V_3p000V_0p000V_LS_ATT_0p00dB_S2P_SN_5_A0137A.s2p
! Serial: 5
! Lot: A0137A
! Temp: 25C
! VDD: 3.300
! VSS: 0.000
! Control_Hi: 3.000
! Control_Lo: 0.000
! Attenuation Step: 0.00dB
! Port 1: RF1
! Port 2: RF2
! ThroughPath:1-2
! IDD: 0.000127623
! ISS: -1.669e-007
!

#  Hz  S   RI  R   50

1.000000E+007	1.037143E-001	-5.485564E-004	8.911890E-001	-4.239713E-003	8.914204E-001	-4.531993E-003	1.036597E-001	-8.964354E-004
2.000000E+007	1.037755E-001	-5.549699E-004	8.913523E-001	-7.518192E-003	8.912932E-001	-7.585709E-003	1.035995E-001	-9.662905E-004
3.000000E+007	1.042312E-001	-1.262396E-003	8.913574E-001	-1.137973E-002	8.913290E-001	-1.145952E-002	1.039157E-001	-1.445276E-003
4.000000E+007	1.042253E-001	-1.847141E-003	8.913358E-001	-1.520384E-002	8.912316E-001	-1.536069E-002	1.046598E-001	-2.092766E-003
5.000000E+007	1.046957E-001	-2.634099E-003	8.912541E-001	-1.935375E-002	8.911655E-001	-1.936627E-002	1.050966E-001	-3.099925E-003
6.000000E+007	1.050809E-001	-3.546269E-003	8.910918E-001	-2.323453E-002	8.910945E-001	-2.326161E-002	1.052260E-001	-4.246383E-003
7.000000E+007	1.052105E-001	-4.465125E-003	8.908925E-001	-2.710186E-002	8.908401E-001	-2.713312E-002	1.050733E-001	-5.341312E-003
8.000000E+007	1.055432E-001	-5.329314E-003	8.906799E-001	-3.092180E-002	8.907029E-001	-3.098257E-002	1.049347E-001	-6.121433E-003
9.000000E+007	1.057427E-001	-6.180774E-003	8.904668E-001	-3.479108E-002	8.904071E-001	-3.484354E-002	1.050801E-001	-7.023388E-003
1.000000E+008	1.058733E-001	-7.018323E-003	8.903157E-001	-3.867166E-002	8.900883E-001	-3.867610E-002	1.055524E-001	-8.086831E-003
1.100000E+008	1.059771E-001	-7.803302E-003	8.900002E-001	-4.257353E-002	8.898308E-001	-4.250783E-002	1.055771E-001	-9.143779E-003
1.200000E+008	1.061518E-001	-8.550186E-003	8.895069E-001	-4.639929E-002	8.894638E-001	-4.635455E-002	1.051462E-001	-1.010605E-002
1.300000E+008	1.063391E-001	-9.601871E-003	8.892013E-001	-5.018797E-002	8.891614E-001	-5.019320E-002	1.052179E-001	-1.134033E-002
1.400000E+008	1.064636E-001	-1.094953E-002	8.889034E-001	-5.406587E-002	8.888282E-001	-5.414086E-002	1.060641E-001	-1.264545E-002
1.500000E+008	1.063508E-001	-1.206211E-002	8.885407E-001	-5.782844E-002	8.883675E-001	-5.789704E-002	1.067657E-001	-1.369960E-002
1.600000E+008	1.059037E-001	-1.264321E-002	8.881269E-001	-6.156512E-002	8.877601E-001	-6.162547E-002	1.060996E-001	-1.450574E-002
1.700000E+008	1.052347E-001	-1.302888E-002	8.876972E-001	-6.552737E-002	8.874541E-001	-6.531569E-002	1.045886E-001	-1.550004E-002
1.800000E+008	1.047113E-001	-1.370417E-002	8.868361E-001	-6.944542E-002	8.868459E-001	-6.918674E-002	1.033402E-001	-1.669855E-002
1.900000E+008	1.045913E-001	-1.480874E-002	8.862284E-001	-7.305807E-002	8.862895E-001	-7.292965E-002	1.032330E-001	-1.786974E-002
2.000000E+008	1.047730E-001	-1.608781E-002	8.858284E-001	-7.677869E-002	8.858199E-001	-7.672827E-002	1.038096E-001	-1.878752E-002
2.100000E+008	1.050664E-001	-1.736276E-002	8.853719E-001	-8.046859E-002	8.853123E-001	-8.049697E-002	1.045159E-001	-1.954293E-002
2.200000E+008	1.052042E-001	-1.847714E-002	8.848928E-001	-8.405948E-002	8.848291E-001	-8.415487E-002	1.048254E-001	-2.028753E-002
2.300000E+008	1.050093E-001	-1.948968E-002	8.842730E-001	-8.775967E-002	8.841693E-001	-8.786828E-002	1.047546E-001	-2.127956E-002
2.400000E+008	1.047160E-001	-2.053845E-002	8.836556E-001	-9.151987E-002	8.834800E-001	-9.159582E-002	1.044481E-001	-2.246685E-002
2.500000E+008	1.043407E-001	-2.150859E-002	8.829641E-001	-9.525407E-002	8.828056E-001	-9.529621E-002	1.040264E-001	-2.382917E-002
2.600000E+008	1.039911E-001	-2.256880E-002	8.822645E-001	-9.901312E-002	8.821100E-001	-9.901293E-002	1.037533E-001	-2.503673E-002
2.700000E+008	1.037339E-001	-2.346324E-002	8.814820E-001	-1.026895E-001	8.814506E-001	-1.026905E-001	1.036216E-001	-2.604765E-002
2.800000E+008	1.036002E-001	-2.435724E-002	8.807475E-001	-1.062835E-001	8.807474E-001	-1.062757E-001	1.035354E-001	-2.689998E-002
2.900000E+008	1.033607E-001	-2.507337E-002	8.800367E-001	-1.098139E-001	8.799605E-001	-1.097895E-001	1.034428E-001	-2.768260E-002
3.000000E+008	1.032173E-001	-2.579152E-002	8.793382E-001	-1.134384E-001	8.793640E-001	-1.133783E-001	1.033346E-001	-2.853819E-002
3.100000E+008	1.029969E-001	-2.648948E-002	8.785923E-001	-1.169931E-001	8.786700E-001	-1.170144E-001	1.032376E-001	-2.932141E-002
3.200000E+008	1.027794E-001	-2.730351E-002	8.777796E-001	-1.206233E-001	8.779181E-001	-1.206498E-001	1.030462E-001	-3.019038E-002
3.300000E+008	1.023904E-001	-2.800773E-002	8.771085E-001	-1.241394E-001	8.771837E-001	-1.243825E-001	1.027808E-001	-3.107075E-002
3.400000E+008	1.019096E-001	-2.869102E-002	8.762497E-001	-1.278074E-001	8.761364E-001	-1.281189E-001	1.025805E-001	-3.203085E-002
3.500000E+008	1.014073E-001	-2.938482E-002	8.754405E-001	-1.315179E-001	8.750580E-001	-1.314838E-001	1.023818E-001	-3.306094E-002
3.600000E+008	1.010780E-001	-3.007542E-002	8.745562E-001	-1.350574E-001	8.741981E-001	-1.347645E-001	1.022148E-001	-3.385923E-002
3.700000E+008	1.007568E-001	-3.087279E-002	8.735680E-001	-1.384160E-001	8.734618E-001	-1.380334E-001	1.022318E-001	-3.466961E-002
3.800000E+008	1.003142E-001	-3.166305E-002	8.727628E-001	-1.418840E-001	8.728436E-001	-1.416348E-001	1.022206E-001	-3.563759E-002
3.900000E+008	9.975939E-002	-3.238713E-002	8.717738E-001	-1.454349E-001	8.719334E-001	-1.451883E-001	1.020955E-001	-3.665814E-002
4.000000E+008	9.935611E-002	-3.313707E-002	8.708364E-001	-1.487400E-001	8.710966E-001	-1.487350E-001	1.018464E-001	-3.748648E-002
4.100000E+008	9.876092E-002	-3.394178E-002	8.699778E-001	-1.520678E-001	8.701161E-001	-1.522436E-001	1.016202E-001	-3.827991E-002
4.200000E+008	9.810365E-002	-3.463022E-002	8.692205E-001	-1.555844E-001	8.691586E-001	-1.556023E-001	1.014453E-001	-3.909239E-002
4.300000E+008	9.772153E-002	-3.528622E-002	8.682909E-001	-1.590637E-001	8.681712E-001	-1.591063E-001	1.012278E-001	-3.999139E-002
4.400000E+008	9.735467E-002	-3.595017E-002	8.673481E-001	-1.625678E-001	8.672674E-001	-1.625491E-001	1.009922E-001	-4.072648E-002
4.500000E+008	9.695183E-002	-3.668444E-002	8.663636E-001	-1.659899E-001	8.663659E-001	-1.659802E-001	1.007772E-001	-4.153352E-002
4.600000E+008	9.655037E-002	-3.735882E-002	8.653917E-001	-1.694494E-001	8.653405E-001	-1.694310E-001	1.004566E-001	-4.216172E-002
4.700000E+008	9.608485E-002	-3.790783E-002	8.644192E-001	-1.728455E-001	8.643729E-001	-1.728107E-001	1.000773E-001	-4.275544E-002
4.800000E+008	9.561829E-002	-3.841377E-002	8.634383E-001	-1.761613E-001	8.633944E-001	-1.760992E-001	9.970068E-002	-4.324751E-002
4.900000E+008	9.507554E-002	-3.894987E-002	8.623869E-001	-1.795369E-001	8.622838E-001	-1.795547E-001	9.936338E-002	-4.379970E-002
5.000000E+008	9.463684E-002	-3.943695E-002	8.613374E-001	-1.829234E-001	8.613253E-001	-1.828247E-001	9.904703E-002	-4.447050E-002
5.100000E+008	9.418518E-002	-4.011501E-002	8.603300E-001	-1.862761E-001	8.603242E-001	-1.861476E-001	9.884758E-002	-4.515526E-002
5.200000E+008	9.362652E-002	-4.089669E-002	8.592601E-001	-1.896302E-001	8.592781E-001	-1.895716E-001	9.860900E-002	-4.600357E-002
5.300000E+008	9.305894E-002	-4.159062E-002	8.582498E-001	-1.930221E-001	8.582815E-001	-1.929564E-001	9.843157E-002	-4.681759E-002
5.400000E+008	9.242159E-002	-4.234064E-002	8.571598E-001	-1.963706E-001	8.572192E-001	-1.963417E-001	9.811571E-002	-4.765197E-002
5.500000E+008	9.192099E-002	-4.282345E-002	8.560817E-001	-1.997038E-001	8.560359E-001	-1.996550E-001	9.785288E-002	-4.828634E-002
5.600000E+008	9.141771E-002	-4.334807E-002	8.549215E-001	-2.029860E-001	8.548691E-001	-2.029957E-001	9.754681E-002	-4.895955E-002
5.700000E+008	9.103003E-002	-4.389782E-002	8.537830E-001	-2.062181E-001	8.538375E-001	-2.062710E-001	9.712487E-002	-4.954041E-002
5.800000E+008	9.052599E-002	-4.435885E-002	8.526593E-001	-2.095184E-001	8.527146E-001	-2.094941E-001	9.673251E-002	-5.023700E-002
5.900000E+008	9.002893E-002	-4.494606E-002	8.515326E-001	-2.128041E-001	8.516052E-001	-2.127804E-001	9.618144E-002	-5.093781E-002
6.000000E+008	8.957762E-002	-4.543398E-002	8.504285E-001	-2.160727E-001	8.504978E-001	-2.160392E-001	9.575191E-002	-5.162200E-002
6.100000E+008	8.915359E-002	-4.596339E-002	8.493345E-001	-2.193323E-001	8.492361E-001	-2.193256E-001	9.524983E-002	-5.220028E-002
6.200000E+008	8.876200E-002	-4.655462E-002	8.481144E-001	-2.225402E-001	8.481464E-001	-2.225822E-001	9.485782E-002	-5.278539E-002
6.300000E+008	8.840784E-002	-4.712656E-002	8.468646E-001	-2.258260E-001	8.469496E-001	-2.258050E-001	9.451449E-002	-5.343512E-002
6.400000E+008	8.803092E-002	-4.771856E-002	8.457205E-001	-2.290625E-001	8.457548E-001	-2.290569E-001	9.423061E-002	-5.399842E-002
6.500000E+008	8.764996E-002	-4.824982E-002	8.445200E-001	-2.322170E-001	8.445605E-001	-2.322242E-001	9.379308E-002	-5.457847E-002
6.600000E+008	8.710630E-002	-4.885063E-002	8.434084E-001	-2.354436E-001	8.433449E-001	-2.354803E-001	9.339610E-002	-5.511923E-002
6.700000E+008	8.646803E-002	-4.927808E-002	8.421918E-001	-2.386697E-001	8.421314E-001	-2.386631E-001	9.282821E-002	-5.563156E-002
6.800000E+008	8.587355E-002	-4.968579E-002	8.409370E-001	-2.418356E-001	8.409203E-001	-2.418808E-001	9.231467E-002	-5.600368E-002
6.900000E+008	8.525555E-002	-5.007514E-002	8.396280E-001	-2.450368E-001	8.396008E-001	-2.449811E-001	9.180655E-002	-5.642812E-002
7.000000E+008	8.475039E-002	-5.054213E-002	8.383826E-001	-2.482314E-001	8.383869E-001	-2.481578E-001	9.129637E-002	-5.701732E-002
7.100000E+008	8.428530E-002	-5.109376E-002	8.371185E-001	-2.512860E-001	8.371468E-001	-2.513635E-001	9.083233E-002	-5.758646E-002
7.200000E+008	8.371806E-002	-5.163069E-002	8.358709E-001	-2.544321E-001	8.358764E-001	-2.544853E-001	9.037295E-002	-5.832096E-002
7.300000E+008	8.312796E-002	-5.212725E-002	8.345837E-001	-2.575773E-001	8.346955E-001	-2.576458E-001	8.978353E-002	-5.900810E-002
7.400000E+008	8.252443E-002	-5.252443E-002	8.333324E-001	-2.607519E-001	8.333953E-001	-2.607183E-001	8.926843E-002	-5.960402E-002
7.500000E+008	8.202675E-002	-5.298063E-002	8.321073E-001	-2.639338E-001	8.321096E-001	-2.639396E-001	8.877703E-002	-6.016633E-002
7.600000E+008	8.137463E-002	-5.348236E-002	8.307325E-001	-2.670749E-001	8.307650E-001	-2.670339E-001	8.827769E-002	-6.083757E-002
7.700000E+008	8.074399E-002	-5.404467E-002	8.294256E-001	-2.702032E-001	8.294513E-001	-2.701553E-001	8.781303E-002	-6.154266E-002
7.800000E+008	7.995464E-002	-5.449853E-002	8.280467E-001	-2.733116E-001	8.281012E-001	-2.732005E-001	8.719199E-002	-6.225497E-002
7.900000E+008	7.934047E-002	-5.506262E-002	8.267281E-001	-2.763614E-001	8.267781E-001	-2.763412E-001	8.652584E-002	-6.288979E-002
8.000000E+008	7.866824E-002	-5.559116E-002	8.253457E-001	-2.794510E-001	8.253565E-001	-2.793926E-001	8.594396E-002	-6.346554E-002
8.100000E+008	7.810381E-002	-5.605264E-002	8.239755E-001	-2.824698E-001	8.240071E-001	-2.824985E-001	8.544426E-002	-6.394444E-002
8.200000E+008	7.759591E-002	-5.649695E-002	8.226337E-001	-2.856160E-001	8.226299E-001	-2.854974E-001	8.496696E-002	-6.446971E-002
8.300000E+008	7.716895E-002	-5.696788E-002	8.212189E-001	-2.886395E-001	8.212902E-001	-2.886338E-001	8.449849E-002	-6.501553E-002
8.400000E+008	7.672724E-002	-5.738133E-002	8.198016E-001	-2.916837E-001	8.198766E-001	-2.916723E-001	8.399194E-002	-6.551848E-002
8.500000E+008	7.622610E-002	-5.781017E-002	8.184591E-001	-2.947057E-001	8.185216E-001	-2.947024E-001	8.334626E-002	-6.605948E-002
8.600000E+008	7.561362E-002	-5.823365E-002	8.170554E-001	-2.976783E-001	8.170491E-001	-2.976719E-001	8.270465E-002	-6.645687E-002
8.700000E+008	7.495363E-002	-5.852923E-002	8.156844E-001	-3.007178E-001	8.156365E-001	-3.007263E-001	8.209508E-002	-6.688185E-002
8.800000E+008	7.428505E-002	-5.881939E-002	8.142960E-001	-3.038330E-001	8.142684E-001	-3.036994E-001	8.145261E-002	-6.730742E-002
8.900000E+008	7.365994E-002	-5.922841E-002	8.128265E-001	-3.067997E-001	8.127918E-001	-3.068128E-001	8.093719E-002	-6.778162E-002
9.000000E+008	7.302818E-002	-5.964427E-002	8.113144E-001	-3.098534E-001	8.113881E-001	-3.098021E-001	8.038893E-002	-6.829310E-002
9.100000E+008	7.230120E-002	-6.014062E-002	8.098705E-001	-3.128293E-001	8.098876E-001	-3.127940E-001	7.991751E-002	-6.893450E-002
9.200000E+008	7.163943E-002	-6.054207E-002	8.083983E-001	-3.157647E-001	8.084756E-001	-3.158173E-001	7.940664E-002	-6.954631E-002
9.300000E+008	7.096542E-002	-6.082855E-002	8.069651E-001	-3.187473E-001	8.068665E-001	-3.187784E-001	7.888227E-002	-7.001891E-002
9.400000E+008	7.034532E-002	-6.112258E-002	8.054864E-001	-3.216515E-001	8.054921E-001	-3.216580E-001	7.844723E-002	-7.035381E-002
9.500000E+008	6.970191E-002	-6.140790E-002	8.040433E-001	-3.246946E-001	8.039517E-001	-3.246819E-001	7.806065E-002	-7.071110E-002
9.600000E+008	6.917671E-002	-6.165198E-002	8.024906E-001	-3.276465E-001	8.024981E-001	-3.275802E-001	7.769319E-002	-7.101841E-002
9.700000E+008	6.863626E-002	-6.193668E-002	8.009184E-001	-3.305017E-001	8.009548E-001	-3.305024E-001	7.729231E-002	-7.146919E-002
9.800000E+008	6.808340E-002	-6.225750E-002	7.994705E-001	-3.333785E-001	7.994938E-001	-3.334412E-001	7.680252E-002	-7.191124E-002
9.900000E+008	6.744526E-002	-6.257821E-002	7.979836E-001	-3.363727E-001	7.979850E-001	-3.363782E-001	7.606958E-002	-7.226964E-002
1.000000E+009	6.682709E-002	-6.279851E-002	7.964737E-001	-3.392501E-001	7.964423E-001	-3.392876E-001	7.549230E-002	-7.249347E-002
1.010000E+009	6.611725E-002	-6.295094E-002	7.949466E-001	-3.422019E-001	7.948976E-001	-3.421380E-001	7.492866E-002	-7.273452E-002
1.020000E+009	6.550314E-002	-6.311528E-002	7.934590E-001	-3.451293E-001	7.933662E-001	-3.450659E-001	7.445592E-002	-7.299821E-002
1.030000E+009	6.501757E-002	-6.327431E-002	7.917911E-001	-3.480105E-001	7.918141E-001	-3.479712E-001	7.394831E-002	-7.333829E-002
1.040000E+009	6.446568E-002	-6.354029E-002	7.902292E-001	-3.508152E-001	7.902881E-001	-3.508628E-001	7.341624E-002	-7.372776E-002
1.050000E+009	6.370693E-002	-6.391431E-002	7.887412E-001	-3.537185E-001	7.886677E-001	-3.537169E-001	7.277639E-002	-7.409037E-002
1.060000E+009	6.297711E-002	-6.413297E-002	7.871622E-001	-3.566056E-001	7.871075E-001	-3.565460E-001	7.215505E-002	-7.432314E-002
1.070000E+009	6.227803E-002	-6.425383E-002	7.855357E-001	-3.594258E-001	7.855766E-001	-3.593500E-001	7.153787E-002	-7.458206E-002
1.080000E+009	6.174180E-002	-6.443101E-002	7.839737E-001	-3.623364E-001	7.840349E-001	-3.622816E-001	7.101338E-002	-7.476843E-002
1.090000E+009	6.122547E-002	-6.460710E-002	7.823881E-001	-3.652243E-001	7.824421E-001	-3.651181E-001	7.055588E-002	-7.507423E-002
1.100000E+009	6.076037E-002	-6.486025E-002	7.806790E-001	-3.681188E-001	7.808112E-001	-3.679763E-001	7.006867E-002	-7.536065E-002
1.110000E+009	6.022181E-002	-6.510494E-002	7.791128E-001	-3.709269E-001	7.792127E-001	-3.708544E-001	6.945553E-002	-7.587101E-002
1.120000E+009	5.963528E-002	-6.526252E-002	7.775414E-001	-3.737091E-001	7.775835E-001	-3.737110E-001	6.876202E-002	-7.616187E-002
1.130000E+009	5.900664E-002	-6.549281E-002	7.758448E-001	-3.765242E-001	7.759179E-001	-3.765061E-001	6.806800E-002	-7.642658E-002
1.140000E+009	5.833320E-002	-6.557652E-002	7.742221E-001	-3.793998E-001	7.742778E-001	-3.793198E-001	6.741721E-002	-7.661768E-002
1.150000E+009	5.771043E-002	-6.572926E-002	7.725582E-001	-3.822030E-001	7.725693E-001	-3.821027E-001	6.688922E-002	-7.687107E-002
1.160000E+009	5.717625E-002	-6.580343E-002	7.709296E-001	-3.850251E-001	7.709633E-001	-3.849612E-001	6.634455E-002	-7.717433E-002
1.170000E+009	5.658356E-002	-6.605170E-002	7.691749E-001	-3.878375E-001	7.692766E-001	-3.877170E-001	6.584341E-002	-7.745910E-002
1.180000E+009	5.599263E-002	-6.636892E-002	7.674135E-001	-3.905916E-001	7.676397E-001	-3.905617E-001	6.516597E-002	-7.777171E-002
1.190000E+009	5.536669E-002	-6.652254E-002	7.657170E-001	-3.933798E-001	7.657684E-001	-3.933386E-001	6.461310E-002	-7.794747E-002
1.200000E+009	5.470159E-002	-6.660571E-002	7.640658E-001	-3.961691E-001	7.641294E-001	-3.960718E-001	6.397409E-002	-7.817665E-002
1.210000E+009	5.417936E-002	-6.674048E-002	7.622916E-001	-3.989231E-001	7.623739E-001	-3.988967E-001	6.342204E-002	-7.827806E-002
1.220000E+009	5.368882E-002	-6.684587E-002	7.606365E-001	-4.016746E-001	7.607365E-001	-4.016289E-001	6.289847E-002	-7.846324E-002
1.230000E+009	5.316484E-002	-6.701316E-002	7.588429E-001	-4.044409E-001	7.589163E-001	-4.044069E-001	6.222660E-002	-7.871766E-002
1.240000E+009	5.260719E-002	-6.729442E-002	7.570956E-001	-4.071530E-001	7.571297E-001	-4.071083E-001	6.156397E-002	-7.897657E-002
1.250000E+009	5.189674E-002	-6.741631E-002	7.553114E-001	-4.099317E-001	7.554639E-001	-4.098284E-001	6.086376E-002	-7.926275E-002
1.260000E+009	5.123487E-002	-6.747719E-002	7.535161E-001	-4.126354E-001	7.535827E-001	-4.126719E-001	6.011316E-002	-7.954414E-002
1.270000E+009	5.067356E-002	-6.758292E-002	7.517949E-001	-4.153573E-001	7.517879E-001	-4.152661E-001	5.948796E-002	-7.971743E-002
1.280000E+009	5.003542E-002	-6.758075E-002	7.500451E-001	-4.180907E-001	7.500660E-001	-4.179685E-001	5.886545E-002	-7.996610E-002
1.290000E+009	4.942460E-002	-6.763809E-002	7.481765E-001	-4.208621E-001	7.482224E-001	-4.207006E-001	5.841353E-002	-8.028169E-002
1.300000E+009	4.884917E-002	-6.767153E-002	7.463322E-001	-4.234107E-001	7.464509E-001	-4.233954E-001	5.795428E-002	-8.046891E-002
1.310000E+009	4.818182E-002	-6.765851E-002	7.444559E-001	-4.261710E-001	7.445971E-001	-4.260983E-001	5.731558E-002	-8.069380E-002
1.320000E+009	4.750676E-002	-6.760431E-002	7.426017E-001	-4.288312E-001	7.427783E-001	-4.287706E-001	5.676579E-002	-8.082051E-002
1.330000E+009	4.697640E-002	-6.745820E-002	7.408108E-001	-4.314340E-001	7.409659E-001	-4.314776E-001	5.636634E-002	-8.082510E-002
1.340000E+009	4.636153E-002	-6.733552E-002	7.389745E-001	-4.340619E-001	7.390876E-001	-4.340711E-001	5.584429E-002	-8.077463E-002
1.350000E+009	4.579388E-002	-6.722629E-002	7.371004E-001	-4.367504E-001	7.371707E-001	-4.366982E-001	5.539043E-002	-8.077586E-002
1.360000E+009	4.537755E-002	-6.717808E-002	7.352115E-001	-4.393373E-001	7.354022E-001	-4.393660E-001	5.490839E-002	-8.071128E-002
1.370000E+009	4.482430E-002	-6.720155E-002	7.333713E-001	-4.420104E-001	7.334843E-001	-4.419703E-001	5.432670E-002	-8.073187E-002
1.380000E+009	4.421219E-002	-6.720919E-002	7.314435E-001	-4.445970E-001	7.315998E-001	-4.446238E-001	5.369623E-002	-8.074409E-002
1.390000E+009	4.363397E-002	-6.719710E-002	7.295539E-001	-4.472166E-001	7.297053E-001	-4.472551E-001	5.299179E-002	-8.060851E-002
1.400000E+009	4.308120E-002	-6.709710E-002	7.276725E-001	-4.498181E-001	7.277708E-001	-4.497594E-001	5.238613E-002	-8.050597E-002
1.410000E+009	4.256050E-002	-6.696744E-002	7.257717E-001	-4.524142E-001	7.258231E-001	-4.523776E-001	5.176155E-002	-8.035886E-002
1.420000E+009	4.208061E-002	-6.687930E-002	7.237534E-001	-4.549784E-001	7.239779E-001	-4.549574E-001	5.114239E-002	-8.029231E-002
1.430000E+009	4.162134E-002	-6.688153E-002	7.218435E-001	-4.575022E-001	7.220437E-001	-4.575850E-001	5.059802E-002	-8.029948E-002
1.440000E+009	4.103675E-002	-6.679541E-002	7.199611E-001	-4.600644E-001	7.200848E-001	-4.600479E-001	4.999472E-002	-8.034894E-002
1.450000E+009	4.047366E-002	-6.668435E-002	7.179710E-001	-4.626103E-001	7.181882E-001	-4.626438E-001	4.924229E-002	-8.029508E-002
1.460000E+009	3.991486E-002	-6.652728E-002	7.160331E-001	-4.651963E-001	7.161453E-001	-4.652301E-001	4.862165E-002	-8.015944E-002
1.470000E+009	3.944083E-002	-6.637366E-002	7.141017E-001	-4.677313E-001	7.142082E-001	-4.677476E-001	4.801297E-002	-7.992659E-002
1.480000E+009	3.895524E-002	-6.616402E-002	7.120975E-001	-4.701751E-001	7.121863E-001	-4.702069E-001	4.745247E-002	-7.969173E-002
1.490000E+009	3.850315E-002	-6.599147E-002	7.101128E-001	-4.726773E-001	7.102508E-001	-4.726582E-001	4.688134E-002	-7.954014E-002
1.500000E+009	3.806198E-002	-6.595054E-002	7.081479E-001	-4.751724E-001	7.082509E-001	-4.751394E-001	4.635736E-002	-7.943579E-002
