! Device ID: PE43711P
! File Path: z:\PE43711P\CHAR_NOM_04282014\AMB\3p300\LS_ATT_4p25dB\PE43711P_AMB_3p300V_3p000V_0p000V_LS_ATT_4p25dB_S2P_SN_5_A0137A.s2p
! Serial: 5
! Lot: A0137A
! Temp: 25C
! VDD: 3.300
! VSS: 0.000
! Control_Hi: 3.000
! Control_Lo: 0.000
! Attenuation Step: 4.25dB
! Port 1: RF1
! Port 2: RF2
! ThroughPath:1-2
! IDD: 0.0001277303
! ISS: -1.495e-007
!

#  Hz  S   RI  R   50

1.000000E+007	9.530722E-002	-3.953834E-004	5.417627E-001	-2.707665E-003	5.420472E-001	-2.752445E-003	-3.464502E-002	2.341812E-004
2.000000E+007	9.542481E-002	-6.580255E-004	5.418407E-001	-4.586670E-003	5.418327E-001	-4.652058E-003	-3.449845E-002	5.621070E-004
3.000000E+007	9.569819E-002	-1.218368E-003	5.418503E-001	-6.920758E-003	5.418098E-001	-6.966557E-003	-3.422113E-002	6.630100E-004
4.000000E+007	9.575858E-002	-1.731145E-003	5.418321E-001	-9.258061E-003	5.417748E-001	-9.299834E-003	-3.384940E-002	7.767632E-004
5.000000E+007	9.599984E-002	-2.357204E-003	5.418116E-001	-1.176002E-002	5.417796E-001	-1.171818E-002	-3.366550E-002	7.441153E-004
6.000000E+007	9.623558E-002	-3.041266E-003	5.416667E-001	-1.407442E-002	5.417027E-001	-1.404793E-002	-3.353213E-002	5.994646E-004
7.000000E+007	9.633379E-002	-3.776737E-003	5.415397E-001	-1.636509E-002	5.415408E-001	-1.637301E-002	-3.345651E-002	4.770575E-004
8.000000E+007	9.649627E-002	-4.480916E-003	5.414015E-001	-1.861650E-002	5.414178E-001	-1.861066E-002	-3.339720E-002	4.220898E-004
9.000000E+007	9.659297E-002	-5.146588E-003	5.412911E-001	-2.089510E-002	5.412590E-001	-2.092943E-002	-3.326445E-002	3.060659E-004
1.000000E+008	9.667460E-002	-5.797664E-003	5.411896E-001	-2.322174E-002	5.411077E-001	-2.318653E-002	-3.305995E-002	1.571774E-004
1.100000E+008	9.674441E-002	-6.459388E-003	5.409818E-001	-2.557413E-002	5.409507E-001	-2.548040E-002	-3.299319E-002	-3.270770E-006
1.200000E+008	9.684435E-002	-7.108389E-003	5.406647E-001	-2.785816E-002	5.407055E-001	-2.781030E-002	-3.308381E-002	-1.554084E-004
1.300000E+008	9.693514E-002	-7.872679E-003	5.405066E-001	-3.011435E-002	5.405256E-001	-3.009998E-002	-3.298838E-002	-3.984482E-004
1.400000E+008	9.697059E-002	-8.729051E-003	5.403029E-001	-3.241864E-002	5.402702E-001	-3.243769E-002	-3.259631E-002	-6.841157E-004
1.500000E+008	9.684321E-002	-9.489297E-003	5.401121E-001	-3.462089E-002	5.399717E-001	-3.463299E-002	-3.227420E-002	-9.070302E-004
1.600000E+008	9.664164E-002	-1.001372E-002	5.398924E-001	-3.684148E-002	5.397080E-001	-3.679549E-002	-3.247230E-002	-1.004712E-003
1.700000E+008	9.638371E-002	-1.049449E-002	5.396671E-001	-3.922426E-002	5.396840E-001	-3.905760E-002	-3.297955E-002	-1.199271E-003
1.800000E+008	9.614320E-002	-1.110689E-002	5.391325E-001	-4.159142E-002	5.393674E-001	-4.146020E-002	-3.336753E-002	-1.447225E-003
1.900000E+008	9.602192E-002	-1.187070E-002	5.387344E-001	-4.375392E-002	5.389735E-001	-4.370412E-002	-3.338538E-002	-1.725711E-003
2.000000E+008	9.600165E-002	-1.272861E-002	5.384845E-001	-4.594486E-002	5.386438E-001	-4.590439E-002	-3.309465E-002	-1.916217E-003
2.100000E+008	9.598697E-002	-1.360313E-002	5.382289E-001	-4.813583E-002	5.383065E-001	-4.810044E-002	-3.277670E-002	-2.082209E-003
2.200000E+008	9.591753E-002	-1.439753E-002	5.379627E-001	-5.027560E-002	5.379868E-001	-5.025994E-002	-3.259414E-002	-2.256173E-003
2.300000E+008	9.574388E-002	-1.513639E-002	5.376328E-001	-5.246782E-002	5.376513E-001	-5.246422E-002	-3.252678E-002	-2.502114E-003
2.400000E+008	9.554603E-002	-1.586463E-002	5.372827E-001	-5.469570E-002	5.372692E-001	-5.466249E-002	-3.253515E-002	-2.773934E-003
2.500000E+008	9.533423E-002	-1.661549E-002	5.368976E-001	-5.695466E-002	5.369197E-001	-5.688300E-002	-3.256719E-002	-3.151806E-003
2.600000E+008	9.515223E-002	-1.737993E-002	5.364923E-001	-5.919660E-002	5.365446E-001	-5.911555E-002	-3.251567E-002	-3.417064E-003
2.700000E+008	9.499795E-002	-1.810164E-002	5.360284E-001	-6.135724E-002	5.361455E-001	-6.129954E-002	-3.241453E-002	-3.639252E-003
2.800000E+008	9.486990E-002	-1.877781E-002	5.355992E-001	-6.349093E-002	5.357225E-001	-6.341585E-002	-3.229902E-002	-3.787302E-003
2.900000E+008	9.467135E-002	-1.936742E-002	5.352164E-001	-6.560652E-002	5.353033E-001	-6.550782E-002	-3.225883E-002	-3.907409E-003
3.000000E+008	9.455132E-002	-1.992926E-002	5.348989E-001	-6.777833E-002	5.349884E-001	-6.766481E-002	-3.218880E-002	-3.994215E-003
3.100000E+008	9.435755E-002	-2.047353E-002	5.344310E-001	-6.992414E-002	5.345966E-001	-6.984939E-002	-3.214145E-002	-4.072920E-003
3.200000E+008	9.418004E-002	-2.106300E-002	5.340012E-001	-7.212178E-002	5.341855E-001	-7.204804E-002	-3.213493E-002	-4.172492E-003
3.300000E+008	9.390828E-002	-2.161130E-002	5.336013E-001	-7.426696E-002	5.337349E-001	-7.431099E-002	-3.215772E-002	-4.303330E-003
3.400000E+008	9.355577E-002	-2.218697E-002	5.330943E-001	-7.644514E-002	5.330709E-001	-7.655573E-002	-3.212902E-002	-4.518361E-003
3.500000E+008	9.317554E-002	-2.275962E-002	5.326390E-001	-7.864958E-002	5.324561E-001	-7.857557E-002	-3.209673E-002	-4.769024E-003
3.600000E+008	9.286746E-002	-2.331238E-002	5.321383E-001	-8.078389E-002	5.319807E-001	-8.052423E-002	-3.207060E-002	-4.918261E-003
3.700000E+008	9.256427E-002	-2.389263E-002	5.315693E-001	-8.277736E-002	5.315622E-001	-8.248256E-002	-3.195513E-002	-5.072007E-003
3.800000E+008	9.226400E-002	-2.452459E-002	5.311202E-001	-8.488571E-002	5.312351E-001	-8.466087E-002	-3.184051E-002	-5.265648E-003
3.900000E+008	9.190685E-002	-2.513711E-002	5.305505E-001	-8.706954E-002	5.307579E-001	-8.685406E-002	-3.169291E-002	-5.461716E-003
4.000000E+008	9.162855E-002	-2.580163E-002	5.299728E-001	-8.904812E-002	5.302542E-001	-8.902337E-002	-3.155400E-002	-5.618163E-003
4.100000E+008	9.122833E-002	-2.645634E-002	5.294872E-001	-9.101812E-002	5.296856E-001	-9.109992E-002	-3.146017E-002	-5.764590E-003
4.200000E+008	9.082104E-002	-2.704412E-002	5.290594E-001	-9.311427E-002	5.291631E-001	-9.311433E-002	-3.139149E-002	-5.848347E-003
4.300000E+008	9.054021E-002	-2.757930E-002	5.285467E-001	-9.521513E-002	5.286333E-001	-9.521884E-002	-3.131298E-002	-5.939696E-003
4.400000E+008	9.027347E-002	-2.808610E-002	5.280043E-001	-9.732279E-002	5.281381E-001	-9.729494E-002	-3.129835E-002	-5.932681E-003
4.500000E+008	9.001699E-002	-2.867047E-002	5.274629E-001	-9.939515E-002	5.276233E-001	-9.935682E-002	-3.123791E-002	-5.929754E-003
4.600000E+008	8.973050E-002	-2.922131E-002	5.268952E-001	-1.015140E-001	5.270158E-001	-1.014905E-001	-3.120927E-002	-5.906283E-003
4.700000E+008	8.939282E-002	-2.971768E-002	5.263128E-001	-1.035352E-001	5.264072E-001	-1.035278E-001	-3.124412E-002	-5.919606E-003
4.800000E+008	8.902204E-002	-3.016259E-002	5.257508E-001	-1.055310E-001	5.258141E-001	-1.054919E-001	-3.129633E-002	-5.889730E-003
4.900000E+008	8.862785E-002	-3.065256E-002	5.251583E-001	-1.075666E-001	5.251832E-001	-1.075520E-001	-3.134912E-002	-5.881175E-003
5.000000E+008	8.828557E-002	-3.109408E-002	5.245782E-001	-1.096034E-001	5.246321E-001	-1.095391E-001	-3.134599E-002	-5.901056E-003
5.100000E+008	8.796466E-002	-3.159913E-002	5.239879E-001	-1.116436E-001	5.240954E-001	-1.115461E-001	-3.131647E-002	-5.943029E-003
5.200000E+008	8.757713E-002	-3.217611E-002	5.234157E-001	-1.137159E-001	5.235304E-001	-1.136312E-001	-3.126889E-002	-6.045558E-003
5.300000E+008	8.719634E-002	-3.274853E-002	5.228168E-001	-1.157304E-001	5.229520E-001	-1.157011E-001	-3.116359E-002	-6.144312E-003
5.400000E+008	8.676271E-002	-3.336054E-002	5.221505E-001	-1.177748E-001	5.223343E-001	-1.177428E-001	-3.111056E-002	-6.260050E-003
5.500000E+008	8.637512E-002	-3.384162E-002	5.215122E-001	-1.197789E-001	5.216538E-001	-1.197697E-001	-3.109071E-002	-6.274662E-003
5.600000E+008	8.599578E-002	-3.431837E-002	5.208807E-001	-1.217729E-001	5.209736E-001	-1.217532E-001	-3.106071E-002	-6.267501E-003
5.700000E+008	8.566424E-002	-3.481336E-002	5.201996E-001	-1.237232E-001	5.203662E-001	-1.237319E-001	-3.112301E-002	-6.223974E-003
5.800000E+008	8.531808E-002	-3.527126E-002	5.195845E-001	-1.257162E-001	5.197707E-001	-1.257178E-001	-3.114095E-002	-6.217637E-003
5.900000E+008	8.496471E-002	-3.581219E-002	5.189091E-001	-1.277538E-001	5.191637E-001	-1.277613E-001	-3.124927E-002	-6.188287E-003
6.000000E+008	8.464710E-002	-3.631932E-002	5.182585E-001	-1.297499E-001	5.184918E-001	-1.297753E-001	-3.125139E-002	-6.222038E-003
6.100000E+008	8.433589E-002	-3.680041E-002	5.175890E-001	-1.316917E-001	5.177478E-001	-1.317587E-001	-3.133593E-002	-6.224986E-003
6.200000E+008	8.405758E-002	-3.727119E-002	5.168721E-001	-1.336314E-001	5.170934E-001	-1.336984E-001	-3.139405E-002	-6.203367E-003
6.300000E+008	8.380346E-002	-3.775044E-002	5.161656E-001	-1.355933E-001	5.163994E-001	-1.356414E-001	-3.141938E-002	-6.207392E-003
6.400000E+008	8.351292E-002	-3.820409E-002	5.154921E-001	-1.375258E-001	5.157292E-001	-1.375886E-001	-3.138892E-002	-6.183281E-003
6.500000E+008	8.324387E-002	-3.861382E-002	5.148231E-001	-1.394805E-001	5.150209E-001	-1.395334E-001	-3.141728E-002	-6.145207E-003
6.600000E+008	8.290756E-002	-3.908676E-002	5.141534E-001	-1.414447E-001	5.142776E-001	-1.415185E-001	-3.140988E-002	-6.099767E-003
6.700000E+008	8.248305E-002	-3.946318E-002	5.134322E-001	-1.434085E-001	5.135997E-001	-1.434475E-001	-3.152113E-002	-6.025122E-003
6.800000E+008	8.204773E-002	-3.983831E-002	5.127233E-001	-1.453185E-001	5.129014E-001	-1.453978E-001	-3.160131E-002	-5.912232E-003
6.900000E+008	8.162473E-002	-4.020015E-002	5.119671E-001	-1.472833E-001	5.121176E-001	-1.472909E-001	-3.169827E-002	-5.793471E-003
7.000000E+008	8.123808E-002	-4.059003E-002	5.112338E-001	-1.491738E-001	5.114224E-001	-1.491882E-001	-3.181412E-002	-5.735093E-003
7.100000E+008	8.085959E-002	-4.102605E-002	5.105235E-001	-1.510756E-001	5.107263E-001	-1.511317E-001	-3.189505E-002	-5.691517E-003
7.200000E+008	8.045249E-002	-4.145354E-002	5.097929E-001	-1.529935E-001	5.099966E-001	-1.530731E-001	-3.195464E-002	-5.706990E-003
7.300000E+008	8.003232E-002	-4.190854E-002	5.090220E-001	-1.548993E-001	5.092976E-001	-1.550175E-001	-3.212599E-002	-5.758460E-003
7.400000E+008	7.959835E-002	-4.231496E-002	5.082543E-001	-1.568472E-001	5.085396E-001	-1.568831E-001	-3.224687E-002	-5.793872E-003
7.500000E+008	7.921353E-002	-4.272167E-002	5.075360E-001	-1.587440E-001	5.077822E-001	-1.588355E-001	-3.237205E-002	-5.812729E-003
7.600000E+008	7.878256E-002	-4.314179E-002	5.067411E-001	-1.606479E-001	5.070264E-001	-1.607357E-001	-3.245318E-002	-5.854155E-003
7.700000E+008	7.835231E-002	-4.359678E-002	5.060141E-001	-1.625334E-001	5.062586E-001	-1.626214E-001	-3.253317E-002	-5.905879E-003
7.800000E+008	7.790224E-002	-4.398912E-002	5.052317E-001	-1.644291E-001	5.055129E-001	-1.644874E-001	-3.263531E-002	-5.964745E-003
7.900000E+008	7.746782E-002	-4.450156E-002	5.044498E-001	-1.663109E-001	5.047441E-001	-1.664431E-001	-3.275187E-002	-5.957533E-003
8.000000E+008	7.703417E-002	-4.493268E-002	5.036597E-001	-1.681889E-001	5.038857E-001	-1.682820E-001	-3.283984E-002	-5.984230E-003
8.100000E+008	7.663801E-002	-4.538990E-002	5.028224E-001	-1.700376E-001	5.030927E-001	-1.701515E-001	-3.288928E-002	-5.940533E-003
8.200000E+008	7.628134E-002	-4.578891E-002	5.020579E-001	-1.719423E-001	5.022876E-001	-1.719975E-001	-3.295283E-002	-5.921877E-003
8.300000E+008	7.596900E-002	-4.619294E-002	5.012519E-001	-1.737612E-001	5.015269E-001	-1.738544E-001	-3.299255E-002	-5.878354E-003
8.400000E+008	7.563610E-002	-4.658477E-002	5.004140E-001	-1.756196E-001	5.006905E-001	-1.757288E-001	-3.306390E-002	-5.831813E-003
8.500000E+008	7.532799E-002	-4.695619E-002	4.996526E-001	-1.774921E-001	4.998953E-001	-1.776117E-001	-3.319793E-002	-5.804343E-003
8.600000E+008	7.493734E-002	-4.733111E-002	4.988003E-001	-1.793346E-001	4.990242E-001	-1.794461E-001	-3.331771E-002	-5.754770E-003
8.700000E+008	7.454112E-002	-4.765417E-002	4.979948E-001	-1.811881E-001	4.981927E-001	-1.812968E-001	-3.342015E-002	-5.735319E-003
8.800000E+008	7.408627E-002	-4.795793E-002	4.971629E-001	-1.830911E-001	4.974089E-001	-1.830997E-001	-3.357600E-002	-5.679420E-003
8.900000E+008	7.368336E-002	-4.829574E-002	4.962953E-001	-1.849030E-001	4.965630E-001	-1.849733E-001	-3.368131E-002	-5.646623E-003
9.000000E+008	7.324712E-002	-4.861688E-002	4.954150E-001	-1.867327E-001	4.957358E-001	-1.868231E-001	-3.377925E-002	-5.616781E-003
9.100000E+008	7.278337E-002	-4.897353E-002	4.945741E-001	-1.885726E-001	4.948733E-001	-1.886582E-001	-3.379190E-002	-5.612963E-003
9.200000E+008	7.234914E-002	-4.933614E-002	4.937291E-001	-1.904012E-001	4.940384E-001	-1.905232E-001	-3.381879E-002	-5.620594E-003
9.300000E+008	7.190124E-002	-4.967988E-002	4.928628E-001	-1.921957E-001	4.931340E-001	-1.923510E-001	-3.383851E-002	-5.613665E-003
9.400000E+008	7.148348E-002	-5.000933E-002	4.920017E-001	-1.939872E-001	4.923172E-001	-1.941241E-001	-3.381900E-002	-5.520839E-003
9.500000E+008	7.103034E-002	-5.035744E-002	4.911653E-001	-1.958666E-001	4.914142E-001	-1.960066E-001	-3.378484E-002	-5.439557E-003
9.600000E+008	7.065123E-002	-5.061921E-002	4.902043E-001	-1.976490E-001	4.905537E-001	-1.977695E-001	-3.373160E-002	-5.290950E-003
9.700000E+008	7.030104E-002	-5.093469E-002	4.893253E-001	-1.993967E-001	4.896695E-001	-1.995771E-001	-3.368176E-002	-5.190859E-003
9.800000E+008	6.995826E-002	-5.122445E-002	4.885051E-001	-2.011806E-001	4.887872E-001	-2.013820E-001	-3.368704E-002	-5.079417E-003
9.900000E+008	6.959570E-002	-5.153853E-002	4.876152E-001	-2.030026E-001	4.878809E-001	-2.031881E-001	-3.376436E-002	-4.952262E-003
1.000000E+009	6.918053E-002	-5.178548E-002	4.867277E-001	-2.047834E-001	4.869595E-001	-2.049540E-001	-3.384574E-002	-4.807837E-003
1.010000E+009	6.874794E-002	-5.200290E-002	4.858407E-001	-2.066286E-001	4.860813E-001	-2.067559E-001	-3.394725E-002	-4.621448E-003
1.020000E+009	6.829790E-002	-5.219842E-002	4.849138E-001	-2.084076E-001	4.851280E-001	-2.085378E-001	-3.402900E-002	-4.436513E-003
1.030000E+009	6.791213E-002	-5.239669E-002	4.839413E-001	-2.101616E-001	4.842415E-001	-2.102900E-001	-3.408633E-002	-4.265870E-003
1.040000E+009	6.749324E-002	-5.264258E-002	4.830349E-001	-2.119219E-001	4.833301E-001	-2.120966E-001	-3.415675E-002	-4.138067E-003
1.050000E+009	6.704320E-002	-5.294031E-002	4.821636E-001	-2.137078E-001	4.824062E-001	-2.138213E-001	-3.424704E-002	-4.018146E-003
1.060000E+009	6.659535E-002	-5.321643E-002	4.812108E-001	-2.154707E-001	4.814993E-001	-2.155686E-001	-3.430378E-002	-3.871261E-003
1.070000E+009	6.611580E-002	-5.346657E-002	4.802578E-001	-2.172192E-001	4.805754E-001	-2.173022E-001	-3.436582E-002	-3.734604E-003
1.080000E+009	6.571988E-002	-5.370879E-002	4.793214E-001	-2.190014E-001	4.796716E-001	-2.190976E-001	-3.441664E-002	-3.548619E-003
1.090000E+009	6.533181E-002	-5.395428E-002	4.783778E-001	-2.207691E-001	4.787198E-001	-2.208641E-001	-3.448416E-002	-3.445842E-003
1.100000E+009	6.496192E-002	-5.421053E-002	4.773362E-001	-2.225429E-001	4.777490E-001	-2.226014E-001	-3.452647E-002	-3.244915E-003
1.110000E+009	6.459842E-002	-5.442699E-002	4.764386E-001	-2.242509E-001	4.768081E-001	-2.243638E-001	-3.459486E-002	-3.153322E-003
1.120000E+009	6.417344E-002	-5.464988E-002	4.754871E-001	-2.259721E-001	4.758341E-001	-2.261452E-001	-3.471113E-002	-3.020104E-003
1.130000E+009	6.374501E-002	-5.490373E-002	4.744978E-001	-2.277150E-001	4.748653E-001	-2.278792E-001	-3.484731E-002	-2.879985E-003
1.140000E+009	6.328252E-002	-5.509739E-002	4.735208E-001	-2.294699E-001	4.738829E-001	-2.296056E-001	-3.496287E-002	-2.689135E-003
1.150000E+009	6.283937E-002	-5.531153E-002	4.725551E-001	-2.312161E-001	4.728611E-001	-2.313228E-001	-3.504428E-002	-2.557220E-003
1.160000E+009	6.242750E-002	-5.549240E-002	4.715475E-001	-2.329509E-001	4.718996E-001	-2.330849E-001	-3.513149E-002	-2.420609E-003
1.170000E+009	6.199668E-002	-5.573317E-002	4.705245E-001	-2.346738E-001	4.708895E-001	-2.347738E-001	-3.515492E-002	-2.230278E-003
1.180000E+009	6.159034E-002	-5.603405E-002	4.694697E-001	-2.363877E-001	4.699054E-001	-2.365269E-001	-3.522701E-002	-2.108752E-003
1.190000E+009	6.114385E-002	-5.622622E-002	4.684999E-001	-2.381176E-001	4.687842E-001	-2.382415E-001	-3.528026E-002	-1.918535E-003
1.200000E+009	6.070287E-002	-5.645045E-002	4.674992E-001	-2.398320E-001	4.678265E-001	-2.399226E-001	-3.533334E-002	-1.732323E-003
1.210000E+009	6.031452E-002	-5.667339E-002	4.664029E-001	-2.415197E-001	4.667823E-001	-2.416728E-001	-3.540532E-002	-1.514330E-003
1.220000E+009	5.991942E-002	-5.688785E-002	4.654169E-001	-2.432127E-001	4.657883E-001	-2.433343E-001	-3.547448E-002	-1.295613E-003
1.230000E+009	5.951601E-002	-5.709095E-002	4.643393E-001	-2.449489E-001	4.647036E-001	-2.450550E-001	-3.558425E-002	-1.141140E-003
1.240000E+009	5.914190E-002	-5.736415E-002	4.633270E-001	-2.466147E-001	4.636714E-001	-2.467232E-001	-3.572066E-002	-9.520047E-004
1.250000E+009	5.871389E-002	-5.759574E-002	4.622654E-001	-2.483062E-001	4.626627E-001	-2.484228E-001	-3.583166E-002	-8.233395E-004
1.260000E+009	5.826413E-002	-5.778612E-002	4.611931E-001	-2.499980E-001	4.615384E-001	-2.501695E-001	-3.596854E-002	-6.958875E-004
1.270000E+009	5.788760E-002	-5.800512E-002	4.601430E-001	-2.516694E-001	4.604676E-001	-2.517770E-001	-3.604567E-002	-5.520670E-004
1.280000E+009	5.745953E-002	-5.813805E-002	4.590905E-001	-2.533668E-001	4.594428E-001	-2.534660E-001	-3.615491E-002	-4.622489E-004
1.290000E+009	5.705616E-002	-5.828723E-002	4.580026E-001	-2.550760E-001	4.583558E-001	-2.551532E-001	-3.614488E-002	-3.678029E-004
1.300000E+009	5.664142E-002	-5.843308E-002	4.568816E-001	-2.566732E-001	4.572830E-001	-2.568304E-001	-3.610463E-002	-1.978422E-004
1.310000E+009	5.622718E-002	-5.857972E-002	4.557962E-001	-2.583887E-001	4.561834E-001	-2.585094E-001	-3.613169E-002	-2.132747E-005
1.320000E+009	5.579179E-002	-5.869023E-002	4.547018E-001	-2.600488E-001	4.551205E-001	-2.601776E-001	-3.608719E-002	1.689370E-004
1.330000E+009	5.541391E-002	-5.874688E-002	4.536139E-001	-2.616735E-001	4.539924E-001	-2.618992E-001	-3.597830E-002	4.392971E-004
1.340000E+009	5.497924E-002	-5.883643E-002	4.525238E-001	-2.633085E-001	4.528517E-001	-2.634856E-001	-3.596079E-002	7.706581E-004
1.350000E+009	5.453806E-002	-5.889698E-002	4.513802E-001	-2.649673E-001	4.517094E-001	-2.651106E-001	-3.593735E-002	1.115382E-003
1.360000E+009	5.418775E-002	-5.897602E-002	4.502051E-001	-2.665742E-001	4.506214E-001	-2.667484E-001	-3.589362E-002	1.507055E-003
1.370000E+009	5.378137E-002	-5.907222E-002	4.491427E-001	-2.682254E-001	4.495065E-001	-2.683841E-001	-3.593879E-002	1.855654E-003
1.380000E+009	5.336170E-002	-5.922342E-002	4.479634E-001	-2.698259E-001	4.483386E-001	-2.700135E-001	-3.600089E-002	2.162405E-003
1.390000E+009	5.296253E-002	-5.934200E-002	4.468231E-001	-2.714965E-001	4.471566E-001	-2.716404E-001	-3.608213E-002	2.547347E-003
1.400000E+009	5.253547E-002	-5.946833E-002	4.456694E-001	-2.730798E-001	4.460321E-001	-2.732153E-001	-3.617631E-002	2.898660E-003
1.410000E+009	5.212245E-002	-5.951888E-002	4.445282E-001	-2.746984E-001	4.448755E-001	-2.748176E-001	-3.625310E-002	3.257801E-003
1.420000E+009	5.170188E-002	-5.961623E-002	4.433117E-001	-2.762776E-001	4.437295E-001	-2.764305E-001	-3.635756E-002	3.590775E-003
1.430000E+009	5.132144E-002	-5.969449E-002	4.421760E-001	-2.778833E-001	4.425625E-001	-2.780475E-001	-3.639259E-002	3.890229E-003
1.440000E+009	5.090583E-002	-5.978623E-002	4.409909E-001	-2.794491E-001	4.413966E-001	-2.796025E-001	-3.645071E-002	4.172246E-003
1.450000E+009	5.046824E-002	-5.984323E-002	4.397893E-001	-2.810310E-001	4.401989E-001	-2.812365E-001	-3.650447E-002	4.487340E-003
1.460000E+009	5.005397E-002	-5.991422E-002	4.386019E-001	-2.826553E-001	4.389737E-001	-2.828320E-001	-3.654383E-002	4.789611E-003
1.470000E+009	4.964118E-002	-5.997561E-002	4.374179E-001	-2.842253E-001	4.377774E-001	-2.843861E-001	-3.658564E-002	5.208035E-003
1.480000E+009	4.923590E-002	-6.000245E-002	4.362029E-001	-2.857466E-001	4.365470E-001	-2.859361E-001	-3.662010E-002	5.614397E-003
1.490000E+009	4.882230E-002	-6.005398E-002	4.349907E-001	-2.873053E-001	4.353686E-001	-2.874664E-001	-3.664171E-002	6.032110E-003
