! Device ID: PE43711P
! File Path: z:\PE43711P\CHAR_NOM_04282014\AMB\3p300\LS_ATT_18p00dB\PE43711P_AMB_3p300V_3p000V_0p000V_LS_ATT_18p00dB_S2P_SN_5_A0137A.s2p
! Serial: 5
! Lot: A0137A
! Temp: 25C
! VDD: 3.300
! VSS: 0.000
! Control_Hi: 3.000
! Control_Lo: 0.000
! Attenuation Step: 18.00dB
! Port 1: RF1
! Port 2: RF2
! ThroughPath:1-2
! IDD: 0.0001273645
! ISS: -1.221e-007
!

#  Hz  S   RI  R   50

1.000000E+007	5.322264E-002	1.840391E-004	1.099280E-001	-4.704736E-004	1.100605E-001	-5.290538E-004	-1.301326E-001	9.441314E-004
2.000000E+007	5.343507E-002	1.521906E-004	1.099006E-001	-7.809214E-004	1.099535E-001	-7.889408E-004	-1.298316E-001	1.581007E-003
3.000000E+007	5.369757E-002	6.369772E-005	1.098894E-001	-1.160152E-003	1.099694E-001	-1.171005E-003	-1.295152E-001	2.093659E-003
4.000000E+007	5.385383E-002	-3.273671E-005	1.098887E-001	-1.553764E-003	1.099638E-001	-1.560482E-003	-1.293481E-001	2.689515E-003
5.000000E+007	5.395027E-002	-1.744075E-004	1.098810E-001	-1.974223E-003	1.099660E-001	-1.968424E-003	-1.293071E-001	3.292562E-003
6.000000E+007	5.411352E-002	-3.506750E-004	1.098394E-001	-2.364800E-003	1.099580E-001	-2.368816E-003	-1.291771E-001	3.759166E-003
7.000000E+007	5.421680E-002	-5.426898E-004	1.098149E-001	-2.743098E-003	1.099195E-001	-2.745438E-003	-1.289943E-001	4.238673E-003
8.000000E+007	5.435347E-002	-7.285419E-004	1.098109E-001	-3.097251E-003	1.099041E-001	-3.120401E-003	-1.288300E-001	4.695371E-003
9.000000E+007	5.444631E-002	-9.098260E-004	1.097999E-001	-3.489510E-003	1.098833E-001	-3.495192E-003	-1.287222E-001	5.104455E-003
1.000000E+008	5.455675E-002	-1.085455E-003	1.097777E-001	-3.879390E-003	1.098479E-001	-3.869603E-003	-1.286680E-001	5.542171E-003
1.100000E+008	5.467092E-002	-1.279102E-003	1.097473E-001	-4.285529E-003	1.098328E-001	-4.249260E-003	-1.285730E-001	5.950721E-003
1.200000E+008	5.478911E-002	-1.514340E-003	1.096980E-001	-4.655592E-003	1.097895E-001	-4.650723E-003	-1.284641E-001	6.287573E-003
1.300000E+008	5.485941E-002	-1.711337E-003	1.096645E-001	-5.026155E-003	1.097635E-001	-5.045073E-003	-1.283637E-001	6.658044E-003
1.400000E+008	5.491525E-002	-1.873378E-003	1.096350E-001	-5.397934E-003	1.097310E-001	-5.439058E-003	-1.282405E-001	7.033885E-003
1.500000E+008	5.491239E-002	-2.039276E-003	1.095937E-001	-5.775040E-003	1.096726E-001	-5.779040E-003	-1.281468E-001	7.384839E-003
1.600000E+008	5.493518E-002	-2.176962E-003	1.095803E-001	-6.134757E-003	1.096203E-001	-6.131987E-003	-1.280903E-001	7.752887E-003
1.700000E+008	5.498739E-002	-2.357447E-003	1.095457E-001	-6.528838E-003	1.096444E-001	-6.509410E-003	-1.280424E-001	8.112531E-003
1.800000E+008	5.497949E-002	-2.522740E-003	1.094709E-001	-6.942378E-003	1.096101E-001	-6.940393E-003	-1.279458E-001	8.476644E-003
1.900000E+008	5.493682E-002	-2.733514E-003	1.093952E-001	-7.307736E-003	1.095418E-001	-7.310404E-003	-1.278907E-001	8.762395E-003
2.000000E+008	5.485754E-002	-2.953435E-003	1.093560E-001	-7.663223E-003	1.094714E-001	-7.669214E-003	-1.278308E-001	9.041732E-003
2.100000E+008	5.481057E-002	-3.213102E-003	1.093132E-001	-8.028535E-003	1.094266E-001	-8.028531E-003	-1.277482E-001	9.278469E-003
2.200000E+008	5.474902E-002	-3.472664E-003	1.092837E-001	-8.376137E-003	1.093791E-001	-8.390203E-003	-1.276412E-001	9.513808E-003
2.300000E+008	5.472074E-002	-3.724307E-003	1.092332E-001	-8.753812E-003	1.093222E-001	-8.756049E-003	-1.275156E-001	9.752689E-003
2.400000E+008	5.469721E-002	-3.970414E-003	1.091955E-001	-9.127065E-003	1.092714E-001	-9.123906E-003	-1.273588E-001	1.002396E-002
2.500000E+008	5.469290E-002	-4.211500E-003	1.091360E-001	-9.505287E-003	1.092192E-001	-9.486815E-003	-1.271687E-001	1.028695E-002
2.600000E+008	5.469953E-002	-4.462953E-003	1.090697E-001	-9.881516E-003	1.091658E-001	-9.862714E-003	-1.269665E-001	1.061464E-002
2.700000E+008	5.472503E-002	-4.692418E-003	1.089974E-001	-1.022406E-002	1.090983E-001	-1.022828E-002	-1.267328E-001	1.099162E-002
2.800000E+008	5.475668E-002	-4.895217E-003	1.089256E-001	-1.059072E-002	1.090302E-001	-1.057192E-002	-1.265268E-001	1.132333E-002
2.900000E+008	5.475121E-002	-5.054309E-003	1.088858E-001	-1.093249E-002	1.089632E-001	-1.092454E-002	-1.263927E-001	1.168058E-002
3.000000E+008	5.474060E-002	-5.193866E-003	1.088487E-001	-1.132122E-002	1.089200E-001	-1.128868E-002	-1.262537E-001	1.208722E-002
3.100000E+008	5.469281E-002	-5.360181E-003	1.087810E-001	-1.168402E-002	1.088746E-001	-1.167051E-002	-1.261319E-001	1.249215E-002
3.200000E+008	5.464551E-002	-5.469615E-003	1.087112E-001	-1.204510E-002	1.088016E-001	-1.203447E-002	-1.260529E-001	1.290033E-002
3.300000E+008	5.456703E-002	-5.598886E-003	1.086540E-001	-1.241216E-002	1.087484E-001	-1.242095E-002	-1.259611E-001	1.326681E-002
3.400000E+008	5.443464E-002	-5.749064E-003	1.085705E-001	-1.277047E-002	1.086440E-001	-1.280417E-002	-1.258400E-001	1.359680E-002
3.500000E+008	5.428745E-002	-5.917081E-003	1.085076E-001	-1.314624E-002	1.085529E-001	-1.312674E-002	-1.256959E-001	1.387664E-002
3.600000E+008	5.416730E-002	-6.079905E-003	1.084386E-001	-1.351404E-002	1.084661E-001	-1.347061E-002	-1.255448E-001	1.419305E-002
3.700000E+008	5.404340E-002	-6.261724E-003	1.083459E-001	-1.383634E-002	1.084060E-001	-1.379149E-002	-1.253375E-001	1.446700E-002
3.800000E+008	5.393884E-002	-6.480784E-003	1.082711E-001	-1.418959E-002	1.083648E-001	-1.414486E-002	-1.251649E-001	1.478270E-002
3.900000E+008	5.381743E-002	-6.711242E-003	1.081706E-001	-1.456336E-002	1.082902E-001	-1.453077E-002	-1.248923E-001	1.515349E-002
4.000000E+008	5.375672E-002	-6.957347E-003	1.080834E-001	-1.489862E-002	1.082064E-001	-1.488854E-002	-1.245684E-001	1.550661E-002
4.100000E+008	5.365514E-002	-7.176358E-003	1.080275E-001	-1.522172E-002	1.081201E-001	-1.524207E-002	-1.243060E-001	1.586271E-002
4.200000E+008	5.357972E-002	-7.405380E-003	1.079556E-001	-1.557736E-002	1.080552E-001	-1.558037E-002	-1.240997E-001	1.628378E-002
4.300000E+008	5.351126E-002	-7.584338E-003	1.079145E-001	-1.593518E-002	1.079879E-001	-1.593754E-002	-1.238942E-001	1.673000E-002
4.400000E+008	5.344426E-002	-7.746421E-003	1.078282E-001	-1.629493E-002	1.078972E-001	-1.627734E-002	-1.236955E-001	1.721737E-002
4.500000E+008	5.339192E-002	-7.940010E-003	1.077455E-001	-1.664243E-002	1.078326E-001	-1.664081E-002	-1.235147E-001	1.773181E-002
4.600000E+008	5.332960E-002	-8.123134E-003	1.076606E-001	-1.700537E-002	1.077443E-001	-1.700256E-002	-1.233347E-001	1.822863E-002
4.700000E+008	5.324398E-002	-8.283334E-003	1.075775E-001	-1.733660E-002	1.076377E-001	-1.736075E-002	-1.231816E-001	1.866956E-002
4.800000E+008	5.314910E-002	-8.404193E-003	1.074930E-001	-1.768789E-002	1.075647E-001	-1.768858E-002	-1.230295E-001	1.911135E-002
4.900000E+008	5.303106E-002	-8.551738E-003	1.073927E-001	-1.801835E-002	1.074610E-001	-1.802781E-002	-1.229096E-001	1.955047E-002
5.000000E+008	5.291810E-002	-8.684981E-003	1.073095E-001	-1.836282E-002	1.073756E-001	-1.836552E-002	-1.227448E-001	1.996877E-002
5.100000E+008	5.281724E-002	-8.828786E-003	1.072360E-001	-1.871605E-002	1.073123E-001	-1.870483E-002	-1.225906E-001	2.037843E-002
5.200000E+008	5.269376E-002	-9.015808E-003	1.071429E-001	-1.907203E-002	1.072349E-001	-1.906631E-002	-1.224011E-001	2.079532E-002
5.300000E+008	5.256916E-002	-9.191493E-003	1.070707E-001	-1.941031E-002	1.071388E-001	-1.941217E-002	-1.221720E-001	2.122035E-002
5.400000E+008	5.240861E-002	-9.410119E-003	1.069505E-001	-1.974926E-002	1.070565E-001	-1.975382E-002	-1.219364E-001	2.163126E-002
5.500000E+008	5.227997E-002	-9.592943E-003	1.068807E-001	-2.008971E-002	1.069397E-001	-2.010553E-002	-1.217262E-001	2.206380E-002
5.600000E+008	5.215878E-002	-9.815590E-003	1.067739E-001	-2.043321E-002	1.068298E-001	-2.043329E-002	-1.215241E-001	2.251726E-002
5.700000E+008	5.205810E-002	-1.003539E-002	1.066762E-001	-2.077198E-002	1.067396E-001	-2.075178E-002	-1.213643E-001	2.302897E-002
5.800000E+008	5.196515E-002	-1.024168E-002	1.065878E-001	-2.110639E-002	1.066594E-001	-2.111747E-002	-1.211811E-001	2.352239E-002
5.900000E+008	5.187847E-002	-1.048439E-002	1.064818E-001	-2.145353E-002	1.065764E-001	-2.146154E-002	-1.210199E-001	2.404809E-002
6.000000E+008	5.183803E-002	-1.068221E-002	1.063959E-001	-2.178569E-002	1.064748E-001	-2.180089E-002	-1.208239E-001	2.453065E-002
6.100000E+008	5.179296E-002	-1.087696E-002	1.062877E-001	-2.212549E-002	1.063658E-001	-2.213677E-002	-1.206556E-001	2.501531E-002
6.200000E+008	5.176934E-002	-1.103169E-002	1.061916E-001	-2.245014E-002	1.062591E-001	-2.247373E-002	-1.204871E-001	2.545524E-002
6.300000E+008	5.175073E-002	-1.116541E-002	1.060682E-001	-2.278309E-002	1.061578E-001	-2.280371E-002	-1.203165E-001	2.593103E-002
6.400000E+008	5.171094E-002	-1.129521E-002	1.059623E-001	-2.311343E-002	1.060589E-001	-2.313042E-002	-1.201231E-001	2.637920E-002
6.500000E+008	5.167094E-002	-1.140887E-002	1.058772E-001	-2.344722E-002	1.059677E-001	-2.346639E-002	-1.199519E-001	2.687222E-002
6.600000E+008	5.160461E-002	-1.155959E-002	1.057841E-001	-2.378238E-002	1.058482E-001	-2.377772E-002	-1.197609E-001	2.733744E-002
6.700000E+008	5.151105E-002	-1.164280E-002	1.056890E-001	-2.410165E-002	1.057369E-001	-2.413980E-002	-1.195876E-001	2.784639E-002
6.800000E+008	5.139831E-002	-1.174453E-002	1.055578E-001	-2.445208E-002	1.056364E-001	-2.446864E-002	-1.194083E-001	2.836522E-002
6.900000E+008	5.126901E-002	-1.184137E-002	1.054564E-001	-2.477568E-002	1.055263E-001	-2.478781E-002	-1.192177E-001	2.889489E-002
7.000000E+008	5.115237E-002	-1.196956E-002	1.053576E-001	-2.508981E-002	1.054302E-001	-2.511260E-002	-1.191075E-001	2.939598E-002
7.100000E+008	5.103135E-002	-1.208885E-002	1.052440E-001	-2.540854E-002	1.053280E-001	-2.543618E-002	-1.189904E-001	2.990283E-002
7.200000E+008	5.091969E-002	-1.222304E-002	1.051480E-001	-2.573710E-002	1.052146E-001	-2.576331E-002	-1.188342E-001	3.037763E-002
7.300000E+008	5.079493E-002	-1.238189E-002	1.050339E-001	-2.607472E-002	1.051178E-001	-2.609691E-002	-1.187456E-001	3.080939E-002
7.400000E+008	5.064391E-002	-1.251168E-002	1.049156E-001	-2.639767E-002	1.050018E-001	-2.642486E-002	-1.186292E-001	3.126677E-002
7.500000E+008	5.052914E-002	-1.267281E-002	1.048156E-001	-2.671389E-002	1.048929E-001	-2.675118E-002	-1.185248E-001	3.168148E-002
7.600000E+008	5.042690E-002	-1.283808E-002	1.046911E-001	-2.705356E-002	1.047817E-001	-2.707952E-002	-1.183737E-001	3.209521E-002
7.700000E+008	5.030496E-002	-1.300227E-002	1.045985E-001	-2.737515E-002	1.046760E-001	-2.740804E-002	-1.182309E-001	3.249326E-002
7.800000E+008	5.021193E-002	-1.316245E-002	1.044803E-001	-2.770006E-002	1.045771E-001	-2.772205E-002	-1.180603E-001	3.289492E-002
7.900000E+008	5.009521E-002	-1.337581E-002	1.043675E-001	-2.802084E-002	1.044460E-001	-2.805103E-002	-1.178876E-001	3.332309E-002
8.000000E+008	5.000762E-002	-1.356526E-002	1.042563E-001	-2.834516E-002	1.043202E-001	-2.838165E-002	-1.176736E-001	3.376603E-002
8.100000E+008	4.992168E-002	-1.374971E-002	1.041371E-001	-2.866223E-002	1.042059E-001	-2.868775E-002	-1.174248E-001	3.423840E-002
8.200000E+008	4.988528E-002	-1.390577E-002	1.040236E-001	-2.897958E-002	1.040944E-001	-2.901538E-002	-1.171921E-001	3.466693E-002
8.300000E+008	4.983073E-002	-1.408086E-002	1.038945E-001	-2.930003E-002	1.039843E-001	-2.933026E-002	-1.170015E-001	3.513796E-002
8.400000E+008	4.980562E-002	-1.422613E-002	1.037777E-001	-2.961875E-002	1.038472E-001	-2.965454E-002	-1.167694E-001	3.557622E-002
8.500000E+008	4.977491E-002	-1.435533E-002	1.036609E-001	-2.993317E-002	1.037401E-001	-2.999017E-002	-1.166321E-001	3.604730E-002
8.600000E+008	4.970274E-002	-1.446367E-002	1.035613E-001	-3.026957E-002	1.036214E-001	-3.029254E-002	-1.164746E-001	3.651768E-002
8.700000E+008	4.966323E-002	-1.455144E-002	1.034324E-001	-3.057326E-002	1.034925E-001	-3.061070E-002	-1.162702E-001	3.695924E-002
8.800000E+008	4.959043E-002	-1.464785E-002	1.033177E-001	-3.090823E-002	1.034061E-001	-3.093935E-002	-1.161290E-001	3.739273E-002
8.900000E+008	4.947537E-002	-1.472615E-002	1.031716E-001	-3.122423E-002	1.032621E-001	-3.125325E-002	-1.159804E-001	3.780343E-002
9.000000E+008	4.939262E-002	-1.483497E-002	1.030519E-001	-3.154315E-002	1.031444E-001	-3.156931E-002	-1.157830E-001	3.822456E-002
9.100000E+008	4.927371E-002	-1.495097E-002	1.029316E-001	-3.184866E-002	1.030125E-001	-3.187393E-002	-1.155626E-001	3.863655E-002
9.200000E+008	4.914305E-002	-1.507873E-002	1.027913E-001	-3.215509E-002	1.028977E-001	-3.219561E-002	-1.153057E-001	3.907313E-002
9.300000E+008	4.906681E-002	-1.521667E-002	1.026961E-001	-3.247157E-002	1.027706E-001	-3.252748E-002	-1.150205E-001	3.950010E-002
9.400000E+008	4.898901E-002	-1.535078E-002	1.025604E-001	-3.279158E-002	1.026446E-001	-3.281623E-002	-1.147036E-001	3.995433E-002
9.500000E+008	4.891667E-002	-1.550919E-002	1.024281E-001	-3.309640E-002	1.025143E-001	-3.314952E-002	-1.143822E-001	4.046249E-002
9.600000E+008	4.883460E-002	-1.564834E-002	1.023092E-001	-3.340654E-002	1.023986E-001	-3.344035E-002	-1.140584E-001	4.095402E-002
9.700000E+008	4.880233E-002	-1.574117E-002	1.021832E-001	-3.371960E-002	1.022647E-001	-3.377405E-002	-1.137298E-001	4.146195E-002
9.800000E+008	4.876012E-002	-1.583327E-002	1.020580E-001	-3.403128E-002	1.021455E-001	-3.407737E-002	-1.134414E-001	4.199505E-002
9.900000E+008	4.871715E-002	-1.591419E-002	1.019418E-001	-3.435972E-002	1.020178E-001	-3.440536E-002	-1.131854E-001	4.254426E-002
1.000000E+009	4.865116E-002	-1.599381E-002	1.018069E-001	-3.465868E-002	1.018676E-001	-3.471168E-002	-1.129794E-001	4.305703E-002
1.010000E+009	4.857218E-002	-1.603541E-002	1.016849E-001	-3.495934E-002	1.017539E-001	-3.502239E-002	-1.127388E-001	4.358511E-002
1.020000E+009	4.848433E-002	-1.611929E-002	1.015467E-001	-3.527708E-002	1.016112E-001	-3.533606E-002	-1.125432E-001	4.410379E-002
1.030000E+009	4.840211E-002	-1.616234E-002	1.014071E-001	-3.558717E-002	1.014808E-001	-3.563295E-002	-1.123237E-001	4.462352E-002
1.040000E+009	4.828541E-002	-1.622826E-002	1.012913E-001	-3.589759E-002	1.013509E-001	-3.594400E-002	-1.121155E-001	4.512244E-002
1.050000E+009	4.821227E-002	-1.632749E-002	1.011411E-001	-3.620998E-002	1.012196E-001	-3.623328E-002	-1.118529E-001	4.567054E-002
1.060000E+009	4.811551E-002	-1.641847E-002	1.010195E-001	-3.650554E-002	1.010895E-001	-3.654760E-002	-1.115952E-001	4.617552E-002
1.070000E+009	4.799813E-002	-1.650141E-002	1.008681E-001	-3.680394E-002	1.009566E-001	-3.684779E-002	-1.113292E-001	4.669430E-002
1.080000E+009	4.791396E-002	-1.660031E-002	1.007253E-001	-3.712997E-002	1.008387E-001	-3.716436E-002	-1.110434E-001	4.721347E-002
1.090000E+009	4.783730E-002	-1.668999E-002	1.005977E-001	-3.743554E-002	1.006869E-001	-3.748213E-002	-1.108038E-001	4.771537E-002
1.100000E+009	4.774989E-002	-1.677428E-002	1.004530E-001	-3.773940E-002	1.005508E-001	-3.777515E-002	-1.105805E-001	4.825191E-002
1.110000E+009	4.764969E-002	-1.685764E-002	1.003041E-001	-3.805950E-002	1.004064E-001	-3.808507E-002	-1.103315E-001	4.877510E-002
1.120000E+009	4.755879E-002	-1.694905E-002	1.001996E-001	-3.836373E-002	1.002643E-001	-3.840497E-002	-1.101506E-001	4.925194E-002
1.130000E+009	4.745598E-002	-1.701693E-002	1.000236E-001	-3.867255E-002	1.001345E-001	-3.869272E-002	-1.099195E-001	4.974481E-002
1.140000E+009	4.733391E-002	-1.709363E-002	9.989500E-002	-3.897676E-002	9.999679E-002	-3.900521E-002	-1.097003E-001	5.024699E-002
1.150000E+009	4.724937E-002	-1.717925E-002	9.976434E-002	-3.927388E-002	9.982423E-002	-3.931316E-002	-1.094540E-001	5.075738E-002
1.160000E+009	4.714291E-002	-1.726520E-002	9.960734E-002	-3.960173E-002	9.970933E-002	-3.963421E-002	-1.091878E-001	5.123358E-002
1.170000E+009	4.706609E-002	-1.734046E-002	9.947060E-002	-3.988754E-002	9.954434E-002	-3.991590E-002	-1.089338E-001	5.177557E-002
1.180000E+009	4.695336E-002	-1.741508E-002	9.931121E-002	-4.019714E-002	9.939898E-002	-4.023670E-002	-1.086427E-001	5.227650E-002
1.190000E+009	4.681929E-002	-1.751964E-002	9.918093E-002	-4.050993E-002	9.925096E-002	-4.053186E-002	-1.083599E-001	5.282404E-002
1.200000E+009	4.672730E-002	-1.759147E-002	9.902826E-002	-4.080417E-002	9.909033E-002	-4.082509E-002	-1.080633E-001	5.334833E-002
1.210000E+009	4.665880E-002	-1.771619E-002	9.887359E-002	-4.109820E-002	9.895943E-002	-4.114056E-002	-1.078081E-001	5.390074E-002
1.220000E+009	4.657864E-002	-1.781600E-002	9.872253E-002	-4.140468E-002	9.880822E-002	-4.144366E-002	-1.075699E-001	5.443513E-002
1.230000E+009	4.645880E-002	-1.793059E-002	9.856700E-002	-4.170183E-002	9.864269E-002	-4.174116E-002	-1.073233E-001	5.494747E-002
1.240000E+009	4.640714E-002	-1.804115E-002	9.841367E-002	-4.201983E-002	9.850954E-002	-4.203536E-002	-1.071227E-001	5.542192E-002
1.250000E+009	4.632389E-002	-1.817074E-002	9.826525E-002	-4.230222E-002	9.837605E-002	-4.233913E-002	-1.068913E-001	5.590458E-002
1.260000E+009	4.626238E-002	-1.827306E-002	9.811733E-002	-4.260644E-002	9.818093E-002	-4.265931E-002	-1.066349E-001	5.636368E-002
1.270000E+009	4.625916E-002	-1.837659E-002	9.797407E-002	-4.292076E-002	9.802667E-002	-4.293014E-002	-1.063497E-001	5.680473E-002
1.280000E+009	4.618374E-002	-1.846180E-002	9.782474E-002	-4.319767E-002	9.788713E-002	-4.324359E-002	-1.060882E-001	5.723480E-002
1.290000E+009	4.615197E-002	-1.851490E-002	9.764752E-002	-4.351796E-002	9.773948E-002	-4.354463E-002	-1.057123E-001	5.768425E-002
1.300000E+009	4.608543E-002	-1.853585E-002	9.748459E-002	-4.381008E-002	9.758080E-002	-4.385598E-002	-1.053719E-001	5.813634E-002
1.310000E+009	4.602621E-002	-1.861206E-002	9.732149E-002	-4.411135E-002	9.742454E-002	-4.414023E-002	-1.050315E-001	5.862383E-002
1.320000E+009	4.594614E-002	-1.865717E-002	9.715722E-002	-4.441397E-002	9.725126E-002	-4.444362E-002	-1.045998E-001	5.917201E-002
1.330000E+009	4.589166E-002	-1.867135E-002	9.699812E-002	-4.471264E-002	9.710335E-002	-4.475560E-002	-1.041786E-001	5.974413E-002
1.340000E+009	4.579415E-002	-1.872201E-002	9.685468E-002	-4.499708E-002	9.692784E-002	-4.503251E-002	-1.037862E-001	6.034465E-002
1.350000E+009	4.567242E-002	-1.875267E-002	9.667977E-002	-4.530025E-002	9.674124E-002	-4.535253E-002	-1.033999E-001	6.095479E-002
1.360000E+009	4.562071E-002	-1.880108E-002	9.651929E-002	-4.558283E-002	9.660109E-002	-4.562477E-002	-1.030290E-001	6.159683E-002
1.370000E+009	4.552352E-002	-1.883887E-002	9.635517E-002	-4.587899E-002	9.642283E-002	-4.591616E-002	-1.027136E-001	6.225242E-002
1.380000E+009	4.544428E-002	-1.891728E-002	9.617610E-002	-4.618207E-002	9.627981E-002	-4.622195E-002	-1.023884E-001	6.288432E-002
1.390000E+009	4.538197E-002	-1.897541E-002	9.600041E-002	-4.648595E-002	9.609230E-002	-4.651326E-002	-1.021186E-001	6.354031E-002
1.400000E+009	4.528274E-002	-1.902749E-002	9.582937E-002	-4.676230E-002	9.591807E-002	-4.679211E-002	-1.018168E-001	6.415519E-002
1.410000E+009	4.518645E-002	-1.907775E-002	9.566444E-002	-4.706030E-002	9.574538E-002	-4.709181E-002	-1.015412E-001	6.476841E-002
1.420000E+009	4.509645E-002	-1.909662E-002	9.547706E-002	-4.733189E-002	9.556715E-002	-4.737572E-002	-1.012413E-001	6.535276E-002
1.430000E+009	4.502791E-002	-1.913650E-002	9.529392E-002	-4.761733E-002	9.541298E-002	-4.768536E-002	-1.009664E-001	6.590425E-002
1.440000E+009	4.488885E-002	-1.917525E-002	9.514237E-002	-4.791552E-002	9.524348E-002	-4.793602E-002	-1.006355E-001	6.644647E-002
1.450000E+009	4.479453E-002	-1.922627E-002	9.495648E-002	-4.820502E-002	9.504450E-002	-4.823739E-002	-1.003005E-001	6.701837E-002
1.460000E+009	4.467778E-002	-1.926440E-002	9.478812E-002	-4.849906E-002	9.485580E-002	-4.853390E-002	-9.996918E-002	6.761103E-002
1.470000E+009	4.458395E-002	-1.934320E-002	9.461235E-002	-4.878353E-002	9.469374E-002	-4.880687E-002	-9.960202E-002	6.820606E-002
1.480000E+009	4.446403E-002	-1.936102E-002	9.441347E-002	-4.906438E-002	9.448572E-002	-4.909585E-002	-9.926196E-002	6.882262E-002
1.490000E+009	4.437001E-002	-1.942759E-002	9.422672E-002	-4.932086E-002	9.432302E-002	-4.936708E-002	-9.888069E-002	6.945897E-002
1.500000E+009	4.428302E-002	-1.948315E-002	9.405934E-002	-4.962439E-002	9.414148E-002	-4.966814E-002	-9.850535E-002	7.009880E-002
