! Device ID: PE43711P
! File Path: z:\PE43711P\CHAR_NOM_04282014\AMB\3p300\LS_ATT_15p75dB\PE43711P_AMB_3p300V_3p000V_0p000V_LS_ATT_15p75dB_S2P_SN_5_A0137A.s2p
! Serial: 5
! Lot: A0137A
! Temp: 25C
! VDD: 3.300
! VSS: 0.000
! Control_Hi: 3.000
! Control_Lo: 0.000
! Attenuation Step: 15.75dB
! Port 1: RF1
! Port 2: RF2
! ThroughPath:1-2
! IDD: 0.0001283691
! ISS: -1.843e-007
!

#  Hz  S   RI  R   50

1.000000E+007	6.390815E-002	7.197439E-005	1.422593E-001	-6.490651E-004	1.424401E-001	-6.965095E-004	-9.792721E-002	8.085875E-004
2.000000E+007	6.411770E-002	-6.129569E-005	1.422466E-001	-1.055226E-003	1.423371E-001	-1.081291E-003	-9.763669E-002	1.360076E-003
3.000000E+007	6.435733E-002	-2.530847E-004	1.422548E-001	-1.597319E-003	1.423453E-001	-1.608254E-003	-9.735588E-002	1.799342E-003
4.000000E+007	6.451114E-002	-4.683812E-004	1.422528E-001	-2.135197E-003	1.423381E-001	-2.161857E-003	-9.715615E-002	2.294143E-003
5.000000E+007	6.460043E-002	-6.926021E-004	1.422263E-001	-2.708667E-003	1.423497E-001	-2.702639E-003	-9.711532E-002	2.768340E-003
6.000000E+007	6.476468E-002	-9.850757E-004	1.422014E-001	-3.231203E-003	1.423321E-001	-3.242347E-003	-9.697997E-002	3.156472E-003
7.000000E+007	6.486376E-002	-1.283935E-003	1.421578E-001	-3.758074E-003	1.422820E-001	-3.766734E-003	-9.680424E-002	3.529394E-003
8.000000E+007	6.497185E-002	-1.565365E-003	1.421416E-001	-4.260338E-003	1.422654E-001	-4.281103E-003	-9.664897E-002	3.903776E-003
9.000000E+007	6.507624E-002	-1.853667E-003	1.421221E-001	-4.797027E-003	1.422271E-001	-4.799381E-003	-9.652544E-002	4.213992E-003
1.000000E+008	6.516607E-002	-2.123320E-003	1.421019E-001	-5.343287E-003	1.422071E-001	-5.331934E-003	-9.644600E-002	4.553170E-003
1.100000E+008	6.526384E-002	-2.427221E-003	1.420600E-001	-5.881133E-003	1.421652E-001	-5.861379E-003	-9.637317E-002	4.847181E-003
1.200000E+008	6.536131E-002	-2.766889E-003	1.419883E-001	-6.414550E-003	1.421201E-001	-6.412846E-003	-9.627285E-002	5.116821E-003
1.300000E+008	6.543172E-002	-3.061956E-003	1.419470E-001	-6.916416E-003	1.420740E-001	-6.931749E-003	-9.616297E-002	5.384746E-003
1.400000E+008	6.546646E-002	-3.336068E-003	1.419109E-001	-7.441209E-003	1.420140E-001	-7.463192E-003	-9.605190E-002	5.640556E-003
1.500000E+008	6.544513E-002	-3.593735E-003	1.418688E-001	-7.929836E-003	1.419490E-001	-7.968838E-003	-9.593482E-002	5.913827E-003
1.600000E+008	6.544686E-002	-3.831395E-003	1.418312E-001	-8.452934E-003	1.418908E-001	-8.449126E-003	-9.589997E-002	6.173001E-003
1.700000E+008	6.546591E-002	-4.095434E-003	1.417930E-001	-9.006011E-003	1.419035E-001	-8.987240E-003	-9.585057E-002	6.454625E-003
1.800000E+008	6.543552E-002	-4.377953E-003	1.416789E-001	-9.572004E-003	1.418435E-001	-9.557132E-003	-9.578492E-002	6.692743E-003
1.900000E+008	6.535560E-002	-4.694837E-003	1.415723E-001	-1.005683E-002	1.417615E-001	-1.006450E-002	-9.574199E-002	6.893575E-003
2.000000E+008	6.526394E-002	-5.006422E-003	1.415169E-001	-1.054930E-002	1.416862E-001	-1.056141E-002	-9.565259E-002	7.069120E-003
2.100000E+008	6.517833E-002	-5.385675E-003	1.414729E-001	-1.105585E-002	1.416080E-001	-1.105181E-002	-9.555889E-002	7.232158E-003
2.200000E+008	6.511220E-002	-5.718291E-003	1.414233E-001	-1.154389E-002	1.415390E-001	-1.156003E-002	-9.543908E-002	7.364733E-003
2.300000E+008	6.503828E-002	-6.065432E-003	1.413569E-001	-1.205255E-002	1.414709E-001	-1.204818E-002	-9.530678E-002	7.511016E-003
2.400000E+008	6.500482E-002	-6.412291E-003	1.412839E-001	-1.257819E-002	1.413820E-001	-1.256954E-002	-9.515179E-002	7.689613E-003
2.500000E+008	6.495191E-002	-6.754590E-003	1.412076E-001	-1.308996E-002	1.413190E-001	-1.308616E-002	-9.497910E-002	7.865299E-003
2.600000E+008	6.494080E-002	-7.079910E-003	1.411166E-001	-1.360489E-002	1.412343E-001	-1.359594E-002	-9.477285E-002	8.086777E-003
2.700000E+008	6.490923E-002	-7.397538E-003	1.410187E-001	-1.409639E-002	1.411529E-001	-1.410294E-002	-9.455596E-002	8.345084E-003
2.800000E+008	6.492369E-002	-7.703047E-003	1.409397E-001	-1.458566E-002	1.410749E-001	-1.458972E-002	-9.435592E-002	8.591512E-003
2.900000E+008	6.485647E-002	-7.950148E-003	1.408593E-001	-1.508042E-002	1.409686E-001	-1.507174E-002	-9.421952E-002	8.845298E-003
3.000000E+008	6.483058E-002	-8.182328E-003	1.407985E-001	-1.557995E-002	1.408957E-001	-1.556616E-002	-9.405472E-002	9.155177E-003
3.100000E+008	6.476395E-002	-8.422265E-003	1.407137E-001	-1.608853E-002	1.408218E-001	-1.608734E-002	-9.395421E-002	9.452657E-003
3.200000E+008	6.467699E-002	-8.624077E-003	1.406121E-001	-1.660610E-002	1.407361E-001	-1.658451E-002	-9.386028E-002	9.761177E-003
3.300000E+008	6.456913E-002	-8.846157E-003	1.405258E-001	-1.710843E-002	1.406560E-001	-1.712485E-002	-9.376738E-002	1.002132E-002
3.400000E+008	6.438918E-002	-9.086351E-003	1.404136E-001	-1.761269E-002	1.404974E-001	-1.765426E-002	-9.364713E-002	1.025436E-002
3.500000E+008	6.420604E-002	-9.342948E-003	1.403328E-001	-1.812220E-002	1.403689E-001	-1.810926E-002	-9.351401E-002	1.044228E-002
3.600000E+008	6.405525E-002	-9.579041E-003	1.402190E-001	-1.861569E-002	1.402725E-001	-1.856746E-002	-9.335260E-002	1.066144E-002
3.700000E+008	6.387646E-002	-9.860723E-003	1.401094E-001	-1.909248E-002	1.401767E-001	-1.902057E-002	-9.318049E-002	1.082386E-002
3.800000E+008	6.373179E-002	-1.013560E-002	1.399934E-001	-1.957556E-002	1.401210E-001	-1.951961E-002	-9.299408E-002	1.104222E-002
3.900000E+008	6.358360E-002	-1.047435E-002	1.398810E-001	-2.007685E-002	1.400115E-001	-2.002705E-002	-9.272169E-002	1.130598E-002
4.000000E+008	6.346229E-002	-1.078204E-002	1.397488E-001	-2.052848E-002	1.398947E-001	-2.054834E-002	-9.243039E-002	1.155120E-002
4.100000E+008	6.332709E-002	-1.109354E-002	1.396559E-001	-2.098286E-002	1.397736E-001	-2.102345E-002	-9.214805E-002	1.181264E-002
4.200000E+008	6.319860E-002	-1.140949E-002	1.395788E-001	-2.146692E-002	1.396651E-001	-2.147788E-002	-9.194024E-002	1.213596E-002
4.300000E+008	6.311443E-002	-1.166185E-002	1.394717E-001	-2.196041E-002	1.395629E-001	-2.197615E-002	-9.172563E-002	1.247563E-002
4.400000E+008	6.297920E-002	-1.190449E-002	1.393643E-001	-2.246223E-002	1.394597E-001	-2.245111E-002	-9.155236E-002	1.288115E-002
4.500000E+008	6.290442E-002	-1.216407E-002	1.392525E-001	-2.294577E-002	1.393557E-001	-2.294856E-002	-9.136839E-002	1.326143E-002
4.600000E+008	6.280395E-002	-1.241356E-002	1.391197E-001	-2.342360E-002	1.392287E-001	-2.345170E-002	-9.118519E-002	1.365300E-002
4.700000E+008	6.266064E-002	-1.265464E-002	1.389913E-001	-2.389469E-002	1.390856E-001	-2.392340E-002	-9.103492E-002	1.400158E-002
4.800000E+008	6.252555E-002	-1.285022E-002	1.388845E-001	-2.436398E-002	1.389776E-001	-2.437440E-002	-9.090937E-002	1.434875E-002
4.900000E+008	6.235219E-002	-1.307089E-002	1.387634E-001	-2.485051E-002	1.388398E-001	-2.485411E-002	-9.077630E-002	1.468608E-002
5.000000E+008	6.219994E-002	-1.328484E-002	1.386525E-001	-2.532605E-002	1.387263E-001	-2.531697E-002	-9.062725E-002	1.498964E-002
5.100000E+008	6.206505E-002	-1.350118E-002	1.385265E-001	-2.579568E-002	1.386234E-001	-2.578223E-002	-9.045280E-002	1.531189E-002
5.200000E+008	6.189392E-002	-1.376925E-002	1.384039E-001	-2.627579E-002	1.385077E-001	-2.627141E-002	-9.028036E-002	1.562478E-002
5.300000E+008	6.171723E-002	-1.401633E-002	1.382685E-001	-2.676196E-002	1.383888E-001	-2.676959E-002	-9.003368E-002	1.591319E-002
5.400000E+008	6.153223E-002	-1.432150E-002	1.381306E-001	-2.722565E-002	1.382509E-001	-2.725030E-002	-8.981566E-002	1.624083E-002
5.500000E+008	6.135877E-002	-1.457206E-002	1.380145E-001	-2.769432E-002	1.380955E-001	-2.771121E-002	-8.962802E-002	1.658512E-002
5.600000E+008	6.117913E-002	-1.485343E-002	1.378664E-001	-2.816813E-002	1.379578E-001	-2.819051E-002	-8.941537E-002	1.692642E-002
5.700000E+008	6.103246E-002	-1.513350E-002	1.377174E-001	-2.862402E-002	1.378293E-001	-2.862782E-002	-8.926108E-002	1.733310E-002
5.800000E+008	6.089788E-002	-1.540535E-002	1.376002E-001	-2.909962E-002	1.377035E-001	-2.910689E-002	-8.911241E-002	1.771706E-002
5.900000E+008	6.076971E-002	-1.571646E-002	1.374459E-001	-2.958288E-002	1.375745E-001	-2.958332E-002	-8.894558E-002	1.814283E-002
6.000000E+008	6.067708E-002	-1.599394E-002	1.373241E-001	-3.003071E-002	1.374297E-001	-3.006274E-002	-8.875740E-002	1.849738E-002
6.100000E+008	6.058614E-002	-1.625965E-002	1.371787E-001	-3.049468E-002	1.372672E-001	-3.052291E-002	-8.860847E-002	1.886968E-002
6.200000E+008	6.050676E-002	-1.647150E-002	1.370327E-001	-3.096064E-002	1.371125E-001	-3.097291E-002	-8.845359E-002	1.922798E-002
6.300000E+008	6.044526E-002	-1.668560E-002	1.368716E-001	-3.141152E-002	1.369899E-001	-3.144072E-002	-8.828030E-002	1.958023E-002
6.400000E+008	6.036290E-002	-1.687389E-002	1.367340E-001	-3.187825E-002	1.368323E-001	-3.189583E-002	-8.809526E-002	1.994561E-002
6.500000E+008	6.027182E-002	-1.705434E-002	1.365863E-001	-3.230783E-002	1.366968E-001	-3.233202E-002	-8.793649E-002	2.032049E-002
6.600000E+008	6.016411E-002	-1.724601E-002	1.364607E-001	-3.279021E-002	1.365577E-001	-3.281338E-002	-8.775586E-002	2.069125E-002
6.700000E+008	5.999814E-002	-1.739837E-002	1.363030E-001	-3.324077E-002	1.363794E-001	-3.327615E-002	-8.759479E-002	2.109382E-002
6.800000E+008	5.983922E-002	-1.758179E-002	1.361530E-001	-3.369574E-002	1.362465E-001	-3.373038E-002	-8.742829E-002	2.149611E-002
6.900000E+008	5.967456E-002	-1.773308E-002	1.359728E-001	-3.415620E-002	1.360782E-001	-3.417120E-002	-8.726664E-002	2.192919E-002
7.000000E+008	5.950561E-002	-1.790832E-002	1.358374E-001	-3.460997E-002	1.359339E-001	-3.462305E-002	-8.714724E-002	2.234066E-002
7.100000E+008	5.934322E-002	-1.811141E-002	1.356925E-001	-3.503455E-002	1.357778E-001	-3.507385E-002	-8.704197E-002	2.272332E-002
7.200000E+008	5.915452E-002	-1.829905E-002	1.355457E-001	-3.549864E-002	1.356323E-001	-3.552711E-002	-8.692706E-002	2.307843E-002
7.300000E+008	5.898621E-002	-1.853470E-002	1.353741E-001	-3.595007E-002	1.355104E-001	-3.599040E-002	-8.684444E-002	2.342409E-002
7.400000E+008	5.878883E-002	-1.871502E-002	1.351991E-001	-3.639035E-002	1.353195E-001	-3.642969E-002	-8.674291E-002	2.374974E-002
7.500000E+008	5.864664E-002	-1.892812E-002	1.350694E-001	-3.686389E-002	1.351723E-001	-3.688381E-002	-8.664223E-002	2.406657E-002
7.600000E+008	5.847709E-002	-1.915401E-002	1.348868E-001	-3.730925E-002	1.350088E-001	-3.732613E-002	-8.650609E-002	2.438961E-002
7.700000E+008	5.831918E-002	-1.940746E-002	1.347551E-001	-3.774023E-002	1.348551E-001	-3.777968E-002	-8.637753E-002	2.466935E-002
7.800000E+008	5.815525E-002	-1.960701E-002	1.345712E-001	-3.821015E-002	1.346935E-001	-3.823544E-002	-8.621508E-002	2.497013E-002
7.900000E+008	5.798937E-002	-1.985849E-002	1.344300E-001	-3.863830E-002	1.345300E-001	-3.868038E-002	-8.605731E-002	2.529004E-002
8.000000E+008	5.785452E-002	-2.011273E-002	1.342461E-001	-3.908506E-002	1.343552E-001	-3.911254E-002	-8.585733E-002	2.562248E-002
8.100000E+008	5.771411E-002	-2.035006E-002	1.340706E-001	-3.951811E-002	1.341790E-001	-3.956707E-002	-8.562676E-002	2.596632E-002
8.200000E+008	5.763242E-002	-2.058123E-002	1.339048E-001	-3.997913E-002	1.339989E-001	-4.000457E-002	-8.541866E-002	2.630282E-002
8.300000E+008	5.753205E-002	-2.080938E-002	1.337388E-001	-4.041328E-002	1.338509E-001	-4.044713E-002	-8.524254E-002	2.667008E-002
8.400000E+008	5.744067E-002	-2.101358E-002	1.335627E-001	-4.084200E-002	1.336844E-001	-4.087803E-002	-8.504333E-002	2.701238E-002
8.500000E+008	5.735753E-002	-2.118786E-002	1.334056E-001	-4.128375E-002	1.335012E-001	-4.132735E-002	-8.491790E-002	2.736194E-002
8.600000E+008	5.725829E-002	-2.135229E-002	1.332298E-001	-4.171244E-002	1.333256E-001	-4.176173E-002	-8.475697E-002	2.772566E-002
8.700000E+008	5.713505E-002	-2.148556E-002	1.330674E-001	-4.215031E-002	1.331400E-001	-4.219970E-002	-8.460686E-002	2.804996E-002
8.800000E+008	5.702118E-002	-2.163163E-002	1.328948E-001	-4.261447E-002	1.329904E-001	-4.263891E-002	-8.447874E-002	2.837944E-002
8.900000E+008	5.685987E-002	-2.177447E-002	1.327069E-001	-4.303923E-002	1.328119E-001	-4.309460E-002	-8.432243E-002	2.868402E-002
9.000000E+008	5.671772E-002	-2.193689E-002	1.325210E-001	-4.347822E-002	1.326530E-001	-4.351438E-002	-8.415443E-002	2.900782E-002
9.100000E+008	5.654620E-002	-2.209843E-002	1.323476E-001	-4.392229E-002	1.324584E-001	-4.395216E-002	-8.393786E-002	2.930139E-002
9.200000E+008	5.636068E-002	-2.227559E-002	1.321759E-001	-4.434469E-002	1.322875E-001	-4.438519E-002	-8.372207E-002	2.963144E-002
9.300000E+008	5.621955E-002	-2.247675E-002	1.320049E-001	-4.477259E-002	1.320865E-001	-4.482673E-002	-8.346864E-002	2.994124E-002
9.400000E+008	5.608126E-002	-2.266326E-002	1.317875E-001	-4.520500E-002	1.319083E-001	-4.524657E-002	-8.316544E-002	3.029286E-002
9.500000E+008	5.596857E-002	-2.288343E-002	1.316275E-001	-4.562849E-002	1.317353E-001	-4.569983E-002	-8.285638E-002	3.069448E-002
9.600000E+008	5.583773E-002	-2.302230E-002	1.314168E-001	-4.606955E-002	1.315283E-001	-4.611704E-002	-8.254807E-002	3.107820E-002
9.700000E+008	5.575029E-002	-2.320430E-002	1.312421E-001	-4.647232E-002	1.313460E-001	-4.654065E-002	-8.227602E-002	3.148699E-002
9.800000E+008	5.567328E-002	-2.334624E-002	1.310822E-001	-4.690556E-002	1.311772E-001	-4.697246E-002	-8.199279E-002	3.191282E-002
9.900000E+008	5.557084E-002	-2.348204E-002	1.308975E-001	-4.734703E-002	1.309914E-001	-4.742107E-002	-8.175089E-002	3.232179E-002
1.000000E+009	5.545080E-002	-2.358454E-002	1.307138E-001	-4.778918E-002	1.307930E-001	-4.782487E-002	-8.156803E-002	3.272956E-002
1.010000E+009	5.532844E-002	-2.369300E-002	1.305194E-001	-4.821121E-002	1.306034E-001	-4.826164E-002	-8.135286E-002	3.315855E-002
1.020000E+009	5.517103E-002	-2.380904E-002	1.303118E-001	-4.864253E-002	1.304133E-001	-4.867652E-002	-8.117095E-002	3.359375E-002
1.030000E+009	5.503988E-002	-2.391386E-002	1.301197E-001	-4.906488E-002	1.302272E-001	-4.912798E-002	-8.097552E-002	3.401505E-002
1.040000E+009	5.488073E-002	-2.403123E-002	1.299236E-001	-4.946418E-002	1.300241E-001	-4.952245E-002	-8.079219E-002	3.440157E-002
1.050000E+009	5.473071E-002	-2.417370E-002	1.297486E-001	-4.990875E-002	1.298408E-001	-4.995927E-002	-8.057973E-002	3.480154E-002
1.060000E+009	5.459400E-002	-2.429403E-002	1.295457E-001	-5.031798E-002	1.296497E-001	-5.037244E-002	-8.033165E-002	3.521854E-002
1.070000E+009	5.441617E-002	-2.444064E-002	1.293552E-001	-5.074687E-002	1.294606E-001	-5.079343E-002	-8.011000E-002	3.561888E-002
1.080000E+009	5.428902E-002	-2.458685E-002	1.291384E-001	-5.117593E-002	1.292597E-001	-5.121434E-002	-7.985577E-002	3.604359E-002
1.090000E+009	5.414234E-002	-2.473391E-002	1.289518E-001	-5.159477E-002	1.290598E-001	-5.162887E-002	-7.963581E-002	3.642857E-002
1.100000E+009	5.400782E-002	-2.484436E-002	1.287293E-001	-5.202937E-002	1.288662E-001	-5.206611E-002	-7.941890E-002	3.686253E-002
1.110000E+009	5.386127E-002	-2.496810E-002	1.285517E-001	-5.244133E-002	1.286636E-001	-5.247968E-002	-7.920092E-002	3.725921E-002
1.120000E+009	5.371149E-002	-2.510145E-002	1.283416E-001	-5.285825E-002	1.284589E-001	-5.289867E-002	-7.905202E-002	3.764175E-002
1.130000E+009	5.356357E-002	-2.522497E-002	1.281292E-001	-5.327838E-002	1.282451E-001	-5.333104E-002	-7.886729E-002	3.805445E-002
1.140000E+009	5.338524E-002	-2.533456E-002	1.279267E-001	-5.368901E-002	1.280487E-001	-5.374075E-002	-7.865340E-002	3.845006E-002
1.150000E+009	5.324796E-002	-2.546703E-002	1.277242E-001	-5.411574E-002	1.278266E-001	-5.415730E-002	-7.844101E-002	3.883812E-002
1.160000E+009	5.308145E-002	-2.558062E-002	1.275156E-001	-5.453001E-002	1.276252E-001	-5.458819E-002	-7.821668E-002	3.919657E-002
1.170000E+009	5.292029E-002	-2.572251E-002	1.273032E-001	-5.495427E-002	1.274144E-001	-5.498673E-002	-7.797925E-002	3.963567E-002
1.180000E+009	5.278975E-002	-2.585081E-002	1.270753E-001	-5.537316E-002	1.272112E-001	-5.541363E-002	-7.773066E-002	4.002879E-002
1.190000E+009	5.263484E-002	-2.595823E-002	1.268564E-001	-5.578802E-002	1.269590E-001	-5.582098E-002	-7.747633E-002	4.044447E-002
1.200000E+009	5.244577E-002	-2.611559E-002	1.266681E-001	-5.618289E-002	1.267406E-001	-5.621612E-002	-7.721154E-002	4.090653E-002
1.210000E+009	5.232658E-002	-2.625668E-002	1.264351E-001	-5.661147E-002	1.265315E-001	-5.666628E-002	-7.698480E-002	4.131334E-002
1.220000E+009	5.218305E-002	-2.643059E-002	1.262121E-001	-5.701798E-002	1.263202E-001	-5.706095E-002	-7.678618E-002	4.172646E-002
1.230000E+009	5.203089E-002	-2.657263E-002	1.259938E-001	-5.742584E-002	1.261042E-001	-5.745888E-002	-7.657566E-002	4.214307E-002
1.240000E+009	5.192321E-002	-2.673270E-002	1.257856E-001	-5.784585E-002	1.258812E-001	-5.788024E-002	-7.638189E-002	4.252828E-002
1.250000E+009	5.179823E-002	-2.688671E-002	1.255402E-001	-5.825227E-002	1.256713E-001	-5.827925E-002	-7.619494E-002	4.291506E-002
1.260000E+009	5.164648E-002	-2.702779E-002	1.253204E-001	-5.865077E-002	1.254321E-001	-5.871079E-002	-7.597044E-002	4.325101E-002
1.270000E+009	5.158051E-002	-2.715380E-002	1.251095E-001	-5.906796E-002	1.251962E-001	-5.910220E-002	-7.572592E-002	4.357978E-002
1.280000E+009	5.145017E-002	-2.727067E-002	1.248937E-001	-5.948378E-002	1.249965E-001	-5.950465E-002	-7.547878E-002	4.391619E-002
1.290000E+009	5.135393E-002	-2.736829E-002	1.246422E-001	-5.989546E-002	1.247607E-001	-5.993256E-002	-7.518214E-002	4.422132E-002
1.300000E+009	5.124526E-002	-2.746400E-002	1.244131E-001	-6.027709E-002	1.245267E-001	-6.034182E-002	-7.487441E-002	4.459483E-002
1.310000E+009	5.111608E-002	-2.757878E-002	1.241749E-001	-6.070182E-002	1.242935E-001	-6.075551E-002	-7.452908E-002	4.494773E-002
1.320000E+009	5.099667E-002	-2.763237E-002	1.239366E-001	-6.110614E-002	1.240490E-001	-6.115430E-002	-7.416031E-002	4.539029E-002
1.330000E+009	5.087405E-002	-2.771060E-002	1.237026E-001	-6.152090E-002	1.238132E-001	-6.157890E-002	-7.377682E-002	4.586097E-002
1.340000E+009	5.071419E-002	-2.777901E-002	1.234854E-001	-6.192126E-002	1.235771E-001	-6.196214E-002	-7.340776E-002	4.636293E-002
1.350000E+009	5.056282E-002	-2.786948E-002	1.232454E-001	-6.232189E-002	1.233386E-001	-6.236741E-002	-7.306942E-002	4.687072E-002
1.360000E+009	5.043500E-002	-2.795290E-002	1.229777E-001	-6.271004E-002	1.230940E-001	-6.278393E-002	-7.274326E-002	4.743049E-002
1.370000E+009	5.029957E-002	-2.801386E-002	1.227336E-001	-6.312040E-002	1.228698E-001	-6.315355E-002	-7.246323E-002	4.793646E-002
1.380000E+009	5.016086E-002	-2.811616E-002	1.225204E-001	-6.352209E-002	1.226036E-001	-6.356849E-002	-7.218589E-002	4.847869E-002
1.390000E+009	5.001345E-002	-2.820839E-002	1.222386E-001	-6.392628E-002	1.223645E-001	-6.396135E-002	-7.192996E-002	4.903036E-002
1.400000E+009	4.988301E-002	-2.832413E-002	1.219897E-001	-6.431434E-002	1.221140E-001	-6.434473E-002	-7.168451E-002	4.950315E-002
1.410000E+009	4.971875E-002	-2.838484E-002	1.217657E-001	-6.470252E-002	1.218428E-001	-6.474678E-002	-7.144881E-002	5.001365E-002
1.420000E+009	4.957220E-002	-2.845120E-002	1.214961E-001	-6.510035E-002	1.216220E-001	-6.513553E-002	-7.120565E-002	5.048835E-002
1.430000E+009	4.944521E-002	-2.851983E-002	1.212527E-001	-6.548427E-002	1.213746E-001	-6.553204E-002	-7.091965E-002	5.093968E-002
1.440000E+009	4.925588E-002	-2.861538E-002	1.210100E-001	-6.587133E-002	1.211046E-001	-6.591461E-002	-7.067643E-002	5.138266E-002
1.450000E+009	4.909792E-002	-2.868717E-002	1.207344E-001	-6.627008E-002	1.208593E-001	-6.631695E-002	-7.035264E-002	5.185605E-002
1.460000E+009	4.893951E-002	-2.876548E-002	1.204931E-001	-6.665932E-002	1.205959E-001	-6.671569E-002	-7.006516E-002	5.232217E-002
1.470000E+009	4.876863E-002	-2.885260E-002	1.202225E-001	-6.704556E-002	1.203347E-001	-6.709855E-002	-6.975047E-002	5.282002E-002
1.480000E+009	4.860057E-002	-2.891304E-002	1.199459E-001	-6.742178E-002	1.200785E-001	-6.747339E-002	-6.944901E-002	5.335123E-002
1.490000E+009	4.846256E-002	-2.900849E-002	1.196910E-001	-6.780758E-002	1.198020E-001	-6.785359E-002	-6.911288E-002	5.388909E-002
1.500000E+009	4.830096E-002	-2.910447E-002	1.194338E-001	-6.819157E-002	1.195414E-001	-6.822584E-002	-6.877748E-002	5.441109E-002
