! Device ID: PE43711P
! File Path: z:\PE43711P\CHAR_NOM_04282014\AMB\3p300\LS_ATT_22p00dB\PE43711P_AMB_3p300V_3p000V_0p000V_LS_ATT_22p00dB_S2P_SN_5_A0137A.s2p
! Serial: 5
! Lot: A0137A
! Temp: 25C
! VDD: 3.300
! VSS: 0.000
! Control_Hi: 3.000
! Control_Lo: 0.000
! Attenuation Step: 22.00dB
! Port 1: RF1
! Port 2: RF2
! ThroughPath:1-2
! IDD: 0.0001274133
! ISS: -1.843e-007
!

#  Hz  S   RI  R   50

1.000000E+007	4.244089E-002	3.098441E-004	6.908650E-002	-2.971270E-004	6.915363E-002	-2.976077E-004	-1.224330E-001	9.840067E-004
2.000000E+007	4.268008E-002	3.592351E-004	6.908960E-002	-4.452581E-004	6.911797E-002	-4.607175E-004	-1.221304E-001	1.552036E-003
3.000000E+007	4.294160E-002	3.644569E-004	6.909832E-002	-6.775668E-004	6.913431E-002	-6.843118E-004	-1.218318E-001	2.080056E-003
4.000000E+007	4.309942E-002	3.543933E-004	6.909023E-002	-9.044177E-004	6.912789E-002	-9.249386E-004	-1.216623E-001	2.659506E-003
5.000000E+007	4.321239E-002	3.227253E-004	6.909710E-002	-1.160784E-003	6.912858E-002	-1.156283E-003	-1.216425E-001	3.275643E-003
6.000000E+007	4.335637E-002	2.462229E-004	6.906305E-002	-1.376532E-003	6.911883E-002	-1.372090E-003	-1.214970E-001	3.741543E-003
7.000000E+007	4.349269E-002	1.720822E-004	6.904602E-002	-1.604343E-003	6.910282E-002	-1.607016E-003	-1.213229E-001	4.214911E-003
8.000000E+007	4.360971E-002	9.413176E-005	6.904861E-002	-1.822831E-003	6.908881E-002	-1.810474E-003	-1.211649E-001	4.677756E-003
9.000000E+007	4.371582E-002	4.923542E-006	6.903182E-002	-2.044841E-003	6.906511E-002	-2.042871E-003	-1.210580E-001	5.065711E-003
1.000000E+008	4.384729E-002	-7.978813E-005	6.902576E-002	-2.278507E-003	6.906290E-002	-2.263685E-003	-1.210001E-001	5.501355E-003
1.100000E+008	4.396325E-002	-1.882053E-004	6.900886E-002	-2.511349E-003	6.905658E-002	-2.492376E-003	-1.209088E-001	5.895703E-003
1.200000E+008	4.409497E-002	-3.210299E-004	6.896448E-002	-2.733467E-003	6.903837E-002	-2.722843E-003	-1.208130E-001	6.246672E-003
1.300000E+008	4.419632E-002	-4.106667E-004	6.895621E-002	-2.950827E-003	6.901532E-002	-2.946176E-003	-1.207021E-001	6.609868E-003
1.400000E+008	4.427360E-002	-4.810836E-004	6.892936E-002	-3.175188E-003	6.898088E-002	-3.168911E-003	-1.205909E-001	6.985916E-003
1.500000E+008	4.429472E-002	-5.432457E-004	6.892245E-002	-3.378635E-003	6.895628E-002	-3.383949E-003	-1.205090E-001	7.327559E-003
1.600000E+008	4.434755E-002	-5.836378E-004	6.891424E-002	-3.592707E-003	6.894108E-002	-3.595096E-003	-1.204352E-001	7.693848E-003
1.700000E+008	4.442980E-002	-6.672597E-004	6.891011E-002	-3.831415E-003	6.895004E-002	-3.809530E-003	-1.203827E-001	8.053864E-003
1.800000E+008	4.444750E-002	-7.422728E-004	6.884672E-002	-4.069678E-003	6.892697E-002	-4.056361E-003	-1.202819E-001	8.425298E-003
1.900000E+008	4.441141E-002	-8.676772E-004	6.880768E-002	-4.287237E-003	6.889485E-002	-4.280646E-003	-1.202371E-001	8.719278E-003
2.000000E+008	4.436263E-002	-9.899728E-004	6.879648E-002	-4.496920E-003	6.885466E-002	-4.496378E-003	-1.201827E-001	8.995470E-003
2.100000E+008	4.431390E-002	-1.158303E-003	6.876040E-002	-4.721471E-003	6.883502E-002	-4.698554E-003	-1.201074E-001	9.238705E-003
2.200000E+008	4.429419E-002	-1.322289E-003	6.873128E-002	-4.913794E-003	6.879941E-002	-4.918532E-003	-1.200114E-001	9.456041E-003
2.300000E+008	4.429395E-002	-1.479373E-003	6.872277E-002	-5.127801E-003	6.877299E-002	-5.114373E-003	-1.198723E-001	9.690810E-003
2.400000E+008	4.430555E-002	-1.646408E-003	6.869152E-002	-5.340087E-003	6.873783E-002	-5.335685E-003	-1.197288E-001	9.965680E-003
2.500000E+008	4.431913E-002	-1.793932E-003	6.865249E-002	-5.569116E-003	6.870385E-002	-5.558231E-003	-1.195346E-001	1.023724E-002
2.600000E+008	4.436107E-002	-1.945713E-003	6.862053E-002	-5.789413E-003	6.867159E-002	-5.779575E-003	-1.193333E-001	1.056818E-002
2.700000E+008	4.441792E-002	-2.091767E-003	6.858179E-002	-6.001299E-003	6.865246E-002	-6.008715E-003	-1.191131E-001	1.095397E-002
2.800000E+008	4.450162E-002	-2.187167E-003	6.854865E-002	-6.207910E-003	6.861070E-002	-6.203387E-003	-1.188977E-001	1.127700E-002
2.900000E+008	4.451034E-002	-2.266775E-003	6.851878E-002	-6.423630E-003	6.856426E-002	-6.392814E-003	-1.187695E-001	1.164919E-002
3.000000E+008	4.452553E-002	-2.337225E-003	6.849414E-002	-6.644501E-003	6.853892E-002	-6.615846E-003	-1.186278E-001	1.206147E-002
3.100000E+008	4.451484E-002	-2.394155E-003	6.845998E-002	-6.851908E-003	6.851424E-002	-6.838570E-003	-1.185161E-001	1.247129E-002
3.200000E+008	4.448849E-002	-2.439627E-003	6.841543E-002	-7.063180E-003	6.848204E-002	-7.061275E-003	-1.184258E-001	1.286566E-002
3.300000E+008	4.444182E-002	-2.475401E-003	6.839073E-002	-7.288362E-003	6.843102E-002	-7.286265E-003	-1.183316E-001	1.322824E-002
3.400000E+008	4.433844E-002	-2.539574E-003	6.832884E-002	-7.491383E-003	6.837580E-002	-7.516944E-003	-1.182133E-001	1.355124E-002
3.500000E+008	4.425028E-002	-2.655900E-003	6.829300E-002	-7.718068E-003	6.831998E-002	-7.706747E-003	-1.180797E-001	1.384623E-002
3.600000E+008	4.416495E-002	-2.729153E-003	6.827000E-002	-7.931712E-003	6.828618E-002	-7.908215E-003	-1.179175E-001	1.416937E-002
3.700000E+008	4.407259E-002	-2.845566E-003	6.820550E-002	-8.137240E-003	6.824631E-002	-8.094864E-003	-1.177363E-001	1.445201E-002
3.800000E+008	4.401162E-002	-2.949497E-003	6.817947E-002	-8.340406E-003	6.821666E-002	-8.302554E-003	-1.175534E-001	1.475595E-002
3.900000E+008	4.392580E-002	-3.111261E-003	6.811731E-002	-8.562246E-003	6.818617E-002	-8.525645E-003	-1.172667E-001	1.513335E-002
4.000000E+008	4.389313E-002	-3.277453E-003	6.807355E-002	-8.737849E-003	6.814245E-002	-8.728814E-003	-1.169653E-001	1.547963E-002
4.100000E+008	4.382510E-002	-3.422259E-003	6.802581E-002	-8.939317E-003	6.808248E-002	-8.942292E-003	-1.166899E-001	1.584910E-002
4.200000E+008	4.378784E-002	-3.563563E-003	6.799155E-002	-9.135330E-003	6.804824E-002	-9.142306E-003	-1.164759E-001	1.627174E-002
4.300000E+008	4.376349E-002	-3.673546E-003	6.795519E-002	-9.353318E-003	6.799706E-002	-9.349999E-003	-1.162688E-001	1.673200E-002
4.400000E+008	4.373379E-002	-3.779436E-003	6.791655E-002	-9.569153E-003	6.796979E-002	-9.563468E-003	-1.160796E-001	1.721811E-002
4.500000E+008	4.371631E-002	-3.891479E-003	6.786936E-002	-9.769858E-003	6.791755E-002	-9.773722E-003	-1.159068E-001	1.770886E-002
4.600000E+008	4.370077E-002	-3.992863E-003	6.782398E-002	-9.981001E-003	6.786521E-002	-9.973841E-003	-1.157253E-001	1.822381E-002
4.700000E+008	4.364890E-002	-4.086739E-003	6.777043E-002	-1.017841E-002	6.781831E-002	-1.017793E-002	-1.155645E-001	1.866093E-002
4.800000E+008	4.359293E-002	-4.147207E-003	6.772092E-002	-1.038372E-002	6.777017E-002	-1.037237E-002	-1.154265E-001	1.909782E-002
4.900000E+008	4.352852E-002	-4.219668E-003	6.767390E-002	-1.057653E-002	6.772110E-002	-1.059236E-002	-1.152715E-001	1.954777E-002
5.000000E+008	4.346996E-002	-4.274094E-003	6.763236E-002	-1.079258E-002	6.767881E-002	-1.078021E-002	-1.151211E-001	1.997101E-002
5.100000E+008	4.341004E-002	-4.351669E-003	6.758211E-002	-1.099309E-002	6.763528E-002	-1.097988E-002	-1.149540E-001	2.038447E-002
5.200000E+008	4.331347E-002	-4.455124E-003	6.753082E-002	-1.119732E-002	6.757505E-002	-1.118630E-002	-1.147645E-001	2.081381E-002
5.300000E+008	4.323077E-002	-4.563656E-003	6.748965E-002	-1.138831E-002	6.754227E-002	-1.139883E-002	-1.145187E-001	2.123231E-002
5.400000E+008	4.310964E-002	-4.713842E-003	6.741232E-002	-1.160180E-002	6.748391E-002	-1.160183E-002	-1.143052E-001	2.164779E-002
5.500000E+008	4.302317E-002	-4.846526E-003	6.737626E-002	-1.180091E-002	6.742624E-002	-1.179715E-002	-1.141087E-001	2.209338E-002
5.600000E+008	4.293979E-002	-4.984595E-003	6.732218E-002	-1.199810E-002	6.735406E-002	-1.200151E-002	-1.138802E-001	2.254601E-002
5.700000E+008	4.289057E-002	-5.135165E-003	6.726134E-002	-1.218639E-002	6.730844E-002	-1.219569E-002	-1.137186E-001	2.304947E-002
5.800000E+008	4.284107E-002	-5.281476E-003	6.721330E-002	-1.239555E-002	6.726240E-002	-1.239226E-002	-1.135439E-001	2.354139E-002
5.900000E+008	4.281009E-002	-5.464507E-003	6.715757E-002	-1.259017E-002	6.721304E-002	-1.260727E-002	-1.133612E-001	2.407923E-002
6.000000E+008	4.281217E-002	-5.611838E-003	6.710844E-002	-1.280796E-002	6.715063E-002	-1.280798E-002	-1.131647E-001	2.455114E-002
6.100000E+008	4.282010E-002	-5.719742E-003	6.703668E-002	-1.299488E-002	6.708524E-002	-1.299306E-002	-1.129913E-001	2.502946E-002
6.200000E+008	4.282888E-002	-5.813072E-003	6.698894E-002	-1.318908E-002	6.702690E-002	-1.320036E-002	-1.128234E-001	2.549522E-002
6.300000E+008	4.285373E-002	-5.887018E-003	6.691938E-002	-1.338228E-002	6.698474E-002	-1.339202E-002	-1.126522E-001	2.596813E-002
6.400000E+008	4.286451E-002	-5.966039E-003	6.686652E-002	-1.359140E-002	6.690413E-002	-1.359921E-002	-1.124563E-001	2.643961E-002
6.500000E+008	4.287006E-002	-6.005532E-003	6.680098E-002	-1.376566E-002	6.684929E-002	-1.377384E-002	-1.122693E-001	2.691886E-002
6.600000E+008	4.284746E-002	-6.078474E-003	6.676482E-002	-1.398058E-002	6.679656E-002	-1.397765E-002	-1.120768E-001	2.740633E-002
6.700000E+008	4.276699E-002	-6.127583E-003	6.669473E-002	-1.417296E-002	6.673548E-002	-1.417066E-002	-1.119085E-001	2.790101E-002
6.800000E+008	4.268967E-002	-6.166133E-003	6.664587E-002	-1.435823E-002	6.666653E-002	-1.437142E-002	-1.117269E-001	2.842064E-002
6.900000E+008	4.262483E-002	-6.209849E-003	6.656842E-002	-1.455863E-002	6.661352E-002	-1.456691E-002	-1.115420E-001	2.894096E-002
7.000000E+008	4.257295E-002	-6.260587E-003	6.651600E-002	-1.476088E-002	6.655910E-002	-1.474471E-002	-1.114012E-001	2.945429E-002
7.100000E+008	4.250706E-002	-6.318680E-003	6.645930E-002	-1.494109E-002	6.652017E-002	-1.494299E-002	-1.112661E-001	2.994234E-002
7.200000E+008	4.241447E-002	-6.401161E-003	6.639842E-002	-1.512203E-002	6.643388E-002	-1.513793E-002	-1.111375E-001	3.043204E-002
7.300000E+008	4.235165E-002	-6.496707E-003	6.632870E-002	-1.532573E-002	6.639925E-002	-1.532753E-002	-1.110068E-001	3.089207E-002
7.400000E+008	4.223840E-002	-6.578207E-003	6.627133E-002	-1.551825E-002	6.632822E-002	-1.552711E-002	-1.109100E-001	3.134723E-002
7.500000E+008	4.217551E-002	-6.660787E-003	6.621811E-002	-1.571097E-002	6.626067E-002	-1.572208E-002	-1.108071E-001	3.176755E-002
7.600000E+008	4.210426E-002	-6.768530E-003	6.614930E-002	-1.590779E-002	6.619311E-002	-1.592183E-002	-1.106456E-001	3.217516E-002
7.700000E+008	4.202941E-002	-6.886490E-003	6.609840E-002	-1.607617E-002	6.612235E-002	-1.610108E-002	-1.104887E-001	3.256412E-002
7.800000E+008	4.198416E-002	-7.003074E-003	6.601841E-002	-1.629178E-002	6.608987E-002	-1.629523E-002	-1.103078E-001	3.297919E-002
7.900000E+008	4.191687E-002	-7.144254E-003	6.595573E-002	-1.647607E-002	6.601594E-002	-1.650082E-002	-1.101454E-001	3.339412E-002
8.000000E+008	4.187636E-002	-7.267894E-003	6.588640E-002	-1.667727E-002	6.593675E-002	-1.669986E-002	-1.099229E-001	3.383905E-002
8.100000E+008	4.185087E-002	-7.416189E-003	6.582195E-002	-1.685212E-002	6.586443E-002	-1.687194E-002	-1.096404E-001	3.429523E-002
8.200000E+008	4.185765E-002	-7.522986E-003	6.575248E-002	-1.704752E-002	6.579686E-002	-1.705849E-002	-1.094126E-001	3.473616E-002
8.300000E+008	4.184876E-002	-7.643914E-003	6.568416E-002	-1.721791E-002	6.573339E-002	-1.723911E-002	-1.092042E-001	3.520772E-002
8.400000E+008	4.187054E-002	-7.727090E-003	6.560983E-002	-1.740803E-002	6.567179E-002	-1.742321E-002	-1.089835E-001	3.566951E-002
8.500000E+008	4.189311E-002	-7.800063E-003	6.556537E-002	-1.759434E-002	6.560775E-002	-1.763051E-002	-1.088097E-001	3.613369E-002
8.600000E+008	4.186505E-002	-7.860963E-003	6.549816E-002	-1.778457E-002	6.552835E-002	-1.780412E-002	-1.086458E-001	3.659982E-002
8.700000E+008	4.186537E-002	-7.872643E-003	6.543426E-002	-1.798181E-002	6.545857E-002	-1.800670E-002	-1.084863E-001	3.705020E-002
8.800000E+008	4.183823E-002	-7.920807E-003	6.535779E-002	-1.818249E-002	6.540666E-002	-1.816728E-002	-1.083141E-001	3.749782E-002
8.900000E+008	4.178171E-002	-7.958898E-003	6.529054E-002	-1.834916E-002	6.533670E-002	-1.836991E-002	-1.081411E-001	3.789333E-002
9.000000E+008	4.172884E-002	-8.016170E-003	6.520850E-002	-1.854944E-002	6.527690E-002	-1.855130E-002	-1.079511E-001	3.832680E-002
9.100000E+008	4.165193E-002	-8.062228E-003	6.514181E-002	-1.872747E-002	6.520521E-002	-1.873635E-002	-1.077036E-001	3.873047E-002
9.200000E+008	4.158819E-002	-8.159475E-003	6.506073E-002	-1.892046E-002	6.511768E-002	-1.894168E-002	-1.074452E-001	3.915384E-002
9.300000E+008	4.156792E-002	-8.232312E-003	6.500540E-002	-1.909315E-002	6.504664E-002	-1.911563E-002	-1.071605E-001	3.959006E-002
9.400000E+008	4.152999E-002	-8.344094E-003	6.492002E-002	-1.927308E-002	6.497812E-002	-1.930670E-002	-1.068169E-001	4.004468E-002
9.500000E+008	4.152744E-002	-8.438054E-003	6.486825E-002	-1.947449E-002	6.490627E-002	-1.949145E-002	-1.064928E-001	4.055985E-002
9.600000E+008	4.148796E-002	-8.493626E-003	6.477873E-002	-1.964925E-002	6.484790E-002	-1.967870E-002	-1.061496E-001	4.105312E-002
9.700000E+008	4.149011E-002	-8.562347E-003	6.470002E-002	-1.983396E-002	6.476808E-002	-1.985189E-002	-1.058425E-001	4.156746E-002
9.800000E+008	4.150093E-002	-8.598455E-003	6.465722E-002	-2.000571E-002	6.469323E-002	-2.003287E-002	-1.055606E-001	4.211149E-002
9.900000E+008	4.150659E-002	-8.645401E-003	6.457967E-002	-2.019572E-002	6.464269E-002	-2.022422E-002	-1.052659E-001	4.263416E-002
1.000000E+009	4.148514E-002	-8.673725E-003	6.450475E-002	-2.037937E-002	6.455497E-002	-2.040911E-002	-1.050594E-001	4.314724E-002
1.010000E+009	4.145445E-002	-8.675087E-003	6.444935E-002	-2.058415E-002	6.447759E-002	-2.059367E-002	-1.048088E-001	4.369019E-002
1.020000E+009	4.141685E-002	-8.692044E-003	6.437082E-002	-2.074531E-002	6.440653E-002	-2.077941E-002	-1.046031E-001	4.420831E-002
1.030000E+009	4.137914E-002	-8.720481E-003	6.428250E-002	-2.094149E-002	6.433628E-002	-2.096211E-002	-1.043826E-001	4.470139E-002
1.040000E+009	4.131291E-002	-8.729118E-003	6.420553E-002	-2.112634E-002	6.426536E-002	-2.113659E-002	-1.041509E-001	4.522235E-002
1.050000E+009	4.128583E-002	-8.775048E-003	6.414095E-002	-2.130428E-002	6.418755E-002	-2.131914E-002	-1.038833E-001	4.576272E-002
1.060000E+009	4.125438E-002	-8.833254E-003	6.405171E-002	-2.147591E-002	6.411998E-002	-2.150042E-002	-1.036136E-001	4.626009E-002
1.070000E+009	4.118071E-002	-8.851987E-003	6.398314E-002	-2.166656E-002	6.402868E-002	-2.167600E-002	-1.033285E-001	4.677106E-002
1.080000E+009	4.115335E-002	-8.898647E-003	6.391207E-002	-2.183502E-002	6.396596E-002	-2.185804E-002	-1.030498E-001	4.731565E-002
1.090000E+009	4.110037E-002	-8.947880E-003	6.383526E-002	-2.200579E-002	6.389849E-002	-2.203895E-002	-1.027928E-001	4.782302E-002
1.100000E+009	4.105823E-002	-8.998693E-003	6.375597E-002	-2.219606E-002	6.381435E-002	-2.221913E-002	-1.025392E-001	4.834457E-002
1.110000E+009	4.101947E-002	-9.014437E-003	6.368157E-002	-2.238211E-002	6.373437E-002	-2.239692E-002	-1.022996E-001	4.884808E-002
1.120000E+009	4.096285E-002	-9.060470E-003	6.360111E-002	-2.256894E-002	6.364985E-002	-2.259024E-002	-1.021074E-001	4.935495E-002
1.130000E+009	4.091561E-002	-9.095724E-003	6.354034E-002	-2.274573E-002	6.357296E-002	-2.276442E-002	-1.018728E-001	4.983214E-002
1.140000E+009	4.086211E-002	-9.142450E-003	6.344429E-002	-2.293446E-002	6.349373E-002	-2.296373E-002	-1.016224E-001	5.035020E-002
1.150000E+009	4.081533E-002	-9.168119E-003	6.335793E-002	-2.310787E-002	6.340467E-002	-2.312906E-002	-1.013657E-001	5.083714E-002
1.160000E+009	4.076785E-002	-9.223776E-003	6.329637E-002	-2.329806E-002	6.334597E-002	-2.331619E-002	-1.011077E-001	5.132074E-002
1.170000E+009	4.071531E-002	-9.262100E-003	6.320291E-002	-2.348537E-002	6.326222E-002	-2.348026E-002	-1.008319E-001	5.185025E-002
1.180000E+009	4.069504E-002	-9.290288E-003	6.312396E-002	-2.366037E-002	6.317659E-002	-2.366941E-002	-1.005185E-001	5.236106E-002
1.190000E+009	4.060559E-002	-9.322077E-003	6.304934E-002	-2.384574E-002	6.308875E-002	-2.386127E-002	-1.002189E-001	5.291235E-002
1.200000E+009	4.056623E-002	-9.372165E-003	6.295290E-002	-2.401206E-002	6.299474E-002	-2.402537E-002	-9.992103E-002	5.343958E-002
1.210000E+009	4.053091E-002	-9.445411E-003	6.285968E-002	-2.418900E-002	6.290516E-002	-2.421394E-002	-9.965347E-002	5.399301E-002
1.220000E+009	4.048455E-002	-9.531951E-003	6.280041E-002	-2.437532E-002	6.284044E-002	-2.438757E-002	-9.941171E-002	5.450857E-002
1.230000E+009	4.042984E-002	-9.580682E-003	6.268806E-002	-2.455671E-002	6.275124E-002	-2.456099E-002	-9.916155E-002	5.499626E-002
1.240000E+009	4.040373E-002	-9.668908E-003	6.262720E-002	-2.472761E-002	6.266297E-002	-2.473200E-002	-9.891941E-002	5.549448E-002
1.250000E+009	4.040509E-002	-9.743002E-003	6.253788E-002	-2.492124E-002	6.258775E-002	-2.491238E-002	-9.870193E-002	5.598103E-002
1.260000E+009	4.037987E-002	-9.802121E-003	6.245426E-002	-2.508037E-002	6.249419E-002	-2.510439E-002	-9.842907E-002	5.642761E-002
1.270000E+009	4.042611E-002	-9.863419E-003	6.235824E-002	-2.525718E-002	6.240404E-002	-2.527903E-002	-9.811623E-002	5.686055E-002
1.280000E+009	4.041631E-002	-9.907828E-003	6.228317E-002	-2.543606E-002	6.232559E-002	-2.544450E-002	-9.784550E-002	5.728392E-002
1.290000E+009	4.039996E-002	-9.925724E-003	6.218751E-002	-2.564226E-002	6.223412E-002	-2.562704E-002	-9.749463E-002	5.772300E-002
1.300000E+009	4.042396E-002	-9.908807E-003	6.207909E-002	-2.579655E-002	6.214442E-002	-2.581340E-002	-9.711351E-002	5.818154E-002
1.310000E+009	4.041599E-002	-9.932430E-003	6.200442E-002	-2.598713E-002	6.207744E-002	-2.599391E-002	-9.673926E-002	5.867469E-002
1.320000E+009	4.039087E-002	-9.933583E-003	6.189771E-002	-2.614751E-002	6.196925E-002	-2.616677E-002	-9.631646E-002	5.920813E-002
1.330000E+009	4.035191E-002	-9.933710E-003	6.182966E-002	-2.633714E-002	6.187504E-002	-2.635404E-002	-9.588523E-002	5.978709E-002
1.340000E+009	4.030843E-002	-9.935990E-003	6.172133E-002	-2.650150E-002	6.176635E-002	-2.652581E-002	-9.549954E-002	6.036178E-002
1.350000E+009	4.027051E-002	-9.938051E-003	6.164074E-002	-2.669081E-002	6.168582E-002	-2.670100E-002	-9.510422E-002	6.098283E-002
1.360000E+009	4.025241E-002	-9.951474E-003	6.154662E-002	-2.685734E-002	6.160407E-002	-2.687908E-002	-9.470959E-002	6.162999E-002
1.370000E+009	4.019893E-002	-9.962749E-003	6.145417E-002	-2.702807E-002	6.150507E-002	-2.703661E-002	-9.436900E-002	6.225591E-002
1.380000E+009	4.016402E-002	-9.996371E-003	6.134752E-002	-2.720342E-002	6.140643E-002	-2.723441E-002	-9.404398E-002	6.285956E-002
1.390000E+009	4.016412E-002	-1.000347E-002	6.125025E-002	-2.739510E-002	6.132093E-002	-2.741824E-002	-9.373878E-002	6.352984E-002
1.400000E+009	4.011528E-002	-1.003132E-002	6.116369E-002	-2.754517E-002	6.120987E-002	-2.757856E-002	-9.342663E-002	6.414255E-002
1.410000E+009	4.007560E-002	-1.002734E-002	6.106780E-002	-2.773835E-002	6.111609E-002	-2.773957E-002	-9.315106E-002	6.474644E-002
1.420000E+009	4.002777E-002	-1.001745E-002	6.096095E-002	-2.791216E-002	6.102259E-002	-2.792428E-002	-9.283212E-002	6.531987E-002
1.430000E+009	4.001965E-002	-1.002633E-002	6.085625E-002	-2.808139E-002	6.092346E-002	-2.808842E-002	-9.251949E-002	6.587857E-002
1.440000E+009	3.995362E-002	-1.003758E-002	6.077053E-002	-2.823453E-002	6.083265E-002	-2.824519E-002	-9.221283E-002	6.641007E-002
1.450000E+009	3.990159E-002	-1.003177E-002	6.065654E-002	-2.842109E-002	6.072739E-002	-2.844162E-002	-9.185569E-002	6.697549E-002
1.460000E+009	3.982787E-002	-1.003711E-002	6.056320E-002	-2.859047E-002	6.062286E-002	-2.859341E-002	-9.150330E-002	6.754029E-002
1.470000E+009	3.977383E-002	-1.007740E-002	6.045745E-002	-2.875439E-002	6.051344E-002	-2.878646E-002	-9.112303E-002	6.811542E-002
1.480000E+009	3.972359E-002	-1.008607E-002	6.034346E-002	-2.893000E-002	6.040304E-002	-2.895597E-002	-9.076557E-002	6.874571E-002
1.490000E+009	3.969864E-002	-1.011950E-002	6.024557E-002	-2.909479E-002	6.031660E-002	-2.912040E-002	-9.037211E-002	6.937813E-002
1.500000E+009	3.964195E-002	-1.013431E-002	6.014566E-002	-2.927070E-002	6.021061E-002	-2.928191E-002	-8.996857E-002	7.000049E-002
