! Device ID: PE43711P
! File Path: z:\PE43711P\CHAR_NOM_04282014\AMB\3p300\LS_ATT_19p75dB\PE43711P_AMB_3p300V_3p000V_0p000V_LS_ATT_19p75dB_S2P_SN_5_A0137A.s2p
! Serial: 5
! Lot: A0137A
! Temp: 25C
! VDD: 3.300
! VSS: 0.000
! Control_Hi: 3.000
! Control_Lo: 0.000
! Attenuation Step: 19.75dB
! Port 1: RF1
! Port 2: RF2
! ThroughPath:1-2
! IDD: 0.0001275059
! ISS: -1.071e-007
!

#  Hz  S   RI  R   50

1.000000E+007	5.325941E-002	1.699020E-004	8.969637E-002	-3.996474E-004	8.979429E-002	-4.215377E-004	-1.277316E-001	9.840086E-004
2.000000E+007	5.345651E-002	1.410296E-004	8.969768E-002	-6.082498E-004	8.973298E-002	-6.397868E-004	-1.274020E-001	1.567433E-003
3.000000E+007	5.370858E-002	5.587699E-005	8.968542E-002	-9.232015E-004	8.974515E-002	-9.321204E-004	-1.271097E-001	2.080515E-003
4.000000E+007	5.386752E-002	-4.768239E-005	8.967596E-002	-1.258594E-003	8.973279E-002	-1.262046E-003	-1.269319E-001	2.661440E-003
5.000000E+007	5.395991E-002	-1.700885E-004	8.967342E-002	-1.591263E-003	8.974171E-002	-1.577034E-003	-1.268937E-001	3.255931E-003
6.000000E+007	5.412406E-002	-3.494604E-004	8.965084E-002	-1.896311E-003	8.973583E-002	-1.887288E-003	-1.267424E-001	3.719088E-003
7.000000E+007	5.424021E-002	-5.437875E-004	8.962930E-002	-2.204619E-003	8.970834E-002	-2.198083E-003	-1.265591E-001	4.177450E-003
8.000000E+007	5.435170E-002	-7.246671E-004	8.962741E-002	-2.496155E-003	8.969194E-002	-2.497956E-003	-1.263932E-001	4.640797E-003
9.000000E+007	5.444705E-002	-9.028900E-004	8.961833E-002	-2.807011E-003	8.967674E-002	-2.807917E-003	-1.262680E-001	5.029869E-003
1.000000E+008	5.456659E-002	-1.090243E-003	8.959761E-002	-3.129428E-003	8.965995E-002	-3.109076E-003	-1.262008E-001	5.450682E-003
1.100000E+008	5.466682E-002	-1.279751E-003	8.957716E-002	-3.431797E-003	8.963852E-002	-3.429338E-003	-1.261017E-001	5.839654E-003
1.200000E+008	5.478218E-002	-1.515938E-003	8.953423E-002	-3.748463E-003	8.960558E-002	-3.740092E-003	-1.260096E-001	6.180665E-003
1.300000E+008	5.486807E-002	-1.717387E-003	8.950990E-002	-4.052473E-003	8.958345E-002	-4.053077E-003	-1.258721E-001	6.540925E-003
1.400000E+008	5.491523E-002	-1.883098E-003	8.948132E-002	-4.354513E-003	8.954800E-002	-4.347120E-003	-1.257760E-001	6.889684E-003
1.500000E+008	5.492221E-002	-2.051006E-003	8.945205E-002	-4.644385E-003	8.950283E-002	-4.644202E-003	-1.256553E-001	7.234873E-003
1.600000E+008	5.494607E-002	-2.167337E-003	8.944450E-002	-4.931902E-003	8.947243E-002	-4.929150E-003	-1.255931E-001	7.584360E-003
1.700000E+008	5.499863E-002	-2.336330E-003	8.942167E-002	-5.262994E-003	8.949261E-002	-5.241842E-003	-1.255240E-001	7.945713E-003
1.800000E+008	5.499856E-002	-2.517785E-003	8.934145E-002	-5.589234E-003	8.946234E-002	-5.568504E-003	-1.254136E-001	8.282060E-003
1.900000E+008	5.493529E-002	-2.727296E-003	8.929881E-002	-5.870954E-003	8.941211E-002	-5.876992E-003	-1.253526E-001	8.569377E-003
2.000000E+008	5.487811E-002	-2.953860E-003	8.926824E-002	-6.170525E-003	8.935102E-002	-6.160594E-003	-1.252781E-001	8.823380E-003
2.100000E+008	5.480809E-002	-3.221989E-003	8.922843E-002	-6.449682E-003	8.931254E-002	-6.446439E-003	-1.251741E-001	9.056810E-003
2.200000E+008	5.475308E-002	-3.464526E-003	8.919660E-002	-6.740934E-003	8.928212E-002	-6.744765E-003	-1.250678E-001	9.260980E-003
2.300000E+008	5.471321E-002	-3.712215E-003	8.916151E-002	-7.043375E-003	8.923473E-002	-7.043173E-003	-1.249304E-001	9.492902E-003
2.400000E+008	5.470091E-002	-3.966441E-003	8.912664E-002	-7.338067E-003	8.919972E-002	-7.341075E-003	-1.247573E-001	9.753477E-003
2.500000E+008	5.469406E-002	-4.205406E-003	8.909299E-002	-7.645012E-003	8.915917E-002	-7.623212E-003	-1.245672E-001	9.998389E-003
2.600000E+008	5.472443E-002	-4.439747E-003	8.901920E-002	-7.951204E-003	8.910843E-002	-7.930127E-003	-1.243426E-001	1.031551E-002
2.700000E+008	5.473921E-002	-4.672153E-003	8.896761E-002	-8.219965E-003	8.905220E-002	-8.220617E-003	-1.241031E-001	1.063743E-002
2.800000E+008	5.476410E-002	-4.872662E-003	8.892108E-002	-8.520870E-003	8.899608E-002	-8.502115E-003	-1.238731E-001	1.096752E-002
2.900000E+008	5.475433E-002	-5.051522E-003	8.889318E-002	-8.794082E-003	8.895646E-002	-8.787846E-003	-1.237299E-001	1.131407E-002
3.000000E+008	5.474266E-002	-5.184846E-003	8.884917E-002	-9.097890E-003	8.891679E-002	-9.082297E-003	-1.235714E-001	1.170246E-002
3.100000E+008	5.470793E-002	-5.325120E-003	8.879610E-002	-9.393913E-003	8.887492E-002	-9.377674E-003	-1.234355E-001	1.208654E-002
3.200000E+008	5.465716E-002	-5.453487E-003	8.874673E-002	-9.689802E-003	8.881714E-002	-9.686148E-003	-1.233267E-001	1.245996E-002
3.300000E+008	5.455546E-002	-5.571741E-003	8.870753E-002	-9.997946E-003	8.878587E-002	-9.993202E-003	-1.232331E-001	1.280771E-002
3.400000E+008	5.444098E-002	-5.732266E-003	8.864384E-002	-1.027668E-002	8.869280E-002	-1.029963E-002	-1.230915E-001	1.313228E-002
3.500000E+008	5.429498E-002	-5.897277E-003	8.859428E-002	-1.057036E-002	8.860993E-002	-1.058377E-002	-1.229430E-001	1.338402E-002
3.600000E+008	5.418353E-002	-6.056745E-003	8.853034E-002	-1.086418E-002	8.854528E-002	-1.082912E-002	-1.227711E-001	1.366294E-002
3.700000E+008	5.404743E-002	-6.242154E-003	8.845251E-002	-1.114488E-002	8.850058E-002	-1.108748E-002	-1.225715E-001	1.391453E-002
3.800000E+008	5.394133E-002	-6.457352E-003	8.839171E-002	-1.142533E-002	8.846775E-002	-1.138204E-002	-1.223568E-001	1.420794E-002
3.900000E+008	5.383001E-002	-6.684026E-003	8.833680E-002	-1.171751E-002	8.841225E-002	-1.168912E-002	-1.220633E-001	1.456774E-002
4.000000E+008	5.376592E-002	-6.930451E-003	8.825714E-002	-1.198541E-002	8.835632E-002	-1.197314E-002	-1.217459E-001	1.487417E-002
4.100000E+008	5.366198E-002	-7.152458E-003	8.818698E-002	-1.223882E-002	8.827615E-002	-1.226244E-002	-1.214591E-001	1.521362E-002
4.200000E+008	5.358115E-002	-7.371785E-003	8.815533E-002	-1.253399E-002	8.821932E-002	-1.252603E-002	-1.212317E-001	1.559741E-002
4.300000E+008	5.352597E-002	-7.551023E-003	8.809538E-002	-1.281894E-002	8.816525E-002	-1.281245E-002	-1.210068E-001	1.603204E-002
4.400000E+008	5.344905E-002	-7.736818E-003	8.802608E-002	-1.310285E-002	8.811082E-002	-1.310122E-002	-1.208118E-001	1.649648E-002
4.500000E+008	5.340392E-002	-7.914197E-003	8.798233E-002	-1.339117E-002	8.804652E-002	-1.338421E-002	-1.206006E-001	1.696214E-002
4.600000E+008	5.334796E-002	-8.089151E-003	8.790154E-002	-1.368735E-002	8.797530E-002	-1.368138E-002	-1.204156E-001	1.743269E-002
4.700000E+008	5.326440E-002	-8.257787E-003	8.783867E-002	-1.396410E-002	8.791005E-002	-1.396009E-002	-1.202505E-001	1.785062E-002
4.800000E+008	5.315826E-002	-8.375174E-003	8.777781E-002	-1.421352E-002	8.782165E-002	-1.422984E-002	-1.200858E-001	1.826339E-002
4.900000E+008	5.304382E-002	-8.525824E-003	8.769821E-002	-1.449770E-002	8.775662E-002	-1.450284E-002	-1.199448E-001	1.867406E-002
5.000000E+008	5.293703E-002	-8.662226E-003	8.762149E-002	-1.479180E-002	8.768745E-002	-1.477290E-002	-1.197666E-001	1.904788E-002
5.100000E+008	5.283346E-002	-8.803536E-003	8.757092E-002	-1.506188E-002	8.764809E-002	-1.504292E-002	-1.195754E-001	1.942754E-002
5.200000E+008	5.271452E-002	-8.973543E-003	8.749249E-002	-1.533891E-002	8.757385E-002	-1.533907E-002	-1.194169E-001	1.981793E-002
5.300000E+008	5.257487E-002	-9.166290E-003	8.740916E-002	-1.561296E-002	8.750619E-002	-1.561386E-002	-1.191494E-001	2.020618E-002
5.400000E+008	5.243605E-002	-9.387029E-003	8.735590E-002	-1.590232E-002	8.742508E-002	-1.589198E-002	-1.189098E-001	2.058096E-002
5.500000E+008	5.230101E-002	-9.564313E-003	8.727978E-002	-1.616538E-002	8.732822E-002	-1.617535E-002	-1.186932E-001	2.100924E-002
5.600000E+008	5.216260E-002	-9.786683E-003	8.719703E-002	-1.644379E-002	8.725115E-002	-1.644912E-002	-1.184661E-001	2.142027E-002
5.700000E+008	5.207337E-002	-1.000385E-002	8.711718E-002	-1.671396E-002	8.718817E-002	-1.670648E-002	-1.182951E-001	2.187811E-002
5.800000E+008	5.199281E-002	-1.020663E-002	8.705365E-002	-1.698444E-002	8.711668E-002	-1.697819E-002	-1.181000E-001	2.234946E-002
5.900000E+008	5.189696E-002	-1.045559E-002	8.697424E-002	-1.725364E-002	8.704756E-002	-1.727288E-002	-1.179367E-001	2.283732E-002
6.000000E+008	5.185401E-002	-1.064504E-002	8.689737E-002	-1.753841E-002	8.696207E-002	-1.755267E-002	-1.177182E-001	2.327586E-002
6.100000E+008	5.181726E-002	-1.084061E-002	8.681896E-002	-1.779788E-002	8.685868E-002	-1.781994E-002	-1.175481E-001	2.372787E-002
6.200000E+008	5.179525E-002	-1.099363E-002	8.674633E-002	-1.807948E-002	8.679479E-002	-1.808122E-002	-1.173622E-001	2.415061E-002
6.300000E+008	5.177140E-002	-1.114067E-002	8.664773E-002	-1.835103E-002	8.670542E-002	-1.836350E-002	-1.171759E-001	2.457376E-002
6.400000E+008	5.172745E-002	-1.126869E-002	8.655218E-002	-1.860513E-002	8.662181E-002	-1.860669E-002	-1.169840E-001	2.499471E-002
6.500000E+008	5.169997E-002	-1.138616E-002	8.648283E-002	-1.886821E-002	8.653771E-002	-1.889044E-002	-1.167903E-001	2.544198E-002
6.600000E+008	5.162940E-002	-1.152743E-002	8.642250E-002	-1.914774E-002	8.646774E-002	-1.916590E-002	-1.166033E-001	2.588324E-002
6.700000E+008	5.151784E-002	-1.161326E-002	8.632981E-002	-1.941067E-002	8.638517E-002	-1.942950E-002	-1.164158E-001	2.633321E-002
6.800000E+008	5.138869E-002	-1.173105E-002	8.623543E-002	-1.968717E-002	8.628735E-002	-1.970680E-002	-1.162168E-001	2.681017E-002
6.900000E+008	5.129175E-002	-1.180718E-002	8.614638E-002	-1.994738E-002	8.618974E-002	-1.994648E-002	-1.160368E-001	2.731180E-002
7.000000E+008	5.118044E-002	-1.192572E-002	8.606003E-002	-2.021458E-002	8.611198E-002	-2.021362E-002	-1.159148E-001	2.777397E-002
7.100000E+008	5.108172E-002	-1.207403E-002	8.598818E-002	-2.047785E-002	8.605199E-002	-2.049259E-002	-1.157703E-001	2.822982E-002
7.200000E+008	5.094255E-002	-1.219105E-002	8.589265E-002	-2.072404E-002	8.596846E-002	-2.074781E-002	-1.156371E-001	2.867750E-002
7.300000E+008	5.082083E-002	-1.233807E-002	8.582008E-002	-2.099863E-002	8.588402E-002	-2.101248E-002	-1.155162E-001	2.909300E-002
7.400000E+008	5.068589E-002	-1.248273E-002	8.573804E-002	-2.126046E-002	8.580425E-002	-2.127851E-002	-1.154024E-001	2.948644E-002
7.500000E+008	5.057764E-002	-1.263323E-002	8.564607E-002	-2.152482E-002	8.571060E-002	-2.153810E-002	-1.152796E-001	2.987227E-002
7.600000E+008	5.045375E-002	-1.280788E-002	8.555060E-002	-2.178840E-002	8.562349E-002	-2.180601E-002	-1.151552E-001	3.025279E-002
7.700000E+008	5.033908E-002	-1.297710E-002	8.545231E-002	-2.204727E-002	8.553561E-002	-2.205572E-002	-1.149731E-001	3.060627E-002
7.800000E+008	5.022510E-002	-1.312702E-002	8.537223E-002	-2.229875E-002	8.545176E-002	-2.232738E-002	-1.147864E-001	3.095903E-002
7.900000E+008	5.012525E-002	-1.333965E-002	8.529257E-002	-2.258256E-002	8.537143E-002	-2.258713E-002	-1.146117E-001	3.135343E-002
8.000000E+008	5.002199E-002	-1.352704E-002	8.518600E-002	-2.283927E-002	8.524612E-002	-2.285566E-002	-1.144005E-001	3.175277E-002
8.100000E+008	4.995723E-002	-1.371690E-002	8.508904E-002	-2.309074E-002	8.515539E-002	-2.311683E-002	-1.141567E-001	3.216694E-002
8.200000E+008	4.991930E-002	-1.387275E-002	8.500117E-002	-2.335483E-002	8.505206E-002	-2.335558E-002	-1.139026E-001	3.255954E-002
8.300000E+008	4.988262E-002	-1.404869E-002	8.491981E-002	-2.360055E-002	8.496303E-002	-2.361626E-002	-1.136941E-001	3.299924E-002
8.400000E+008	4.983698E-002	-1.418750E-002	8.481654E-002	-2.385867E-002	8.488061E-002	-2.387963E-002	-1.135054E-001	3.339627E-002
8.500000E+008	4.981280E-002	-1.432596E-002	8.472239E-002	-2.412057E-002	8.477104E-002	-2.415250E-002	-1.133427E-001	3.383288E-002
8.600000E+008	4.973556E-002	-1.442249E-002	8.461922E-002	-2.436382E-002	8.467284E-002	-2.440639E-002	-1.131664E-001	3.423061E-002
8.700000E+008	4.969375E-002	-1.452460E-002	8.452651E-002	-2.463080E-002	8.457860E-002	-2.465225E-002	-1.130037E-001	3.465082E-002
8.800000E+008	4.961847E-002	-1.458997E-002	8.443966E-002	-2.489075E-002	8.450623E-002	-2.491323E-002	-1.128291E-001	3.504414E-002
8.900000E+008	4.952901E-002	-1.468379E-002	8.433123E-002	-2.515387E-002	8.439849E-002	-2.517300E-002	-1.126673E-001	3.539790E-002
9.000000E+008	4.942896E-002	-1.481222E-002	8.422412E-002	-2.540618E-002	8.430875E-002	-2.542739E-002	-1.124824E-001	3.579771E-002
9.100000E+008	4.931437E-002	-1.489895E-002	8.412819E-002	-2.566196E-002	8.420110E-002	-2.569371E-002	-1.122571E-001	3.615128E-002
9.200000E+008	4.918438E-002	-1.503029E-002	8.403408E-002	-2.591967E-002	8.408141E-002	-2.593649E-002	-1.119863E-001	3.652048E-002
9.300000E+008	4.909885E-002	-1.517880E-002	8.393286E-002	-2.615018E-002	8.398284E-002	-2.620531E-002	-1.117140E-001	3.690864E-002
9.400000E+008	4.903576E-002	-1.531403E-002	8.383078E-002	-2.641518E-002	8.390043E-002	-2.644768E-002	-1.113743E-001	3.732830E-002
9.500000E+008	4.896830E-002	-1.548184E-002	8.373123E-002	-2.666570E-002	8.379521E-002	-2.669572E-002	-1.110688E-001	3.779971E-002
9.600000E+008	4.890981E-002	-1.559520E-002	8.361500E-002	-2.692258E-002	8.369573E-002	-2.694737E-002	-1.107368E-001	3.823350E-002
9.700000E+008	4.886594E-002	-1.569392E-002	8.351544E-002	-2.717282E-002	8.359496E-002	-2.721195E-002	-1.104317E-001	3.870696E-002
9.800000E+008	4.881691E-002	-1.578270E-002	8.341607E-002	-2.741418E-002	8.350397E-002	-2.745395E-002	-1.101431E-001	3.919179E-002
9.900000E+008	4.876520E-002	-1.588167E-002	8.332685E-002	-2.767006E-002	8.339596E-002	-2.770545E-002	-1.098857E-001	3.969627E-002
1.000000E+009	4.870940E-002	-1.594421E-002	8.323264E-002	-2.793069E-002	8.328390E-002	-2.797167E-002	-1.096820E-001	4.016688E-002
1.010000E+009	4.862533E-002	-1.599970E-002	8.312298E-002	-2.818151E-002	8.318565E-002	-2.820712E-002	-1.094431E-001	4.066339E-002
1.020000E+009	4.853999E-002	-1.607807E-002	8.301843E-002	-2.843133E-002	8.309059E-002	-2.845637E-002	-1.092537E-001	4.112708E-002
1.030000E+009	4.846115E-002	-1.613206E-002	8.291179E-002	-2.868145E-002	8.297172E-002	-2.870251E-002	-1.090363E-001	4.159990E-002
1.040000E+009	4.834064E-002	-1.619351E-002	8.280573E-002	-2.892905E-002	8.287296E-002	-2.893972E-002	-1.088253E-001	4.206324E-002
1.050000E+009	4.825968E-002	-1.628188E-002	8.270350E-002	-2.916718E-002	8.275983E-002	-2.920280E-002	-1.085859E-001	4.254827E-002
1.060000E+009	4.819405E-002	-1.638754E-002	8.259705E-002	-2.943277E-002	8.265402E-002	-2.944884E-002	-1.083289E-001	4.301484E-002
1.070000E+009	4.807271E-002	-1.645897E-002	8.248293E-002	-2.966837E-002	8.253864E-002	-2.968596E-002	-1.080797E-001	4.347535E-002
1.080000E+009	4.798349E-002	-1.657067E-002	8.238055E-002	-2.991228E-002	8.244288E-002	-2.993410E-002	-1.077866E-001	4.395734E-002
1.090000E+009	4.790523E-002	-1.665500E-002	8.225258E-002	-3.017214E-002	8.234583E-002	-3.018678E-002	-1.075509E-001	4.442814E-002
1.100000E+009	4.779517E-002	-1.672827E-002	8.215358E-002	-3.041350E-002	8.222320E-002	-3.043862E-002	-1.073167E-001	4.491339E-002
1.110000E+009	4.772593E-002	-1.682362E-002	8.205056E-002	-3.065313E-002	8.211448E-002	-3.069302E-002	-1.071001E-001	4.537435E-002
1.120000E+009	4.761169E-002	-1.690443E-002	8.193975E-002	-3.090853E-002	8.199567E-002	-3.094990E-002	-1.069154E-001	4.582654E-002
1.130000E+009	4.752747E-002	-1.697660E-002	8.182374E-002	-3.117363E-002	8.189239E-002	-3.118015E-002	-1.066988E-001	4.628415E-002
1.140000E+009	4.741422E-002	-1.705839E-002	8.170250E-002	-3.140863E-002	8.177839E-002	-3.143781E-002	-1.064672E-001	4.675522E-002
1.150000E+009	4.731696E-002	-1.714494E-002	8.159649E-002	-3.165706E-002	8.165654E-002	-3.168839E-002	-1.062300E-001	4.718324E-002
1.160000E+009	4.721288E-002	-1.722133E-002	8.147855E-002	-3.190895E-002	8.154476E-002	-3.193964E-002	-1.059799E-001	4.764390E-002
1.170000E+009	4.714365E-002	-1.730701E-002	8.134906E-002	-3.213793E-002	8.141731E-002	-3.217492E-002	-1.057174E-001	4.813321E-002
1.180000E+009	4.704494E-002	-1.740058E-002	8.122802E-002	-3.237646E-002	8.131163E-002	-3.240979E-002	-1.054448E-001	4.857614E-002
1.190000E+009	4.691295E-002	-1.745628E-002	8.112274E-002	-3.264008E-002	8.118344E-002	-3.266368E-002	-1.051786E-001	4.908563E-002
1.200000E+009	4.683018E-002	-1.756976E-002	8.099097E-002	-3.288423E-002	8.105831E-002	-3.290168E-002	-1.048734E-001	4.959431E-002
1.210000E+009	4.674857E-002	-1.767544E-002	8.086629E-002	-3.312595E-002	8.094537E-002	-3.314680E-002	-1.046189E-001	5.007263E-002
1.220000E+009	4.662923E-002	-1.779478E-002	8.075057E-002	-3.337601E-002	8.083801E-002	-3.339531E-002	-1.044025E-001	5.055938E-002
1.230000E+009	4.655829E-002	-1.792186E-002	8.064341E-002	-3.362312E-002	8.070062E-002	-3.364483E-002	-1.041942E-001	5.102933E-002
1.240000E+009	4.648939E-002	-1.801963E-002	8.052823E-002	-3.384781E-002	8.057822E-002	-3.385343E-002	-1.039804E-001	5.145738E-002
1.250000E+009	4.641828E-002	-1.815347E-002	8.039226E-002	-3.409717E-002	8.046647E-002	-3.412732E-002	-1.037518E-001	5.191112E-002
1.260000E+009	4.635085E-002	-1.823865E-002	8.025735E-002	-3.435707E-002	8.033942E-002	-3.437296E-002	-1.035110E-001	5.232038E-002
1.270000E+009	4.633012E-002	-1.834714E-002	8.015254E-002	-3.458798E-002	8.020070E-002	-3.460063E-002	-1.032400E-001	5.269550E-002
1.280000E+009	4.628060E-002	-1.840952E-002	8.002449E-002	-3.482819E-002	8.009213E-002	-3.484932E-002	-1.029608E-001	5.309578E-002
1.290000E+009	4.622158E-002	-1.847805E-002	7.990769E-002	-3.508335E-002	7.997349E-002	-3.509359E-002	-1.026378E-001	5.348281E-002
1.300000E+009	4.618792E-002	-1.851856E-002	7.977055E-002	-3.531181E-002	7.985683E-002	-3.534000E-002	-1.022812E-001	5.391893E-002
1.310000E+009	4.611152E-002	-1.859741E-002	7.964875E-002	-3.556723E-002	7.971721E-002	-3.557344E-002	-1.019270E-001	5.435945E-002
1.320000E+009	4.604673E-002	-1.863382E-002	7.950272E-002	-3.579517E-002	7.958222E-002	-3.582930E-002	-1.015398E-001	5.485106E-002
1.330000E+009	4.597158E-002	-1.864825E-002	7.938092E-002	-3.604370E-002	7.944979E-002	-3.607029E-002	-1.011304E-001	5.537592E-002
1.340000E+009	4.587139E-002	-1.869642E-002	7.924706E-002	-3.627511E-002	7.932535E-002	-3.630324E-002	-1.007542E-001	5.592225E-002
1.350000E+009	4.575650E-002	-1.875156E-002	7.912870E-002	-3.651735E-002	7.919045E-002	-3.655339E-002	-1.003854E-001	5.649763E-002
1.360000E+009	4.570470E-002	-1.878476E-002	7.897947E-002	-3.675089E-002	7.906422E-002	-3.677052E-002	-1.000156E-001	5.710924E-002
1.370000E+009	4.563143E-002	-1.883998E-002	7.885388E-002	-3.699006E-002	7.893821E-002	-3.702055E-002	-9.971235E-002	5.769895E-002
1.380000E+009	4.554152E-002	-1.889419E-002	7.871204E-002	-3.721037E-002	7.879717E-002	-3.726290E-002	-9.940068E-002	5.827889E-002
1.390000E+009	4.548670E-002	-1.894994E-002	7.857138E-002	-3.746181E-002	7.863653E-002	-3.748428E-002	-9.913789E-002	5.889391E-002
1.400000E+009	4.538872E-002	-1.901687E-002	7.843693E-002	-3.769352E-002	7.848174E-002	-3.770797E-002	-9.884936E-002	5.944191E-002
1.410000E+009	4.528830E-002	-1.903773E-002	7.830162E-002	-3.791488E-002	7.836797E-002	-3.795326E-002	-9.859119E-002	6.002475E-002
1.420000E+009	4.517924E-002	-1.908223E-002	7.816170E-002	-3.815089E-002	7.824135E-002	-3.818419E-002	-9.830804E-002	6.054615E-002
1.430000E+009	4.512988E-002	-1.913466E-002	7.802483E-002	-3.837454E-002	7.809848E-002	-3.842126E-002	-9.804783E-002	6.105174E-002
1.440000E+009	4.500286E-002	-1.917353E-002	7.787571E-002	-3.862600E-002	7.796784E-002	-3.864016E-002	-9.773573E-002	6.158251E-002
1.450000E+009	4.489946E-002	-1.921731E-002	7.775488E-002	-3.885377E-002	7.780269E-002	-3.885781E-002	-9.742367E-002	6.208774E-002
1.460000E+009	4.478026E-002	-1.926884E-002	7.759170E-002	-3.909211E-002	7.766707E-002	-3.911904E-002	-9.710143E-002	6.262918E-002
1.470000E+009	4.469108E-002	-1.932030E-002	7.743675E-002	-3.932415E-002	7.749929E-002	-3.936323E-002	-9.675903E-002	6.318773E-002
1.480000E+009	4.456952E-002	-1.935838E-002	7.728676E-002	-3.954164E-002	7.737963E-002	-3.957279E-002	-9.642293E-002	6.375427E-002
1.490000E+009	4.447301E-002	-1.945012E-002	7.716254E-002	-3.976790E-002	7.723278E-002	-3.980564E-002	-9.605811E-002	6.436661E-002
1.500000E+009	4.440318E-002	-1.948110E-002	7.702167E-002	-4.000256E-002	7.709293E-002	-4.001104E-002	-9.568738E-002	6.494894E-002
