! Device ID: PE43711P
! File Path: z:\PE43711P\CHAR_NOM_04282014\AMB\3p300\LS_ATT_11p50dB\PE43711P_AMB_3p300V_3p000V_0p000V_LS_ATT_11p50dB_S2P_SN_5_A0137A.s2p
! Serial: 5
! Lot: A0137A
! Temp: 25C
! VDD: 3.300
! VSS: 0.000
! Control_Hi: 3.000
! Control_Lo: 0.000
! Attenuation Step: 11.50dB
! Port 1: RF1
! Port 2: RF2
! ThroughPath:1-2
! IDD: 0.0001280472
! ISS: -1.295e-007
!

#  Hz  S   RI  R   50

1.000000E+007	7.418469E-002	-7.836840E-005	2.335921E-001	-1.114545E-003	2.337585E-001	-1.237448E-003	-1.086960E-001	8.730317E-004
2.000000E+007	7.438885E-002	-2.662757E-004	2.335159E-001	-1.820919E-003	2.336681E-001	-1.856088E-003	-1.084041E-001	1.423396E-003
3.000000E+007	7.464207E-002	-5.608769E-004	2.335226E-001	-2.741272E-003	2.336814E-001	-2.755928E-003	-1.081047E-001	1.881739E-003
4.000000E+007	7.476601E-002	-8.779336E-004	2.335186E-001	-3.659639E-003	2.336634E-001	-3.665098E-003	-1.079063E-001	2.396487E-003
5.000000E+007	7.487198E-002	-1.229962E-003	2.335099E-001	-4.654396E-003	2.337125E-001	-4.634441E-003	-1.078373E-001	2.888070E-003
6.000000E+007	7.503329E-002	-1.633707E-003	2.334420E-001	-5.545788E-003	2.336817E-001	-5.545402E-003	-1.077208E-001	3.267808E-003
7.000000E+007	7.513511E-002	-2.037976E-003	2.333691E-001	-6.432582E-003	2.336043E-001	-6.448358E-003	-1.075599E-001	3.658765E-003
8.000000E+007	7.524486E-002	-2.433111E-003	2.333292E-001	-7.320652E-003	2.335553E-001	-7.309885E-003	-1.073881E-001	4.040955E-003
9.000000E+007	7.533610E-002	-2.828906E-003	2.332745E-001	-8.204879E-003	2.334814E-001	-8.225456E-003	-1.072730E-001	4.368283E-003
1.000000E+008	7.542184E-002	-3.219465E-003	2.332546E-001	-9.130674E-003	2.334163E-001	-9.114155E-003	-1.071918E-001	4.713649E-003
1.100000E+008	7.548973E-002	-3.629518E-003	2.331715E-001	-1.005984E-002	2.333654E-001	-1.001708E-002	-1.071052E-001	5.021576E-003
1.200000E+008	7.558799E-002	-4.066999E-003	2.330411E-001	-1.094885E-002	2.332785E-001	-1.093205E-002	-1.070431E-001	5.298317E-003
1.300000E+008	7.564349E-002	-4.484168E-003	2.329736E-001	-1.181237E-002	2.332086E-001	-1.183747E-002	-1.069363E-001	5.578821E-003
1.400000E+008	7.565524E-002	-4.889196E-003	2.328963E-001	-1.271195E-002	2.330976E-001	-1.273008E-002	-1.067900E-001	5.851919E-003
1.500000E+008	7.562574E-002	-5.273850E-003	2.328125E-001	-1.356173E-002	2.329681E-001	-1.358613E-002	-1.066693E-001	6.119300E-003
1.600000E+008	7.557924E-002	-5.589079E-003	2.327445E-001	-1.442911E-002	2.328583E-001	-1.442425E-002	-1.066325E-001	6.401816E-003
1.700000E+008	7.555353E-002	-5.953463E-003	2.326786E-001	-1.536835E-002	2.328744E-001	-1.531871E-002	-1.066698E-001	6.680836E-003
1.800000E+008	7.548087E-002	-6.350219E-003	2.324633E-001	-1.629786E-002	2.327889E-001	-1.628468E-002	-1.066651E-001	6.943918E-003
1.900000E+008	7.537748E-002	-6.776328E-003	2.322965E-001	-1.715858E-002	2.326419E-001	-1.716633E-002	-1.066176E-001	7.154016E-003
2.000000E+008	7.528888E-002	-7.224986E-003	2.322002E-001	-1.799570E-002	2.324857E-001	-1.800938E-002	-1.065138E-001	7.377018E-003
2.100000E+008	7.519477E-002	-7.704309E-003	2.321209E-001	-1.886146E-002	2.323591E-001	-1.885416E-002	-1.063953E-001	7.559784E-003
2.200000E+008	7.510990E-002	-8.154506E-003	2.320178E-001	-1.968026E-002	2.322335E-001	-1.969591E-002	-1.062698E-001	7.736257E-003
2.300000E+008	7.500868E-002	-8.595588E-003	2.319017E-001	-2.054843E-002	2.320961E-001	-2.054969E-002	-1.061484E-001	7.895644E-003
2.400000E+008	7.491185E-002	-9.058697E-003	2.317832E-001	-2.141347E-002	2.319472E-001	-2.141188E-002	-1.060294E-001	8.085867E-003
2.500000E+008	7.483203E-002	-9.479877E-003	2.316394E-001	-2.230177E-002	2.318174E-001	-2.228350E-002	-1.058824E-001	8.258959E-003
2.600000E+008	7.477238E-002	-9.946802E-003	2.314637E-001	-2.317937E-002	2.316722E-001	-2.315173E-002	-1.056941E-001	8.509921E-003
2.700000E+008	7.471035E-002	-1.036829E-002	2.312791E-001	-2.401281E-002	2.315094E-001	-2.401254E-002	-1.055017E-001	8.783948E-003
2.800000E+008	7.468276E-002	-1.076790E-002	2.311379E-001	-2.482891E-002	2.313596E-001	-2.482703E-002	-1.052919E-001	9.045727E-003
2.900000E+008	7.459912E-002	-1.112296E-002	2.310251E-001	-2.567079E-002	2.312029E-001	-2.566580E-002	-1.051805E-001	9.324738E-003
3.000000E+008	7.452048E-002	-1.143928E-002	2.308879E-001	-2.654159E-002	2.310728E-001	-2.651201E-002	-1.050537E-001	9.657867E-003
3.100000E+008	7.442386E-002	-1.177842E-002	2.307336E-001	-2.737949E-002	2.309290E-001	-2.735105E-002	-1.049304E-001	9.996178E-003
3.200000E+008	7.430195E-002	-1.207713E-002	2.305699E-001	-2.825010E-002	2.307888E-001	-2.822159E-002	-1.048639E-001	1.032550E-002
3.300000E+008	7.414637E-002	-1.238872E-002	2.304088E-001	-2.909604E-002	2.306268E-001	-2.913507E-002	-1.047837E-001	1.062209E-002
3.400000E+008	7.393662E-002	-1.271670E-002	2.302292E-001	-2.995544E-002	2.303727E-001	-3.002094E-002	-1.046709E-001	1.087889E-002
3.500000E+008	7.370715E-002	-1.305869E-002	2.300618E-001	-3.080866E-002	2.301402E-001	-3.080400E-002	-1.045540E-001	1.108235E-002
3.600000E+008	7.350561E-002	-1.340018E-002	2.298670E-001	-3.164246E-002	2.299593E-001	-3.156363E-002	-1.044243E-001	1.132216E-002
3.700000E+008	7.328162E-002	-1.374203E-002	2.296469E-001	-3.243046E-002	2.298057E-001	-3.233520E-002	-1.042436E-001	1.153823E-002
3.800000E+008	7.311172E-002	-1.412765E-002	2.294856E-001	-3.326606E-002	2.297005E-001	-3.318469E-002	-1.040667E-001	1.177183E-002
3.900000E+008	7.289594E-002	-1.453053E-002	2.292594E-001	-3.411751E-002	2.295186E-001	-3.404116E-002	-1.038165E-001	1.205498E-002
4.000000E+008	7.274434E-002	-1.495140E-002	2.290305E-001	-3.488992E-002	2.293099E-001	-3.490746E-002	-1.035314E-001	1.233700E-002
4.100000E+008	7.254145E-002	-1.534856E-002	2.288704E-001	-3.563882E-002	2.290919E-001	-3.571095E-002	-1.032634E-001	1.261864E-002
4.200000E+008	7.235478E-002	-1.572301E-002	2.287060E-001	-3.645069E-002	2.288888E-001	-3.650849E-002	-1.030797E-001	1.296768E-002
4.300000E+008	7.220610E-002	-1.609069E-002	2.285355E-001	-3.730679E-002	2.286810E-001	-3.731484E-002	-1.028922E-001	1.334983E-002
4.400000E+008	7.205603E-002	-1.640345E-002	2.283331E-001	-3.812751E-002	2.285205E-001	-3.814860E-002	-1.027259E-001	1.375544E-002
4.500000E+008	7.192037E-002	-1.675419E-002	2.281481E-001	-3.895332E-002	2.283305E-001	-3.897446E-002	-1.025505E-001	1.419353E-002
4.600000E+008	7.176998E-002	-1.707773E-002	2.279354E-001	-3.978675E-002	2.281028E-001	-3.981108E-002	-1.023860E-001	1.462937E-002
4.700000E+008	7.158469E-002	-1.739353E-002	2.277033E-001	-4.057625E-002	2.278712E-001	-4.060876E-002	-1.022724E-001	1.500805E-002
4.800000E+008	7.138156E-002	-1.767039E-002	2.275018E-001	-4.136943E-002	2.276535E-001	-4.137617E-002	-1.021663E-001	1.539508E-002
4.900000E+008	7.116388E-002	-1.797113E-002	2.272939E-001	-4.216789E-002	2.274174E-001	-4.219141E-002	-1.020546E-001	1.575999E-002
5.000000E+008	7.095540E-002	-1.825949E-002	2.270831E-001	-4.297943E-002	2.272301E-001	-4.297402E-002	-1.019147E-001	1.611222E-002
5.100000E+008	7.075339E-002	-1.856472E-002	2.268592E-001	-4.377724E-002	2.270494E-001	-4.375024E-002	-1.017686E-001	1.645881E-002
5.200000E+008	7.053673E-002	-1.890498E-002	2.266455E-001	-4.457495E-002	2.268356E-001	-4.457833E-002	-1.016071E-001	1.680964E-002
5.300000E+008	7.030952E-002	-1.922843E-002	2.264104E-001	-4.537057E-002	2.266282E-001	-4.540272E-002	-1.013800E-001	1.714394E-002
5.400000E+008	7.007598E-002	-1.961455E-002	2.261668E-001	-4.616861E-002	2.263957E-001	-4.621101E-002	-1.011765E-001	1.749186E-002
5.500000E+008	6.984349E-002	-1.992832E-002	2.259505E-001	-4.698168E-002	2.261184E-001	-4.700524E-002	-1.009792E-001	1.785960E-002
5.600000E+008	6.961920E-002	-2.029528E-002	2.257089E-001	-4.775991E-002	2.258577E-001	-4.779622E-002	-1.008045E-001	1.825425E-002
5.700000E+008	6.940870E-002	-2.063951E-002	2.254654E-001	-4.852603E-002	2.256305E-001	-4.855366E-002	-1.006704E-001	1.868303E-002
5.800000E+008	6.922516E-002	-2.096830E-002	2.252299E-001	-4.930210E-002	2.254180E-001	-4.934298E-002	-1.005150E-001	1.911544E-002
5.900000E+008	6.904296E-002	-2.133983E-002	2.249998E-001	-5.012002E-002	2.251800E-001	-5.017183E-002	-1.003894E-001	1.957328E-002
6.000000E+008	6.888989E-002	-2.167890E-002	2.247564E-001	-5.091050E-002	2.249181E-001	-5.095803E-002	-1.002275E-001	1.997698E-002
6.100000E+008	6.873510E-002	-2.200657E-002	2.245077E-001	-5.168027E-002	2.246480E-001	-5.173160E-002	-1.000995E-001	2.037325E-002
6.200000E+008	6.860787E-002	-2.230899E-002	2.242325E-001	-5.245831E-002	2.244005E-001	-5.248959E-002	-9.995864E-002	2.075670E-002
6.300000E+008	6.848940E-002	-2.260911E-002	2.239848E-001	-5.320222E-002	2.241560E-001	-5.326239E-002	-9.981466E-002	2.116099E-002
6.400000E+008	6.836343E-002	-2.287148E-002	2.237321E-001	-5.398084E-002	2.238938E-001	-5.403036E-002	-9.963908E-002	2.155389E-002
6.500000E+008	6.823368E-002	-2.310375E-002	2.234820E-001	-5.473598E-002	2.236336E-001	-5.479937E-002	-9.948700E-002	2.197450E-002
6.600000E+008	6.806142E-002	-2.338440E-002	2.232571E-001	-5.551892E-002	2.233909E-001	-5.559015E-002	-9.931803E-002	2.239560E-002
6.700000E+008	6.783727E-002	-2.360108E-002	2.229830E-001	-5.628541E-002	2.231321E-001	-5.634878E-002	-9.918060E-002	2.283845E-002
6.800000E+008	6.760931E-002	-2.382078E-002	2.227206E-001	-5.706080E-002	2.228658E-001	-5.713274E-002	-9.901293E-002	2.330405E-002
6.900000E+008	6.738520E-002	-2.405100E-002	2.224372E-001	-5.782229E-002	2.225667E-001	-5.786570E-002	-9.889236E-002	2.376257E-002
7.000000E+008	6.717380E-002	-2.426853E-002	2.221478E-001	-5.858284E-002	2.223275E-001	-5.862022E-002	-9.878419E-002	2.421523E-002
7.100000E+008	6.692983E-002	-2.454298E-002	2.218991E-001	-5.931611E-002	2.220689E-001	-5.937040E-002	-9.870199E-002	2.462825E-002
7.200000E+008	6.669559E-002	-2.481520E-002	2.216507E-001	-6.008003E-002	2.218003E-001	-6.013970E-002	-9.859906E-002	2.505570E-002
7.300000E+008	6.646043E-002	-2.509577E-002	2.213588E-001	-6.084645E-002	2.215431E-001	-6.092178E-002	-9.851390E-002	2.541670E-002
7.400000E+008	6.622318E-002	-2.535418E-002	2.210830E-001	-6.158899E-002	2.212620E-001	-6.165968E-002	-9.844119E-002	2.577953E-002
7.500000E+008	6.600333E-002	-2.562034E-002	2.207977E-001	-6.233549E-002	2.209806E-001	-6.242602E-002	-9.835895E-002	2.614319E-002
7.600000E+008	6.577289E-002	-2.590079E-002	2.205318E-001	-6.310899E-002	2.207005E-001	-6.317888E-002	-9.823821E-002	2.649920E-002
7.700000E+008	6.555317E-002	-2.620394E-002	2.202509E-001	-6.384543E-002	2.204363E-001	-6.392624E-002	-9.810585E-002	2.681401E-002
7.800000E+008	6.533942E-002	-2.647920E-002	2.199690E-001	-6.459951E-002	2.201484E-001	-6.466666E-002	-9.796856E-002	2.715879E-002
7.900000E+008	6.509458E-002	-2.680136E-002	2.196916E-001	-6.534743E-002	2.198725E-001	-6.543885E-002	-9.784508E-002	2.752015E-002
8.000000E+008	6.488850E-002	-2.709045E-002	2.193899E-001	-6.609377E-002	2.195671E-001	-6.617922E-002	-9.767052E-002	2.790211E-002
8.100000E+008	6.469348E-002	-2.740894E-002	2.190807E-001	-6.683380E-002	2.192521E-001	-6.691009E-002	-9.745030E-002	2.829592E-002
8.200000E+008	6.453427E-002	-2.768951E-002	2.188226E-001	-6.758482E-002	2.189543E-001	-6.764771E-002	-9.726573E-002	2.869007E-002
8.300000E+008	6.436311E-002	-2.795274E-002	2.184953E-001	-6.830606E-002	2.186916E-001	-6.839630E-002	-9.709292E-002	2.908024E-002
8.400000E+008	6.423626E-002	-2.823558E-002	2.181916E-001	-6.903700E-002	2.183821E-001	-6.914064E-002	-9.691603E-002	2.947607E-002
8.500000E+008	6.409448E-002	-2.847563E-002	2.179216E-001	-6.977831E-002	2.180952E-001	-6.988216E-002	-9.680890E-002	2.986517E-002
8.600000E+008	6.391110E-002	-2.870547E-002	2.176346E-001	-7.050733E-002	2.177690E-001	-7.062082E-002	-9.667460E-002	3.027416E-002
8.700000E+008	6.374400E-002	-2.889651E-002	2.173297E-001	-7.125595E-002	2.174677E-001	-7.135382E-002	-9.653387E-002	3.065614E-002
8.800000E+008	6.356707E-002	-2.908840E-002	2.170214E-001	-7.199082E-002	2.171872E-001	-7.206258E-002	-9.641394E-002	3.104005E-002
8.900000E+008	6.335069E-002	-2.929203E-002	2.166979E-001	-7.271860E-002	2.168871E-001	-7.282007E-002	-9.629041E-002	3.138967E-002
9.000000E+008	6.313136E-002	-2.949799E-002	2.163530E-001	-7.345087E-002	2.165890E-001	-7.354326E-002	-9.612111E-002	3.174929E-002
9.100000E+008	6.289741E-002	-2.970409E-002	2.160633E-001	-7.419157E-002	2.162781E-001	-7.426501E-002	-9.592876E-002	3.211085E-002
9.200000E+008	6.262726E-002	-2.995740E-002	2.157551E-001	-7.489319E-002	2.159797E-001	-7.499897E-002	-9.571785E-002	3.249480E-002
9.300000E+008	6.243194E-002	-3.018788E-002	2.154606E-001	-7.560938E-002	2.156167E-001	-7.573432E-002	-9.545829E-002	3.284792E-002
9.400000E+008	6.222343E-002	-3.043268E-002	2.151228E-001	-7.634255E-002	2.153215E-001	-7.644208E-002	-9.519256E-002	3.324650E-002
9.500000E+008	6.203503E-002	-3.069006E-002	2.148251E-001	-7.707888E-002	2.149994E-001	-7.720066E-002	-9.489077E-002	3.368365E-002
9.600000E+008	6.185517E-002	-3.090270E-002	2.144892E-001	-7.778869E-002	2.146859E-001	-7.788904E-002	-9.461190E-002	3.411479E-002
9.700000E+008	6.169318E-002	-3.111561E-002	2.141651E-001	-7.849013E-002	2.143588E-001	-7.860619E-002	-9.430878E-002	3.457202E-002
9.800000E+008	6.154762E-002	-3.130601E-002	2.138782E-001	-7.919739E-002	2.140484E-001	-7.932515E-002	-9.404936E-002	3.504675E-002
9.900000E+008	6.139404E-002	-3.150675E-002	2.135417E-001	-7.991985E-002	2.137270E-001	-8.004064E-002	-9.382840E-002	3.551939E-002
1.000000E+009	6.121792E-002	-3.164484E-002	2.132283E-001	-8.064584E-002	2.133922E-001	-8.077339E-002	-9.365318E-002	3.597509E-002
1.010000E+009	6.100977E-002	-3.178621E-002	2.129057E-001	-8.138425E-002	2.130612E-001	-8.148504E-002	-9.344769E-002	3.646303E-002
1.020000E+009	6.079465E-002	-3.194308E-002	2.125677E-001	-8.209638E-002	2.127221E-001	-8.219314E-002	-9.326490E-002	3.695722E-002
1.030000E+009	6.059749E-002	-3.208987E-002	2.122236E-001	-8.279500E-002	2.123748E-001	-8.290738E-002	-9.310550E-002	3.740058E-002
1.040000E+009	6.037129E-002	-3.224136E-002	2.118834E-001	-8.349598E-002	2.120589E-001	-8.360318E-002	-9.293070E-002	3.786623E-002
1.050000E+009	6.013987E-002	-3.244904E-002	2.115634E-001	-8.419642E-002	2.117288E-001	-8.431279E-002	-9.272455E-002	3.832467E-002
1.060000E+009	5.994133E-002	-3.260457E-002	2.112291E-001	-8.492342E-002	2.113705E-001	-8.501027E-002	-9.251128E-002	3.880450E-002
1.070000E+009	5.969406E-002	-3.280271E-002	2.108818E-001	-8.561478E-002	2.110339E-001	-8.568556E-002	-9.226811E-002	3.924201E-002
1.080000E+009	5.951534E-002	-3.298514E-002	2.105399E-001	-8.634139E-002	2.107382E-001	-8.640900E-002	-9.203085E-002	3.969726E-002
1.090000E+009	5.930163E-002	-3.315913E-002	2.101859E-001	-8.703777E-002	2.103736E-001	-8.711682E-002	-9.182540E-002	4.014962E-002
1.100000E+009	5.911649E-002	-3.333898E-002	2.098034E-001	-8.774848E-002	2.100171E-001	-8.781158E-002	-9.159535E-002	4.063969E-002
1.110000E+009	5.891665E-002	-3.350142E-002	2.094688E-001	-8.843916E-002	2.096782E-001	-8.851893E-002	-9.139136E-002	4.105833E-002
1.120000E+009	5.868087E-002	-3.367244E-002	2.091551E-001	-8.912336E-002	2.093172E-001	-8.924163E-002	-9.126057E-002	4.151665E-002
1.130000E+009	5.849427E-002	-3.382915E-002	2.087860E-001	-8.982330E-002	2.089806E-001	-8.993081E-002	-9.107856E-002	4.196139E-002
1.140000E+009	5.823990E-002	-3.399503E-002	2.084268E-001	-9.055389E-002	2.086130E-001	-9.063004E-002	-9.089854E-002	4.243050E-002
1.150000E+009	5.802988E-002	-3.414430E-002	2.080647E-001	-9.124395E-002	2.082536E-001	-9.133893E-002	-9.068253E-002	4.287287E-002
1.160000E+009	5.779692E-002	-3.429138E-002	2.077116E-001	-9.193670E-002	2.078840E-001	-9.204424E-002	-9.047462E-002	4.329262E-002
1.170000E+009	5.758893E-002	-3.448387E-002	2.073156E-001	-9.263341E-002	2.075085E-001	-9.271655E-002	-9.024445E-002	4.376767E-002
1.180000E+009	5.736790E-002	-3.464286E-002	2.069389E-001	-9.330434E-002	2.071327E-001	-9.341045E-002	-9.000679E-002	4.422803E-002
1.190000E+009	5.710809E-002	-3.480108E-002	2.065804E-001	-9.401523E-002	2.067388E-001	-9.410607E-002	-8.976693E-002	4.469698E-002
1.200000E+009	5.689854E-002	-3.498095E-002	2.062196E-001	-9.469522E-002	2.063714E-001	-9.478236E-002	-8.948630E-002	4.517409E-002
1.210000E+009	5.670982E-002	-3.517296E-002	2.058512E-001	-9.539272E-002	2.060122E-001	-9.548177E-002	-8.926411E-002	4.568176E-002
1.220000E+009	5.651755E-002	-3.537015E-002	2.054538E-001	-9.606761E-002	2.056459E-001	-9.617364E-002	-8.907711E-002	4.615664E-002
1.230000E+009	5.629905E-002	-3.556397E-002	2.050759E-001	-9.673713E-002	2.052583E-001	-9.684375E-002	-8.885356E-002	4.660518E-002
1.240000E+009	5.612257E-002	-3.574466E-002	2.047050E-001	-9.744375E-002	2.048507E-001	-9.752581E-002	-8.867315E-002	4.703964E-002
1.250000E+009	5.592534E-002	-3.593763E-002	2.043137E-001	-9.813552E-002	2.045131E-001	-9.821939E-002	-8.852523E-002	4.749005E-002
1.260000E+009	5.572191E-002	-3.609270E-002	2.039176E-001	-9.881789E-002	2.041032E-001	-9.892895E-002	-8.828978E-002	4.789020E-002
1.270000E+009	5.558044E-002	-3.627793E-002	2.035313E-001	-9.948528E-002	2.037077E-001	-9.958471E-002	-8.807608E-002	4.828140E-002
1.280000E+009	5.537426E-002	-3.641547E-002	2.031510E-001	-1.001671E-001	2.033192E-001	-1.002620E-001	-8.784136E-002	4.866906E-002
1.290000E+009	5.521163E-002	-3.654599E-002	2.027590E-001	-1.008817E-001	2.029274E-001	-1.009469E-001	-8.752484E-002	4.904788E-002
1.300000E+009	5.504182E-002	-3.667669E-002	2.023589E-001	-1.015234E-001	2.025442E-001	-1.016389E-001	-8.721475E-002	4.945785E-002
1.310000E+009	5.485278E-002	-3.680509E-002	2.019474E-001	-1.022150E-001	2.021383E-001	-1.023028E-001	-8.689668E-002	4.987173E-002
1.320000E+009	5.463320E-002	-3.693288E-002	2.015333E-001	-1.029097E-001	2.017315E-001	-1.029941E-001	-8.652542E-002	5.036812E-002
1.330000E+009	5.444537E-002	-3.702243E-002	2.011559E-001	-1.035541E-001	2.013150E-001	-1.036778E-001	-8.613180E-002	5.090493E-002
1.340000E+009	5.423308E-002	-3.711721E-002	2.007281E-001	-1.042121E-001	2.009215E-001	-1.043165E-001	-8.578017E-002	5.144305E-002
1.350000E+009	5.401463E-002	-3.720045E-002	2.003222E-001	-1.048938E-001	2.004878E-001	-1.050037E-001	-8.542365E-002	5.202857E-002
1.360000E+009	5.380894E-002	-3.731329E-002	1.998978E-001	-1.055440E-001	2.000898E-001	-1.056722E-001	-8.509865E-002	5.263234E-002
1.370000E+009	5.360930E-002	-3.740936E-002	1.994930E-001	-1.062412E-001	1.996818E-001	-1.063270E-001	-8.483453E-002	5.321330E-002
1.380000E+009	5.340147E-002	-3.754580E-002	1.990634E-001	-1.069011E-001	1.992527E-001	-1.069911E-001	-8.455427E-002	5.381819E-002
1.390000E+009	5.318934E-002	-3.765667E-002	1.986506E-001	-1.075637E-001	1.988320E-001	-1.076669E-001	-8.431694E-002	5.443855E-002
1.400000E+009	5.296893E-002	-3.778572E-002	1.982072E-001	-1.082007E-001	1.983968E-001	-1.082961E-001	-8.408807E-002	5.499743E-002
1.410000E+009	5.274080E-002	-3.788415E-002	1.977897E-001	-1.088631E-001	1.979578E-001	-1.089718E-001	-8.383961E-002	5.555764E-002
1.420000E+009	5.252768E-002	-3.797119E-002	1.973630E-001	-1.095132E-001	1.975529E-001	-1.096095E-001	-8.359658E-002	5.608644E-002
1.430000E+009	5.233789E-002	-3.807877E-002	1.969340E-001	-1.101570E-001	1.971206E-001	-1.102889E-001	-8.333426E-002	5.660354E-002
1.440000E+009	5.210427E-002	-3.818402E-002	1.964902E-001	-1.108047E-001	1.966808E-001	-1.109207E-001	-8.305836E-002	5.711431E-002
1.450000E+009	5.188524E-002	-3.828316E-002	1.960501E-001	-1.114553E-001	1.962458E-001	-1.115579E-001	-8.276728E-002	5.763805E-002
1.460000E+009	5.163376E-002	-3.836536E-002	1.956149E-001	-1.121200E-001	1.957773E-001	-1.122335E-001	-8.247414E-002	5.815646E-002
1.470000E+009	5.140138E-002	-3.849402E-002	1.951716E-001	-1.127482E-001	1.953387E-001	-1.128629E-001	-8.216373E-002	5.874836E-002
1.480000E+009	5.116728E-002	-3.857131E-002	1.947161E-001	-1.133925E-001	1.948940E-001	-1.135076E-001	-8.186801E-002	5.933979E-002
1.490000E+009	5.096251E-002	-3.866261E-002	1.942776E-001	-1.140240E-001	1.944514E-001	-1.141264E-001	-8.152021E-002	5.993718E-002
1.500000E+009	5.074633E-002	-3.877240E-002	1.938227E-001	-1.146771E-001	1.940035E-001	-1.147640E-001	-8.118985E-002	6.052619E-002
