! Device ID: PE43711P
! File Path: z:\PE43711P\CHAR_NOM_04282014\AMB\3p300\LS_ATT_29p50dB\PE43711P_AMB_3p300V_3p000V_0p000V_LS_ATT_29p50dB_S2P_SN_5_A0137A.s2p
! Serial: 5
! Lot: A0137A
! Temp: 25C
! VDD: 3.300
! VSS: 0.000
! Control_Hi: 3.000
! Control_Lo: 0.000
! Attenuation Step: 29.50dB
! Port 1: RF1
! Port 2: RF2
! ThroughPath:1-2
! IDD: 0.0001278961
! ISS: -8.72e-008
!

#  Hz  S   RI  R   50

1.000000E+007	1.961764E-002	5.378815E-004	2.897058E-002	-1.072911E-004	2.898839E-002	-1.054906E-004	-1.105222E-001	8.799827E-004
2.000000E+007	1.986266E-002	7.412383E-004	2.897018E-002	-1.700083E-004	2.898163E-002	-1.557025E-004	-1.102167E-001	1.474132E-003
3.000000E+007	2.011037E-002	9.415029E-004	2.897047E-002	-2.511563E-004	2.899514E-002	-2.501920E-004	-1.099211E-001	1.940800E-003
4.000000E+007	2.028932E-002	1.120860E-003	2.897587E-002	-3.308861E-004	2.898459E-002	-3.406213E-004	-1.097520E-001	2.498614E-003
5.000000E+007	2.039650E-002	1.293243E-003	2.896559E-002	-4.136548E-004	2.898028E-002	-4.165808E-004	-1.097162E-001	3.064295E-003
6.000000E+007	2.056231E-002	1.400442E-003	2.895829E-002	-5.012013E-004	2.898407E-002	-4.878440E-004	-1.095823E-001	3.487962E-003
7.000000E+007	2.071365E-002	1.511033E-003	2.895920E-002	-5.823963E-004	2.897519E-002	-5.926760E-004	-1.094081E-001	3.938825E-003
8.000000E+007	2.085149E-002	1.607781E-003	2.895138E-002	-6.575528E-004	2.897898E-002	-6.602549E-004	-1.092487E-001	4.356737E-003
9.000000E+007	2.099038E-002	1.709900E-003	2.893856E-002	-7.384776E-004	2.897528E-002	-7.408065E-004	-1.091382E-001	4.719202E-003
1.000000E+008	2.113006E-002	1.809492E-003	2.895292E-002	-8.274250E-004	2.896805E-002	-8.170797E-004	-1.090816E-001	5.105425E-003
1.100000E+008	2.128319E-002	1.884885E-003	2.894775E-002	-9.141298E-004	2.896729E-002	-9.060373E-004	-1.089992E-001	5.452084E-003
1.200000E+008	2.143811E-002	1.929309E-003	2.893335E-002	-1.005511E-003	2.895884E-002	-9.943685E-004	-1.088912E-001	5.778707E-003
1.300000E+008	2.157687E-002	2.030944E-003	2.893474E-002	-1.071613E-003	2.894658E-002	-1.070059E-003	-1.087805E-001	6.110704E-003
1.400000E+008	2.168249E-002	2.139897E-003	2.891734E-002	-1.160020E-003	2.893760E-002	-1.156457E-003	-1.086715E-001	6.432255E-003
1.500000E+008	2.175224E-002	2.262747E-003	2.890457E-002	-1.222862E-003	2.893079E-002	-1.224052E-003	-1.085907E-001	6.745546E-003
1.600000E+008	2.184002E-002	2.400096E-003	2.891495E-002	-1.302790E-003	2.892123E-002	-1.305400E-003	-1.085205E-001	7.080854E-003
1.700000E+008	2.195353E-002	2.496667E-003	2.890874E-002	-1.393563E-003	2.893579E-002	-1.398364E-003	-1.084407E-001	7.422236E-003
1.800000E+008	2.201396E-002	2.603342E-003	2.888810E-002	-1.487753E-003	2.892654E-002	-1.479594E-003	-1.083481E-001	7.717848E-003
1.900000E+008	2.201450E-002	2.667590E-003	2.887719E-002	-1.560688E-003	2.890825E-002	-1.553491E-003	-1.083121E-001	7.989258E-003
2.000000E+008	2.201252E-002	2.713765E-003	2.886326E-002	-1.635488E-003	2.889380E-002	-1.636131E-003	-1.082584E-001	8.215071E-003
2.100000E+008	2.202086E-002	2.704325E-003	2.886124E-002	-1.716149E-003	2.888403E-002	-1.708085E-003	-1.081773E-001	8.409543E-003
2.200000E+008	2.203063E-002	2.720502E-003	2.886432E-002	-1.783116E-003	2.887655E-002	-1.793914E-003	-1.080707E-001	8.590167E-003
2.300000E+008	2.207229E-002	2.738921E-003	2.884673E-002	-1.864428E-003	2.887227E-002	-1.870082E-003	-1.079433E-001	8.789401E-003
2.400000E+008	2.215798E-002	2.731309E-003	2.883809E-002	-1.951866E-003	2.886181E-002	-1.942880E-003	-1.077818E-001	9.036239E-003
2.500000E+008	2.220335E-002	2.756645E-003	2.882775E-002	-2.032043E-003	2.885105E-002	-2.012609E-003	-1.075918E-001	9.266456E-003
2.600000E+008	2.231510E-002	2.761019E-003	2.880780E-002	-2.110701E-003	2.883516E-002	-2.107630E-003	-1.073832E-001	9.558985E-003
2.700000E+008	2.241802E-002	2.803800E-003	2.880456E-002	-2.190383E-003	2.883049E-002	-2.184171E-003	-1.071506E-001	9.887437E-003
2.800000E+008	2.255518E-002	2.850389E-003	2.878637E-002	-2.268787E-003	2.881183E-002	-2.249650E-003	-1.069411E-001	1.021001E-002
2.900000E+008	2.262155E-002	2.923823E-003	2.878256E-002	-2.338695E-003	2.880692E-002	-2.340755E-003	-1.068078E-001	1.052848E-002
3.000000E+008	2.268986E-002	3.030199E-003	2.878253E-002	-2.420104E-003	2.879581E-002	-2.408967E-003	-1.066744E-001	1.088693E-002
3.100000E+008	2.274171E-002	3.124406E-003	2.876496E-002	-2.500223E-003	2.879595E-002	-2.501524E-003	-1.065593E-001	1.125465E-002
3.200000E+008	2.277247E-002	3.260736E-003	2.875736E-002	-2.576235E-003	2.876572E-002	-2.566599E-003	-1.064740E-001	1.161537E-002
3.300000E+008	2.277879E-002	3.364857E-003	2.874893E-002	-2.660900E-003	2.876346E-002	-2.668811E-003	-1.063909E-001	1.192404E-002
3.400000E+008	2.275109E-002	3.462430E-003	2.871888E-002	-2.746273E-003	2.873708E-002	-2.742274E-003	-1.062617E-001	1.220900E-002
3.500000E+008	2.272837E-002	3.507409E-003	2.872540E-002	-2.811635E-003	2.872556E-002	-2.817785E-003	-1.061230E-001	1.245149E-002
3.600000E+008	2.270046E-002	3.563171E-003	2.868897E-002	-2.898271E-003	2.870920E-002	-2.886573E-003	-1.059671E-001	1.272361E-002
3.700000E+008	2.269387E-002	3.605924E-003	2.867210E-002	-2.976058E-003	2.870013E-002	-2.952550E-003	-1.057615E-001	1.296863E-002
3.800000E+008	2.267689E-002	3.617048E-003	2.866281E-002	-3.040176E-003	2.867943E-002	-3.029421E-003	-1.055662E-001	1.323833E-002
3.900000E+008	2.265798E-002	3.624321E-003	2.864145E-002	-3.128908E-003	2.867461E-002	-3.117911E-003	-1.053016E-001	1.357281E-002
4.000000E+008	2.269682E-002	3.624887E-003	2.862664E-002	-3.204496E-003	2.866398E-002	-3.194165E-003	-1.049873E-001	1.389125E-002
4.100000E+008	2.270603E-002	3.612090E-003	2.861868E-002	-3.271060E-003	2.864153E-002	-3.272724E-003	-1.047159E-001	1.420154E-002
4.200000E+008	2.273156E-002	3.611701E-003	2.860428E-002	-3.328207E-003	2.863228E-002	-3.327692E-003	-1.044967E-001	1.459024E-002
4.300000E+008	2.275415E-002	3.654389E-003	2.858823E-002	-3.416703E-003	2.861425E-002	-3.405559E-003	-1.042993E-001	1.498701E-002
4.400000E+008	2.280101E-002	3.681756E-003	2.857640E-002	-3.501537E-003	2.860113E-002	-3.503782E-003	-1.041177E-001	1.545012E-002
4.500000E+008	2.286105E-002	3.727382E-003	2.856399E-002	-3.562917E-003	2.859575E-002	-3.561216E-003	-1.039216E-001	1.588494E-002
4.600000E+008	2.291481E-002	3.755528E-003	2.855720E-002	-3.645182E-003	2.856677E-002	-3.642548E-003	-1.037448E-001	1.633364E-002
4.700000E+008	2.293927E-002	3.803248E-003	2.852771E-002	-3.727008E-003	2.855550E-002	-3.716882E-003	-1.035798E-001	1.673978E-002
4.800000E+008	2.297020E-002	3.883831E-003	2.852014E-002	-3.786544E-003	2.853564E-002	-3.794907E-003	-1.034374E-001	1.714793E-002
4.900000E+008	2.296200E-002	3.952917E-003	2.850374E-002	-3.874234E-003	2.851634E-002	-3.879449E-003	-1.032851E-001	1.753199E-002
5.000000E+008	2.297394E-002	4.014693E-003	2.848087E-002	-3.950522E-003	2.850479E-002	-3.948912E-003	-1.031334E-001	1.790142E-002
5.100000E+008	2.298968E-002	4.084071E-003	2.845280E-002	-4.014844E-003	2.850038E-002	-4.021153E-003	-1.029741E-001	1.829663E-002
5.200000E+008	2.296392E-002	4.128580E-003	2.844849E-002	-4.106149E-003	2.847175E-002	-4.097115E-003	-1.027924E-001	1.867181E-002
5.300000E+008	2.294880E-002	4.135782E-003	2.844127E-002	-4.173536E-003	2.845259E-002	-4.175831E-003	-1.025634E-001	1.905353E-002
5.400000E+008	2.291042E-002	4.122614E-003	2.841884E-002	-4.244790E-003	2.844148E-002	-4.240260E-003	-1.023297E-001	1.941531E-002
5.500000E+008	2.288342E-002	4.125084E-003	2.840305E-002	-4.309468E-003	2.841525E-002	-4.316986E-003	-1.021396E-001	1.981849E-002
5.600000E+008	2.289403E-002	4.104499E-003	2.837770E-002	-4.402670E-003	2.839583E-002	-4.382830E-003	-1.019078E-001	2.022452E-002
5.700000E+008	2.289462E-002	4.071354E-003	2.835514E-002	-4.470145E-003	2.838612E-002	-4.454849E-003	-1.017736E-001	2.067033E-002
5.800000E+008	2.291901E-002	4.057983E-003	2.834141E-002	-4.534140E-003	2.836569E-002	-4.538288E-003	-1.015742E-001	2.111756E-002
5.900000E+008	2.296600E-002	4.007482E-003	2.832679E-002	-4.605272E-003	2.834728E-002	-4.614089E-003	-1.013857E-001	2.159173E-002
6.000000E+008	2.304187E-002	3.994503E-003	2.832460E-002	-4.702131E-003	2.832473E-002	-4.701547E-003	-1.011836E-001	2.202286E-002
6.100000E+008	2.312013E-002	3.971498E-003	2.828165E-002	-4.763471E-003	2.831379E-002	-4.761368E-003	-1.010270E-001	2.247149E-002
6.200000E+008	2.322234E-002	4.027793E-003	2.827832E-002	-4.831965E-003	2.828106E-002	-4.843859E-003	-1.008357E-001	2.290528E-002
6.300000E+008	2.331770E-002	4.064701E-003	2.824071E-002	-4.899715E-003	2.826834E-002	-4.905911E-003	-1.006796E-001	2.333357E-002
6.400000E+008	2.339700E-002	4.119864E-003	2.820606E-002	-4.977607E-003	2.823281E-002	-4.974442E-003	-1.004803E-001	2.374945E-002
6.500000E+008	2.348718E-002	4.198847E-003	2.820936E-002	-5.056109E-003	2.822893E-002	-5.052736E-003	-1.003305E-001	2.418467E-002
6.600000E+008	2.352641E-002	4.249874E-003	2.820081E-002	-5.121306E-003	2.821265E-002	-5.117626E-003	-1.001288E-001	2.461247E-002
6.700000E+008	2.354512E-002	4.319589E-003	2.816829E-002	-5.195730E-003	2.818645E-002	-5.206471E-003	-9.995720E-002	2.505281E-002
6.800000E+008	2.355920E-002	4.373564E-003	2.814357E-002	-5.258467E-003	2.815815E-002	-5.288584E-003	-9.977381E-002	2.551679E-002
6.900000E+008	2.357436E-002	4.460414E-003	2.811100E-002	-5.342560E-003	2.813236E-002	-5.338323E-003	-9.959181E-002	2.599715E-002
7.000000E+008	2.358382E-002	4.533106E-003	2.809872E-002	-5.418443E-003	2.812481E-002	-5.403508E-003	-9.945489E-002	2.645996E-002
7.100000E+008	2.359134E-002	4.567693E-003	2.808249E-002	-5.475883E-003	2.810032E-002	-5.475928E-003	-9.932304E-002	2.690831E-002
7.200000E+008	2.356001E-002	4.595530E-003	2.805374E-002	-5.553218E-003	2.808372E-002	-5.543379E-003	-9.918867E-002	2.735896E-002
7.300000E+008	2.357712E-002	4.644496E-003	2.803842E-002	-5.619033E-003	2.806705E-002	-5.615935E-003	-9.907883E-002	2.776295E-002
7.400000E+008	2.356380E-002	4.670570E-003	2.801687E-002	-5.695635E-003	2.805447E-002	-5.695229E-003	-9.898451E-002	2.817558E-002
7.500000E+008	2.356600E-002	4.693397E-003	2.799634E-002	-5.767873E-003	2.802239E-002	-5.761841E-003	-9.887193E-002	2.853917E-002
7.600000E+008	2.357716E-002	4.683230E-003	2.797405E-002	-5.843181E-003	2.798962E-002	-5.828715E-003	-9.872863E-002	2.891345E-002
7.700000E+008	2.359298E-002	4.680344E-003	2.795688E-002	-5.897217E-003	2.797853E-002	-5.913854E-003	-9.858011E-002	2.925918E-002
7.800000E+008	2.360316E-002	4.694536E-003	2.793173E-002	-5.975725E-003	2.795283E-002	-5.974801E-003	-9.839724E-002	2.960290E-002
7.900000E+008	2.362904E-002	4.666935E-003	2.791895E-002	-6.057227E-003	2.793567E-002	-6.037768E-003	-9.822785E-002	2.998654E-002
8.000000E+008	2.366495E-002	4.648399E-003	2.788838E-002	-6.118371E-003	2.791256E-002	-6.128488E-003	-9.801147E-002	3.037918E-002
8.100000E+008	2.372122E-002	4.602774E-003	2.787483E-002	-6.187842E-003	2.789547E-002	-6.202857E-003	-9.775256E-002	3.077875E-002
8.200000E+008	2.381761E-002	4.608440E-003	2.784017E-002	-6.252316E-003	2.786235E-002	-6.241755E-003	-9.750898E-002	3.118614E-002
8.300000E+008	2.389607E-002	4.611524E-003	2.782231E-002	-6.323360E-003	2.784603E-002	-6.331788E-003	-9.729890E-002	3.159456E-002
8.400000E+008	2.399162E-002	4.625907E-003	2.779532E-002	-6.379955E-003	2.781904E-002	-6.406946E-003	-9.708968E-002	3.200716E-002
8.500000E+008	2.409463E-002	4.657115E-003	2.777977E-002	-6.469503E-003	2.781279E-002	-6.473237E-003	-9.694727E-002	3.243775E-002
8.600000E+008	2.413646E-002	4.709220E-003	2.775478E-002	-6.532228E-003	2.778771E-002	-6.542718E-003	-9.676082E-002	3.287151E-002
8.700000E+008	2.420975E-002	4.787182E-003	2.773190E-002	-6.608758E-003	2.774289E-002	-6.611027E-003	-9.660689E-002	3.326927E-002
8.800000E+008	2.427019E-002	4.854830E-003	2.771163E-002	-6.676063E-003	2.773406E-002	-6.670907E-003	-9.645076E-002	3.363258E-002
8.900000E+008	2.430795E-002	4.920333E-003	2.769916E-002	-6.756379E-003	2.771815E-002	-6.750002E-003	-9.630516E-002	3.399050E-002
9.000000E+008	2.433428E-002	4.954754E-003	2.765460E-002	-6.798619E-003	2.767826E-002	-6.817763E-003	-9.609385E-002	3.436721E-002
9.100000E+008	2.434910E-002	4.996460E-003	2.763358E-002	-6.887157E-003	2.765191E-002	-6.881535E-003	-9.587452E-002	3.471018E-002
9.200000E+008	2.435608E-002	5.014179E-003	2.761168E-002	-6.943814E-003	2.762595E-002	-6.951545E-003	-9.560277E-002	3.508022E-002
9.300000E+008	2.441585E-002	5.025071E-003	2.759297E-002	-7.010530E-003	2.761124E-002	-7.019329E-003	-9.532412E-002	3.546292E-002
9.400000E+008	2.447947E-002	5.035926E-003	2.758165E-002	-7.079557E-003	2.759793E-002	-7.098504E-003	-9.499827E-002	3.587867E-002
9.500000E+008	2.453757E-002	5.026856E-003	2.754252E-002	-7.145908E-003	2.758125E-002	-7.167411E-003	-9.465043E-002	3.634359E-002
9.600000E+008	2.459471E-002	5.074301E-003	2.750870E-002	-7.210337E-003	2.754045E-002	-7.223618E-003	-9.434862E-002	3.677909E-002
9.700000E+008	2.468137E-002	5.097040E-003	2.748656E-002	-7.277179E-003	2.751366E-002	-7.299474E-003	-9.402949E-002	3.725072E-002
9.800000E+008	2.474973E-002	5.174342E-003	2.747708E-002	-7.343750E-003	2.749473E-002	-7.356150E-003	-9.375921E-002	3.775817E-002
9.900000E+008	2.483649E-002	5.220493E-003	2.744810E-002	-7.424929E-003	2.747007E-002	-7.428969E-003	-9.349032E-002	3.824188E-002
1.000000E+009	2.490621E-002	5.298100E-003	2.742263E-002	-7.493187E-003	2.743174E-002	-7.514305E-003	-9.328355E-002	3.867842E-002
1.010000E+009	2.494448E-002	5.381449E-003	2.738465E-002	-7.559704E-003	2.742458E-002	-7.573302E-003	-9.303649E-002	3.916905E-002
1.020000E+009	2.499968E-002	5.453540E-003	2.736893E-002	-7.634231E-003	2.740175E-002	-7.633593E-003	-9.284007E-002	3.961815E-002
1.030000E+009	2.504060E-002	5.524471E-003	2.734036E-002	-7.699756E-003	2.738082E-002	-7.698104E-003	-9.264061E-002	4.009334E-002
1.040000E+009	2.506266E-002	5.593152E-003	2.731334E-002	-7.782060E-003	2.735451E-002	-7.748024E-003	-9.240394E-002	4.053937E-002
1.050000E+009	2.512850E-002	5.655957E-003	2.730855E-002	-7.831273E-003	2.731903E-002	-7.841760E-003	-9.214440E-002	4.102882E-002
1.060000E+009	2.517629E-002	5.711822E-003	2.729210E-002	-7.913284E-003	2.729716E-002	-7.896369E-003	-9.187867E-002	4.149462E-002
1.070000E+009	2.516831E-002	5.756856E-003	2.723968E-002	-7.964564E-003	2.727172E-002	-7.957657E-003	-9.160482E-002	4.196839E-002
1.080000E+009	2.522853E-002	5.803621E-003	2.722038E-002	-8.035405E-003	2.724859E-002	-8.034892E-003	-9.132639E-002	4.245666E-002
1.090000E+009	2.525610E-002	5.858899E-003	2.719343E-002	-8.102682E-003	2.722410E-002	-8.102354E-003	-9.110858E-002	4.291102E-002
1.100000E+009	2.532377E-002	5.927137E-003	2.717473E-002	-8.169977E-003	2.720760E-002	-8.158893E-003	-9.087069E-002	4.340217E-002
1.110000E+009	2.533955E-002	5.976551E-003	2.714827E-002	-8.242529E-003	2.718398E-002	-8.238968E-003	-9.062890E-002	4.384063E-002
1.120000E+009	2.536284E-002	6.030241E-003	2.712699E-002	-8.310537E-003	2.715464E-002	-8.311026E-003	-9.045961E-002	4.426552E-002
1.130000E+009	2.541797E-002	6.069292E-003	2.709687E-002	-8.364723E-003	2.712273E-002	-8.368245E-003	-9.023555E-002	4.470174E-002
1.140000E+009	2.543910E-002	6.130824E-003	2.707042E-002	-8.446426E-003	2.709514E-002	-8.436396E-003	-9.000792E-002	4.516968E-002
1.150000E+009	2.548420E-002	6.164006E-003	2.705151E-002	-8.518929E-003	2.707297E-002	-8.499569E-003	-8.974368E-002	4.560159E-002
1.160000E+009	2.550704E-002	6.218984E-003	2.702472E-002	-8.593464E-003	2.705039E-002	-8.581147E-003	-8.948009E-002	4.603146E-002
1.170000E+009	2.555105E-002	6.290884E-003	2.700671E-002	-8.646785E-003	2.701744E-002	-8.655784E-003	-8.920383E-002	4.650815E-002
1.180000E+009	2.560846E-002	6.328679E-003	2.694438E-002	-8.709860E-003	2.697875E-002	-8.728202E-003	-8.891324E-002	4.697619E-002
1.190000E+009	2.560720E-002	6.378374E-003	2.694336E-002	-8.785528E-003	2.694358E-002	-8.776808E-003	-8.863436E-002	4.748847E-002
1.200000E+009	2.564848E-002	6.446642E-003	2.691038E-002	-8.845497E-003	2.691266E-002	-8.846505E-003	-8.833449E-002	4.796936E-002
1.210000E+009	2.570277E-002	6.442357E-003	2.688197E-002	-8.913843E-003	2.689217E-002	-8.920558E-003	-8.809528E-002	4.846151E-002
1.220000E+009	2.574345E-002	6.461341E-003	2.684150E-002	-8.981926E-003	2.687424E-002	-8.971607E-003	-8.787463E-002	4.892930E-002
1.230000E+009	2.576816E-002	6.479781E-003	2.681984E-002	-9.050476E-003	2.684481E-002	-9.054154E-003	-8.764481E-002	4.936504E-002
1.240000E+009	2.582419E-002	6.487163E-003	2.679106E-002	-9.101066E-003	2.682493E-002	-9.110171E-003	-8.742610E-002	4.979613E-002
1.250000E+009	2.591312E-002	6.492725E-003	2.677865E-002	-9.174072E-003	2.679735E-002	-9.178338E-003	-8.719765E-002	5.023245E-002
1.260000E+009	2.596246E-002	6.511926E-003	2.674325E-002	-9.234396E-003	2.674548E-002	-9.257322E-003	-8.693070E-002	5.061545E-002
1.270000E+009	2.609544E-002	6.553754E-003	2.671930E-002	-9.314579E-003	2.672420E-002	-9.325130E-003	-8.662922E-002	5.100184E-002
1.280000E+009	2.618486E-002	6.597787E-003	2.669396E-002	-9.383830E-003	2.670746E-002	-9.376061E-003	-8.634874E-002	5.137294E-002
1.290000E+009	2.628342E-002	6.660101E-003	2.664943E-002	-9.450302E-003	2.668477E-002	-9.458066E-003	-8.600011E-002	5.178789E-002
1.300000E+009	2.635619E-002	6.753000E-003	2.662811E-002	-9.523967E-003	2.665060E-002	-9.517428E-003	-8.565154E-002	5.219921E-002
1.310000E+009	2.644062E-002	6.830232E-003	2.659696E-002	-9.594115E-003	2.661158E-002	-9.584430E-003	-8.530630E-002	5.262954E-002
1.320000E+009	2.649165E-002	6.903867E-003	2.655999E-002	-9.650144E-003	2.656857E-002	-9.648172E-003	-8.491213E-002	5.312054E-002
1.330000E+009	2.655946E-002	7.004519E-003	2.653973E-002	-9.710690E-003	2.655491E-002	-9.724025E-003	-8.450612E-002	5.364728E-002
1.340000E+009	2.659061E-002	7.100116E-003	2.649129E-002	-9.779403E-003	2.650117E-002	-9.799452E-003	-8.411356E-002	5.417240E-002
1.350000E+009	2.662141E-002	7.142201E-003	2.646929E-002	-9.851309E-003	2.650268E-002	-9.845255E-003	-8.374631E-002	5.473619E-002
1.360000E+009	2.669800E-002	7.219923E-003	2.644461E-002	-9.910176E-003	2.645791E-002	-9.904262E-003	-8.336636E-002	5.529799E-002
1.370000E+009	2.674802E-002	7.272941E-003	2.641706E-002	-9.981333E-003	2.642939E-002	-9.980721E-003	-8.306233E-002	5.588704E-002
1.380000E+009	2.681928E-002	7.329832E-003	2.636601E-002	-1.004948E-002	2.638101E-002	-1.005146E-002	-8.273905E-002	5.645669E-002
1.390000E+009	2.689662E-002	7.402199E-003	2.633825E-002	-1.010345E-002	2.635663E-002	-1.010607E-002	-8.241240E-002	5.704484E-002
1.400000E+009	2.694951E-002	7.462973E-003	2.629268E-002	-1.016522E-002	2.631769E-002	-1.017711E-002	-8.213428E-002	5.759654E-002
1.410000E+009	2.699938E-002	7.558227E-003	2.628171E-002	-1.024575E-002	2.630692E-002	-1.023792E-002	-8.184367E-002	5.816517E-002
1.420000E+009	2.701672E-002	7.646285E-003	2.624386E-002	-1.029733E-002	2.625628E-002	-1.029776E-002	-8.157712E-002	5.870407E-002
1.430000E+009	2.709576E-002	7.741596E-003	2.619530E-002	-1.037045E-002	2.624000E-002	-1.038179E-002	-8.128616E-002	5.919093E-002
1.440000E+009	2.713810E-002	7.791823E-003	2.617451E-002	-1.044951E-002	2.620009E-002	-1.044944E-002	-8.097955E-002	5.968563E-002
1.450000E+009	2.713949E-002	7.873145E-003	2.612721E-002	-1.050212E-002	2.616015E-002	-1.050046E-002	-8.064831E-002	6.020324E-002
1.460000E+009	2.717904E-002	7.928400E-003	2.608636E-002	-1.056055E-002	2.611584E-002	-1.056936E-002	-8.032395E-002	6.069254E-002
1.470000E+009	2.723146E-002	7.967990E-003	2.606458E-002	-1.062758E-002	2.607714E-002	-1.062882E-002	-7.995840E-002	6.124328E-002
1.480000E+009	2.726252E-002	8.047431E-003	2.602675E-002	-1.067568E-002	2.603918E-002	-1.069782E-002	-7.961782E-002	6.179901E-002
1.490000E+009	2.730806E-002	8.095602E-003	2.599250E-002	-1.073409E-002	2.601241E-002	-1.075337E-002	-7.922506E-002	6.235773E-002
1.500000E+009	2.737373E-002	8.133576E-003	2.596437E-002	-1.082032E-002	2.597270E-002	-1.081682E-002	-7.883751E-002	6.292427E-002
1.510000E+009	2.745021E-002	8.189473E-003	2.592209E-002	-1.086424E-002	2.594546E-002	-1.090012E-002	-7.848355E-002	6.351049E-002
