! Device ID: PE43711P
! File Path: z:\PE43711P\CHAR_NOM_04282014\AMB\3p300\LS_ATT_31p25dB\PE43711P_AMB_3p300V_3p000V_0p000V_LS_ATT_31p25dB_S2P_SN_5_A0137A.s2p
! Serial: 5
! Lot: A0137A
! Temp: 25C
! VDD: 3.300
! VSS: 0.000
! Control_Hi: 3.000
! Control_Lo: 0.000
! Attenuation Step: 31.25dB
! Port 1: RF1
! Port 2: RF2
! ThroughPath:1-2
! IDD: 0.0001281984
! ISS: -1.171e-007
!

#  Hz  S   RI  R   50

1.000000E+007	1.960399E-002	5.551459E-004	2.362717E-002	-6.174252E-005	2.367821E-002	-9.724953E-005	-1.146654E-001	8.819492E-004
2.000000E+007	1.987229E-002	7.532285E-004	2.364742E-002	-1.385659E-004	2.366557E-002	-1.253438E-004	-1.143543E-001	1.497533E-003
3.000000E+007	2.012336E-002	9.372267E-004	2.363976E-002	-1.922905E-004	2.364977E-002	-1.967368E-004	-1.140466E-001	1.974216E-003
4.000000E+007	2.030014E-002	1.121342E-003	2.363700E-002	-2.560700E-004	2.366552E-002	-2.672209E-004	-1.138843E-001	2.540389E-003
5.000000E+007	2.040465E-002	1.291518E-003	2.364506E-002	-3.213415E-004	2.365687E-002	-3.355156E-004	-1.138452E-001	3.087947E-003
6.000000E+007	2.057542E-002	1.394841E-003	2.364347E-002	-3.969497E-004	2.365202E-002	-3.967910E-004	-1.137043E-001	3.527984E-003
7.000000E+007	2.073058E-002	1.502776E-003	2.363270E-002	-4.635658E-004	2.364139E-002	-4.541922E-004	-1.135085E-001	3.984090E-003
8.000000E+007	2.087129E-002	1.607633E-003	2.362347E-002	-5.245399E-004	2.364764E-002	-5.261402E-004	-1.133667E-001	4.401664E-003
9.000000E+007	2.098920E-002	1.705304E-003	2.363317E-002	-5.908569E-004	2.364798E-002	-5.843549E-004	-1.132486E-001	4.782289E-003
1.000000E+008	2.114896E-002	1.803240E-003	2.363551E-002	-6.549978E-004	2.364887E-002	-6.609321E-004	-1.131746E-001	5.154867E-003
1.100000E+008	2.128688E-002	1.879516E-003	2.361999E-002	-7.252128E-004	2.363882E-002	-7.039086E-004	-1.130921E-001	5.521274E-003
1.200000E+008	2.144965E-002	1.939852E-003	2.360713E-002	-7.868745E-004	2.362681E-002	-7.880465E-004	-1.129741E-001	5.826929E-003
1.300000E+008	2.158311E-002	2.036331E-003	2.361410E-002	-8.524526E-004	2.362801E-002	-8.413931E-004	-1.128566E-001	6.167787E-003
1.400000E+008	2.169170E-002	2.142421E-003	2.360108E-002	-9.176686E-004	2.362353E-002	-9.181984E-004	-1.127483E-001	6.495458E-003
1.500000E+008	2.175941E-002	2.256389E-003	2.359683E-002	-9.857741E-004	2.361777E-002	-9.695996E-004	-1.126524E-001	6.815698E-003
1.600000E+008	2.185317E-002	2.391176E-003	2.359193E-002	-1.034724E-003	2.360664E-002	-1.039361E-003	-1.125670E-001	7.133204E-003
1.700000E+008	2.195284E-002	2.500252E-003	2.359040E-002	-1.115846E-003	2.361706E-002	-1.100078E-003	-1.124814E-001	7.477139E-003
1.800000E+008	2.202404E-002	2.600063E-003	2.358344E-002	-1.176261E-003	2.360458E-002	-1.165884E-003	-1.123785E-001	7.787931E-003
1.900000E+008	2.203105E-002	2.663241E-003	2.357778E-002	-1.241572E-003	2.358515E-002	-1.238415E-003	-1.123074E-001	8.048678E-003
2.000000E+008	2.202229E-002	2.713045E-003	2.357207E-002	-1.296346E-003	2.357495E-002	-1.289319E-003	-1.122482E-001	8.272556E-003
2.100000E+008	2.202701E-002	2.700967E-003	2.355441E-002	-1.365563E-003	2.358325E-002	-1.362118E-003	-1.121636E-001	8.476244E-003
2.200000E+008	2.204866E-002	2.738209E-003	2.355686E-002	-1.425320E-003	2.358241E-002	-1.423235E-003	-1.120546E-001	8.649063E-003
2.300000E+008	2.207880E-002	2.733826E-003	2.354182E-002	-1.480990E-003	2.357198E-002	-1.479162E-003	-1.119060E-001	8.858291E-003
2.400000E+008	2.216850E-002	2.738863E-003	2.353831E-002	-1.546863E-003	2.355937E-002	-1.539868E-003	-1.117429E-001	9.086748E-003
2.500000E+008	2.221643E-002	2.743053E-003	2.353601E-002	-1.610855E-003	2.355301E-002	-1.605543E-003	-1.115323E-001	9.306844E-003
2.600000E+008	2.233085E-002	2.772482E-003	2.352966E-002	-1.687972E-003	2.354466E-002	-1.668154E-003	-1.113168E-001	9.598837E-003
2.700000E+008	2.244246E-002	2.811181E-003	2.351454E-002	-1.733315E-003	2.353654E-002	-1.730067E-003	-1.110551E-001	9.918244E-003
2.800000E+008	2.256361E-002	2.848150E-003	2.350209E-002	-1.790835E-003	2.352727E-002	-1.799569E-003	-1.108427E-001	1.021521E-002
2.900000E+008	2.262516E-002	2.933938E-003	2.350239E-002	-1.858214E-003	2.350671E-002	-1.850171E-003	-1.106912E-001	1.054252E-002
3.000000E+008	2.271157E-002	3.042745E-003	2.349257E-002	-1.929088E-003	2.350038E-002	-1.912110E-003	-1.105412E-001	1.089376E-002
3.100000E+008	2.274460E-002	3.126628E-003	2.348356E-002	-1.987090E-003	2.349393E-002	-1.987083E-003	-1.104326E-001	1.125385E-002
3.200000E+008	2.277925E-002	3.256884E-003	2.347593E-002	-2.044585E-003	2.349621E-002	-2.044475E-003	-1.103234E-001	1.161247E-002
3.300000E+008	2.278915E-002	3.369798E-003	2.346098E-002	-2.110628E-003	2.348200E-002	-2.120675E-003	-1.102223E-001	1.192296E-002
3.400000E+008	2.276230E-002	3.442901E-003	2.345317E-002	-2.172370E-003	2.346149E-002	-2.193597E-003	-1.100842E-001	1.218956E-002
3.500000E+008	2.273451E-002	3.497109E-003	2.343975E-002	-2.241752E-003	2.345169E-002	-2.244642E-003	-1.099250E-001	1.242694E-002
3.600000E+008	2.273068E-002	3.552750E-003	2.342536E-002	-2.305133E-003	2.343876E-002	-2.289335E-003	-1.097514E-001	1.268101E-002
3.700000E+008	2.269324E-002	3.600606E-003	2.341429E-002	-2.369419E-003	2.343375E-002	-2.350165E-003	-1.095572E-001	1.292524E-002
3.800000E+008	2.268356E-002	3.623216E-003	2.339969E-002	-2.423262E-003	2.342029E-002	-2.404425E-003	-1.093372E-001	1.318103E-002
3.900000E+008	2.267311E-002	3.634437E-003	2.339165E-002	-2.488248E-003	2.340971E-002	-2.484322E-003	-1.090373E-001	1.349207E-002
4.000000E+008	2.270615E-002	3.615288E-003	2.336953E-002	-2.543955E-003	2.338525E-002	-2.532563E-003	-1.087253E-001	1.380004E-002
4.100000E+008	2.271526E-002	3.627475E-003	2.335988E-002	-2.589165E-003	2.338030E-002	-2.596567E-003	-1.084443E-001	1.410663E-002
4.200000E+008	2.273702E-002	3.628137E-003	2.335443E-002	-2.646773E-003	2.337714E-002	-2.662923E-003	-1.082021E-001	1.448545E-002
4.300000E+008	2.277569E-002	3.644263E-003	2.335214E-002	-2.716954E-003	2.335790E-002	-2.708720E-003	-1.079955E-001	1.488397E-002
4.400000E+008	2.281914E-002	3.701285E-003	2.333469E-002	-2.784905E-003	2.336308E-002	-2.771376E-003	-1.077973E-001	1.529669E-002
4.500000E+008	2.286240E-002	3.734685E-003	2.332446E-002	-2.836888E-003	2.333781E-002	-2.835833E-003	-1.075929E-001	1.571736E-002
4.600000E+008	2.292261E-002	3.759642E-003	2.330995E-002	-2.901606E-003	2.331494E-002	-2.901203E-003	-1.074024E-001	1.618468E-002
4.700000E+008	2.295479E-002	3.796552E-003	2.329851E-002	-2.975983E-003	2.331074E-002	-2.963268E-003	-1.072254E-001	1.654463E-002
4.800000E+008	2.297144E-002	3.877914E-003	2.328579E-002	-3.027086E-003	2.329541E-002	-3.009473E-003	-1.070684E-001	1.693446E-002
4.900000E+008	2.296335E-002	3.949147E-003	2.327027E-002	-3.089590E-003	2.329680E-002	-3.080188E-003	-1.069001E-001	1.731168E-002
5.000000E+008	2.298768E-002	4.015667E-003	2.325866E-002	-3.143115E-003	2.327577E-002	-3.128444E-003	-1.067376E-001	1.767285E-002
5.100000E+008	2.298110E-002	4.084707E-003	2.324242E-002	-3.200641E-003	2.327236E-002	-3.193946E-003	-1.065504E-001	1.804359E-002
5.200000E+008	2.296859E-002	4.127504E-003	2.323298E-002	-3.265145E-003	2.324703E-002	-3.262511E-003	-1.063756E-001	1.841974E-002
5.300000E+008	2.294078E-002	4.135003E-003	2.321635E-002	-3.329728E-003	2.322628E-002	-3.311475E-003	-1.061385E-001	1.876196E-002
5.400000E+008	2.292486E-002	4.119679E-003	2.320241E-002	-3.376483E-003	2.322447E-002	-3.372942E-003	-1.058883E-001	1.911756E-002
5.500000E+008	2.290060E-002	4.130347E-003	2.318980E-002	-3.435829E-003	2.320211E-002	-3.433017E-003	-1.056765E-001	1.949547E-002
5.600000E+008	2.290094E-002	4.103754E-003	2.317687E-002	-3.495942E-003	2.319153E-002	-3.490694E-003	-1.054471E-001	1.987947E-002
5.700000E+008	2.291395E-002	4.066327E-003	2.315963E-002	-3.551365E-003	2.317543E-002	-3.551390E-003	-1.052844E-001	2.031724E-002
5.800000E+008	2.293072E-002	4.051351E-003	2.314598E-002	-3.596024E-003	2.316553E-002	-3.618095E-003	-1.050833E-001	2.072443E-002
5.900000E+008	2.296842E-002	4.016873E-003	2.312723E-002	-3.682770E-003	2.315490E-002	-3.671387E-003	-1.048925E-001	2.119452E-002
6.000000E+008	2.305870E-002	3.988691E-003	2.311862E-002	-3.728956E-003	2.314964E-002	-3.734656E-003	-1.046838E-001	2.160441E-002
6.100000E+008	2.314487E-002	3.986108E-003	2.310391E-002	-3.789530E-003	2.312795E-002	-3.795367E-003	-1.045150E-001	2.202855E-002
6.200000E+008	2.323827E-002	4.028265E-003	2.307991E-002	-3.854067E-003	2.310911E-002	-3.857698E-003	-1.043204E-001	2.243258E-002
6.300000E+008	2.333557E-002	4.064441E-003	2.307969E-002	-3.915004E-003	2.308648E-002	-3.900384E-003	-1.041421E-001	2.284137E-002
6.400000E+008	2.341479E-002	4.130391E-003	2.305428E-002	-3.967555E-003	2.307007E-002	-3.960088E-003	-1.039520E-001	2.323342E-002
6.500000E+008	2.349243E-002	4.193202E-003	2.303615E-002	-4.024069E-003	2.307169E-002	-4.006903E-003	-1.037674E-001	2.365176E-002
6.600000E+008	2.355458E-002	4.249776E-003	2.301326E-002	-4.075711E-003	2.303739E-002	-4.071086E-003	-1.035778E-001	2.404669E-002
6.700000E+008	2.356071E-002	4.322300E-003	2.301254E-002	-4.134679E-003	2.304438E-002	-4.142290E-003	-1.033944E-001	2.448291E-002
6.800000E+008	2.357191E-002	4.388995E-003	2.299748E-002	-4.185733E-003	2.301866E-002	-4.192036E-003	-1.032112E-001	2.491843E-002
6.900000E+008	2.357557E-002	4.468869E-003	2.298388E-002	-4.242640E-003	2.298214E-002	-4.251343E-003	-1.030032E-001	2.535828E-002
7.000000E+008	2.359310E-002	4.525083E-003	2.295873E-002	-4.302275E-003	2.297585E-002	-4.299971E-003	-1.028689E-001	2.579430E-002
7.100000E+008	2.360181E-002	4.582760E-003	2.295098E-002	-4.360808E-003	2.295776E-002	-4.359307E-003	-1.027397E-001	2.623578E-002
7.200000E+008	2.359402E-002	4.615721E-003	2.293006E-002	-4.418223E-003	2.295298E-002	-4.410247E-003	-1.026033E-001	2.665387E-002
7.300000E+008	2.359275E-002	4.634888E-003	2.291598E-002	-4.466550E-003	2.294365E-002	-4.480464E-003	-1.024842E-001	2.704759E-002
7.400000E+008	2.357263E-002	4.666835E-003	2.288838E-002	-4.530223E-003	2.290364E-002	-4.529422E-003	-1.023644E-001	2.741652E-002
7.500000E+008	2.360412E-002	4.704116E-003	2.288023E-002	-4.594725E-003	2.288452E-002	-4.594144E-003	-1.022543E-001	2.779598E-002
7.600000E+008	2.359839E-002	4.695985E-003	2.287193E-002	-4.656077E-003	2.289281E-002	-4.640167E-003	-1.021021E-001	2.814075E-002
7.700000E+008	2.360737E-002	4.691523E-003	2.284460E-002	-4.703781E-003	2.286249E-002	-4.700314E-003	-1.019667E-001	2.845094E-002
7.800000E+008	2.362584E-002	4.695559E-003	2.283294E-002	-4.752809E-003	2.286598E-002	-4.754308E-003	-1.017637E-001	2.877259E-002
7.900000E+008	2.363772E-002	4.655453E-003	2.282026E-002	-4.821688E-003	2.282669E-002	-4.805708E-003	-1.016078E-001	2.910510E-002
8.000000E+008	2.368073E-002	4.640249E-003	2.279337E-002	-4.878666E-003	2.280784E-002	-4.880227E-003	-1.013574E-001	2.948625E-002
8.100000E+008	2.373769E-002	4.613726E-003	2.278420E-002	-4.918010E-003	2.279626E-002	-4.930695E-003	-1.010921E-001	2.986497E-002
8.200000E+008	2.381468E-002	4.604320E-003	2.276454E-002	-4.984087E-003	2.279269E-002	-4.980833E-003	-1.008606E-001	3.022794E-002
8.300000E+008	2.391234E-002	4.601739E-003	2.274226E-002	-5.036657E-003	2.275380E-002	-5.031535E-003	-1.006378E-001	3.063887E-002
8.400000E+008	2.398690E-002	4.634329E-003	2.272150E-002	-5.079951E-003	2.273421E-002	-5.089382E-003	-1.004276E-001	3.102478E-002
8.500000E+008	2.410291E-002	4.653571E-003	2.270312E-002	-5.153584E-003	2.272734E-002	-5.146516E-003	-1.002830E-001	3.141831E-002
8.600000E+008	2.415146E-002	4.710393E-003	2.269370E-002	-5.198277E-003	2.269349E-002	-5.193577E-003	-1.001176E-001	3.180927E-002
8.700000E+008	2.422139E-002	4.783955E-003	2.267717E-002	-5.262866E-003	2.269456E-002	-5.260776E-003	-9.995620E-002	3.219231E-002
8.800000E+008	2.429643E-002	4.851554E-003	2.266636E-002	-5.308179E-003	2.267575E-002	-5.310119E-003	-9.980103E-002	3.254529E-002
8.900000E+008	2.431753E-002	4.927232E-003	2.264776E-002	-5.366690E-003	2.264982E-002	-5.368814E-003	-9.965575E-002	3.286435E-002
9.000000E+008	2.435216E-002	4.954847E-003	2.260521E-002	-5.430420E-003	2.263543E-002	-5.421472E-003	-9.944552E-002	3.320107E-002
9.100000E+008	2.435945E-002	5.001811E-003	2.259278E-002	-5.480082E-003	2.261420E-002	-5.484995E-003	-9.921474E-002	3.351374E-002
9.200000E+008	2.435902E-002	5.014523E-003	2.257659E-002	-5.527372E-003	2.258531E-002	-5.531795E-003	-9.896276E-002	3.386699E-002
9.300000E+008	2.443448E-002	5.033361E-003	2.255906E-002	-5.582252E-003	2.257176E-002	-5.588821E-003	-9.865625E-002	3.421853E-002
9.400000E+008	2.449394E-002	5.038028E-003	2.254109E-002	-5.633958E-003	2.255838E-002	-5.631069E-003	-9.832840E-002	3.460676E-002
9.500000E+008	2.454789E-002	5.044012E-003	2.251867E-002	-5.688232E-003	2.254430E-002	-5.702529E-003	-9.801333E-002	3.504216E-002
9.600000E+008	2.461390E-002	5.078624E-003	2.249072E-002	-5.745089E-003	2.251823E-002	-5.759462E-003	-9.768430E-002	3.546585E-002
9.700000E+008	2.467859E-002	5.115932E-003	2.248335E-002	-5.806912E-003	2.250469E-002	-5.812558E-003	-9.738773E-002	3.590798E-002
9.800000E+008	2.476848E-002	5.166185E-003	2.246208E-002	-5.854908E-003	2.248049E-002	-5.858338E-003	-9.712253E-002	3.636515E-002
9.900000E+008	2.484965E-002	5.227925E-003	2.245794E-002	-5.899022E-003	2.246269E-002	-5.917414E-003	-9.685246E-002	3.682800E-002
1.000000E+009	2.491145E-002	5.309105E-003	2.242630E-002	-5.976146E-003	2.245125E-002	-5.963831E-003	-9.664164E-002	3.725167E-002
1.010000E+009	2.496568E-002	5.395363E-003	2.239716E-002	-6.032568E-003	2.242686E-002	-6.028687E-003	-9.641201E-002	3.771691E-002
1.020000E+009	2.500790E-002	5.461324E-003	2.239674E-002	-6.074148E-003	2.240179E-002	-6.080218E-003	-9.621839E-002	3.814611E-002
1.030000E+009	2.506311E-002	5.530443E-003	2.237453E-002	-6.123624E-003	2.238676E-002	-6.132851E-003	-9.599939E-002	3.856424E-002
1.040000E+009	2.509144E-002	5.609743E-003	2.235542E-002	-6.175302E-003	2.237092E-002	-6.195554E-003	-9.578622E-002	3.898695E-002
1.050000E+009	2.513148E-002	5.655572E-003	2.232919E-002	-6.231440E-003	2.235041E-002	-6.240263E-003	-9.553817E-002	3.946038E-002
1.060000E+009	2.518176E-002	5.722760E-003	2.231284E-002	-6.287321E-003	2.232879E-002	-6.289167E-003	-9.526835E-002	3.988561E-002
1.070000E+009	2.519989E-002	5.757382E-003	2.228548E-002	-6.343602E-003	2.231362E-002	-6.330735E-003	-9.500382E-002	4.033688E-002
1.080000E+009	2.524250E-002	5.814537E-003	2.226704E-002	-6.398515E-003	2.229583E-002	-6.398743E-003	-9.473479E-002	4.078913E-002
1.090000E+009	2.528004E-002	5.872624E-003	2.224911E-002	-6.446659E-003	2.227314E-002	-6.462430E-003	-9.451269E-002	4.121434E-002
1.100000E+009	2.531763E-002	5.926558E-003	2.223011E-002	-6.507152E-003	2.226256E-002	-6.505854E-003	-9.429158E-002	4.167647E-002
1.110000E+009	2.535398E-002	5.970748E-003	2.221944E-002	-6.561117E-003	2.223481E-002	-6.544735E-003	-9.407198E-002	4.210473E-002
1.120000E+009	2.537252E-002	6.012709E-003	2.220425E-002	-6.614143E-003	2.220163E-002	-6.626526E-003	-9.388624E-002	4.250243E-002
1.130000E+009	2.542746E-002	6.061006E-003	2.217662E-002	-6.660941E-003	2.219177E-002	-6.663084E-003	-9.367694E-002	4.292081E-002
1.140000E+009	2.545390E-002	6.124804E-003	2.216456E-002	-6.720461E-003	2.218670E-002	-6.715041E-003	-9.343307E-002	4.333873E-002
1.150000E+009	2.550161E-002	6.174343E-003	2.213422E-002	-6.765632E-003	2.215398E-002	-6.777041E-003	-9.320074E-002	4.375688E-002
1.160000E+009	2.553533E-002	6.229471E-003	2.211827E-002	-6.820150E-003	2.211124E-002	-6.837679E-003	-9.295444E-002	4.415973E-002
1.170000E+009	2.557784E-002	6.283089E-003	2.208156E-002	-6.868975E-003	2.210760E-002	-6.865268E-003	-9.267478E-002	4.461403E-002
1.180000E+009	2.561202E-002	6.338051E-003	2.206204E-002	-6.928542E-003	2.208174E-002	-6.941250E-003	-9.240219E-002	4.505486E-002
1.190000E+009	2.562160E-002	6.379158E-003	2.204106E-002	-6.995478E-003	2.206172E-002	-6.981994E-003	-9.213578E-002	4.553091E-002
1.200000E+009	2.564782E-002	6.436052E-003	2.201776E-002	-7.032354E-003	2.202311E-002	-7.046136E-003	-9.184711E-002	4.599571E-002
1.210000E+009	2.569934E-002	6.448266E-003	2.199952E-002	-7.083821E-003	2.202243E-002	-7.116915E-003	-9.160466E-002	4.647482E-002
1.220000E+009	2.575041E-002	6.466526E-003	2.197222E-002	-7.143659E-003	2.198775E-002	-7.158130E-003	-9.140275E-002	4.691423E-002
1.230000E+009	2.578489E-002	6.467293E-003	2.194697E-002	-7.204338E-003	2.198211E-002	-7.198622E-003	-9.116576E-002	4.730535E-002
1.240000E+009	2.582642E-002	6.481685E-003	2.193409E-002	-7.276906E-003	2.193974E-002	-7.262461E-003	-9.097700E-002	4.771786E-002
1.250000E+009	2.592883E-002	6.481801E-003	2.190353E-002	-7.320445E-003	2.192280E-002	-7.299928E-003	-9.076202E-002	4.812650E-002
1.260000E+009	2.599451E-002	6.514662E-003	2.190175E-002	-7.354374E-003	2.189693E-002	-7.370919E-003	-9.051100E-002	4.848458E-002
1.270000E+009	2.613285E-002	6.543079E-003	2.186915E-002	-7.419618E-003	2.186973E-002	-7.416323E-003	-9.022049E-002	4.884015E-002
1.280000E+009	2.619884E-002	6.592946E-003	2.186110E-002	-7.468449E-003	2.185949E-002	-7.461081E-003	-8.993921E-002	4.918404E-002
1.290000E+009	2.628901E-002	6.671724E-003	2.182224E-002	-7.518730E-003	2.183010E-002	-7.524337E-003	-8.962178E-002	4.955518E-002
1.300000E+009	2.639812E-002	6.749605E-003	2.179858E-002	-7.573157E-003	2.180706E-002	-7.575677E-003	-8.926841E-002	4.995029E-002
1.310000E+009	2.644528E-002	6.826413E-003	2.176400E-002	-7.628555E-003	2.178728E-002	-7.645082E-003	-8.892079E-002	5.037743E-002
1.320000E+009	2.650823E-002	6.899740E-003	2.175192E-002	-7.680334E-003	2.176344E-002	-7.694146E-003	-8.853634E-002	5.081889E-002
1.330000E+009	2.656922E-002	6.991176E-003	2.172934E-002	-7.729438E-003	2.173559E-002	-7.747519E-003	-8.814225E-002	5.130409E-002
1.340000E+009	2.660270E-002	7.094493E-003	2.170266E-002	-7.786449E-003	2.171639E-002	-7.778717E-003	-8.775947E-002	5.182742E-002
1.350000E+009	2.666055E-002	7.151253E-003	2.167356E-002	-7.843750E-003	2.169948E-002	-7.860927E-003	-8.740962E-002	5.234897E-002
1.360000E+009	2.672297E-002	7.205408E-003	2.165705E-002	-7.902559E-003	2.166301E-002	-7.903278E-003	-8.704636E-002	5.290569E-002
1.370000E+009	2.677275E-002	7.290053E-003	2.163141E-002	-7.952637E-003	2.164448E-002	-7.945911E-003	-8.673707E-002	5.344343E-002
1.380000E+009	2.684630E-002	7.356455E-003	2.160557E-002	-8.002134E-003	2.161647E-002	-7.995874E-003	-8.641340E-002	5.398652E-002
1.390000E+009	2.689948E-002	7.395413E-003	2.157295E-002	-8.054039E-003	2.159898E-002	-8.061308E-003	-8.613883E-002	5.456141E-002
1.400000E+009	2.696107E-002	7.456195E-003	2.153816E-002	-8.104802E-003	2.155820E-002	-8.096882E-003	-8.585832E-002	5.510601E-002
1.410000E+009	2.701131E-002	7.558467E-003	2.152333E-002	-8.164859E-003	2.153037E-002	-8.164304E-003	-8.558999E-002	5.562381E-002
1.420000E+009	2.706162E-002	7.634053E-003	2.148963E-002	-8.203644E-003	2.151127E-002	-8.201496E-003	-8.533630E-002	5.613572E-002
1.430000E+009	2.711533E-002	7.723749E-003	2.146492E-002	-8.267003E-003	2.149109E-002	-8.276521E-003	-8.507295E-002	5.660375E-002
1.440000E+009	2.714302E-002	7.789392E-003	2.144012E-002	-8.307163E-003	2.145504E-002	-8.319149E-003	-8.479007E-002	5.708158E-002
1.450000E+009	2.717724E-002	7.860187E-003	2.140111E-002	-8.372527E-003	2.142662E-002	-8.353285E-003	-8.447201E-002	5.755214E-002
1.460000E+009	2.718867E-002	7.927040E-003	2.138778E-002	-8.426423E-003	2.140216E-002	-8.432651E-003	-8.416372E-002	5.804135E-002
1.470000E+009	2.723260E-002	7.969457E-003	2.134121E-002	-8.464279E-003	2.137953E-002	-8.476625E-003	-8.380824E-002	5.854644E-002
1.480000E+009	2.728267E-002	8.038007E-003	2.131877E-002	-8.520813E-003	2.133400E-002	-8.529622E-003	-8.349043E-002	5.908078E-002
1.490000E+009	2.733591E-002	8.073866E-003	2.130711E-002	-8.566960E-003	2.131271E-002	-8.571285E-003	-8.310674E-002	5.961918E-002
1.500000E+009	2.738983E-002	8.127644E-003	2.128379E-002	-8.623201E-003	2.129963E-002	-8.614347E-003	-8.273753E-002	6.017298E-002
1.510000E+009	2.746496E-002	8.181814E-003	2.125909E-002	-8.671474E-003	2.126063E-002	-8.662585E-003	-8.240496E-002	6.072400E-002
