! Device ID: PE43711P
! File Path: z:\PE43711P\CHAR_NOM_04282014\AMB\3p300\LS_ATT_29p75dB\PE43711P_AMB_3p300V_3p000V_0p000V_LS_ATT_29p75dB_S2P_SN_5_A0137A.s2p
! Serial: 5
! Lot: A0137A
! Temp: 25C
! VDD: 3.300
! VSS: 0.000
! Control_Hi: 3.000
! Control_Lo: 0.000
! Attenuation Step: 29.75dB
! Port 1: RF1
! Port 2: RF2
! ThroughPath:1-2
! IDD: 0.0001277156
! ISS: -9.47e-008
!

#  Hz  S   RI  R   50

1.000000E+007	1.959426E-002	5.700384E-004	2.809290E-002	-8.797284E-005	2.812670E-002	-1.237586E-004	-1.028942E-001	7.885377E-004
2.000000E+007	1.985246E-002	7.524447E-004	2.808887E-002	-1.582532E-004	2.811884E-002	-1.729610E-004	-1.025914E-001	1.408320E-003
3.000000E+007	2.011885E-002	9.426432E-004	2.809812E-002	-2.456490E-004	2.810679E-002	-2.382104E-004	-1.022945E-001	1.865613E-003
4.000000E+007	2.029593E-002	1.111864E-003	2.810097E-002	-3.219244E-004	2.811528E-002	-3.258736E-004	-1.021338E-001	2.384927E-003
5.000000E+007	2.039816E-002	1.292795E-003	2.809136E-002	-4.191909E-004	2.811816E-002	-4.001495E-004	-1.020846E-001	2.916770E-003
6.000000E+007	2.055729E-002	1.407477E-003	2.809721E-002	-4.911797E-004	2.812288E-002	-4.928486E-004	-1.019480E-001	3.333668E-003
7.000000E+007	2.071250E-002	1.503477E-003	2.808403E-002	-5.633430E-004	2.811369E-002	-5.783574E-004	-1.017788E-001	3.742780E-003
8.000000E+007	2.084733E-002	1.609386E-003	2.809491E-002	-6.511260E-004	2.810561E-002	-6.390252E-004	-1.016102E-001	4.140406E-003
9.000000E+007	2.098717E-002	1.712887E-003	2.807834E-002	-7.265052E-004	2.810416E-002	-7.137686E-004	-1.015087E-001	4.486038E-003
1.000000E+008	2.113204E-002	1.809561E-003	2.807939E-002	-8.084107E-004	2.810577E-002	-7.980208E-004	-1.014459E-001	4.842980E-003
1.100000E+008	2.127539E-002	1.883225E-003	2.808265E-002	-8.963686E-004	2.810023E-002	-8.894231E-004	-1.013624E-001	5.157712E-003
1.200000E+008	2.144068E-002	1.933074E-003	2.806770E-002	-9.621311E-004	2.809089E-002	-9.562407E-004	-1.012592E-001	5.448307E-003
1.300000E+008	2.157110E-002	2.020336E-003	2.806019E-002	-1.047070E-003	2.809231E-002	-1.044302E-003	-1.011524E-001	5.741706E-003
1.400000E+008	2.167835E-002	2.147325E-003	2.805183E-002	-1.121465E-003	2.807690E-002	-1.137899E-003	-1.010303E-001	6.042440E-003
1.500000E+008	2.174916E-002	2.257299E-003	2.804586E-002	-1.202896E-003	2.807079E-002	-1.195371E-003	-1.009512E-001	6.348997E-003
1.600000E+008	2.184737E-002	2.390821E-003	2.804605E-002	-1.274064E-003	2.805181E-002	-1.281116E-003	-1.008733E-001	6.642705E-003
1.700000E+008	2.194615E-002	2.506233E-003	2.803896E-002	-1.359428E-003	2.806798E-002	-1.352601E-003	-1.007979E-001	6.939775E-003
1.800000E+008	2.200909E-002	2.599939E-003	2.803331E-002	-1.443952E-003	2.806788E-002	-1.439416E-003	-1.007098E-001	7.220929E-003
1.900000E+008	2.203060E-002	2.660998E-003	2.801065E-002	-1.523612E-003	2.805022E-002	-1.511624E-003	-1.006618E-001	7.459756E-003
2.000000E+008	2.200155E-002	2.704304E-003	2.801263E-002	-1.596509E-003	2.803574E-002	-1.601498E-003	-1.006038E-001	7.659639E-003
2.100000E+008	2.200816E-002	2.706996E-003	2.799213E-002	-1.667765E-003	2.803103E-002	-1.671453E-003	-1.005393E-001	7.822310E-003
2.200000E+008	2.202532E-002	2.721771E-003	2.799906E-002	-1.749895E-003	2.802346E-002	-1.738963E-003	-1.004277E-001	7.992355E-003
2.300000E+008	2.206894E-002	2.739695E-003	2.798324E-002	-1.825177E-003	2.801484E-002	-1.825789E-003	-1.002920E-001	8.158450E-003
2.400000E+008	2.214236E-002	2.736453E-003	2.798706E-002	-1.913619E-003	2.799942E-002	-1.898749E-003	-1.001266E-001	8.375431E-003
2.500000E+008	2.220830E-002	2.760066E-003	2.798518E-002	-1.974644E-003	2.799174E-002	-1.976280E-003	-9.993277E-002	8.564643E-003
2.600000E+008	2.229730E-002	2.764732E-003	2.796318E-002	-2.056000E-003	2.799505E-002	-2.070502E-003	-9.970438E-002	8.826152E-003
2.700000E+008	2.243744E-002	2.805214E-003	2.794714E-002	-2.127135E-003	2.796441E-002	-2.137949E-003	-9.948509E-002	9.126337E-003
2.800000E+008	2.255450E-002	2.842177E-003	2.793518E-002	-2.206543E-003	2.795145E-002	-2.211392E-003	-9.928039E-002	9.408852E-003
2.900000E+008	2.262237E-002	2.914332E-003	2.792203E-002	-2.294058E-003	2.793810E-002	-2.283617E-003	-9.913617E-002	9.703948E-003
3.000000E+008	2.268875E-002	3.036121E-003	2.790951E-002	-2.364957E-003	2.794382E-002	-2.350049E-003	-9.899497E-002	1.003789E-002
3.100000E+008	2.274396E-002	3.127417E-003	2.789742E-002	-2.437690E-003	2.792414E-002	-2.445968E-003	-9.887856E-002	1.037153E-002
3.200000E+008	2.276930E-002	3.249395E-003	2.788960E-002	-2.530585E-003	2.792666E-002	-2.514041E-003	-9.879058E-002	1.069291E-002
3.300000E+008	2.277706E-002	3.367827E-003	2.788756E-002	-2.596300E-003	2.790776E-002	-2.591612E-003	-9.869305E-002	1.096798E-002
3.400000E+008	2.276060E-002	3.452360E-003	2.786745E-002	-2.671171E-003	2.788694E-002	-2.686052E-003	-9.857367E-002	1.122703E-002
3.500000E+008	2.273358E-002	3.514103E-003	2.786301E-002	-2.761473E-003	2.786470E-002	-2.766827E-003	-9.844169E-002	1.145097E-002
3.600000E+008	2.269452E-002	3.558379E-003	2.784149E-002	-2.830481E-003	2.784419E-002	-2.814362E-003	-9.827243E-002	1.168036E-002
3.700000E+008	2.269008E-002	3.606532E-003	2.782887E-002	-2.905614E-003	2.784718E-002	-2.881523E-003	-9.808586E-002	1.188791E-002
3.800000E+008	2.267740E-002	3.616212E-003	2.779835E-002	-2.976263E-003	2.782326E-002	-2.964623E-003	-9.787204E-002	1.212410E-002
3.900000E+008	2.264369E-002	3.617880E-003	2.779474E-002	-3.052625E-003	2.782649E-002	-3.046538E-003	-9.761534E-002	1.242433E-002
4.000000E+008	2.269014E-002	3.621924E-003	2.776850E-002	-3.125396E-003	2.780350E-002	-3.120043E-003	-9.730825E-002	1.271159E-002
4.100000E+008	2.269525E-002	3.622199E-003	2.776701E-002	-3.188102E-003	2.778705E-002	-3.197301E-003	-9.703731E-002	1.301291E-002
4.200000E+008	2.273943E-002	3.625005E-003	2.776752E-002	-3.267884E-003	2.778193E-002	-3.267417E-003	-9.681506E-002	1.334996E-002
4.300000E+008	2.276870E-002	3.639892E-003	2.774212E-002	-3.343160E-003	2.776559E-002	-3.349174E-003	-9.660830E-002	1.373596E-002
4.400000E+008	2.280140E-002	3.703313E-003	2.773304E-002	-3.416195E-003	2.775760E-002	-3.412990E-003	-9.643351E-002	1.414219E-002
4.500000E+008	2.286142E-002	3.714843E-003	2.771349E-002	-3.496207E-003	2.774411E-002	-3.490985E-003	-9.625196E-002	1.455396E-002
4.600000E+008	2.290464E-002	3.758886E-003	2.770138E-002	-3.580014E-003	2.772968E-002	-3.574225E-003	-9.606136E-002	1.497280E-002
4.700000E+008	2.294482E-002	3.804460E-003	2.768474E-002	-3.649740E-003	2.770575E-002	-3.643438E-003	-9.589753E-002	1.533237E-002
4.800000E+008	2.296177E-002	3.877072E-003	2.766947E-002	-3.708712E-003	2.768585E-002	-3.712914E-003	-9.573690E-002	1.570760E-002
4.900000E+008	2.295065E-002	3.943883E-003	2.764933E-002	-3.788888E-003	2.767649E-002	-3.785105E-003	-9.558982E-002	1.605898E-002
5.000000E+008	2.296382E-002	4.015386E-003	2.763310E-002	-3.846985E-003	2.765809E-002	-3.853441E-003	-9.543754E-002	1.640316E-002
5.100000E+008	2.298830E-002	4.079228E-003	2.761738E-002	-3.946322E-003	2.764209E-002	-3.932039E-003	-9.526951E-002	1.675568E-002
5.200000E+008	2.296929E-002	4.118302E-003	2.760752E-002	-4.009099E-003	2.761502E-002	-4.022418E-003	-9.509528E-002	1.710210E-002
5.300000E+008	2.294411E-002	4.144095E-003	2.758485E-002	-4.077317E-003	2.761899E-002	-4.081058E-003	-9.487649E-002	1.743781E-002
5.400000E+008	2.291965E-002	4.118656E-003	2.757233E-002	-4.150718E-003	2.759156E-002	-4.157700E-003	-9.464822E-002	1.777620E-002
5.500000E+008	2.289170E-002	4.128359E-003	2.754684E-002	-4.226030E-003	2.757110E-002	-4.221921E-003	-9.446191E-002	1.814271E-002
5.600000E+008	2.288929E-002	4.102123E-003	2.754654E-002	-4.295696E-003	2.754598E-002	-4.303035E-003	-9.423042E-002	1.851411E-002
5.700000E+008	2.290643E-002	4.062584E-003	2.751020E-002	-4.371433E-003	2.754270E-002	-4.373162E-003	-9.407206E-002	1.893268E-002
5.800000E+008	2.292599E-002	4.050356E-003	2.750269E-002	-4.450331E-003	2.753869E-002	-4.444823E-003	-9.389085E-002	1.933970E-002
5.900000E+008	2.298153E-002	4.015817E-003	2.748395E-002	-4.515802E-003	2.751399E-002	-4.520931E-003	-9.371010E-002	1.979710E-002
6.000000E+008	2.304226E-002	3.976009E-003	2.745425E-002	-4.589162E-003	2.748569E-002	-4.595710E-003	-9.349920E-002	2.019929E-002
6.100000E+008	2.313136E-002	3.985091E-003	2.744331E-002	-4.653682E-003	2.746626E-002	-4.657740E-003	-9.334848E-002	2.059844E-002
6.200000E+008	2.322009E-002	4.025540E-003	2.742209E-002	-4.738461E-003	2.743866E-002	-4.734883E-003	-9.316557E-002	2.098641E-002
6.300000E+008	2.331761E-002	4.068082E-003	2.740152E-002	-4.806837E-003	2.742934E-002	-4.802792E-003	-9.300052E-002	2.137999E-002
6.400000E+008	2.340397E-002	4.116104E-003	2.737651E-002	-4.875375E-003	2.740746E-002	-4.873623E-003	-9.283155E-002	2.176085E-002
6.500000E+008	2.348553E-002	4.198429E-003	2.735583E-002	-4.945873E-003	2.739520E-002	-4.946557E-003	-9.264826E-002	2.216593E-002
6.600000E+008	2.352741E-002	4.245837E-003	2.735059E-002	-5.012544E-003	2.736703E-002	-5.030443E-003	-9.248422E-002	2.255034E-002
6.700000E+008	2.354651E-002	4.323046E-003	2.733813E-002	-5.089054E-003	2.734816E-002	-5.091041E-003	-9.229909E-002	2.297630E-002
6.800000E+008	2.355654E-002	4.392267E-003	2.731613E-002	-5.157768E-003	2.732588E-002	-5.160112E-003	-9.213302E-002	2.339044E-002
6.900000E+008	2.355475E-002	4.468704E-003	2.728791E-002	-5.225026E-003	2.731368E-002	-5.235585E-003	-9.194131E-002	2.384802E-002
7.000000E+008	2.359088E-002	4.527684E-003	2.726259E-002	-5.301242E-003	2.729197E-002	-5.293179E-003	-9.179474E-002	2.424950E-002
7.100000E+008	2.358893E-002	4.573296E-003	2.724998E-002	-5.370893E-003	2.726538E-002	-5.355457E-003	-9.168121E-002	2.466446E-002
7.200000E+008	2.356759E-002	4.604024E-003	2.722447E-002	-5.431305E-003	2.725837E-002	-5.426141E-003	-9.154107E-002	2.509666E-002
7.300000E+008	2.358398E-002	4.642606E-003	2.720919E-002	-5.513482E-003	2.723429E-002	-5.518241E-003	-9.144588E-002	2.547072E-002
7.400000E+008	2.355893E-002	4.680593E-003	2.719631E-002	-5.575968E-003	2.721492E-002	-5.570078E-003	-9.134203E-002	2.583207E-002
7.500000E+008	2.357797E-002	4.703700E-003	2.716107E-002	-5.646499E-003	2.718450E-002	-5.647465E-003	-9.123993E-002	2.617461E-002
7.600000E+008	2.357339E-002	4.700875E-003	2.713250E-002	-5.724737E-003	2.715498E-002	-5.708238E-003	-9.109438E-002	2.652217E-002
7.700000E+008	2.358578E-002	4.692042E-003	2.712206E-002	-5.793051E-003	2.715256E-002	-5.782758E-003	-9.095685E-002	2.681088E-002
7.800000E+008	2.361163E-002	4.689431E-003	2.710880E-002	-5.852408E-003	2.714218E-002	-5.852819E-003	-9.078925E-002	2.713583E-002
7.900000E+008	2.363031E-002	4.655771E-003	2.708625E-002	-5.917282E-003	2.710367E-002	-5.938304E-003	-9.061304E-002	2.747268E-002
8.000000E+008	2.367399E-002	4.644880E-003	2.705521E-002	-5.998179E-003	2.708219E-002	-6.001904E-003	-9.040627E-002	2.782429E-002
8.100000E+008	2.372477E-002	4.604603E-003	2.704248E-002	-6.058523E-003	2.706211E-002	-6.079039E-003	-9.013563E-002	2.818218E-002
8.200000E+008	2.379927E-002	4.613290E-003	2.702081E-002	-6.137922E-003	2.703980E-002	-6.143982E-003	-8.991939E-002	2.854603E-002
8.300000E+008	2.389615E-002	4.598209E-003	2.698755E-002	-6.188079E-003	2.701723E-002	-6.206862E-003	-8.970547E-002	2.893425E-002
8.400000E+008	2.397517E-002	4.627292E-003	2.697095E-002	-6.268352E-003	2.699862E-002	-6.275748E-003	-8.950534E-002	2.932908E-002
8.500000E+008	2.408915E-002	4.670440E-003	2.695918E-002	-6.334398E-003	2.696458E-002	-6.331661E-003	-8.935473E-002	2.971438E-002
8.600000E+008	2.413806E-002	4.713875E-003	2.693206E-002	-6.410425E-003	2.694514E-002	-6.402184E-003	-8.919408E-002	3.009744E-002
8.700000E+008	2.421525E-002	4.782632E-003	2.691284E-002	-6.460298E-003	2.692815E-002	-6.479046E-003	-8.905001E-002	3.045188E-002
8.800000E+008	2.427752E-002	4.862617E-003	2.688237E-002	-6.538271E-003	2.690047E-002	-6.540226E-003	-8.889053E-002	3.080005E-002
8.900000E+008	2.430163E-002	4.921911E-003	2.685578E-002	-6.616946E-003	2.688317E-002	-6.629080E-003	-8.875235E-002	3.109865E-002
9.000000E+008	2.432705E-002	4.954045E-003	2.683846E-002	-6.688655E-003	2.685569E-002	-6.687229E-003	-8.856604E-002	3.145074E-002
9.100000E+008	2.434452E-002	5.015170E-003	2.681184E-002	-6.749440E-003	2.683904E-002	-6.752113E-003	-8.834764E-002	3.176870E-002
9.200000E+008	2.435000E-002	5.028188E-003	2.678320E-002	-6.821665E-003	2.682285E-002	-6.810123E-003	-8.807051E-002	3.210165E-002
9.300000E+008	2.442183E-002	5.036429E-003	2.676368E-002	-6.888317E-003	2.678935E-002	-6.897917E-003	-8.779236E-002	3.242775E-002
9.400000E+008	2.447772E-002	5.029301E-003	2.674488E-002	-6.955305E-003	2.676844E-002	-6.936180E-003	-8.747774E-002	3.283135E-002
9.500000E+008	2.455418E-002	5.036479E-003	2.671895E-002	-7.022645E-003	2.673761E-002	-7.020262E-003	-8.716533E-002	3.324329E-002
9.600000E+008	2.458605E-002	5.069369E-003	2.668170E-002	-7.096638E-003	2.671483E-002	-7.082566E-003	-8.684606E-002	3.365482E-002
9.700000E+008	2.467952E-002	5.100138E-003	2.666205E-002	-7.142059E-003	2.669827E-002	-7.154469E-003	-8.653963E-002	3.409202E-002
9.800000E+008	2.475789E-002	5.168760E-003	2.665923E-002	-7.217772E-003	2.666692E-002	-7.222023E-003	-8.628883E-002	3.456498E-002
9.900000E+008	2.484164E-002	5.236204E-003	2.662637E-002	-7.281504E-003	2.665151E-002	-7.301879E-003	-8.602413E-002	3.499549E-002
1.000000E+009	2.490520E-002	5.306940E-003	2.661281E-002	-7.347582E-003	2.662148E-002	-7.359026E-003	-8.582500E-002	3.541254E-002
1.010000E+009	2.495316E-002	5.386203E-003	2.658623E-002	-7.414007E-003	2.660883E-002	-7.415403E-003	-8.560228E-002	3.584453E-002
1.020000E+009	2.499703E-002	5.449649E-003	2.656601E-002	-7.477024E-003	2.657294E-002	-7.491991E-003	-8.541018E-002	3.629006E-002
1.030000E+009	2.505545E-002	5.523079E-003	2.652456E-002	-7.555269E-003	2.654860E-002	-7.556507E-003	-8.520332E-002	3.670960E-002
1.040000E+009	2.507118E-002	5.605593E-003	2.650106E-002	-7.619182E-003	2.653409E-002	-7.621560E-003	-8.498777E-002	3.712545E-002
1.050000E+009	2.511332E-002	5.649147E-003	2.647876E-002	-7.676006E-003	2.648776E-002	-7.695053E-003	-8.475214E-002	3.757889E-002
1.060000E+009	2.516488E-002	5.703558E-003	2.644721E-002	-7.744279E-003	2.648585E-002	-7.749120E-003	-8.448637E-002	3.798835E-002
1.070000E+009	2.518982E-002	5.761386E-003	2.644183E-002	-7.815563E-003	2.645139E-002	-7.825920E-003	-8.421914E-002	3.843109E-002
1.080000E+009	2.523261E-002	5.815639E-003	2.640654E-002	-7.881264E-003	2.643844E-002	-7.886817E-003	-8.396673E-002	3.886786E-002
1.090000E+009	2.525850E-002	5.858717E-003	2.638928E-002	-7.961665E-003	2.641315E-002	-7.948097E-003	-8.373311E-002	3.931238E-002
1.100000E+009	2.529967E-002	5.920039E-003	2.634396E-002	-8.014054E-003	2.637026E-002	-8.007525E-003	-8.350718E-002	3.974088E-002
1.110000E+009	2.533495E-002	5.981715E-003	2.632267E-002	-8.096855E-003	2.634763E-002	-8.075951E-003	-8.330564E-002	4.017089E-002
1.120000E+009	2.535994E-002	6.021524E-003	2.629969E-002	-8.150067E-003	2.632811E-002	-8.148050E-003	-8.311958E-002	4.056648E-002
1.130000E+009	2.540951E-002	6.069616E-003	2.629830E-002	-8.199922E-003	2.630831E-002	-8.225468E-003	-8.291901E-002	4.096240E-002
1.140000E+009	2.542632E-002	6.106947E-003	2.626215E-002	-8.286370E-003	2.627121E-002	-8.277485E-003	-8.269300E-002	4.138775E-002
1.150000E+009	2.548965E-002	6.162686E-003	2.622837E-002	-8.343110E-003	2.626662E-002	-8.352653E-003	-8.242956E-002	4.177730E-002
1.160000E+009	2.551361E-002	6.216670E-003	2.620513E-002	-8.421871E-003	2.621690E-002	-8.416820E-003	-8.218806E-002	4.217669E-002
1.170000E+009	2.555896E-002	6.290702E-003	2.617325E-002	-8.503093E-003	2.619942E-002	-8.476525E-003	-8.194446E-002	4.262174E-002
1.180000E+009	2.560707E-002	6.334690E-003	2.613959E-002	-8.560958E-003	2.615944E-002	-8.557097E-003	-8.165224E-002	4.305424E-002
1.190000E+009	2.560838E-002	6.390867E-003	2.612157E-002	-8.617392E-003	2.614354E-002	-8.607039E-003	-8.138852E-002	4.351078E-002
1.200000E+009	2.564427E-002	6.437922E-003	2.610341E-002	-8.687802E-003	2.611216E-002	-8.672846E-003	-8.111067E-002	4.397403E-002
1.210000E+009	2.569680E-002	6.446866E-003	2.606166E-002	-8.750973E-003	2.608096E-002	-8.757100E-003	-8.087936E-002	4.442778E-002
1.220000E+009	2.574354E-002	6.450952E-003	2.604654E-002	-8.819206E-003	2.607173E-002	-8.822561E-003	-8.066163E-002	4.484486E-002
1.230000E+009	2.576617E-002	6.494201E-003	2.599874E-002	-8.873384E-003	2.602962E-002	-8.900158E-003	-8.045653E-002	4.526383E-002
1.240000E+009	2.583061E-002	6.494432E-003	2.597318E-002	-8.941154E-003	2.600656E-002	-8.940714E-003	-8.025085E-002	4.565594E-002
1.250000E+009	2.592121E-002	6.488406E-003	2.595121E-002	-9.010613E-003	2.597210E-002	-9.005426E-003	-8.005324E-002	4.605763E-002
1.260000E+009	2.595980E-002	6.508224E-003	2.592367E-002	-9.078339E-003	2.596024E-002	-9.076755E-003	-7.978185E-002	4.641376E-002
1.270000E+009	2.611055E-002	6.549555E-003	2.589809E-002	-9.136521E-003	2.591523E-002	-9.148008E-003	-7.952022E-002	4.675151E-002
1.280000E+009	2.618626E-002	6.597313E-003	2.588635E-002	-9.217968E-003	2.590012E-002	-9.216253E-003	-7.923120E-002	4.711088E-002
1.290000E+009	2.628308E-002	6.659818E-003	2.582814E-002	-9.266430E-003	2.585991E-002	-9.290718E-003	-7.889793E-002	4.745244E-002
1.300000E+009	2.636251E-002	6.760013E-003	2.580230E-002	-9.336280E-003	2.582663E-002	-9.341767E-003	-7.855100E-002	4.784257E-002
1.310000E+009	2.644737E-002	6.823704E-003	2.576459E-002	-9.391093E-003	2.578978E-002	-9.391658E-003	-7.822532E-002	4.823928E-002
1.320000E+009	2.649644E-002	6.910104E-003	2.575368E-002	-9.476988E-003	2.577425E-002	-9.474190E-003	-7.784113E-002	4.870299E-002
1.330000E+009	2.656129E-002	6.997465E-003	2.571520E-002	-9.536431E-003	2.573614E-002	-9.545933E-003	-7.744431E-002	4.917570E-002
1.340000E+009	2.659028E-002	7.070207E-003	2.567738E-002	-9.589247E-003	2.571964E-002	-9.587639E-003	-7.707731E-002	4.968424E-002
1.350000E+009	2.661162E-002	7.140021E-003	2.567257E-002	-9.669275E-003	2.566808E-002	-9.660064E-003	-7.671077E-002	5.019963E-002
1.360000E+009	2.671605E-002	7.208295E-003	2.562124E-002	-9.720982E-003	2.564766E-002	-9.748268E-003	-7.635288E-002	5.072480E-002
1.370000E+009	2.674683E-002	7.296737E-003	2.558620E-002	-9.791918E-003	2.561935E-002	-9.808090E-003	-7.605473E-002	5.127921E-002
1.380000E+009	2.682164E-002	7.345118E-003	2.555726E-002	-9.858137E-003	2.559899E-002	-9.874750E-003	-7.573464E-002	5.181650E-002
1.390000E+009	2.688610E-002	7.392491E-003	2.552991E-002	-9.936916E-003	2.554913E-002	-9.931046E-003	-7.546120E-002	5.237965E-002
1.400000E+009	2.694346E-002	7.468640E-003	2.549813E-002	-9.993687E-003	2.552606E-002	-9.989628E-003	-7.518951E-002	5.287826E-002
1.410000E+009	2.699466E-002	7.555434E-003	2.545490E-002	-1.005324E-002	2.548603E-002	-1.007011E-002	-7.490679E-002	5.341627E-002
1.420000E+009	2.701952E-002	7.628183E-003	2.540774E-002	-1.011986E-002	2.545983E-002	-1.012876E-002	-7.465530E-002	5.391535E-002
1.430000E+009	2.709360E-002	7.712499E-003	2.539523E-002	-1.018833E-002	2.542213E-002	-1.018769E-002	-7.438222E-002	5.438698E-002
1.440000E+009	2.712893E-002	7.795495E-003	2.536318E-002	-1.023709E-002	2.537616E-002	-1.025140E-002	-7.409879E-002	5.485222E-002
1.450000E+009	2.714312E-002	7.866955E-003	2.533331E-002	-1.032384E-002	2.536631E-002	-1.032547E-002	-7.378511E-002	5.530770E-002
1.460000E+009	2.717999E-002	7.946079E-003	2.529447E-002	-1.037820E-002	2.532049E-002	-1.037488E-002	-7.346754E-002	5.578620E-002
1.470000E+009	2.722162E-002	7.974292E-003	2.526085E-002	-1.042993E-002	2.527291E-002	-1.044240E-002	-7.314708E-002	5.629022E-002
1.480000E+009	2.726561E-002	8.041463E-003	2.523488E-002	-1.048877E-002	2.524036E-002	-1.049833E-002	-7.279935E-002	5.680545E-002
1.490000E+009	2.730643E-002	8.073864E-003	2.518831E-002	-1.056792E-002	2.521960E-002	-1.055962E-002	-7.242602E-002	5.733267E-002
1.500000E+009	2.736809E-002	8.126235E-003	2.517671E-002	-1.062719E-002	2.516935E-002	-1.064153E-002	-7.207460E-002	5.787823E-002
1.510000E+009	2.745159E-002	8.205487E-003	2.512319E-002	-1.069937E-002	2.514063E-002	-1.068482E-002	-7.172718E-002	5.844181E-002
