! Device ID: PE43711P
! File Path: z:\PE43711P\CHAR_NOM_04282014\AMB\3p300\LS_ATT_19p50dB\PE43711P_AMB_3p300V_3p000V_0p000V_LS_ATT_19p50dB_S2P_SN_5_A0137A.s2p
! Serial: 5
! Lot: A0137A
! Temp: 25C
! VDD: 3.300
! VSS: 0.000
! Control_Hi: 3.000
! Control_Lo: 0.000
! Attenuation Step: 19.50dB
! Port 1: RF1
! Port 2: RF2
! ThroughPath:1-2
! IDD: 0.0001276376
! ISS: -2.092e-007
!

#  Hz  S   RI  R   50

1.000000E+007	5.324058E-002	1.726749E-004	9.246935E-002	-3.917672E-004	9.256204E-002	-4.262236E-004	-1.339464E-001	9.816201E-004
2.000000E+007	5.344678E-002	1.452016E-004	9.246298E-002	-6.369898E-004	9.250485E-002	-6.474259E-004	-1.336303E-001	1.601839E-003
3.000000E+007	5.370572E-002	6.763393E-005	9.244738E-002	-9.569253E-004	9.250817E-002	-9.485378E-004	-1.333211E-001	2.131210E-003
4.000000E+007	5.385895E-002	-5.795859E-005	9.245591E-002	-1.272781E-003	9.251612E-002	-1.282999E-003	-1.331474E-001	2.722249E-003
5.000000E+007	5.394695E-002	-1.841108E-004	9.242643E-002	-1.634837E-003	9.251793E-002	-1.612958E-003	-1.331123E-001	3.330639E-003
6.000000E+007	5.410942E-002	-3.499524E-004	9.241643E-002	-1.936118E-003	9.250097E-002	-1.936212E-003	-1.329632E-001	3.818711E-003
7.000000E+007	5.421728E-002	-5.324009E-004	9.239315E-002	-2.252830E-003	9.248097E-002	-2.248261E-003	-1.327822E-001	4.302360E-003
8.000000E+007	5.432730E-002	-7.250416E-004	9.238440E-002	-2.555305E-003	9.245553E-002	-2.551868E-003	-1.326167E-001	4.762465E-003
9.000000E+007	5.444201E-002	-9.005253E-004	9.236685E-002	-2.860343E-003	9.243972E-002	-2.868219E-003	-1.324959E-001	5.172574E-003
1.000000E+008	5.456120E-002	-1.076541E-003	9.235087E-002	-3.185152E-003	9.241570E-002	-3.184594E-003	-1.324268E-001	5.614230E-003
1.100000E+008	5.466141E-002	-1.289905E-003	9.233536E-002	-3.516486E-003	9.239332E-002	-3.507325E-003	-1.323355E-001	6.023715E-003
1.200000E+008	5.477122E-002	-1.513080E-003	9.228856E-002	-3.829038E-003	9.236932E-002	-3.816013E-003	-1.322292E-001	6.386723E-003
1.300000E+008	5.485977E-002	-1.707946E-003	9.226552E-002	-4.139892E-003	9.234900E-002	-4.143185E-003	-1.321068E-001	6.752552E-003
1.400000E+008	5.491609E-002	-1.876660E-003	9.223856E-002	-4.457354E-003	9.231427E-002	-4.439631E-003	-1.320010E-001	7.125535E-003
1.500000E+008	5.491020E-002	-2.036929E-003	9.220875E-002	-4.738765E-003	9.226468E-002	-4.753523E-003	-1.318802E-001	7.481750E-003
1.600000E+008	5.493761E-002	-2.153876E-003	9.217806E-002	-5.050113E-003	9.223957E-002	-5.036674E-003	-1.318238E-001	7.846324E-003
1.700000E+008	5.499068E-002	-2.347386E-003	9.216320E-002	-5.365033E-003	9.224580E-002	-5.348534E-003	-1.317595E-001	8.221061E-003
1.800000E+008	5.497958E-002	-2.526378E-003	9.209521E-002	-5.716959E-003	9.222129E-002	-5.690435E-003	-1.316470E-001	8.581091E-003
1.900000E+008	5.494112E-002	-2.731123E-003	9.203838E-002	-6.014510E-003	9.214783E-002	-6.013603E-003	-1.315879E-001	8.891581E-003
2.000000E+008	5.486530E-002	-2.950539E-003	9.200777E-002	-6.288465E-003	9.211142E-002	-6.307663E-003	-1.315257E-001	9.178052E-003
2.100000E+008	5.480074E-002	-3.220981E-003	9.196466E-002	-6.593577E-003	9.206569E-002	-6.590742E-003	-1.314141E-001	9.405699E-003
2.200000E+008	5.474235E-002	-3.472097E-003	9.194905E-002	-6.875355E-003	9.202999E-002	-6.888951E-003	-1.313038E-001	9.631724E-003
2.300000E+008	5.470223E-002	-3.717330E-003	9.189358E-002	-7.192177E-003	9.198276E-002	-7.195022E-003	-1.311748E-001	9.863316E-003
2.400000E+008	5.469504E-002	-3.975016E-003	9.187233E-002	-7.505112E-003	9.193668E-002	-7.507057E-003	-1.310106E-001	1.015771E-002
2.500000E+008	5.468163E-002	-4.207321E-003	9.182924E-002	-7.805109E-003	9.188166E-002	-7.802652E-003	-1.308135E-001	1.042186E-002
2.600000E+008	5.470285E-002	-4.442331E-003	9.176039E-002	-8.102426E-003	9.185069E-002	-8.079883E-003	-1.305947E-001	1.075524E-002
2.700000E+008	5.471687E-002	-4.667716E-003	9.171653E-002	-8.409873E-003	9.178953E-002	-8.407245E-003	-1.303505E-001	1.110577E-002
2.800000E+008	5.475277E-002	-4.872877E-003	9.166001E-002	-8.703678E-003	9.174049E-002	-8.674194E-003	-1.301314E-001	1.145638E-002
2.900000E+008	5.473525E-002	-5.039916E-003	9.161519E-002	-8.988759E-003	9.168556E-002	-8.983854E-003	-1.299984E-001	1.181520E-002
3.000000E+008	5.473587E-002	-5.184049E-003	9.157587E-002	-9.292087E-003	9.165938E-002	-9.285676E-003	-1.298402E-001	1.220307E-002
3.100000E+008	5.469529E-002	-5.319110E-003	9.153299E-002	-9.590787E-003	9.160153E-002	-9.575065E-003	-1.297161E-001	1.261558E-002
3.200000E+008	5.465181E-002	-5.442164E-003	9.148887E-002	-9.904105E-003	9.155243E-002	-9.888984E-003	-1.296162E-001	1.301177E-002
3.300000E+008	5.456490E-002	-5.572589E-003	9.142342E-002	-1.020529E-002	9.151341E-002	-1.021092E-002	-1.295092E-001	1.338733E-002
3.400000E+008	5.441960E-002	-5.727077E-003	9.137511E-002	-1.049570E-002	9.141773E-002	-1.051629E-002	-1.293781E-001	1.372443E-002
3.500000E+008	5.427058E-002	-5.887257E-003	9.131094E-002	-1.080363E-002	9.133355E-002	-1.079968E-002	-1.292262E-001	1.398428E-002
3.600000E+008	5.416618E-002	-6.055551E-003	9.124676E-002	-1.109655E-002	9.127265E-002	-1.106416E-002	-1.290516E-001	1.430944E-002
3.700000E+008	5.404939E-002	-6.238834E-003	9.116540E-002	-1.137467E-002	9.121405E-002	-1.132033E-002	-1.288572E-001	1.457024E-002
3.800000E+008	5.393900E-002	-6.451582E-003	9.111549E-002	-1.166853E-002	9.119412E-002	-1.162885E-002	-1.286621E-001	1.487798E-002
3.900000E+008	5.382736E-002	-6.689622E-003	9.104817E-002	-1.196966E-002	9.112807E-002	-1.192282E-002	-1.283671E-001	1.524260E-002
4.000000E+008	5.375426E-002	-6.934546E-003	9.097640E-002	-1.222535E-002	9.106670E-002	-1.222892E-002	-1.280396E-001	1.556939E-002
4.100000E+008	5.365291E-002	-7.163897E-003	9.089764E-002	-1.249979E-002	9.099819E-002	-1.251952E-002	-1.277520E-001	1.594161E-002
4.200000E+008	5.357140E-002	-7.366861E-003	9.086343E-002	-1.278390E-002	9.093378E-002	-1.278896E-002	-1.275298E-001	1.635658E-002
4.300000E+008	5.351084E-002	-7.554909E-003	9.080723E-002	-1.307742E-002	9.086242E-002	-1.308431E-002	-1.272995E-001	1.680855E-002
4.400000E+008	5.345211E-002	-7.733480E-003	9.073512E-002	-1.337049E-002	9.081354E-002	-1.337115E-002	-1.271175E-001	1.728159E-002
4.500000E+008	5.340091E-002	-7.911580E-003	9.068120E-002	-1.366756E-002	9.075046E-002	-1.365655E-002	-1.269126E-001	1.777244E-002
4.600000E+008	5.332663E-002	-8.085212E-003	9.060954E-002	-1.396081E-002	9.067493E-002	-1.396032E-002	-1.267138E-001	1.827382E-002
4.700000E+008	5.325535E-002	-8.237168E-003	9.053326E-002	-1.424395E-002	9.059461E-002	-1.423301E-002	-1.265497E-001	1.871506E-002
4.800000E+008	5.314270E-002	-8.381165E-003	9.047992E-002	-1.451516E-002	9.052813E-002	-1.450384E-002	-1.264039E-001	1.914010E-002
4.900000E+008	5.302551E-002	-8.522009E-003	9.040314E-002	-1.480290E-002	9.046415E-002	-1.481094E-002	-1.262550E-001	1.956306E-002
5.000000E+008	5.291848E-002	-8.651754E-003	9.033348E-002	-1.507303E-002	9.038430E-002	-1.507786E-002	-1.260865E-001	1.997337E-002
5.100000E+008	5.282713E-002	-8.803231E-003	9.028307E-002	-1.537534E-002	9.032703E-002	-1.534311E-002	-1.259062E-001	2.036275E-002
5.200000E+008	5.268759E-002	-8.966365E-003	9.019889E-002	-1.563982E-002	9.026287E-002	-1.563530E-002	-1.257150E-001	2.077228E-002
5.300000E+008	5.255737E-002	-9.152890E-003	9.010970E-002	-1.592841E-002	9.019322E-002	-1.593445E-002	-1.254647E-001	2.119046E-002
5.400000E+008	5.241714E-002	-9.381982E-003	9.004728E-002	-1.620137E-002	9.012227E-002	-1.621689E-002	-1.252223E-001	2.159273E-002
5.500000E+008	5.227579E-002	-9.561076E-003	8.997676E-002	-1.649203E-002	9.002789E-002	-1.650385E-002	-1.250135E-001	2.202672E-002
5.600000E+008	5.216535E-002	-9.778642E-003	8.989298E-002	-1.677388E-002	8.994019E-002	-1.676778E-002	-1.247899E-001	2.247148E-002
5.700000E+008	5.206526E-002	-9.992671E-003	8.980960E-002	-1.702997E-002	8.987729E-002	-1.703905E-002	-1.246280E-001	2.296544E-002
5.800000E+008	5.197470E-002	-1.019027E-002	8.974135E-002	-1.732029E-002	8.981486E-002	-1.733211E-002	-1.244425E-001	2.342625E-002
5.900000E+008	5.188274E-002	-1.043329E-002	8.965985E-002	-1.760888E-002	8.973767E-002	-1.760464E-002	-1.242535E-001	2.395815E-002
6.000000E+008	5.184812E-002	-1.064556E-002	8.958463E-002	-1.789546E-002	8.963759E-002	-1.789823E-002	-1.240435E-001	2.441499E-002
6.100000E+008	5.180800E-002	-1.084115E-002	8.949343E-002	-1.816140E-002	8.955881E-002	-1.818278E-002	-1.238781E-001	2.486861E-002
6.200000E+008	5.177004E-002	-1.097300E-002	8.940287E-002	-1.843448E-002	8.946966E-002	-1.844446E-002	-1.236881E-001	2.532411E-002
6.300000E+008	5.173397E-002	-1.114255E-002	8.931738E-002	-1.869889E-002	8.938617E-002	-1.871681E-002	-1.235195E-001	2.576843E-002
6.400000E+008	5.172987E-002	-1.126673E-002	8.923898E-002	-1.896950E-002	8.931358E-002	-1.899194E-002	-1.233221E-001	2.622333E-002
6.500000E+008	5.168368E-002	-1.138560E-002	8.916167E-002	-1.924432E-002	8.923187E-002	-1.926040E-002	-1.231438E-001	2.669417E-002
6.600000E+008	5.161961E-002	-1.151509E-002	8.909410E-002	-1.952379E-002	8.913590E-002	-1.953265E-002	-1.229213E-001	2.714412E-002
6.700000E+008	5.150979E-002	-1.160530E-002	8.900585E-002	-1.980088E-002	8.904984E-002	-1.980215E-002	-1.227460E-001	2.763165E-002
6.800000E+008	5.137961E-002	-1.171136E-002	8.891582E-002	-2.006838E-002	8.897292E-002	-2.007224E-002	-1.225510E-001	2.814392E-002
6.900000E+008	5.127407E-002	-1.180351E-002	8.882044E-002	-2.033705E-002	8.887218E-002	-2.033340E-002	-1.223621E-001	2.865171E-002
7.000000E+008	5.116103E-002	-1.192106E-002	8.873781E-002	-2.059742E-002	8.879607E-002	-2.059865E-002	-1.222314E-001	2.914045E-002
7.100000E+008	5.104646E-002	-1.205568E-002	8.865398E-002	-2.086136E-002	8.871133E-002	-2.087100E-002	-1.220998E-001	2.961199E-002
7.200000E+008	5.092663E-002	-1.218634E-002	8.856199E-002	-2.114355E-002	8.862412E-002	-2.114430E-002	-1.219724E-001	3.008550E-002
7.300000E+008	5.079882E-002	-1.234654E-002	8.847988E-002	-2.140009E-002	8.854164E-002	-2.141351E-002	-1.218499E-001	3.051676E-002
7.400000E+008	5.066104E-002	-1.246878E-002	8.837701E-002	-2.165853E-002	8.846007E-002	-2.167813E-002	-1.217424E-001	3.095301E-002
7.500000E+008	5.055210E-002	-1.262950E-002	8.829658E-002	-2.193467E-002	8.836844E-002	-2.195581E-002	-1.216163E-001	3.132965E-002
7.600000E+008	5.044069E-002	-1.278405E-002	8.820277E-002	-2.219956E-002	8.827435E-002	-2.222780E-002	-1.214721E-001	3.174695E-002
7.700000E+008	5.032076E-002	-1.297125E-002	8.811653E-002	-2.247029E-002	8.819346E-002	-2.247308E-002	-1.213047E-001	3.212919E-002
7.800000E+008	5.022061E-002	-1.312672E-002	8.802798E-002	-2.273451E-002	8.808801E-002	-2.275595E-002	-1.211307E-001	3.252061E-002
7.900000E+008	5.010213E-002	-1.333272E-002	8.794470E-002	-2.301163E-002	8.799766E-002	-2.303327E-002	-1.209677E-001	3.291518E-002
8.000000E+008	5.000552E-002	-1.350931E-002	8.783520E-002	-2.327212E-002	8.789403E-002	-2.328601E-002	-1.207266E-001	3.332814E-002
8.100000E+008	4.994677E-002	-1.370387E-002	8.772644E-002	-2.352865E-002	8.780911E-002	-2.355069E-002	-1.204601E-001	3.377206E-002
8.200000E+008	4.990124E-002	-1.386668E-002	8.764336E-002	-2.379649E-002	8.770583E-002	-2.380443E-002	-1.202294E-001	3.419543E-002
8.300000E+008	4.985474E-002	-1.403964E-002	8.755160E-002	-2.405118E-002	8.761994E-002	-2.407426E-002	-1.200181E-001	3.464783E-002
8.400000E+008	4.981417E-002	-1.419313E-002	8.745639E-002	-2.429762E-002	8.752860E-002	-2.433519E-002	-1.198280E-001	3.507863E-002
8.500000E+008	4.980618E-002	-1.429065E-002	8.736348E-002	-2.457441E-002	8.742965E-002	-2.460455E-002	-1.196488E-001	3.552757E-002
8.600000E+008	4.972731E-002	-1.441906E-002	8.726685E-002	-2.482244E-002	8.731966E-002	-2.486143E-002	-1.194835E-001	3.597961E-002
8.700000E+008	4.967631E-002	-1.448675E-002	8.717393E-002	-2.509864E-002	8.721302E-002	-2.511405E-002	-1.193133E-001	3.639589E-002
8.800000E+008	4.960500E-002	-1.458874E-002	8.708715E-002	-2.536979E-002	8.713445E-002	-2.537792E-002	-1.191573E-001	3.681146E-002
8.900000E+008	4.951840E-002	-1.467002E-002	8.696825E-002	-2.561794E-002	8.704441E-002	-2.564354E-002	-1.189923E-001	3.719895E-002
9.000000E+008	4.940881E-002	-1.477452E-002	8.685660E-002	-2.588304E-002	8.694068E-002	-2.589919E-002	-1.187984E-001	3.760102E-002
9.100000E+008	4.929085E-002	-1.488555E-002	8.675337E-002	-2.614595E-002	8.684039E-002	-2.615337E-002	-1.185506E-001	3.799845E-002
9.200000E+008	4.917362E-002	-1.500635E-002	8.667230E-002	-2.638442E-002	8.674098E-002	-2.641555E-002	-1.183056E-001	3.837916E-002
9.300000E+008	4.909436E-002	-1.515526E-002	8.655918E-002	-2.664674E-002	8.664411E-002	-2.669044E-002	-1.180152E-001	3.880973E-002
9.400000E+008	4.900829E-002	-1.531550E-002	8.645203E-002	-2.689685E-002	8.653239E-002	-2.694001E-002	-1.176948E-001	3.924378E-002
9.500000E+008	4.894460E-002	-1.546542E-002	8.635509E-002	-2.715708E-002	8.641807E-002	-2.719743E-002	-1.173711E-001	3.973685E-002
9.600000E+008	4.887243E-002	-1.557436E-002	8.625322E-002	-2.741990E-002	8.633991E-002	-2.744538E-002	-1.170477E-001	4.018654E-002
9.700000E+008	4.883025E-002	-1.567851E-002	8.613460E-002	-2.765539E-002	8.621287E-002	-2.770446E-002	-1.167265E-001	4.069545E-002
9.800000E+008	4.879067E-002	-1.578476E-002	8.605396E-002	-2.791197E-002	8.614014E-002	-2.796525E-002	-1.164527E-001	4.123382E-002
9.900000E+008	4.875928E-002	-1.586703E-002	8.595664E-002	-2.817684E-002	8.603878E-002	-2.822290E-002	-1.161713E-001	4.172484E-002
1.000000E+009	4.868052E-002	-1.594727E-002	8.584741E-002	-2.844585E-002	8.592695E-002	-2.848252E-002	-1.159530E-001	4.221613E-002
1.010000E+009	4.860553E-002	-1.597674E-002	8.576560E-002	-2.868928E-002	8.581059E-002	-2.872631E-002	-1.157120E-001	4.274179E-002
1.020000E+009	4.852151E-002	-1.605673E-002	8.565269E-002	-2.895385E-002	8.570896E-002	-2.898337E-002	-1.155334E-001	4.324745E-002
1.030000E+009	4.843944E-002	-1.610699E-002	8.552055E-002	-2.919487E-002	8.560453E-002	-2.923872E-002	-1.153301E-001	4.373964E-002
1.040000E+009	4.832984E-002	-1.619767E-002	8.541930E-002	-2.946560E-002	8.548984E-002	-2.947591E-002	-1.150978E-001	4.423005E-002
1.050000E+009	4.824684E-002	-1.628215E-002	8.532069E-002	-2.970496E-002	8.539294E-002	-2.974499E-002	-1.148464E-001	4.473369E-002
1.060000E+009	4.817138E-002	-1.635301E-002	8.520829E-002	-2.996078E-002	8.527222E-002	-2.998276E-002	-1.145986E-001	4.522440E-002
1.070000E+009	4.806147E-002	-1.646074E-002	8.509421E-002	-3.021971E-002	8.517511E-002	-3.023940E-002	-1.143281E-001	4.570921E-002
1.080000E+009	4.799071E-002	-1.654598E-002	8.496683E-002	-3.046670E-002	8.506617E-002	-3.048943E-002	-1.140665E-001	4.623257E-002
1.090000E+009	4.787191E-002	-1.664154E-002	8.486328E-002	-3.073181E-002	8.495944E-002	-3.075405E-002	-1.138150E-001	4.670674E-002
1.100000E+009	4.779050E-002	-1.671746E-002	8.477339E-002	-3.096663E-002	8.483888E-002	-3.098988E-002	-1.135665E-001	4.722568E-002
1.110000E+009	4.770531E-002	-1.679679E-002	8.466118E-002	-3.121923E-002	8.473746E-002	-3.124668E-002	-1.133426E-001	4.772444E-002
1.120000E+009	4.758082E-002	-1.688047E-002	8.454526E-002	-3.147183E-002	8.461813E-002	-3.150316E-002	-1.131607E-001	4.818798E-002
1.130000E+009	4.750523E-002	-1.696426E-002	8.441902E-002	-3.173170E-002	8.450728E-002	-3.175763E-002	-1.129311E-001	4.864751E-002
1.140000E+009	4.738370E-002	-1.703564E-002	8.432313E-002	-3.197596E-002	8.439483E-002	-3.200466E-002	-1.127171E-001	4.915113E-002
1.150000E+009	4.731121E-002	-1.711727E-002	8.418487E-002	-3.222420E-002	8.428182E-002	-3.224884E-002	-1.124617E-001	4.962653E-002
1.160000E+009	4.719287E-002	-1.720190E-002	8.407690E-002	-3.249603E-002	8.416043E-002	-3.251025E-002	-1.122042E-001	5.010314E-002
1.170000E+009	4.709241E-002	-1.728325E-002	8.395953E-002	-3.272838E-002	8.405080E-002	-3.273945E-002	-1.119463E-001	5.059968E-002
1.180000E+009	4.700513E-002	-1.736926E-002	8.382223E-002	-3.298888E-002	8.391395E-002	-3.300959E-002	-1.116520E-001	5.108748E-002
1.190000E+009	4.689661E-002	-1.744386E-002	8.373853E-002	-3.322545E-002	8.380960E-002	-3.324654E-002	-1.113916E-001	5.159532E-002
1.200000E+009	4.681093E-002	-1.754092E-002	8.360129E-002	-3.348519E-002	8.366566E-002	-3.350216E-002	-1.110884E-001	5.213429E-002
1.210000E+009	4.673051E-002	-1.765342E-002	8.347617E-002	-3.372978E-002	8.356016E-002	-3.374489E-002	-1.108299E-001	5.263489E-002
1.220000E+009	4.664922E-002	-1.777350E-002	8.335913E-002	-3.397191E-002	8.344739E-002	-3.400788E-002	-1.106175E-001	5.316753E-002
1.230000E+009	4.653296E-002	-1.786727E-002	8.323766E-002	-3.422705E-002	8.330358E-002	-3.425857E-002	-1.103742E-001	5.364433E-002
1.240000E+009	4.645679E-002	-1.798863E-002	8.311256E-002	-3.447224E-002	8.319890E-002	-3.450261E-002	-1.101709E-001	5.409118E-002
1.250000E+009	4.641196E-002	-1.811020E-002	8.301056E-002	-3.472543E-002	8.308254E-002	-3.472556E-002	-1.099552E-001	5.458962E-002
1.260000E+009	4.632805E-002	-1.821222E-002	8.288474E-002	-3.497353E-002	8.294602E-002	-3.498967E-002	-1.096963E-001	5.501626E-002
1.270000E+009	4.632422E-002	-1.831684E-002	8.276113E-002	-3.519976E-002	8.280095E-002	-3.521482E-002	-1.094091E-001	5.541358E-002
1.280000E+009	4.626358E-002	-1.840172E-002	8.262444E-002	-3.543320E-002	8.270136E-002	-3.546584E-002	-1.091440E-001	5.585444E-002
1.290000E+009	4.622609E-002	-1.844945E-002	8.250153E-002	-3.572314E-002	8.257944E-002	-3.571529E-002	-1.087881E-001	5.625026E-002
1.300000E+009	4.615773E-002	-1.848028E-002	8.236831E-002	-3.594167E-002	8.244668E-002	-3.595531E-002	-1.084344E-001	5.670448E-002
1.310000E+009	4.610445E-002	-1.856304E-002	8.223871E-002	-3.620183E-002	8.230551E-002	-3.621152E-002	-1.080988E-001	5.716591E-002
1.320000E+009	4.602643E-002	-1.860672E-002	8.212348E-002	-3.644838E-002	8.220427E-002	-3.647359E-002	-1.076790E-001	5.766840E-002
1.330000E+009	4.595568E-002	-1.863657E-002	8.197787E-002	-3.669263E-002	8.205424E-002	-3.670584E-002	-1.072776E-001	5.823491E-002
1.340000E+009	4.587206E-002	-1.866981E-002	8.184109E-002	-3.693186E-002	8.192249E-002	-3.696464E-002	-1.068672E-001	5.881253E-002
1.350000E+009	4.575829E-002	-1.872105E-002	8.172061E-002	-3.717782E-002	8.177809E-002	-3.719157E-002	-1.065133E-001	5.941200E-002
1.360000E+009	4.571870E-002	-1.875051E-002	8.156420E-002	-3.738779E-002	8.166834E-002	-3.743776E-002	-1.061320E-001	6.002506E-002
1.370000E+009	4.559136E-002	-1.879354E-002	8.145205E-002	-3.764131E-002	8.151896E-002	-3.766480E-002	-1.058443E-001	6.066530E-002
1.380000E+009	4.554491E-002	-1.887268E-002	8.129261E-002	-3.788629E-002	8.138677E-002	-3.793450E-002	-1.055105E-001	6.126432E-002
1.390000E+009	4.547311E-002	-1.893226E-002	8.116817E-002	-3.814467E-002	8.125061E-002	-3.816576E-002	-1.052389E-001	6.189730E-002
1.400000E+009	4.537897E-002	-1.899733E-002	8.103671E-002	-3.836317E-002	8.109557E-002	-3.839606E-002	-1.049463E-001	6.247812E-002
1.410000E+009	4.528028E-002	-1.901827E-002	8.088541E-002	-3.859891E-002	8.095979E-002	-3.863284E-002	-1.046767E-001	6.309474E-002
1.420000E+009	4.518779E-002	-1.904830E-002	8.075638E-002	-3.883765E-002	8.081573E-002	-3.885334E-002	-1.044063E-001	6.361949E-002
1.430000E+009	4.510755E-002	-1.908814E-002	8.061217E-002	-3.907660E-002	8.069119E-002	-3.911647E-002	-1.040990E-001	6.416853E-002
1.440000E+009	4.499914E-002	-1.914662E-002	8.046050E-002	-3.930737E-002	8.054732E-002	-3.934282E-002	-1.038092E-001	6.471051E-002
1.450000E+009	4.488788E-002	-1.918835E-002	8.032617E-002	-3.953530E-002	8.042415E-002	-3.957359E-002	-1.034885E-001	6.526070E-002
1.460000E+009	4.478044E-002	-1.922679E-002	8.016735E-002	-3.980135E-002	8.024744E-002	-3.981126E-002	-1.031573E-001	6.580343E-002
1.470000E+009	4.467398E-002	-1.930421E-002	8.004492E-002	-4.002761E-002	8.011968E-002	-4.007339E-002	-1.028050E-001	6.639136E-002
1.480000E+009	4.457097E-002	-1.934154E-002	7.988063E-002	-4.025161E-002	7.994344E-002	-4.028851E-002	-1.024480E-001	6.698820E-002
1.490000E+009	4.447100E-002	-1.940377E-002	7.975166E-002	-4.049779E-002	7.981978E-002	-4.052117E-002	-1.020853E-001	6.760838E-002
1.500000E+009	4.438470E-002	-1.944916E-002	7.959645E-002	-4.072543E-002	7.967083E-002	-4.074822E-002	-1.017033E-001	6.821187E-002
