! Device ID: PE43711P
! File Path: z:\PE43711P\CHAR_NOM_04282014\AMB\3p300\LS_ATT_14p25dB\PE43711P_AMB_3p300V_3p000V_0p000V_LS_ATT_14p25dB_S2P_SN_5_A0137A.s2p
! Serial: 5
! Lot: A0137A
! Temp: 25C
! VDD: 3.300
! VSS: 0.000
! Control_Hi: 3.000
! Control_Lo: 0.000
! Attenuation Step: 14.25dB
! Port 1: RF1
! Port 2: RF2
! ThroughPath:1-2
! IDD: 0.0001278912
! ISS: -3.74e-008
!

#  Hz  S   RI  R   50

1.000000E+007	6.399523E-002	8.618944E-005	1.697508E-001	-7.673293E-004	1.699576E-001	-8.148482E-004	-1.311414E-001	9.514500E-004
2.000000E+007	6.422210E-002	-5.738383E-005	1.697723E-001	-1.261157E-003	1.698813E-001	-1.294118E-003	-1.308709E-001	1.575844E-003
3.000000E+007	6.446475E-002	-2.431221E-004	1.697803E-001	-1.894439E-003	1.699007E-001	-1.919360E-003	-1.305837E-001	2.092239E-003
4.000000E+007	6.461672E-002	-4.643128E-004	1.697841E-001	-2.546106E-003	1.698743E-001	-2.573965E-003	-1.303980E-001	2.688351E-003
5.000000E+007	6.472394E-002	-7.071549E-004	1.697672E-001	-3.234176E-003	1.698989E-001	-3.226674E-003	-1.303516E-001	3.288653E-003
6.000000E+007	6.486629E-002	-9.833214E-004	1.697142E-001	-3.859012E-003	1.698746E-001	-3.850191E-003	-1.302142E-001	3.747037E-003
7.000000E+007	6.496550E-002	-1.288350E-003	1.696579E-001	-4.471349E-003	1.698198E-001	-4.484526E-003	-1.300314E-001	4.223680E-003
8.000000E+007	6.509452E-002	-1.573230E-003	1.696458E-001	-5.073208E-003	1.697911E-001	-5.082039E-003	-1.298629E-001	4.666293E-003
9.000000E+007	6.518393E-002	-1.861733E-003	1.696085E-001	-5.693538E-003	1.697478E-001	-5.701270E-003	-1.297485E-001	5.074162E-003
1.000000E+008	6.528477E-002	-2.139404E-003	1.695858E-001	-6.339740E-003	1.696961E-001	-6.340782E-003	-1.296771E-001	5.503781E-003
1.100000E+008	6.536904E-002	-2.449311E-003	1.695334E-001	-6.982458E-003	1.696727E-001	-6.956990E-003	-1.295922E-001	5.892272E-003
1.200000E+008	6.547400E-002	-2.780211E-003	1.694537E-001	-7.598505E-003	1.696083E-001	-7.615581E-003	-1.295079E-001	6.249620E-003
1.300000E+008	6.554269E-002	-3.091431E-003	1.693931E-001	-8.206142E-003	1.695532E-001	-8.241010E-003	-1.293834E-001	6.613801E-003
1.400000E+008	6.557870E-002	-3.371533E-003	1.693463E-001	-8.838818E-003	1.694861E-001	-8.866520E-003	-1.292636E-001	6.974375E-003
1.500000E+008	6.556060E-002	-3.638295E-003	1.692828E-001	-9.435747E-003	1.693891E-001	-9.462464E-003	-1.291525E-001	7.302354E-003
1.600000E+008	6.555336E-002	-3.877159E-003	1.692428E-001	-1.003919E-002	1.693120E-001	-1.003844E-002	-1.291204E-001	7.665512E-003
1.700000E+008	6.558750E-002	-4.143241E-003	1.692043E-001	-1.069192E-002	1.693445E-001	-1.066345E-002	-1.290916E-001	8.034471E-003
1.800000E+008	6.553564E-002	-4.419695E-003	1.690652E-001	-1.134785E-002	1.692939E-001	-1.133139E-002	-1.290242E-001	8.388871E-003
1.900000E+008	6.545737E-002	-4.738334E-003	1.689493E-001	-1.192915E-002	1.691801E-001	-1.194147E-002	-1.289611E-001	8.671349E-003
2.000000E+008	6.537222E-002	-5.062967E-003	1.688796E-001	-1.251341E-002	1.690853E-001	-1.252173E-002	-1.288862E-001	8.928088E-003
2.100000E+008	6.530001E-002	-5.433104E-003	1.688170E-001	-1.310720E-002	1.689937E-001	-1.311984E-002	-1.287650E-001	9.180634E-003
2.200000E+008	6.522480E-002	-5.782388E-003	1.687628E-001	-1.369034E-002	1.688921E-001	-1.369911E-002	-1.286556E-001	9.413312E-003
2.300000E+008	6.515933E-002	-6.125902E-003	1.686702E-001	-1.430040E-002	1.688083E-001	-1.428623E-002	-1.285231E-001	9.651743E-003
2.400000E+008	6.511968E-002	-6.492106E-003	1.685927E-001	-1.490358E-002	1.687156E-001	-1.490696E-002	-1.283922E-001	9.931919E-003
2.500000E+008	6.505164E-002	-6.812318E-003	1.685047E-001	-1.551704E-002	1.686384E-001	-1.551285E-002	-1.282000E-001	1.017356E-002
2.600000E+008	6.505335E-002	-7.171659E-003	1.683948E-001	-1.612728E-002	1.685333E-001	-1.611424E-002	-1.280169E-001	1.050223E-002
2.700000E+008	6.502723E-002	-7.490716E-003	1.682673E-001	-1.671621E-002	1.684361E-001	-1.671101E-002	-1.277909E-001	1.084546E-002
2.800000E+008	6.503192E-002	-7.776010E-003	1.681692E-001	-1.729115E-002	1.683190E-001	-1.729082E-002	-1.275977E-001	1.117969E-002
2.900000E+008	6.496816E-002	-8.046042E-003	1.680800E-001	-1.787780E-002	1.682110E-001	-1.785730E-002	-1.274631E-001	1.153610E-002
3.000000E+008	6.494973E-002	-8.289606E-003	1.680007E-001	-1.847156E-002	1.681337E-001	-1.845043E-002	-1.273194E-001	1.193276E-002
3.100000E+008	6.488061E-002	-8.519335E-003	1.679043E-001	-1.907610E-002	1.680473E-001	-1.906820E-002	-1.271908E-001	1.233413E-002
3.200000E+008	6.479245E-002	-8.733915E-003	1.677887E-001	-1.966718E-002	1.679418E-001	-1.965116E-002	-1.270963E-001	1.274245E-002
3.300000E+008	6.466772E-002	-8.942778E-003	1.676953E-001	-2.026459E-002	1.678255E-001	-2.029205E-002	-1.270141E-001	1.310006E-002
3.400000E+008	6.449130E-002	-9.181699E-003	1.675541E-001	-2.087297E-002	1.676518E-001	-2.091759E-002	-1.268943E-001	1.345132E-002
3.500000E+008	6.431252E-002	-9.445700E-003	1.674434E-001	-2.145445E-002	1.674870E-001	-2.146119E-002	-1.267640E-001	1.370665E-002
3.600000E+008	6.415063E-002	-9.693075E-003	1.673057E-001	-2.205322E-002	1.673762E-001	-2.199285E-002	-1.266101E-001	1.402955E-002
3.700000E+008	6.398802E-002	-9.951616E-003	1.671816E-001	-2.260729E-002	1.672861E-001	-2.252750E-002	-1.264222E-001	1.429602E-002
3.800000E+008	6.384074E-002	-1.025497E-002	1.670531E-001	-2.319259E-002	1.672071E-001	-2.312181E-002	-1.262301E-001	1.460233E-002
3.900000E+008	6.369644E-002	-1.058169E-002	1.669107E-001	-2.377950E-002	1.670886E-001	-2.371730E-002	-1.259655E-001	1.498128E-002
4.000000E+008	6.356719E-002	-1.090505E-002	1.667522E-001	-2.431596E-002	1.669384E-001	-2.432188E-002	-1.256785E-001	1.530789E-002
4.100000E+008	6.342701E-002	-1.120459E-002	1.666440E-001	-2.484081E-002	1.667922E-001	-2.489447E-002	-1.253939E-001	1.567403E-002
4.200000E+008	6.330181E-002	-1.152761E-002	1.665538E-001	-2.542688E-002	1.666664E-001	-2.544136E-002	-1.251852E-001	1.607452E-002
4.300000E+008	6.319782E-002	-1.179084E-002	1.664323E-001	-2.599904E-002	1.665376E-001	-2.600664E-002	-1.249731E-001	1.651757E-002
4.400000E+008	6.309952E-002	-1.203036E-002	1.663050E-001	-2.658145E-002	1.664147E-001	-2.658484E-002	-1.248031E-001	1.700533E-002
4.500000E+008	6.299054E-002	-1.229798E-002	1.661607E-001	-2.716272E-002	1.662976E-001	-2.716735E-002	-1.246138E-001	1.750530E-002
4.600000E+008	6.288646E-002	-1.255133E-002	1.660142E-001	-2.774617E-002	1.661508E-001	-2.776443E-002	-1.244485E-001	1.802652E-002
4.700000E+008	6.275848E-002	-1.279335E-002	1.658711E-001	-2.830806E-002	1.659777E-001	-2.832038E-002	-1.242884E-001	1.845358E-002
4.800000E+008	6.260805E-002	-1.299699E-002	1.657385E-001	-2.884719E-002	1.658256E-001	-2.886214E-002	-1.241659E-001	1.890255E-002
4.900000E+008	6.241847E-002	-1.321312E-002	1.655896E-001	-2.941430E-002	1.656845E-001	-2.942600E-002	-1.240470E-001	1.932870E-002
5.000000E+008	6.227150E-002	-1.341975E-002	1.654563E-001	-2.997825E-002	1.655706E-001	-2.997427E-002	-1.238708E-001	1.974407E-002
5.100000E+008	6.213105E-002	-1.364853E-002	1.653222E-001	-3.053308E-002	1.654371E-001	-3.053110E-002	-1.237285E-001	2.015351E-002
5.200000E+008	6.196743E-002	-1.391495E-002	1.651543E-001	-3.110109E-002	1.652995E-001	-3.110544E-002	-1.235543E-001	2.057392E-002
5.300000E+008	6.177801E-002	-1.416752E-002	1.650016E-001	-3.166542E-002	1.651529E-001	-3.168430E-002	-1.233038E-001	2.098865E-002
5.400000E+008	6.159788E-002	-1.447455E-002	1.648400E-001	-3.221853E-002	1.649807E-001	-3.225043E-002	-1.230838E-001	2.138638E-002
5.500000E+008	6.141077E-002	-1.470977E-002	1.646956E-001	-3.277227E-002	1.648012E-001	-3.280208E-002	-1.228839E-001	2.182623E-002
5.600000E+008	6.124105E-002	-1.499481E-002	1.645277E-001	-3.331538E-002	1.646286E-001	-3.334523E-002	-1.226717E-001	2.228330E-002
5.700000E+008	6.109154E-002	-1.528956E-002	1.643717E-001	-3.386613E-002	1.644913E-001	-3.389138E-002	-1.225080E-001	2.277736E-002
5.800000E+008	6.095715E-002	-1.555270E-002	1.642229E-001	-3.442675E-002	1.643257E-001	-3.443346E-002	-1.223522E-001	2.326566E-002
5.900000E+008	6.081720E-002	-1.586355E-002	1.640474E-001	-3.498778E-002	1.641900E-001	-3.502638E-002	-1.221943E-001	2.380806E-002
6.000000E+008	6.071318E-002	-1.613696E-002	1.638745E-001	-3.554980E-002	1.640069E-001	-3.558320E-002	-1.220131E-001	2.427181E-002
6.100000E+008	6.063472E-002	-1.640906E-002	1.637270E-001	-3.608224E-002	1.638197E-001	-3.613517E-002	-1.218606E-001	2.474671E-002
6.200000E+008	6.054939E-002	-1.662430E-002	1.635411E-001	-3.662423E-002	1.636699E-001	-3.666603E-002	-1.216915E-001	2.519295E-002
6.300000E+008	6.049003E-002	-1.683675E-002	1.633611E-001	-3.716546E-002	1.634751E-001	-3.718338E-002	-1.215248E-001	2.565347E-002
6.400000E+008	6.040911E-002	-1.703068E-002	1.631959E-001	-3.769483E-002	1.633061E-001	-3.773350E-002	-1.213367E-001	2.611630E-002
6.500000E+008	6.032882E-002	-1.722523E-002	1.630319E-001	-3.823398E-002	1.631375E-001	-3.825613E-002	-1.211763E-001	2.659334E-002
6.600000E+008	6.021236E-002	-1.742295E-002	1.628688E-001	-3.878533E-002	1.629648E-001	-3.882760E-002	-1.209705E-001	2.708159E-002
6.700000E+008	6.004602E-002	-1.759497E-002	1.626879E-001	-3.931857E-002	1.627815E-001	-3.936814E-002	-1.208158E-001	2.757461E-002
6.800000E+008	5.988085E-002	-1.775750E-002	1.625051E-001	-3.987609E-002	1.626119E-001	-3.990641E-002	-1.206491E-001	2.809536E-002
6.900000E+008	5.970885E-002	-1.789956E-002	1.623263E-001	-4.040387E-002	1.624176E-001	-4.043980E-002	-1.204764E-001	2.862646E-002
7.000000E+008	5.955204E-002	-1.807792E-002	1.621470E-001	-4.093495E-002	1.622451E-001	-4.095987E-002	-1.203495E-001	2.913285E-002
7.100000E+008	5.937644E-002	-1.828302E-002	1.619521E-001	-4.144237E-002	1.620861E-001	-4.149517E-002	-1.202378E-001	2.961042E-002
7.200000E+008	5.918281E-002	-1.847462E-002	1.617859E-001	-4.198494E-002	1.619014E-001	-4.202708E-002	-1.201281E-001	3.011006E-002
7.300000E+008	5.901651E-002	-1.870449E-002	1.616102E-001	-4.252318E-002	1.617288E-001	-4.256918E-002	-1.200235E-001	3.054329E-002
7.400000E+008	5.881874E-002	-1.889452E-002	1.614081E-001	-4.305660E-002	1.615437E-001	-4.309953E-002	-1.199253E-001	3.096246E-002
7.500000E+008	5.866482E-002	-1.910729E-002	1.612368E-001	-4.358797E-002	1.613558E-001	-4.363881E-002	-1.198208E-001	3.138491E-002
7.600000E+008	5.849500E-002	-1.933703E-002	1.610434E-001	-4.410147E-002	1.611429E-001	-4.417240E-002	-1.196739E-001	3.181713E-002
7.700000E+008	5.833051E-002	-1.957637E-002	1.608453E-001	-4.463874E-002	1.609765E-001	-4.467982E-002	-1.195212E-001	3.219601E-002
7.800000E+008	5.817138E-002	-1.978883E-002	1.606585E-001	-4.517273E-002	1.607870E-001	-4.520503E-002	-1.193539E-001	3.259244E-002
7.900000E+008	5.802046E-002	-2.004686E-002	1.604780E-001	-4.569913E-002	1.606165E-001	-4.574361E-002	-1.192156E-001	3.302677E-002
8.000000E+008	5.785797E-002	-2.028908E-002	1.602768E-001	-4.623376E-002	1.603837E-001	-4.627863E-002	-1.190074E-001	3.347229E-002
8.100000E+008	5.772581E-002	-2.055513E-002	1.600738E-001	-4.673327E-002	1.601883E-001	-4.679141E-002	-1.187631E-001	3.392474E-002
8.200000E+008	5.762457E-002	-2.077448E-002	1.598786E-001	-4.726663E-002	1.600010E-001	-4.731798E-002	-1.185391E-001	3.436754E-002
8.300000E+008	5.752556E-002	-2.100139E-002	1.596764E-001	-4.777826E-002	1.597951E-001	-4.783594E-002	-1.183569E-001	3.482719E-002
8.400000E+008	5.744636E-002	-2.120013E-002	1.594754E-001	-4.829534E-002	1.596114E-001	-4.834607E-002	-1.181525E-001	3.528238E-002
8.500000E+008	5.735751E-002	-2.137965E-002	1.592971E-001	-4.882066E-002	1.594020E-001	-4.888994E-002	-1.180066E-001	3.575587E-002
8.600000E+008	5.722979E-002	-2.155468E-002	1.590779E-001	-4.933118E-002	1.592052E-001	-4.940462E-002	-1.178414E-001	3.620410E-002
8.700000E+008	5.711515E-002	-2.168939E-002	1.588751E-001	-4.985843E-002	1.589914E-001	-4.991663E-002	-1.176975E-001	3.664208E-002
8.800000E+008	5.699937E-002	-2.184830E-002	1.586792E-001	-5.038944E-002	1.588044E-001	-5.043067E-002	-1.175471E-001	3.708602E-002
8.900000E+008	5.685070E-002	-2.199277E-002	1.584798E-001	-5.089117E-002	1.585899E-001	-5.094492E-002	-1.173774E-001	3.750614E-002
9.000000E+008	5.670178E-002	-2.213861E-002	1.582446E-001	-5.140037E-002	1.584041E-001	-5.146656E-002	-1.172080E-001	3.791769E-002
9.100000E+008	5.652363E-002	-2.230892E-002	1.580367E-001	-5.192495E-002	1.581883E-001	-5.197604E-002	-1.169988E-001	3.833609E-002
9.200000E+008	5.632737E-002	-2.248688E-002	1.578161E-001	-5.242343E-002	1.579807E-001	-5.249887E-002	-1.167457E-001	3.876851E-002
9.300000E+008	5.618574E-002	-2.268212E-002	1.576257E-001	-5.293080E-002	1.577354E-001	-5.299767E-002	-1.164722E-001	3.920666E-002
9.400000E+008	5.604799E-002	-2.287922E-002	1.573967E-001	-5.342256E-002	1.575445E-001	-5.350940E-002	-1.161602E-001	3.965849E-002
9.500000E+008	5.591977E-002	-2.309197E-002	1.571976E-001	-5.394894E-002	1.573219E-001	-5.403515E-002	-1.158467E-001	4.016338E-002
9.600000E+008	5.579196E-002	-2.324933E-002	1.569818E-001	-5.447234E-002	1.571172E-001	-5.453512E-002	-1.155242E-001	4.065449E-002
9.700000E+008	5.569054E-002	-2.341001E-002	1.567508E-001	-5.495129E-002	1.568913E-001	-5.504057E-002	-1.152241E-001	4.117373E-002
9.800000E+008	5.560864E-002	-2.356580E-002	1.565577E-001	-5.545996E-002	1.566840E-001	-5.554022E-002	-1.149498E-001	4.170051E-002
9.900000E+008	5.551030E-002	-2.371495E-002	1.563533E-001	-5.598843E-002	1.564688E-001	-5.605260E-002	-1.146913E-001	4.223650E-002
1.000000E+009	5.539169E-002	-2.381945E-002	1.561428E-001	-5.647576E-002	1.562424E-001	-5.657591E-002	-1.144772E-001	4.274470E-002
1.010000E+009	5.525928E-002	-2.391466E-002	1.559081E-001	-5.698329E-002	1.560267E-001	-5.705721E-002	-1.142547E-001	4.330742E-002
1.020000E+009	5.510976E-002	-2.403426E-002	1.556892E-001	-5.751026E-002	1.558046E-001	-5.756774E-002	-1.140696E-001	4.381695E-002
1.030000E+009	5.496663E-002	-2.413748E-002	1.554492E-001	-5.800323E-002	1.555609E-001	-5.807985E-002	-1.138669E-001	4.434017E-002
1.040000E+009	5.479122E-002	-2.424570E-002	1.552110E-001	-5.849060E-002	1.553470E-001	-5.856660E-002	-1.136781E-001	4.485463E-002
1.050000E+009	5.465188E-002	-2.437866E-002	1.550264E-001	-5.899740E-002	1.551196E-001	-5.907067E-002	-1.134456E-001	4.537849E-002
1.060000E+009	5.450658E-002	-2.451270E-002	1.547794E-001	-5.950166E-002	1.548913E-001	-5.955275E-002	-1.131744E-001	4.591296E-002
1.070000E+009	5.430993E-002	-2.464625E-002	1.545314E-001	-5.998595E-002	1.546677E-001	-6.003077E-002	-1.129179E-001	4.641843E-002
1.080000E+009	5.419659E-002	-2.480707E-002	1.543100E-001	-6.051008E-002	1.544481E-001	-6.055213E-002	-1.126448E-001	4.694975E-002
1.090000E+009	5.404042E-002	-2.494386E-002	1.540797E-001	-6.100166E-002	1.542064E-001	-6.105558E-002	-1.124180E-001	4.745560E-002
1.100000E+009	5.391933E-002	-2.506490E-002	1.538188E-001	-6.149976E-002	1.539752E-001	-6.155234E-002	-1.121724E-001	4.797459E-002
1.110000E+009	5.377988E-002	-2.518341E-002	1.535964E-001	-6.199242E-002	1.537514E-001	-6.206343E-002	-1.119431E-001	4.849288E-002
1.120000E+009	5.361748E-002	-2.531797E-002	1.533756E-001	-6.248183E-002	1.535171E-001	-6.256136E-002	-1.117562E-001	4.898174E-002
1.130000E+009	5.345835E-002	-2.544704E-002	1.531091E-001	-6.299138E-002	1.532709E-001	-6.304825E-002	-1.115495E-001	4.948544E-002
1.140000E+009	5.329923E-002	-2.556429E-002	1.528792E-001	-6.348913E-002	1.530372E-001	-6.355287E-002	-1.113623E-001	5.000719E-002
1.150000E+009	5.313642E-002	-2.567068E-002	1.526292E-001	-6.398176E-002	1.527758E-001	-6.403692E-002	-1.111263E-001	5.049275E-002
1.160000E+009	5.296961E-002	-2.582162E-002	1.523780E-001	-6.449429E-002	1.525264E-001	-6.454359E-002	-1.108716E-001	5.100263E-002
1.170000E+009	5.281611E-002	-2.593621E-002	1.521440E-001	-6.496869E-002	1.522782E-001	-6.502378E-002	-1.106222E-001	5.153228E-002
1.180000E+009	5.266872E-002	-2.606265E-002	1.519069E-001	-6.545602E-002	1.520496E-001	-6.550399E-002	-1.103355E-001	5.204080E-002
1.190000E+009	5.249888E-002	-2.620324E-002	1.516333E-001	-6.596852E-002	1.517449E-001	-6.601394E-002	-1.100738E-001	5.258960E-002
1.200000E+009	5.235515E-002	-2.633854E-002	1.513852E-001	-6.643422E-002	1.515285E-001	-6.647853E-002	-1.097998E-001	5.312358E-002
1.210000E+009	5.221356E-002	-2.648280E-002	1.511318E-001	-6.693200E-002	1.512476E-001	-6.699182E-002	-1.095411E-001	5.365534E-002
1.220000E+009	5.205302E-002	-2.665740E-002	1.508826E-001	-6.742418E-002	1.510200E-001	-6.747291E-002	-1.093110E-001	5.419339E-002
1.230000E+009	5.191631E-002	-2.678304E-002	1.506156E-001	-6.790938E-002	1.507392E-001	-6.794735E-002	-1.090705E-001	5.470283E-002
1.240000E+009	5.178825E-002	-2.694490E-002	1.503580E-001	-6.837571E-002	1.504893E-001	-6.843066E-002	-1.088696E-001	5.520090E-002
1.250000E+009	5.165594E-002	-2.709652E-002	1.501061E-001	-6.887545E-002	1.502300E-001	-6.892694E-002	-1.086403E-001	5.571230E-002
1.260000E+009	5.150363E-002	-2.724526E-002	1.498481E-001	-6.936146E-002	1.499591E-001	-6.941631E-002	-1.084094E-001	5.616405E-002
1.270000E+009	5.143251E-002	-2.737502E-002	1.495846E-001	-6.983063E-002	1.497062E-001	-6.989537E-002	-1.081487E-001	5.661016E-002
1.280000E+009	5.130469E-002	-2.748639E-002	1.493368E-001	-7.032795E-002	1.494539E-001	-7.038534E-002	-1.078890E-001	5.703700E-002
1.290000E+009	5.119631E-002	-2.759277E-002	1.490509E-001	-7.083451E-002	1.491828E-001	-7.086434E-002	-1.075600E-001	5.748973E-002
1.300000E+009	5.108970E-002	-2.767667E-002	1.487651E-001	-7.129064E-002	1.489269E-001	-7.134806E-002	-1.071861E-001	5.795629E-002
1.310000E+009	5.098367E-002	-2.777977E-002	1.485086E-001	-7.178066E-002	1.486369E-001	-7.185197E-002	-1.068476E-001	5.843021E-002
1.320000E+009	5.083736E-002	-2.786609E-002	1.482318E-001	-7.227120E-002	1.483788E-001	-7.233167E-002	-1.064428E-001	5.898132E-002
1.330000E+009	5.071301E-002	-2.792180E-002	1.479719E-001	-7.273581E-002	1.481105E-001	-7.281875E-002	-1.060352E-001	5.956160E-002
1.340000E+009	5.054115E-002	-2.800331E-002	1.476831E-001	-7.321129E-002	1.478210E-001	-7.327932E-002	-1.056455E-001	6.017090E-002
1.350000E+009	5.038971E-002	-2.805542E-002	1.474066E-001	-7.368223E-002	1.475435E-001	-7.375261E-002	-1.052844E-001	6.080457E-002
1.360000E+009	5.027334E-002	-2.814751E-002	1.471267E-001	-7.415025E-002	1.472837E-001	-7.424418E-002	-1.048942E-001	6.145670E-002
1.370000E+009	5.010808E-002	-2.821141E-002	1.468410E-001	-7.465208E-002	1.469804E-001	-7.470231E-002	-1.046224E-001	6.211114E-002
1.380000E+009	4.998358E-002	-2.831298E-002	1.465392E-001	-7.510703E-002	1.466841E-001	-7.518709E-002	-1.042910E-001	6.273771E-002
1.390000E+009	4.982742E-002	-2.841599E-002	1.462573E-001	-7.559476E-002	1.464008E-001	-7.565209E-002	-1.040171E-001	6.341311E-002
1.400000E+009	4.969139E-002	-2.851603E-002	1.459710E-001	-7.606286E-002	1.460993E-001	-7.611024E-002	-1.037505E-001	6.403404E-002
1.410000E+009	4.954088E-002	-2.857305E-002	1.456693E-001	-7.653808E-002	1.457994E-001	-7.657722E-002	-1.034648E-001	6.464930E-002
1.420000E+009	4.936028E-002	-2.865092E-002	1.453816E-001	-7.697205E-002	1.455317E-001	-7.704270E-002	-1.032066E-001	6.522043E-002
1.430000E+009	4.924422E-002	-2.872667E-002	1.450969E-001	-7.744687E-002	1.452289E-001	-7.751637E-002	-1.028897E-001	6.579420E-002
1.440000E+009	4.907739E-002	-2.879849E-002	1.448011E-001	-7.790541E-002	1.449383E-001	-7.795380E-002	-1.026209E-001	6.633968E-002
1.450000E+009	4.889713E-002	-2.886230E-002	1.444929E-001	-7.837848E-002	1.446281E-001	-7.843549E-002	-1.022634E-001	6.695796E-002
1.460000E+009	4.872949E-002	-2.894070E-002	1.441836E-001	-7.884995E-002	1.443270E-001	-7.891361E-002	-1.019622E-001	6.753572E-002
1.470000E+009	4.856579E-002	-2.902586E-002	1.438951E-001	-7.930824E-002	1.440151E-001	-7.936424E-002	-1.016208E-001	6.815790E-002
1.480000E+009	4.838507E-002	-2.908923E-002	1.435760E-001	-7.976115E-002	1.437224E-001	-7.981620E-002	-1.012586E-001	6.878493E-002
1.490000E+009	4.825061E-002	-2.918318E-002	1.432728E-001	-8.021690E-002	1.434078E-001	-8.026818E-002	-1.008976E-001	6.943687E-002
1.500000E+009	4.808087E-002	-2.925294E-002	1.429738E-001	-8.066749E-002	1.431058E-001	-8.069851E-002	-1.005451E-001	7.005641E-002
