! Device ID: PE43711P
! File Path: z:\PE43711P\CHAR_NOM_04282014\AMB\3p300\LS_ATT_28p75dB\PE43711P_AMB_3p300V_3p000V_0p000V_LS_ATT_28p75dB_S2P_SN_5_A0137A.s2p
! Serial: 5
! Lot: A0137A
! Temp: 25C
! VDD: 3.300
! VSS: 0.000
! Control_Hi: 3.000
! Control_Lo: 0.000
! Attenuation Step: 28.75dB
! Port 1: RF1
! Port 2: RF2
! ThroughPath:1-2
! IDD: 0.0001275693
! ISS: -1.021e-007
!

#  Hz  S   RI  R   50

1.000000E+007	1.958551E-002	5.578105E-004	3.162013E-002	-1.283045E-004	3.160880E-002	-1.181627E-004	-1.238613E-001	9.468422E-004
2.000000E+007	1.982699E-002	7.486561E-004	3.160263E-002	-1.793940E-004	3.161987E-002	-1.860599E-004	-1.235402E-001	1.533075E-003
3.000000E+007	2.011538E-002	9.374311E-004	3.161711E-002	-2.604844E-004	3.161979E-002	-2.709696E-004	-1.232272E-001	2.039124E-003
4.000000E+007	2.028227E-002	1.118705E-003	3.161253E-002	-3.595311E-004	3.163133E-002	-3.757527E-004	-1.230657E-001	2.611319E-003
5.000000E+007	2.037931E-002	1.289390E-003	3.161352E-002	-4.685073E-004	3.163550E-002	-4.514991E-004	-1.230315E-001	3.212053E-003
6.000000E+007	2.054598E-002	1.397333E-003	3.159984E-002	-5.656902E-004	3.163339E-002	-5.542146E-004	-1.229002E-001	3.691146E-003
7.000000E+007	2.069110E-002	1.505187E-003	3.160075E-002	-6.411954E-004	3.162875E-002	-6.392522E-004	-1.227223E-001	4.151373E-003
8.000000E+007	2.084527E-002	1.605393E-003	3.158381E-002	-7.338234E-004	3.162199E-002	-7.280586E-004	-1.225586E-001	4.595106E-003
9.000000E+007	2.097419E-002	1.699750E-003	3.160282E-002	-8.264577E-004	3.161610E-002	-8.166670E-004	-1.224442E-001	4.991209E-003
1.000000E+008	2.112480E-002	1.809472E-003	3.158836E-002	-9.162985E-004	3.159464E-002	-9.100180E-004	-1.223857E-001	5.406397E-003
1.100000E+008	2.126460E-002	1.884072E-003	3.158726E-002	-1.008547E-003	3.160382E-002	-9.984575E-004	-1.223023E-001	5.808320E-003
1.200000E+008	2.142323E-002	1.935639E-003	3.157327E-002	-1.098706E-003	3.159703E-002	-1.095199E-003	-1.221958E-001	6.123803E-003
1.300000E+008	2.155719E-002	2.022070E-003	3.156074E-002	-1.180474E-003	3.158722E-002	-1.180217E-003	-1.220897E-001	6.483476E-003
1.400000E+008	2.166933E-002	2.145050E-003	3.155458E-002	-1.283713E-003	3.158147E-002	-1.282339E-003	-1.219724E-001	6.848103E-003
1.500000E+008	2.173282E-002	2.256995E-003	3.154782E-002	-1.368239E-003	3.155879E-002	-1.356332E-003	-1.218714E-001	7.193087E-003
1.600000E+008	2.182710E-002	2.391243E-003	3.155204E-002	-1.424818E-003	3.156383E-002	-1.441022E-003	-1.218135E-001	7.533236E-003
1.700000E+008	2.193412E-002	2.495429E-003	3.154585E-002	-1.546116E-003	3.156510E-002	-1.536993E-003	-1.217271E-001	7.899067E-003
1.800000E+008	2.199507E-002	2.599267E-003	3.152316E-002	-1.646244E-003	3.156991E-002	-1.633448E-003	-1.216188E-001	8.231876E-003
1.900000E+008	2.200558E-002	2.657520E-003	3.150356E-002	-1.730387E-003	3.155465E-002	-1.724471E-003	-1.215785E-001	8.536951E-003
2.000000E+008	2.199327E-002	2.717467E-003	3.150421E-002	-1.811749E-003	3.153439E-002	-1.807819E-003	-1.215262E-001	8.790438E-003
2.100000E+008	2.200082E-002	2.708342E-003	3.149892E-002	-1.895817E-003	3.151471E-002	-1.890518E-003	-1.214475E-001	9.019246E-003
2.200000E+008	2.201966E-002	2.726117E-003	3.149434E-002	-1.994215E-003	3.152890E-002	-1.973896E-003	-1.213378E-001	9.210952E-003
2.300000E+008	2.206181E-002	2.720654E-003	3.148259E-002	-2.069548E-003	3.150035E-002	-2.058320E-003	-1.211981E-001	9.441875E-003
2.400000E+008	2.213495E-002	2.723266E-003	3.147539E-002	-2.153769E-003	3.149457E-002	-2.145787E-003	-1.210409E-001	9.711864E-003
2.500000E+008	2.217534E-002	2.749524E-003	3.146691E-002	-2.252099E-003	3.148032E-002	-2.227513E-003	-1.208558E-001	9.955292E-003
2.600000E+008	2.230153E-002	2.768850E-003	3.144847E-002	-2.340833E-003	3.146784E-002	-2.324659E-003	-1.206293E-001	1.029963E-002
2.700000E+008	2.240786E-002	2.804412E-003	3.143743E-002	-2.404628E-003	3.144579E-002	-2.422261E-003	-1.203999E-001	1.062638E-002
2.800000E+008	2.253333E-002	2.852104E-003	3.141410E-002	-2.498235E-003	3.144323E-002	-2.496542E-003	-1.201807E-001	1.096158E-002
2.900000E+008	2.260491E-002	2.909548E-003	3.140128E-002	-2.587564E-003	3.143350E-002	-2.577897E-003	-1.200539E-001	1.131058E-002
3.000000E+008	2.268478E-002	3.031434E-003	3.139790E-002	-2.666209E-003	3.142391E-002	-2.661341E-003	-1.199186E-001	1.170168E-002
3.100000E+008	2.271960E-002	3.125773E-003	3.138740E-002	-2.762713E-003	3.139657E-002	-2.752250E-003	-1.198032E-001	1.209259E-002
3.200000E+008	2.275260E-002	3.248758E-003	3.136588E-002	-2.856699E-003	3.139888E-002	-2.837835E-003	-1.197163E-001	1.247314E-002
3.300000E+008	2.277305E-002	3.361772E-003	3.135519E-002	-2.936383E-003	3.139025E-002	-2.928801E-003	-1.196174E-001	1.281675E-002
3.400000E+008	2.274015E-002	3.450135E-003	3.133978E-002	-3.024236E-003	3.135568E-002	-3.037259E-003	-1.195083E-001	1.313154E-002
3.500000E+008	2.270806E-002	3.510978E-003	3.133321E-002	-3.131469E-003	3.134590E-002	-3.112239E-003	-1.193555E-001	1.339285E-002
3.600000E+008	2.268889E-002	3.565080E-003	3.130913E-002	-3.207673E-003	3.131951E-002	-3.191272E-003	-1.191819E-001	1.369623E-002
3.700000E+008	2.267943E-002	3.593128E-003	3.130629E-002	-3.287772E-003	3.130573E-002	-3.265574E-003	-1.189905E-001	1.394783E-002
3.800000E+008	2.266875E-002	3.622622E-003	3.127127E-002	-3.371200E-003	3.129591E-002	-3.357451E-003	-1.187942E-001	1.425969E-002
3.900000E+008	2.264504E-002	3.618607E-003	3.124878E-002	-3.459664E-003	3.128785E-002	-3.443262E-003	-1.185074E-001	1.461160E-002
4.000000E+008	2.267724E-002	3.609502E-003	3.123188E-002	-3.535742E-003	3.125998E-002	-3.531751E-003	-1.182053E-001	1.494209E-002
4.100000E+008	2.268010E-002	3.613250E-003	3.121989E-002	-3.606865E-003	3.125271E-002	-3.611060E-003	-1.179180E-001	1.529253E-002
4.200000E+008	2.272943E-002	3.611404E-003	3.120934E-002	-3.701358E-003	3.124132E-002	-3.694425E-003	-1.177176E-001	1.568676E-002
4.300000E+008	2.275482E-002	3.645057E-003	3.120788E-002	-3.782123E-003	3.122698E-002	-3.788315E-003	-1.175166E-001	1.611488E-002
4.400000E+008	2.279124E-002	3.679192E-003	3.118123E-002	-3.869111E-003	3.121790E-002	-3.852285E-003	-1.173219E-001	1.658391E-002
4.500000E+008	2.284576E-002	3.714013E-003	3.115957E-002	-3.939734E-003	3.118906E-002	-3.951936E-003	-1.171358E-001	1.706755E-002
4.600000E+008	2.290138E-002	3.745558E-003	3.115007E-002	-4.030159E-003	3.117013E-002	-4.034508E-003	-1.169443E-001	1.752678E-002
4.700000E+008	2.293119E-002	3.802053E-003	3.112733E-002	-4.120985E-003	3.115142E-002	-4.128639E-003	-1.167790E-001	1.795529E-002
4.800000E+008	2.294802E-002	3.872181E-003	3.111379E-002	-4.194258E-003	3.113539E-002	-4.196185E-003	-1.166337E-001	1.838310E-002
4.900000E+008	2.296121E-002	3.946089E-003	3.109858E-002	-4.295536E-003	3.111031E-002	-4.278759E-003	-1.164828E-001	1.879323E-002
5.000000E+008	2.295596E-002	4.020417E-003	3.106977E-002	-4.368468E-003	3.110417E-002	-4.360219E-003	-1.163242E-001	1.919672E-002
5.100000E+008	2.296753E-002	4.071858E-003	3.107089E-002	-4.444763E-003	3.108388E-002	-4.455701E-003	-1.161491E-001	1.960672E-002
5.200000E+008	2.294560E-002	4.109070E-003	3.104181E-002	-4.533573E-003	3.107434E-002	-4.537770E-003	-1.159913E-001	2.000680E-002
5.300000E+008	2.292449E-002	4.133896E-003	3.101824E-002	-4.619773E-003	3.106051E-002	-4.623709E-003	-1.157388E-001	2.041442E-002
5.400000E+008	2.290532E-002	4.126407E-003	3.099560E-002	-4.692359E-003	3.102473E-002	-4.699322E-003	-1.155145E-001	2.081098E-002
5.500000E+008	2.287873E-002	4.129412E-003	3.098182E-002	-4.782105E-003	3.100426E-002	-4.795740E-003	-1.153280E-001	2.122855E-002
5.600000E+008	2.286811E-002	4.100157E-003	3.096288E-002	-4.868425E-003	3.099065E-002	-4.859352E-003	-1.150982E-001	2.165485E-002
5.700000E+008	2.289427E-002	4.064253E-003	3.093845E-002	-4.941931E-003	3.096459E-002	-4.941145E-003	-1.149238E-001	2.211187E-002
5.800000E+008	2.291053E-002	4.045343E-003	3.093088E-002	-5.029557E-003	3.094303E-002	-5.015751E-003	-1.147557E-001	2.260351E-002
5.900000E+008	2.295515E-002	4.009267E-003	3.089474E-002	-5.115921E-003	3.093517E-002	-5.103357E-003	-1.145675E-001	2.310409E-002
6.000000E+008	2.302256E-002	3.994512E-003	3.087876E-002	-5.185013E-003	3.090544E-002	-5.189172E-003	-1.143656E-001	2.355403E-002
6.100000E+008	2.311622E-002	3.982631E-003	3.086627E-002	-5.271029E-003	3.087806E-002	-5.279038E-003	-1.141942E-001	2.403052E-002
6.200000E+008	2.319812E-002	4.020330E-003	3.083819E-002	-5.348894E-003	3.085658E-002	-5.352027E-003	-1.140112E-001	2.446897E-002
6.300000E+008	2.328502E-002	4.057145E-003	3.080602E-002	-5.434621E-003	3.084575E-002	-5.426877E-003	-1.138522E-001	2.491131E-002
6.400000E+008	2.338431E-002	4.111692E-003	3.078925E-002	-5.512182E-003	3.081813E-002	-5.515421E-003	-1.136799E-001	2.535617E-002
6.500000E+008	2.346554E-002	4.185431E-003	3.077422E-002	-5.595991E-003	3.078642E-002	-5.595412E-003	-1.134936E-001	2.582657E-002
6.600000E+008	2.352362E-002	4.242557E-003	3.074260E-002	-5.672623E-003	3.077899E-002	-5.672471E-003	-1.133011E-001	2.628536E-002
6.700000E+008	2.352808E-002	4.317374E-003	3.072917E-002	-5.767296E-003	3.075136E-002	-5.756716E-003	-1.131329E-001	2.675450E-002
6.800000E+008	2.352891E-002	4.375889E-003	3.071067E-002	-5.831364E-003	3.071831E-002	-5.837003E-003	-1.129429E-001	2.724706E-002
6.900000E+008	2.355071E-002	4.457851E-003	3.067497E-002	-5.915558E-003	3.070701E-002	-5.922337E-003	-1.127542E-001	2.772123E-002
7.000000E+008	2.355782E-002	4.520076E-003	3.065703E-002	-5.983331E-003	3.067357E-002	-5.983909E-003	-1.126024E-001	2.821189E-002
7.100000E+008	2.357374E-002	4.570283E-003	3.063480E-002	-6.085675E-003	3.066635E-002	-6.070872E-003	-1.124805E-001	2.868866E-002
7.200000E+008	2.356485E-002	4.611252E-003	3.061263E-002	-6.147860E-003	3.062689E-002	-6.159378E-003	-1.123562E-001	2.914580E-002
7.300000E+008	2.357448E-002	4.637424E-003	3.059470E-002	-6.221693E-003	3.062910E-002	-6.240163E-003	-1.122203E-001	2.958531E-002
7.400000E+008	2.355486E-002	4.669829E-003	3.057074E-002	-6.300659E-003	3.058500E-002	-6.307901E-003	-1.121249E-001	3.003199E-002
7.500000E+008	2.355874E-002	4.691452E-003	3.054042E-002	-6.399950E-003	3.059097E-002	-6.403103E-003	-1.120250E-001	3.041520E-002
7.600000E+008	2.358378E-002	4.695636E-003	3.053019E-002	-6.462203E-003	3.054381E-002	-6.466171E-003	-1.118960E-001	3.082530E-002
7.700000E+008	2.356387E-002	4.690124E-003	3.050747E-002	-6.541717E-003	3.052464E-002	-6.539357E-003	-1.117409E-001	3.117650E-002
7.800000E+008	2.359012E-002	4.677268E-003	3.046568E-002	-6.629080E-003	3.049945E-002	-6.624740E-003	-1.115666E-001	3.156697E-002
7.900000E+008	2.361369E-002	4.652663E-003	3.046227E-002	-6.707982E-003	3.046866E-002	-6.692597E-003	-1.113902E-001	3.194631E-002
8.000000E+008	2.366146E-002	4.639526E-003	3.042188E-002	-6.784710E-003	3.045453E-002	-6.783333E-003	-1.111607E-001	3.235624E-002
8.100000E+008	2.371446E-002	4.591161E-003	3.040239E-002	-6.866442E-003	3.043656E-002	-6.871741E-003	-1.109032E-001	3.281110E-002
8.200000E+008	2.380716E-002	4.598186E-003	3.037102E-002	-6.937869E-003	3.038505E-002	-6.923203E-003	-1.106631E-001	3.322011E-002
8.300000E+008	2.388266E-002	4.597005E-003	3.034711E-002	-7.007247E-003	3.038049E-002	-7.021294E-003	-1.104476E-001	3.366904E-002
8.400000E+008	2.398535E-002	4.603979E-003	3.032302E-002	-7.086191E-003	3.036234E-002	-7.092245E-003	-1.102522E-001	3.410464E-002
8.500000E+008	2.406540E-002	4.642726E-003	3.029852E-002	-7.168103E-003	3.032169E-002	-7.178361E-003	-1.100803E-001	3.456084E-002
8.600000E+008	2.411810E-002	4.688463E-003	3.026951E-002	-7.255296E-003	3.030475E-002	-7.247049E-003	-1.099372E-001	3.499767E-002
8.700000E+008	2.422179E-002	4.772672E-003	3.025150E-002	-7.313624E-003	3.028083E-002	-7.328165E-003	-1.097681E-001	3.540902E-002
8.800000E+008	2.426288E-002	4.858269E-003	3.020753E-002	-7.394212E-003	3.026386E-002	-7.396288E-003	-1.096338E-001	3.583835E-002
8.900000E+008	2.429983E-002	4.915547E-003	3.020300E-002	-7.476059E-003	3.022844E-002	-7.486455E-003	-1.094680E-001	3.620415E-002
9.000000E+008	2.430907E-002	4.943068E-003	3.016628E-002	-7.562986E-003	3.020530E-002	-7.554510E-003	-1.092696E-001	3.661090E-002
9.100000E+008	2.432964E-002	5.007886E-003	3.015617E-002	-7.623790E-003	3.017693E-002	-7.644237E-003	-1.090332E-001	3.697096E-002
9.200000E+008	2.434321E-002	5.008687E-003	3.010931E-002	-7.701121E-003	3.014812E-002	-7.713896E-003	-1.087739E-001	3.737186E-002
9.300000E+008	2.438648E-002	5.013797E-003	3.009626E-002	-7.779208E-003	3.012075E-002	-7.785931E-003	-1.084748E-001	3.778346E-002
9.400000E+008	2.445118E-002	5.025039E-003	3.005320E-002	-7.851521E-003	3.008448E-002	-7.860568E-003	-1.081487E-001	3.821790E-002
9.500000E+008	2.452399E-002	5.019593E-003	3.004626E-002	-7.929028E-003	3.006925E-002	-7.943116E-003	-1.078383E-001	3.869879E-002
9.600000E+008	2.457535E-002	5.058860E-003	3.000947E-002	-8.006197E-003	3.003825E-002	-8.018452E-003	-1.074975E-001	3.917129E-002
9.700000E+008	2.466044E-002	5.110878E-003	2.998504E-002	-8.077089E-003	3.000969E-002	-8.090932E-003	-1.072002E-001	3.968522E-002
9.800000E+008	2.474398E-002	5.181782E-003	2.995802E-002	-8.161198E-003	3.000001E-002	-8.160624E-003	-1.069212E-001	4.019508E-002
9.900000E+008	2.482545E-002	5.224010E-003	2.994591E-002	-8.236727E-003	2.995177E-002	-8.250037E-003	-1.066471E-001	4.071006E-002
1.000000E+009	2.488920E-002	5.300167E-003	2.989992E-002	-8.304685E-003	2.993231E-002	-8.313569E-003	-1.064516E-001	4.118372E-002
1.010000E+009	2.493785E-002	5.374148E-003	2.987672E-002	-8.386717E-003	2.992386E-002	-8.394145E-003	-1.062088E-001	4.167992E-002
1.020000E+009	2.499231E-002	5.440195E-003	2.986529E-002	-8.469607E-003	2.987210E-002	-8.464554E-003	-1.060140E-001	4.217444E-002
1.030000E+009	2.502946E-002	5.532203E-003	2.982441E-002	-8.539506E-003	2.985624E-002	-8.537064E-003	-1.057947E-001	4.264949E-002
1.040000E+009	2.506365E-002	5.586274E-003	2.980993E-002	-8.607462E-003	2.983366E-002	-8.623174E-003	-1.055781E-001	4.312560E-002
1.050000E+009	2.510000E-002	5.637239E-003	2.979989E-002	-8.682320E-003	2.980682E-002	-8.694216E-003	-1.053142E-001	4.363487E-002
1.060000E+009	2.514980E-002	5.713382E-003	2.976620E-002	-8.759371E-003	2.977061E-002	-8.764507E-003	-1.050495E-001	4.413775E-002
1.070000E+009	2.518131E-002	5.758030E-003	2.972324E-002	-8.833548E-003	2.974072E-002	-8.843829E-003	-1.047972E-001	4.463361E-002
1.080000E+009	2.519405E-002	5.805997E-003	2.970012E-002	-8.902667E-003	2.970893E-002	-8.915706E-003	-1.045120E-001	4.513734E-002
1.090000E+009	2.524538E-002	5.861507E-003	2.965915E-002	-8.985021E-003	2.970004E-002	-8.977774E-003	-1.042514E-001	4.561615E-002
1.100000E+009	2.529236E-002	5.932876E-003	2.962346E-002	-9.055163E-003	2.965585E-002	-9.071966E-003	-1.040387E-001	4.613643E-002
1.110000E+009	2.532599E-002	5.977285E-003	2.960368E-002	-9.136925E-003	2.961447E-002	-9.143935E-003	-1.037906E-001	4.660871E-002
1.120000E+009	2.536042E-002	6.014852E-003	2.958559E-002	-9.215905E-003	2.960990E-002	-9.217013E-003	-1.036394E-001	4.707410E-002
1.130000E+009	2.539071E-002	6.065640E-003	2.954939E-002	-9.288488E-003	2.957285E-002	-9.301535E-003	-1.034075E-001	4.753240E-002
1.140000E+009	2.542123E-002	6.117036E-003	2.952286E-002	-9.350175E-003	2.954509E-002	-9.374411E-003	-1.031843E-001	4.801231E-002
1.150000E+009	2.548050E-002	6.171068E-003	2.948918E-002	-9.429405E-003	2.951078E-002	-9.446248E-003	-1.029186E-001	4.848182E-002
1.160000E+009	2.550768E-002	6.220696E-003	2.944337E-002	-9.522435E-003	2.949003E-002	-9.524793E-003	-1.026561E-001	4.892577E-002
1.170000E+009	2.553421E-002	6.271852E-003	2.943208E-002	-9.582715E-003	2.945583E-002	-9.597045E-003	-1.023896E-001	4.942529E-002
1.180000E+009	2.559023E-002	6.317019E-003	2.940243E-002	-9.658613E-003	2.942417E-002	-9.678842E-003	-1.020922E-001	4.993458E-002
1.190000E+009	2.557541E-002	6.380602E-003	2.938121E-002	-9.748092E-003	2.939868E-002	-9.742610E-003	-1.018240E-001	5.044696E-002
1.200000E+009	2.563999E-002	6.438704E-003	2.933059E-002	-9.829194E-003	2.937472E-002	-9.822430E-003	-1.015393E-001	5.097220E-002
1.210000E+009	2.567274E-002	6.459027E-003	2.930841E-002	-9.886780E-003	2.934206E-002	-9.907030E-003	-1.012748E-001	5.148153E-002
1.220000E+009	2.570804E-002	6.453310E-003	2.927479E-002	-9.952325E-003	2.929828E-002	-9.970412E-003	-1.010399E-001	5.198059E-002
1.230000E+009	2.575646E-002	6.461691E-003	2.924438E-002	-1.004756E-002	2.926640E-002	-1.004810E-002	-1.008303E-001	5.245792E-002
1.240000E+009	2.583183E-002	6.485056E-003	2.920860E-002	-1.011878E-002	2.924263E-002	-1.010697E-002	-1.006173E-001	5.289886E-002
1.250000E+009	2.589963E-002	6.489009E-003	2.917992E-002	-1.017820E-002	2.919744E-002	-1.018917E-002	-1.003809E-001	5.336792E-002
1.260000E+009	2.593784E-002	6.498677E-003	2.915267E-002	-1.026508E-002	2.915619E-002	-1.026649E-002	-1.001146E-001	5.377563E-002
1.270000E+009	2.608423E-002	6.541694E-003	2.912077E-002	-1.033801E-002	2.913637E-002	-1.034212E-002	-9.983295E-002	5.419345E-002
1.280000E+009	2.614121E-002	6.585816E-003	2.908633E-002	-1.041401E-002	2.912004E-002	-1.040533E-002	-9.954458E-002	5.461578E-002
1.290000E+009	2.625382E-002	6.654745E-003	2.904706E-002	-1.049242E-002	2.907107E-002	-1.047127E-002	-9.920299E-002	5.502830E-002
1.300000E+009	2.634317E-002	6.747019E-003	2.902423E-002	-1.055334E-002	2.905256E-002	-1.056410E-002	-9.884176E-002	5.546308E-002
1.310000E+009	2.640811E-002	6.814754E-003	2.897931E-002	-1.063510E-002	2.900132E-002	-1.063244E-002	-9.849349E-002	5.593226E-002
1.320000E+009	2.648195E-002	6.915210E-003	2.894329E-002	-1.070518E-002	2.898333E-002	-1.070361E-002	-9.809961E-002	5.644236E-002
1.330000E+009	2.653591E-002	6.991819E-003	2.890500E-002	-1.078788E-002	2.894156E-002	-1.078961E-002	-9.768246E-002	5.700237E-002
1.340000E+009	2.657970E-002	7.099837E-003	2.888288E-002	-1.084836E-002	2.888601E-002	-1.088401E-002	-9.730749E-002	5.755498E-002
1.350000E+009	2.659928E-002	7.148657E-003	2.885387E-002	-1.092542E-002	2.885738E-002	-1.093642E-002	-9.694618E-002	5.813580E-002
1.360000E+009	2.668087E-002	7.211942E-003	2.881089E-002	-1.099703E-002	2.883425E-002	-1.101713E-002	-9.655865E-002	5.874446E-002
1.370000E+009	2.673507E-002	7.300197E-003	2.877989E-002	-1.107778E-002	2.880077E-002	-1.108327E-002	-9.622335E-002	5.936372E-002
1.380000E+009	2.679992E-002	7.336808E-003	2.873395E-002	-1.115001E-002	2.876271E-002	-1.116031E-002	-9.588653E-002	5.993651E-002
1.390000E+009	2.688023E-002	7.400618E-003	2.871165E-002	-1.123383E-002	2.873725E-002	-1.124540E-002	-9.560689E-002	6.056434E-002
1.400000E+009	2.692249E-002	7.453113E-003	2.866447E-002	-1.130204E-002	2.868282E-002	-1.130488E-002	-9.532160E-002	6.115832E-002
1.410000E+009	2.697476E-002	7.557479E-003	2.862714E-002	-1.136753E-002	2.864143E-002	-1.137726E-002	-9.502823E-002	6.175656E-002
1.420000E+009	2.699912E-002	7.644866E-003	2.859106E-002	-1.143190E-002	2.861825E-002	-1.143681E-002	-9.477118E-002	6.230911E-002
1.430000E+009	2.707950E-002	7.721412E-003	2.854997E-002	-1.148830E-002	2.858705E-002	-1.152944E-002	-9.448382E-002	6.285757E-002
1.440000E+009	2.710601E-002	7.775852E-003	2.851942E-002	-1.158709E-002	2.853477E-002	-1.159762E-002	-9.418423E-002	6.336383E-002
1.450000E+009	2.713167E-002	7.854449E-003	2.847350E-002	-1.165665E-002	2.849671E-002	-1.165825E-002	-9.385615E-002	6.392322E-002
1.460000E+009	2.716070E-002	7.943632E-003	2.843849E-002	-1.173126E-002	2.845083E-002	-1.172362E-002	-9.352397E-002	6.443212E-002
1.470000E+009	2.720771E-002	7.950111E-003	2.840874E-002	-1.180919E-002	2.841770E-002	-1.180483E-002	-9.317584E-002	6.500900E-002
1.480000E+009	2.723709E-002	8.038374E-003	2.836921E-002	-1.187280E-002	2.839592E-002	-1.186535E-002	-9.279859E-002	6.560652E-002
1.490000E+009	2.729264E-002	8.084551E-003	2.831838E-002	-1.194841E-002	2.835248E-002	-1.194473E-002	-9.241612E-002	6.618745E-002
1.500000E+009	2.734870E-002	8.131386E-003	2.828880E-002	-1.200433E-002	2.828886E-002	-1.201339E-002	-9.204095E-002	6.679493E-002
1.510000E+009	2.743059E-002	8.187215E-003	2.823039E-002	-1.207717E-002	2.827098E-002	-1.209313E-002	-9.169127E-002	6.740181E-002
