! Device ID: PE43711P
! File Path: z:\PE43711P\CHAR_NOM_04282014\AMB\3p300\LS_ATT_22p25dB\PE43711P_AMB_3p300V_3p000V_0p000V_LS_ATT_22p25dB_S2P_SN_5_A0137A.s2p
! Serial: 5
! Lot: A0137A
! Temp: 25C
! VDD: 3.300
! VSS: 0.000
! Control_Hi: 3.000
! Control_Lo: 0.000
! Attenuation Step: 22.25dB
! Port 1: RF1
! Port 2: RF2
! ThroughPath:1-2
! IDD: 0.0001275059
! ISS: -1.221e-007
!

#  Hz  S   RI  R   50

1.000000E+007	4.246483E-002	3.169309E-004	6.701181E-002	-2.824264E-004	6.706076E-002	-3.080935E-004	-1.138778E-001	9.160425E-004
2.000000E+007	4.267732E-002	3.608857E-004	6.701291E-002	-4.364327E-004	6.705583E-002	-4.457980E-004	-1.136088E-001	1.507800E-003
3.000000E+007	4.294827E-002	3.595209E-004	6.702652E-002	-6.539787E-004	6.706804E-002	-6.646073E-004	-1.133063E-001	1.992460E-003
4.000000E+007	4.311056E-002	3.517745E-004	6.702604E-002	-8.840109E-004	6.706135E-002	-9.030735E-004	-1.131318E-001	2.563707E-003
5.000000E+007	4.320579E-002	3.330573E-004	6.701447E-002	-1.132726E-003	6.706530E-002	-1.133236E-003	-1.130976E-001	3.118832E-003
6.000000E+007	4.337426E-002	2.604503E-004	6.700142E-002	-1.344722E-003	6.705572E-002	-1.339386E-003	-1.129564E-001	3.565162E-003
7.000000E+007	4.348188E-002	1.701816E-004	6.698439E-002	-1.566663E-003	6.703614E-002	-1.567425E-003	-1.127773E-001	4.019716E-003
8.000000E+007	4.362135E-002	7.703588E-005	6.697542E-002	-1.768081E-003	6.702866E-002	-1.777873E-003	-1.126153E-001	4.452805E-003
9.000000E+007	4.373152E-002	-3.159129E-006	6.695832E-002	-2.000182E-003	6.702514E-002	-2.000562E-003	-1.125014E-001	4.819978E-003
1.000000E+008	4.385177E-002	-8.729682E-005	6.696187E-002	-2.217949E-003	6.700464E-002	-2.209848E-003	-1.124548E-001	5.232226E-003
1.100000E+008	4.396216E-002	-1.814485E-004	6.694256E-002	-2.444892E-003	6.698729E-002	-2.420606E-003	-1.123607E-001	5.598796E-003
1.200000E+008	4.411014E-002	-3.221182E-004	6.691002E-002	-2.668915E-003	6.696888E-002	-2.660738E-003	-1.122509E-001	5.922033E-003
1.300000E+008	4.420133E-002	-4.187218E-004	6.689739E-002	-2.870866E-003	6.694967E-002	-2.881526E-003	-1.121370E-001	6.270587E-003
1.400000E+008	4.426934E-002	-4.841128E-004	6.688563E-002	-3.090731E-003	6.692593E-002	-3.092418E-003	-1.120468E-001	6.599465E-003
1.500000E+008	4.430552E-002	-5.604007E-004	6.685886E-002	-3.315681E-003	6.689506E-002	-3.307059E-003	-1.119499E-001	6.920676E-003
1.600000E+008	4.435969E-002	-5.888387E-004	6.685263E-002	-3.508746E-003	6.687371E-002	-3.514253E-003	-1.118821E-001	7.257640E-003
1.700000E+008	4.442130E-002	-6.680626E-004	6.682967E-002	-3.753243E-003	6.688594E-002	-3.726705E-003	-1.118061E-001	7.605925E-003
1.800000E+008	4.444712E-002	-7.468912E-004	6.679515E-002	-3.983022E-003	6.686925E-002	-3.971102E-003	-1.117096E-001	7.933979E-003
1.900000E+008	4.442229E-002	-8.662376E-004	6.675328E-002	-4.174683E-003	6.684555E-002	-4.183815E-003	-1.116740E-001	8.192950E-003
2.000000E+008	4.436694E-002	-9.934548E-004	6.673809E-002	-4.402123E-003	6.679623E-002	-4.392329E-003	-1.116152E-001	8.441780E-003
2.100000E+008	4.432827E-002	-1.165445E-003	6.671443E-002	-4.598110E-003	6.677830E-002	-4.605580E-003	-1.115308E-001	8.647136E-003
2.200000E+008	4.429485E-002	-1.312296E-003	6.669306E-002	-4.795547E-003	6.674114E-002	-4.797541E-003	-1.114266E-001	8.850654E-003
2.300000E+008	4.427779E-002	-1.474014E-003	6.667322E-002	-5.021727E-003	6.670766E-002	-5.005658E-003	-1.112861E-001	9.051230E-003
2.400000E+008	4.430054E-002	-1.650713E-003	6.662761E-002	-5.237739E-003	6.668969E-002	-5.224526E-003	-1.111322E-001	9.302283E-003
2.500000E+008	4.430681E-002	-1.786416E-003	6.661279E-002	-5.454271E-003	6.666197E-002	-5.434768E-003	-1.109359E-001	9.541593E-003
2.600000E+008	4.435777E-002	-1.952006E-003	6.657278E-002	-5.671919E-003	6.663098E-002	-5.654353E-003	-1.107267E-001	9.851750E-003
2.700000E+008	4.441119E-002	-2.083347E-003	6.655511E-002	-5.870366E-003	6.659583E-002	-5.862303E-003	-1.105046E-001	1.019460E-002
2.800000E+008	4.448785E-002	-2.209148E-003	6.649684E-002	-6.071124E-003	6.656480E-002	-6.076602E-003	-1.103051E-001	1.048825E-002
2.900000E+008	4.450441E-002	-2.285250E-003	6.648019E-002	-6.280693E-003	6.653185E-002	-6.273717E-003	-1.101615E-001	1.083092E-002
3.000000E+008	4.452481E-002	-2.336291E-003	6.645917E-002	-6.493075E-003	6.651056E-002	-6.484818E-003	-1.100231E-001	1.120308E-002
3.100000E+008	4.451449E-002	-2.389188E-003	6.641683E-002	-6.705282E-003	6.648257E-002	-6.702975E-003	-1.099020E-001	1.157997E-002
3.200000E+008	4.448837E-002	-2.432409E-003	6.637905E-002	-6.912572E-003	6.644455E-002	-6.898703E-003	-1.098117E-001	1.194671E-002
3.300000E+008	4.443925E-002	-2.477389E-003	6.635270E-002	-7.126281E-003	6.640313E-002	-7.123819E-003	-1.097310E-001	1.228094E-002
3.400000E+008	4.434405E-002	-2.546255E-003	6.631379E-002	-7.338731E-003	6.634629E-002	-7.354436E-003	-1.095964E-001	1.258147E-002
3.500000E+008	4.424525E-002	-2.639277E-003	6.627248E-002	-7.548932E-003	6.627872E-002	-7.546889E-003	-1.094584E-001	1.284070E-002
3.600000E+008	4.416797E-002	-2.735561E-003	6.623318E-002	-7.764321E-003	6.624820E-002	-7.740261E-003	-1.093004E-001	1.311958E-002
3.700000E+008	4.406889E-002	-2.844486E-003	6.618195E-002	-7.961445E-003	6.620651E-002	-7.917807E-003	-1.091051E-001	1.336857E-002
3.800000E+008	4.401254E-002	-2.963911E-003	6.614298E-002	-8.150259E-003	6.618524E-002	-8.124638E-003	-1.089098E-001	1.364740E-002
3.900000E+008	4.392229E-002	-3.117099E-003	6.610066E-002	-8.368447E-003	6.615436E-002	-8.344055E-003	-1.086260E-001	1.399765E-002
4.000000E+008	4.389613E-002	-3.280890E-003	6.604299E-002	-8.550588E-003	6.609796E-002	-8.563229E-003	-1.083274E-001	1.430973E-002
4.100000E+008	4.384860E-002	-3.430809E-003	6.599742E-002	-8.746878E-003	6.606493E-002	-8.759850E-003	-1.080413E-001	1.465254E-002
4.200000E+008	4.379880E-002	-3.563509E-003	6.596723E-002	-8.946625E-003	6.601445E-002	-8.954884E-003	-1.078269E-001	1.502837E-002
4.300000E+008	4.376234E-002	-3.681134E-003	6.592343E-002	-9.154610E-003	6.598751E-002	-9.164295E-003	-1.076355E-001	1.545354E-002
4.400000E+008	4.373855E-002	-3.794806E-003	6.590132E-002	-9.370005E-003	6.594649E-002	-9.362936E-003	-1.074439E-001	1.591687E-002
4.500000E+008	4.371785E-002	-3.883387E-003	6.584952E-002	-9.569108E-003	6.590169E-002	-9.561303E-003	-1.072519E-001	1.637062E-002
4.600000E+008	4.371124E-002	-3.987135E-003	6.580050E-002	-9.771804E-003	6.584336E-002	-9.772848E-003	-1.070699E-001	1.683667E-002
4.700000E+008	4.366031E-002	-4.097009E-003	6.575992E-002	-9.968299E-003	6.579556E-002	-9.978013E-003	-1.068942E-001	1.725035E-002
4.800000E+008	4.360212E-002	-4.148013E-003	6.570607E-002	-1.017163E-002	6.575073E-002	-1.016906E-002	-1.067525E-001	1.766555E-002
4.900000E+008	4.352720E-002	-4.219664E-003	6.565588E-002	-1.035939E-002	6.568994E-002	-1.036900E-002	-1.066226E-001	1.805793E-002
5.000000E+008	4.346363E-002	-4.277769E-003	6.560845E-002	-1.057422E-002	6.566046E-002	-1.055254E-002	-1.064662E-001	1.843570E-002
5.100000E+008	4.339867E-002	-4.366336E-003	6.557145E-002	-1.077217E-002	6.562032E-002	-1.075115E-002	-1.062807E-001	1.882770E-002
5.200000E+008	4.332324E-002	-4.451353E-003	6.551775E-002	-1.095346E-002	6.556973E-002	-1.096392E-002	-1.061212E-001	1.921622E-002
5.300000E+008	4.321926E-002	-4.560176E-003	6.548126E-002	-1.117751E-002	6.553202E-002	-1.116627E-002	-1.058775E-001	1.960324E-002
5.400000E+008	4.313327E-002	-4.721500E-003	6.541195E-002	-1.135909E-002	6.547113E-002	-1.136536E-002	-1.056421E-001	1.998440E-002
5.500000E+008	4.302158E-002	-4.828502E-003	6.537343E-002	-1.156042E-002	6.541410E-002	-1.156170E-002	-1.054488E-001	2.039357E-002
5.600000E+008	4.295989E-002	-4.988866E-003	6.531554E-002	-1.175978E-002	6.535491E-002	-1.175333E-002	-1.052193E-001	2.081950E-002
5.700000E+008	4.288751E-002	-5.149482E-003	6.524540E-002	-1.194099E-002	6.531292E-002	-1.194244E-002	-1.050608E-001	2.128300E-002
5.800000E+008	4.284622E-002	-5.291759E-003	6.521027E-002	-1.214322E-002	6.525817E-002	-1.214553E-002	-1.048850E-001	2.174000E-002
5.900000E+008	4.280448E-002	-5.444029E-003	6.515601E-002	-1.234065E-002	6.519827E-002	-1.235634E-002	-1.047062E-001	2.223564E-002
6.000000E+008	4.279761E-002	-5.605083E-003	6.509268E-002	-1.253588E-002	6.515665E-002	-1.254848E-002	-1.045003E-001	2.266662E-002
6.100000E+008	4.282225E-002	-5.738912E-003	6.505168E-002	-1.273501E-002	6.508037E-002	-1.274804E-002	-1.043433E-001	2.311836E-002
6.200000E+008	4.284617E-002	-5.818168E-003	6.499042E-002	-1.292627E-002	6.503914E-002	-1.293303E-002	-1.041587E-001	2.354810E-002
6.300000E+008	4.286469E-002	-5.891786E-003	6.492966E-002	-1.310655E-002	6.496896E-002	-1.312604E-002	-1.039839E-001	2.398735E-002
6.400000E+008	4.286109E-002	-5.954849E-003	6.487765E-002	-1.331142E-002	6.492817E-002	-1.330955E-002	-1.038021E-001	2.442806E-002
6.500000E+008	4.285880E-002	-6.002611E-003	6.482281E-002	-1.349553E-002	6.486019E-002	-1.351253E-002	-1.036192E-001	2.485764E-002
6.600000E+008	4.284011E-002	-6.081329E-003	6.476622E-002	-1.370497E-002	6.480257E-002	-1.372020E-002	-1.034306E-001	2.530732E-002
6.700000E+008	4.276575E-002	-6.111661E-003	6.470138E-002	-1.389590E-002	6.474558E-002	-1.390554E-002	-1.032507E-001	2.577270E-002
6.800000E+008	4.269886E-002	-6.164312E-003	6.465059E-002	-1.407752E-002	6.468762E-002	-1.408284E-002	-1.030659E-001	2.625772E-002
6.900000E+008	4.264595E-002	-6.204885E-003	6.459232E-002	-1.426579E-002	6.463130E-002	-1.427259E-002	-1.028806E-001	2.673192E-002
7.000000E+008	4.258502E-002	-6.254146E-003	6.453436E-002	-1.445761E-002	6.456675E-002	-1.446341E-002	-1.027457E-001	2.722210E-002
7.100000E+008	4.251131E-002	-6.338218E-003	6.446599E-002	-1.464904E-002	6.451695E-002	-1.464375E-002	-1.026348E-001	2.765989E-002
7.200000E+008	4.242389E-002	-6.402939E-003	6.442264E-002	-1.482157E-002	6.446396E-002	-1.484567E-002	-1.024924E-001	2.813926E-002
7.300000E+008	4.234993E-002	-6.501118E-003	6.434400E-002	-1.503648E-002	6.439472E-002	-1.502901E-002	-1.023711E-001	2.853624E-002
7.400000E+008	4.224585E-002	-6.560722E-003	6.428802E-002	-1.520958E-002	6.434172E-002	-1.521901E-002	-1.022791E-001	2.896119E-002
7.500000E+008	4.218030E-002	-6.681178E-003	6.422553E-002	-1.540335E-002	6.427755E-002	-1.541287E-002	-1.021647E-001	2.933348E-002
7.600000E+008	4.212333E-002	-6.773655E-003	6.415781E-002	-1.560232E-002	6.421410E-002	-1.560012E-002	-1.020048E-001	2.972758E-002
7.700000E+008	4.204257E-002	-6.897808E-003	6.409849E-002	-1.577909E-002	6.415772E-002	-1.579494E-002	-1.018521E-001	3.008905E-002
7.800000E+008	4.198787E-002	-6.997480E-003	6.403601E-002	-1.595234E-002	6.410472E-002	-1.598012E-002	-1.016790E-001	3.043378E-002
7.900000E+008	4.192119E-002	-7.143350E-003	6.397743E-002	-1.615720E-002	6.402549E-002	-1.617352E-002	-1.015083E-001	3.082109E-002
8.000000E+008	4.187411E-002	-7.270568E-003	6.391927E-002	-1.634563E-002	6.395677E-002	-1.635153E-002	-1.012890E-001	3.122277E-002
8.100000E+008	4.184365E-002	-7.434488E-003	6.384861E-002	-1.651550E-002	6.389948E-002	-1.655202E-002	-1.010270E-001	3.165540E-002
8.200000E+008	4.184410E-002	-7.520890E-003	6.378983E-002	-1.672051E-002	6.381858E-002	-1.672562E-002	-1.007942E-001	3.206055E-002
8.300000E+008	4.187139E-002	-7.639416E-003	6.371547E-002	-1.690578E-002	6.377387E-002	-1.690496E-002	-1.005729E-001	3.247227E-002
8.400000E+008	4.189153E-002	-7.736000E-003	6.364251E-002	-1.708493E-002	6.370943E-002	-1.709054E-002	-1.003697E-001	3.290267E-002
8.500000E+008	4.188519E-002	-7.788976E-003	6.359150E-002	-1.727090E-002	6.363954E-002	-1.728382E-002	-1.002206E-001	3.335234E-002
8.600000E+008	4.186982E-002	-7.860550E-003	6.352338E-002	-1.745066E-002	6.356430E-002	-1.746817E-002	-1.000493E-001	3.376611E-002
8.700000E+008	4.186088E-002	-7.870807E-003	6.345215E-002	-1.762997E-002	6.350246E-002	-1.764708E-002	-9.988744E-002	3.417374E-002
8.800000E+008	4.183629E-002	-7.921044E-003	6.338911E-002	-1.781922E-002	6.344316E-002	-1.782352E-002	-9.973258E-002	3.457120E-002
8.900000E+008	4.179120E-002	-7.964032E-003	6.331221E-002	-1.800355E-002	6.335828E-002	-1.802552E-002	-9.957371E-002	3.493463E-002
9.000000E+008	4.174479E-002	-8.010697E-003	6.323749E-002	-1.817967E-002	6.329958E-002	-1.821058E-002	-9.937767E-002	3.533062E-002
9.100000E+008	4.167008E-002	-8.065664E-003	6.316910E-002	-1.838328E-002	6.325006E-002	-1.838304E-002	-9.914411E-002	3.569220E-002
9.200000E+008	4.158991E-002	-8.145641E-003	6.310836E-002	-1.854589E-002	6.316409E-002	-1.857997E-002	-9.887980E-002	3.607767E-002
9.300000E+008	4.157218E-002	-8.246202E-003	6.305192E-002	-1.874062E-002	6.307481E-002	-1.875330E-002	-9.860962E-002	3.647563E-002
9.400000E+008	4.154631E-002	-8.329194E-003	6.295234E-002	-1.892398E-002	6.303316E-002	-1.893311E-002	-9.825942E-002	3.689699E-002
9.500000E+008	4.152739E-002	-8.444684E-003	6.290354E-002	-1.909645E-002	6.294111E-002	-1.911876E-002	-9.794635E-002	3.737836E-002
9.600000E+008	4.149726E-002	-8.507002E-003	6.281420E-002	-1.927337E-002	6.287610E-002	-1.930527E-002	-9.759675E-002	3.782315E-002
9.700000E+008	4.148929E-002	-8.565349E-003	6.274105E-002	-1.945720E-002	6.280964E-002	-1.948414E-002	-9.730171E-002	3.829888E-002
9.800000E+008	4.151259E-002	-8.613341E-003	6.269969E-002	-1.963158E-002	6.274739E-002	-1.965053E-002	-9.701937E-002	3.881777E-002
9.900000E+008	4.151082E-002	-8.640914E-003	6.263033E-002	-1.981543E-002	6.266658E-002	-1.983496E-002	-9.676228E-002	3.930014E-002
1.000000E+009	4.150673E-002	-8.667049E-003	6.254965E-002	-1.999161E-002	6.259567E-002	-2.001897E-002	-9.654548E-002	3.976869E-002
1.010000E+009	4.145554E-002	-8.689137E-003	6.248318E-002	-2.018959E-002	6.253719E-002	-2.020800E-002	-9.629938E-002	4.027354E-002
1.020000E+009	4.140781E-002	-8.709465E-003	6.240904E-002	-2.035141E-002	6.245621E-002	-2.039103E-002	-9.608834E-002	4.074742E-002
1.030000E+009	4.138654E-002	-8.712988E-003	6.233076E-002	-2.052731E-002	6.238172E-002	-2.057137E-002	-9.589107E-002	4.121883E-002
1.040000E+009	4.132913E-002	-8.752063E-003	6.226234E-002	-2.071651E-002	6.231294E-002	-2.074663E-002	-9.567940E-002	4.169521E-002
1.050000E+009	4.129050E-002	-8.795625E-003	6.219077E-002	-2.089073E-002	6.222912E-002	-2.092113E-002	-9.540785E-002	4.219089E-002
1.060000E+009	4.124764E-002	-8.837834E-003	6.211689E-002	-2.107774E-002	6.216352E-002	-2.108110E-002	-9.515019E-002	4.263249E-002
1.070000E+009	4.119804E-002	-8.883476E-003	6.202869E-002	-2.126063E-002	6.208789E-002	-2.126688E-002	-9.487044E-002	4.312322E-002
1.080000E+009	4.114789E-002	-8.907389E-003	6.194468E-002	-2.143211E-002	6.201575E-002	-2.145561E-002	-9.459736E-002	4.362411E-002
1.090000E+009	4.109007E-002	-8.946915E-003	6.189543E-002	-2.160019E-002	6.193861E-002	-2.163260E-002	-9.435424E-002	4.407315E-002
1.100000E+009	4.106452E-002	-8.992788E-003	6.180851E-002	-2.178586E-002	6.187281E-002	-2.180294E-002	-9.412520E-002	4.458163E-002
1.110000E+009	4.103271E-002	-9.018398E-003	6.173485E-002	-2.197636E-002	6.179146E-002	-2.198521E-002	-9.386384E-002	4.504645E-002
1.120000E+009	4.095235E-002	-9.080416E-003	6.165347E-002	-2.215092E-002	6.169204E-002	-2.217487E-002	-9.370625E-002	4.549577E-002
1.130000E+009	4.091874E-002	-9.105415E-003	6.157786E-002	-2.232954E-002	6.163611E-002	-2.233800E-002	-9.347285E-002	4.595250E-002
1.140000E+009	4.086827E-002	-9.146901E-003	6.150546E-002	-2.251413E-002	6.156021E-002	-2.253101E-002	-9.323487E-002	4.642024E-002
1.150000E+009	4.082291E-002	-9.185318E-003	6.140928E-002	-2.268260E-002	6.146974E-002	-2.269799E-002	-9.299019E-002	4.687486E-002
1.160000E+009	4.075800E-002	-9.234409E-003	6.132872E-002	-2.286511E-002	6.140184E-002	-2.288260E-002	-9.273434E-002	4.730632E-002
1.170000E+009	4.072466E-002	-9.250473E-003	6.126417E-002	-2.304709E-002	6.131411E-002	-2.305135E-002	-9.246585E-002	4.779868E-002
1.180000E+009	4.067669E-002	-9.300067E-003	6.118442E-002	-2.322602E-002	6.123926E-002	-2.324671E-002	-9.216151E-002	4.828753E-002
1.190000E+009	4.061572E-002	-9.320821E-003	6.110073E-002	-2.340862E-002	6.115377E-002	-2.342576E-002	-9.189382E-002	4.877989E-002
1.200000E+009	4.056277E-002	-9.392025E-003	6.100961E-002	-2.356477E-002	6.105545E-002	-2.358407E-002	-9.159655E-002	4.928890E-002
1.210000E+009	4.054116E-002	-9.460110E-003	6.093500E-002	-2.374458E-002	6.097740E-002	-2.377360E-002	-9.133278E-002	4.977692E-002
1.220000E+009	4.048105E-002	-9.532618E-003	6.085444E-002	-2.392336E-002	6.089584E-002	-2.394197E-002	-9.111098E-002	5.026638E-002
1.230000E+009	4.044291E-002	-9.601896E-003	6.077105E-002	-2.410440E-002	6.080881E-002	-2.412147E-002	-9.086486E-002	5.074408E-002
1.240000E+009	4.042516E-002	-9.675155E-003	6.067391E-002	-2.427692E-002	6.070495E-002	-2.428824E-002	-9.065762E-002	5.117957E-002
1.250000E+009	4.042169E-002	-9.755815E-003	6.058584E-002	-2.444765E-002	6.065408E-002	-2.447469E-002	-9.042233E-002	5.162749E-002
1.260000E+009	4.038329E-002	-9.832811E-003	6.050740E-002	-2.462956E-002	6.057204E-002	-2.463591E-002	-9.015859E-002	5.202290E-002
1.270000E+009	4.040971E-002	-9.878476E-003	6.041984E-002	-2.480462E-002	6.046641E-002	-2.481154E-002	-8.987287E-002	5.243205E-002
1.280000E+009	4.040809E-002	-9.904542E-003	6.033262E-002	-2.498467E-002	6.041251E-002	-2.498577E-002	-8.959254E-002	5.282110E-002
1.290000E+009	4.040101E-002	-9.933684E-003	6.024713E-002	-2.516672E-002	6.029963E-002	-2.516813E-002	-8.925579E-002	5.320164E-002
1.300000E+009	4.042499E-002	-9.933969E-003	6.016253E-002	-2.533078E-002	6.021172E-002	-2.534679E-002	-8.890009E-002	5.364898E-002
1.310000E+009	4.040576E-002	-9.966566E-003	6.006206E-002	-2.551203E-002	6.013798E-002	-2.552124E-002	-8.855198E-002	5.408331E-002
1.320000E+009	4.038373E-002	-9.958964E-003	5.996437E-002	-2.568739E-002	6.003651E-002	-2.569709E-002	-8.811892E-002	5.459081E-002
1.330000E+009	4.037348E-002	-9.943954E-003	5.988903E-002	-2.585241E-002	5.994789E-002	-2.588043E-002	-8.771384E-002	5.511734E-002
1.340000E+009	4.032146E-002	-9.926440E-003	5.980304E-002	-2.602135E-002	5.986301E-002	-2.603278E-002	-8.731929E-002	5.566752E-002
1.350000E+009	4.026971E-002	-9.955603E-003	5.971125E-002	-2.619587E-002	5.975614E-002	-2.621880E-002	-8.693985E-002	5.624738E-002
1.360000E+009	4.024913E-002	-9.967511E-003	5.962777E-002	-2.638480E-002	5.968514E-002	-2.639014E-002	-8.657752E-002	5.684244E-002
1.370000E+009	4.021284E-002	-9.971635E-003	5.952574E-002	-2.652709E-002	5.957903E-002	-2.656555E-002	-8.625547E-002	5.743803E-002
1.380000E+009	4.018336E-002	-1.000118E-002	5.941364E-002	-2.671239E-002	5.948552E-002	-2.674945E-002	-8.592995E-002	5.801676E-002
1.390000E+009	4.018046E-002	-1.001834E-002	5.932199E-002	-2.688481E-002	5.937870E-002	-2.689290E-002	-8.565682E-002	5.864369E-002
1.400000E+009	4.015943E-002	-1.003163E-002	5.923354E-002	-2.707123E-002	5.928505E-002	-2.706613E-002	-8.535436E-002	5.919624E-002
1.410000E+009	4.009956E-002	-1.004665E-002	5.913631E-002	-2.723006E-002	5.919678E-002	-2.722560E-002	-8.505358E-002	5.977784E-002
1.420000E+009	4.002438E-002	-1.003821E-002	5.900810E-002	-2.737776E-002	5.910017E-002	-2.741408E-002	-8.479715E-002	6.030892E-002
1.430000E+009	4.001644E-002	-1.002842E-002	5.892562E-002	-2.756266E-002	5.898373E-002	-2.758444E-002	-8.448850E-002	6.081121E-002
1.440000E+009	3.996841E-002	-1.005324E-002	5.883776E-002	-2.771982E-002	5.889003E-002	-2.773703E-002	-8.418655E-002	6.133319E-002
1.450000E+009	3.990902E-002	-1.005778E-002	5.875528E-002	-2.790949E-002	5.879521E-002	-2.790193E-002	-8.385614E-002	6.186875E-002
1.460000E+009	3.983626E-002	-1.006341E-002	5.864918E-002	-2.805040E-002	5.867573E-002	-2.808072E-002	-8.351491E-002	6.236881E-002
1.470000E+009	3.979194E-002	-1.009330E-002	5.854980E-002	-2.824963E-002	5.859973E-002	-2.824801E-002	-8.315916E-002	6.294520E-002
1.480000E+009	3.974244E-002	-1.009794E-002	5.842916E-002	-2.840419E-002	5.849349E-002	-2.841881E-002	-8.279667E-002	6.350897E-002
1.490000E+009	3.970271E-002	-1.012644E-002	5.832909E-002	-2.856755E-002	5.838843E-002	-2.856806E-002	-8.243557E-002	6.410577E-002
1.500000E+009	3.966240E-002	-1.016786E-002	5.822317E-002	-2.872424E-002	5.828209E-002	-2.875723E-002	-8.204179E-002	6.471020E-002
