! Device ID: PE43711P
! File Path: z:\PE43711P\CHAR_NOM_04282014\AMB\3p300\LS_ATT_10p00dB\PE43711P_AMB_3p300V_3p000V_0p000V_LS_ATT_10p00dB_S2P_SN_5_A0137A.s2p
! Serial: 5
! Lot: A0137A
! Temp: 25C
! VDD: 3.300
! VSS: 0.000
! Control_Hi: 3.000
! Control_Lo: 0.000
! Attenuation Step: 10.00dB
! Port 1: RF1
! Port 2: RF2
! ThroughPath:1-2
! IDD: 0.0001276864
! ISS: -9.47e-008
!

#  Hz  S   RI  R   50

1.000000E+007	8.427594E-002	-2.170380E-004	2.779767E-001	-1.310444E-003	2.782906E-001	-1.405143E-003	-9.787619E-002	7.900574E-004
2.000000E+007	8.444416E-002	-4.806855E-004	2.779624E-001	-2.241896E-003	2.781143E-001	-2.255504E-003	-9.761713E-002	1.319418E-003
3.000000E+007	8.468935E-002	-9.106694E-004	2.779715E-001	-3.379574E-003	2.781172E-001	-3.376520E-003	-9.731690E-002	1.704324E-003
4.000000E+007	8.481121E-002	-1.317570E-003	2.779524E-001	-4.498562E-003	2.781211E-001	-4.495698E-003	-9.709466E-002	2.160272E-003
5.000000E+007	8.492047E-002	-1.799708E-003	2.779537E-001	-5.710665E-003	2.781751E-001	-5.685982E-003	-9.703116E-002	2.579344E-003
6.000000E+007	8.507681E-002	-2.311423E-003	2.778652E-001	-6.822158E-003	2.781324E-001	-6.802684E-003	-9.688972E-002	2.887444E-003
7.000000E+007	8.515727E-002	-2.843213E-003	2.777910E-001	-7.923814E-003	2.780551E-001	-7.924925E-003	-9.673375E-002	3.205485E-003
8.000000E+007	8.526401E-002	-3.355198E-003	2.777231E-001	-8.987401E-003	2.779717E-001	-8.993228E-003	-9.658524E-002	3.527598E-003
9.000000E+007	8.535141E-002	-3.865385E-003	2.776810E-001	-1.009243E-002	2.779066E-001	-1.009238E-002	-9.645063E-002	3.787976E-003
1.000000E+008	8.542123E-002	-4.370197E-003	2.776343E-001	-1.121462E-002	2.778185E-001	-1.119569E-002	-9.634618E-002	4.062190E-003
1.100000E+008	8.549120E-002	-4.879751E-003	2.775349E-001	-1.235806E-002	2.777693E-001	-1.231691E-002	-9.625958E-002	4.304659E-003
1.200000E+008	8.556384E-002	-5.437797E-003	2.773887E-001	-1.345272E-002	2.776492E-001	-1.343951E-002	-9.621716E-002	4.518400E-003
1.300000E+008	8.559073E-002	-5.976260E-003	2.773098E-001	-1.453251E-002	2.775438E-001	-1.454215E-002	-9.610141E-002	4.739133E-003
1.400000E+008	8.559442E-002	-6.495809E-003	2.772046E-001	-1.563418E-002	2.774256E-001	-1.565588E-002	-9.590806E-002	4.948751E-003
1.500000E+008	8.551943E-002	-6.999512E-003	2.770959E-001	-1.669405E-002	2.772550E-001	-1.669858E-002	-9.575625E-002	5.135840E-003
1.600000E+008	8.545243E-002	-7.420547E-003	2.770192E-001	-1.774270E-002	2.771256E-001	-1.774087E-002	-9.574704E-002	5.352253E-003
1.700000E+008	8.538828E-002	-7.884616E-003	2.769108E-001	-1.891459E-002	2.771351E-001	-1.882651E-002	-9.582605E-002	5.559209E-003
1.800000E+008	8.527311E-002	-8.389652E-003	2.766459E-001	-2.005247E-002	2.770283E-001	-2.001656E-002	-9.583059E-002	5.739562E-003
1.900000E+008	8.514184E-002	-8.938011E-003	2.764353E-001	-2.109015E-002	2.768191E-001	-2.110412E-002	-9.578746E-002	5.881400E-003
2.000000E+008	8.503509E-002	-9.480915E-003	2.763233E-001	-2.213969E-002	2.766676E-001	-2.213996E-002	-9.565879E-002	6.026404E-003
2.100000E+008	8.492111E-002	-1.008253E-002	2.761895E-001	-2.318354E-002	2.764918E-001	-2.317373E-002	-9.549159E-002	6.154830E-003
2.200000E+008	8.480952E-002	-1.064702E-002	2.760733E-001	-2.420339E-002	2.763286E-001	-2.419904E-002	-9.535675E-002	6.259021E-003
2.300000E+008	8.467335E-002	-1.120059E-002	2.759501E-001	-2.526591E-002	2.761551E-001	-2.525776E-002	-9.522774E-002	6.356238E-003
2.400000E+008	8.454319E-002	-1.177106E-002	2.757840E-001	-2.633075E-002	2.759855E-001	-2.631703E-002	-9.511082E-002	6.486456E-003
2.500000E+008	8.441209E-002	-1.229897E-002	2.755851E-001	-2.742107E-002	2.758099E-001	-2.739570E-002	-9.497684E-002	6.570820E-003
2.600000E+008	8.431099E-002	-1.285669E-002	2.753813E-001	-2.849597E-002	2.756368E-001	-2.845609E-002	-9.479097E-002	6.746678E-003
2.700000E+008	8.422786E-002	-1.337910E-002	2.751719E-001	-2.952247E-002	2.754467E-001	-2.950984E-002	-9.458533E-002	6.946079E-003
2.800000E+008	8.413252E-002	-1.386987E-002	2.749797E-001	-3.053643E-002	2.752415E-001	-3.051852E-002	-9.439452E-002	7.136960E-003
2.900000E+008	8.402399E-002	-1.433141E-002	2.748191E-001	-3.155687E-002	2.750439E-001	-3.153732E-002	-9.425241E-002	7.353756E-003
3.000000E+008	8.391255E-002	-1.477196E-002	2.746449E-001	-3.262808E-002	2.748865E-001	-3.257749E-002	-9.410823E-002	7.607130E-003
3.100000E+008	8.376383E-002	-1.519482E-002	2.744598E-001	-3.364765E-002	2.747097E-001	-3.362937E-002	-9.400022E-002	7.870041E-003
3.200000E+008	8.361360E-002	-1.560010E-002	2.742389E-001	-3.471606E-002	2.745206E-001	-3.469832E-002	-9.391961E-002	8.123486E-003
3.300000E+008	8.340651E-002	-1.599030E-002	2.740547E-001	-3.575839E-002	2.743184E-001	-3.578413E-002	-9.384352E-002	8.350697E-003
3.400000E+008	8.314367E-002	-1.641266E-002	2.738121E-001	-3.682194E-002	2.740008E-001	-3.688747E-002	-9.371912E-002	8.537173E-003
3.500000E+008	8.285907E-002	-1.684525E-002	2.736001E-001	-3.786533E-002	2.736974E-001	-3.784818E-002	-9.359058E-002	8.668560E-003
3.600000E+008	8.260916E-002	-1.726174E-002	2.733807E-001	-3.888764E-002	2.734865E-001	-3.878470E-002	-9.345366E-002	8.822123E-003
3.700000E+008	8.235465E-002	-1.771199E-002	2.730994E-001	-3.983759E-002	2.732887E-001	-3.971976E-002	-9.325738E-002	8.983426E-003
3.800000E+008	8.212423E-002	-1.818557E-002	2.728782E-001	-4.087667E-002	2.731383E-001	-4.076957E-002	-9.309520E-002	9.132756E-003
3.900000E+008	8.187579E-002	-1.868269E-002	2.726122E-001	-4.193254E-002	2.729242E-001	-4.183567E-002	-9.282962E-002	9.336519E-003
4.000000E+008	8.166517E-002	-1.916851E-002	2.723255E-001	-4.286195E-002	2.726646E-001	-4.287840E-002	-9.255804E-002	9.528748E-003
4.100000E+008	8.141317E-002	-1.967599E-002	2.721064E-001	-4.379431E-002	2.723956E-001	-4.386558E-002	-9.230046E-002	9.737035E-003
4.200000E+008	8.117157E-002	-2.014110E-002	2.719267E-001	-4.480718E-002	2.721413E-001	-4.484371E-002	-9.209816E-002	1.000194E-002
4.300000E+008	8.095783E-002	-2.056652E-002	2.716928E-001	-4.581787E-002	2.718745E-001	-4.585739E-002	-9.191361E-002	1.028408E-002
4.400000E+008	8.076205E-002	-2.096580E-002	2.714353E-001	-4.683389E-002	2.716589E-001	-4.685269E-002	-9.173501E-002	1.062381E-002
4.500000E+008	8.056387E-002	-2.138803E-002	2.711969E-001	-4.784378E-002	2.714373E-001	-4.786480E-002	-9.156885E-002	1.098390E-002
4.600000E+008	8.037081E-002	-2.180681E-002	2.709235E-001	-4.885940E-002	2.711531E-001	-4.888181E-002	-9.142378E-002	1.134699E-002
4.700000E+008	8.012954E-002	-2.220315E-002	2.706550E-001	-4.984043E-002	2.708473E-001	-4.986729E-002	-9.128691E-002	1.163798E-002
4.800000E+008	7.986561E-002	-2.255665E-002	2.703834E-001	-5.078792E-002	2.705697E-001	-5.080551E-002	-9.118243E-002	1.195053E-002
4.900000E+008	7.958695E-002	-2.293109E-002	2.701157E-001	-5.177040E-002	2.702866E-001	-5.180252E-002	-9.108149E-002	1.224360E-002
5.000000E+008	7.932452E-002	-2.329328E-002	2.698424E-001	-5.276566E-002	2.700528E-001	-5.276217E-002	-9.095002E-002	1.250879E-002
5.100000E+008	7.908717E-002	-2.368222E-002	2.695796E-001	-5.375552E-002	2.698029E-001	-5.373906E-002	-9.079766E-002	1.277624E-002
5.200000E+008	7.880376E-002	-2.407596E-002	2.693018E-001	-5.474092E-002	2.695574E-001	-5.473464E-002	-9.063102E-002	1.304041E-002
5.300000E+008	7.851086E-002	-2.450769E-002	2.690155E-001	-5.571062E-002	2.692786E-001	-5.573889E-002	-9.041526E-002	1.329564E-002
5.400000E+008	7.822894E-002	-2.497224E-002	2.687249E-001	-5.669648E-002	2.689678E-001	-5.673379E-002	-9.019599E-002	1.354668E-002
5.500000E+008	7.793631E-002	-2.535055E-002	2.684374E-001	-5.765301E-002	2.686327E-001	-5.769500E-002	-9.002895E-002	1.384834E-002
5.600000E+008	7.764995E-002	-2.577234E-002	2.681280E-001	-5.861888E-002	2.682987E-001	-5.865189E-002	-8.984302E-002	1.415534E-002
5.700000E+008	7.739951E-002	-2.617873E-002	2.678168E-001	-5.956230E-002	2.680423E-001	-5.959485E-002	-8.971408E-002	1.450509E-002
5.800000E+008	7.714715E-002	-2.658578E-002	2.675306E-001	-6.053010E-002	2.677534E-001	-6.057305E-002	-8.959009E-002	1.484076E-002
5.900000E+008	7.690180E-002	-2.703920E-002	2.672249E-001	-6.152000E-002	2.674722E-001	-6.155957E-002	-8.948150E-002	1.521299E-002
6.000000E+008	7.669263E-002	-2.744250E-002	2.669183E-001	-6.248197E-002	2.671305E-001	-6.253784E-002	-8.930470E-002	1.551962E-002
6.100000E+008	7.649455E-002	-2.783258E-002	2.666018E-001	-6.341502E-002	2.667826E-001	-6.347811E-002	-8.920848E-002	1.583934E-002
6.200000E+008	7.628386E-002	-2.819904E-002	2.662712E-001	-6.435909E-002	2.664905E-001	-6.441263E-002	-8.906221E-002	1.615246E-002
6.300000E+008	7.610581E-002	-2.856375E-002	2.659445E-001	-6.530325E-002	2.661610E-001	-6.534035E-002	-8.891971E-002	1.646623E-002
6.400000E+008	7.592317E-002	-2.890106E-002	2.656332E-001	-6.624186E-002	2.658440E-001	-6.630985E-002	-8.876989E-002	1.676607E-002
6.500000E+008	7.574310E-002	-2.921237E-002	2.653173E-001	-6.717235E-002	2.655292E-001	-6.722210E-002	-8.861757E-002	1.711543E-002
6.600000E+008	7.550878E-002	-2.953758E-002	2.650188E-001	-6.811765E-002	2.651933E-001	-6.819300E-002	-8.846767E-002	1.744313E-002
6.700000E+008	7.522617E-002	-2.982484E-002	2.646922E-001	-6.906764E-002	2.648610E-001	-6.913893E-002	-8.833344E-002	1.779607E-002
6.800000E+008	7.493747E-002	-3.011238E-002	2.643537E-001	-6.999519E-002	2.645339E-001	-7.007362E-002	-8.820755E-002	1.817095E-002
6.900000E+008	7.463706E-002	-3.039196E-002	2.639767E-001	-7.093120E-002	2.641805E-001	-7.097468E-002	-8.808726E-002	1.855487E-002
7.000000E+008	7.436533E-002	-3.068962E-002	2.636586E-001	-7.185167E-002	2.638758E-001	-7.188142E-002	-8.800941E-002	1.891923E-002
7.100000E+008	7.408002E-002	-3.102729E-002	2.633344E-001	-7.277179E-002	2.635447E-001	-7.283094E-002	-8.793359E-002	1.926388E-002
7.200000E+008	7.377554E-002	-3.135559E-002	2.630045E-001	-7.368296E-002	2.632013E-001	-7.377337E-002	-8.786473E-002	1.957842E-002
7.300000E+008	7.347155E-002	-3.169654E-002	2.626389E-001	-7.463280E-002	2.628671E-001	-7.472105E-002	-8.778028E-002	1.985529E-002
7.400000E+008	7.318302E-002	-3.199610E-002	2.622768E-001	-7.555591E-002	2.625170E-001	-7.562111E-002	-8.772420E-002	2.015328E-002
7.500000E+008	7.290196E-002	-3.233588E-002	2.619520E-001	-7.645741E-002	2.621699E-001	-7.656010E-002	-8.765886E-002	2.040279E-002
7.600000E+008	7.261926E-002	-3.267063E-002	2.615961E-001	-7.737745E-002	2.618029E-001	-7.746526E-002	-8.754464E-002	2.067058E-002
7.700000E+008	7.231855E-002	-3.302750E-002	2.612441E-001	-7.829294E-002	2.614627E-001	-7.838442E-002	-8.741935E-002	2.089952E-002
7.800000E+008	7.204478E-002	-3.336729E-002	2.608807E-001	-7.920954E-002	2.611388E-001	-7.930034E-002	-8.731902E-002	2.116159E-002
7.900000E+008	7.175281E-002	-3.374460E-002	2.605478E-001	-8.012711E-002	2.607679E-001	-8.022949E-002	-8.720826E-002	2.143795E-002
8.000000E+008	7.147709E-002	-3.409582E-002	2.601524E-001	-8.104151E-002	2.603743E-001	-8.112014E-002	-8.703904E-002	2.174140E-002
8.100000E+008	7.119474E-002	-3.446489E-002	2.597749E-001	-8.193352E-002	2.599872E-001	-8.203939E-002	-8.685247E-002	2.203934E-002
8.200000E+008	7.099290E-002	-3.479913E-002	2.594397E-001	-8.285391E-002	2.596319E-001	-8.292882E-002	-8.670742E-002	2.233571E-002
8.300000E+008	7.075354E-002	-3.514390E-002	2.590479E-001	-8.374159E-002	2.592812E-001	-8.383197E-002	-8.654892E-002	2.264941E-002
8.400000E+008	7.056206E-002	-3.544720E-002	2.586748E-001	-8.462016E-002	2.588925E-001	-8.473361E-002	-8.640135E-002	2.294934E-002
8.500000E+008	7.035139E-002	-3.574322E-002	2.583283E-001	-8.553456E-002	2.585381E-001	-8.563609E-002	-8.631476E-002	2.326220E-002
8.600000E+008	7.010648E-002	-3.602872E-002	2.579326E-001	-8.641535E-002	2.581211E-001	-8.653538E-002	-8.620533E-002	2.356561E-002
8.700000E+008	6.987224E-002	-3.627637E-002	2.575635E-001	-8.734319E-002	2.577385E-001	-8.743223E-002	-8.611820E-002	2.386756E-002
8.800000E+008	6.962077E-002	-3.651981E-002	2.571783E-001	-8.823203E-002	2.573990E-001	-8.832170E-002	-8.598110E-002	2.415379E-002
8.900000E+008	6.934150E-002	-3.677416E-002	2.567908E-001	-8.911161E-002	2.570139E-001	-8.924192E-002	-8.589169E-002	2.442264E-002
9.000000E+008	6.905569E-002	-3.702940E-002	2.563659E-001	-8.999925E-002	2.566303E-001	-9.010973E-002	-8.575374E-002	2.471625E-002
9.100000E+008	6.872872E-002	-3.728980E-002	2.559871E-001	-9.089818E-002	2.562446E-001	-9.098267E-002	-8.557856E-002	2.497835E-002
9.200000E+008	6.843548E-002	-3.758565E-002	2.555979E-001	-9.177042E-002	2.558496E-001	-9.190858E-002	-8.538976E-002	2.526925E-002
9.300000E+008	6.814812E-002	-3.785879E-002	2.552357E-001	-9.265500E-002	2.554163E-001	-9.278919E-002	-8.518649E-002	2.553507E-002
9.400000E+008	6.788886E-002	-3.814586E-002	2.548093E-001	-9.354159E-002	2.550357E-001	-9.365582E-002	-8.492907E-002	2.584828E-002
9.500000E+008	6.762610E-002	-3.845943E-002	2.544295E-001	-9.443401E-002	2.546175E-001	-9.456489E-002	-8.467290E-002	2.620842E-002
9.600000E+008	6.736705E-002	-3.870635E-002	2.540060E-001	-9.529127E-002	2.542311E-001	-9.541850E-002	-8.441473E-002	2.655016E-002
9.700000E+008	6.715675E-002	-3.896258E-002	2.535849E-001	-9.616208E-002	2.538158E-001	-9.629688E-002	-8.416818E-002	2.690643E-002
9.800000E+008	6.694296E-002	-3.920602E-002	2.532130E-001	-9.701833E-002	2.534215E-001	-9.716234E-002	-8.392481E-002	2.729210E-002
9.900000E+008	6.672516E-002	-3.944229E-002	2.528195E-001	-9.791201E-002	2.530222E-001	-9.806466E-002	-8.371996E-002	2.767402E-002
1.000000E+009	6.647636E-002	-3.964564E-002	2.524143E-001	-9.877172E-002	2.525787E-001	-9.893213E-002	-8.358874E-002	2.806065E-002
1.010000E+009	6.620489E-002	-3.981389E-002	2.519912E-001	-9.967169E-002	2.521939E-001	-9.978596E-002	-8.342051E-002	2.844798E-002
1.020000E+009	6.593340E-002	-4.001566E-002	2.515811E-001	-1.005453E-001	2.517639E-001	-1.006510E-001	-8.328894E-002	2.885914E-002
1.030000E+009	6.565103E-002	-4.019130E-002	2.511368E-001	-1.013934E-001	2.513353E-001	-1.015221E-001	-8.313151E-002	2.924744E-002
1.040000E+009	6.536075E-002	-4.038638E-002	2.507138E-001	-1.022435E-001	2.509197E-001	-1.023755E-001	-8.300107E-002	2.961500E-002
1.050000E+009	6.508511E-002	-4.061995E-002	2.503242E-001	-1.031118E-001	2.504917E-001	-1.032243E-001	-8.281781E-002	2.998089E-002
1.060000E+009	6.479056E-002	-4.084155E-002	2.498729E-001	-1.039650E-001	2.500698E-001	-1.040735E-001	-8.265105E-002	3.036629E-002
1.070000E+009	6.449479E-002	-4.106588E-002	2.494444E-001	-1.048122E-001	2.496358E-001	-1.049203E-001	-8.244577E-002	3.071534E-002
1.080000E+009	6.423154E-002	-4.132462E-002	2.490210E-001	-1.056975E-001	2.492291E-001	-1.057951E-001	-8.224967E-002	3.110647E-002
1.090000E+009	6.397348E-002	-4.152963E-002	2.485823E-001	-1.065574E-001	2.488000E-001	-1.066610E-001	-8.208849E-002	3.145573E-002
1.100000E+009	6.372605E-002	-4.173262E-002	2.481064E-001	-1.074120E-001	2.483435E-001	-1.075131E-001	-8.190105E-002	3.185094E-002
1.110000E+009	6.346406E-002	-4.193828E-002	2.476913E-001	-1.082647E-001	2.479363E-001	-1.083681E-001	-8.173514E-002	3.222436E-002
1.120000E+009	6.317060E-002	-4.213067E-002	2.472564E-001	-1.090897E-001	2.474654E-001	-1.092273E-001	-8.162404E-002	3.259635E-002
1.130000E+009	6.290625E-002	-4.233279E-002	2.468022E-001	-1.099655E-001	2.470200E-001	-1.100724E-001	-8.148233E-002	3.294361E-002
1.140000E+009	6.257577E-002	-4.252405E-002	2.463440E-001	-1.108075E-001	2.465496E-001	-1.109259E-001	-8.134626E-002	3.331798E-002
1.150000E+009	6.231227E-002	-4.272268E-002	2.458929E-001	-1.116538E-001	2.461168E-001	-1.117679E-001	-8.117198E-002	3.369464E-002
1.160000E+009	6.201756E-002	-4.292746E-002	2.454482E-001	-1.125082E-001	2.456575E-001	-1.126254E-001	-8.101346E-002	3.403494E-002
1.170000E+009	6.172958E-002	-4.312533E-002	2.449685E-001	-1.133491E-001	2.451956E-001	-1.134329E-001	-8.082864E-002	3.442378E-002
1.180000E+009	6.143993E-002	-4.335363E-002	2.444978E-001	-1.141770E-001	2.447443E-001	-1.143092E-001	-8.061709E-002	3.478852E-002
1.190000E+009	6.114362E-002	-4.353785E-002	2.440398E-001	-1.150264E-001	2.442118E-001	-1.151283E-001	-8.040533E-002	3.518800E-002
1.200000E+009	6.085431E-002	-4.373325E-002	2.435858E-001	-1.158548E-001	2.437859E-001	-1.159599E-001	-8.020929E-002	3.558635E-002
1.210000E+009	6.062220E-002	-4.397610E-002	2.430916E-001	-1.167132E-001	2.433112E-001	-1.168181E-001	-8.002138E-002	3.600783E-002
1.220000E+009	6.035011E-002	-4.421135E-002	2.426146E-001	-1.175045E-001	2.428412E-001	-1.176472E-001	-7.986119E-002	3.638638E-002
1.230000E+009	6.007187E-002	-4.439992E-002	2.421414E-001	-1.183620E-001	2.423393E-001	-1.184618E-001	-7.971583E-002	3.674937E-002
1.240000E+009	5.980829E-002	-4.463447E-002	2.416678E-001	-1.191873E-001	2.418689E-001	-1.192734E-001	-7.956525E-002	3.710973E-002
1.250000E+009	5.955958E-002	-4.484275E-002	2.411869E-001	-1.200128E-001	2.414151E-001	-1.201122E-001	-7.943944E-002	3.748407E-002
1.260000E+009	5.925041E-002	-4.506060E-002	2.406734E-001	-1.208383E-001	2.409046E-001	-1.209649E-001	-7.926286E-002	3.779120E-002
1.270000E+009	5.906551E-002	-4.526641E-002	2.402131E-001	-1.216684E-001	2.404216E-001	-1.217714E-001	-7.908090E-002	3.811654E-002
1.280000E+009	5.879560E-002	-4.543781E-002	2.397328E-001	-1.225054E-001	2.399431E-001	-1.225907E-001	-7.890472E-002	3.839762E-002
1.290000E+009	5.854240E-002	-4.560258E-002	2.392107E-001	-1.233400E-001	2.394459E-001	-1.234206E-001	-7.864739E-002	3.870661E-002
1.300000E+009	5.832724E-002	-4.574426E-002	2.387064E-001	-1.241308E-001	2.389725E-001	-1.242422E-001	-7.836782E-002	3.905165E-002
1.310000E+009	5.805564E-002	-4.591625E-002	2.382123E-001	-1.249624E-001	2.384498E-001	-1.250849E-001	-7.809845E-002	3.940051E-002
1.320000E+009	5.778797E-002	-4.606980E-002	2.377004E-001	-1.257751E-001	2.379337E-001	-1.258688E-001	-7.777949E-002	3.981105E-002
1.330000E+009	5.752849E-002	-4.616357E-002	2.371897E-001	-1.265768E-001	2.374298E-001	-1.267182E-001	-7.742504E-002	4.024461E-002
1.340000E+009	5.724619E-002	-4.627869E-002	2.366832E-001	-1.273758E-001	2.369050E-001	-1.275149E-001	-7.712948E-002	4.072217E-002
1.350000E+009	5.694070E-002	-4.641720E-002	2.361844E-001	-1.282142E-001	2.363634E-001	-1.283386E-001	-7.683565E-002	4.121093E-002
1.360000E+009	5.670547E-002	-4.653118E-002	2.356374E-001	-1.289826E-001	2.358620E-001	-1.291259E-001	-7.655167E-002	4.175499E-002
1.370000E+009	5.642384E-002	-4.666426E-002	2.351520E-001	-1.298077E-001	2.353579E-001	-1.299256E-001	-7.634003E-002	4.227846E-002
1.380000E+009	5.613593E-002	-4.680839E-002	2.346084E-001	-1.305953E-001	2.348199E-001	-1.307394E-001	-7.608712E-002	4.277444E-002
1.390000E+009	5.586883E-002	-4.695833E-002	2.340664E-001	-1.314153E-001	2.342983E-001	-1.315531E-001	-7.590715E-002	4.331808E-002
1.400000E+009	5.558993E-002	-4.710184E-002	2.335519E-001	-1.322003E-001	2.337438E-001	-1.323078E-001	-7.574239E-002	4.378948E-002
1.410000E+009	5.529575E-002	-4.722737E-002	2.330130E-001	-1.329870E-001	2.332183E-001	-1.331139E-001	-7.554676E-002	4.429205E-002
1.420000E+009	5.501695E-002	-4.734660E-002	2.324348E-001	-1.337715E-001	2.326965E-001	-1.338897E-001	-7.536845E-002	4.475439E-002
1.430000E+009	5.474473E-002	-4.748245E-002	2.319040E-001	-1.345734E-001	2.321385E-001	-1.347143E-001	-7.513784E-002	4.518365E-002
1.440000E+009	5.445907E-002	-4.760870E-002	2.313756E-001	-1.353540E-001	2.315993E-001	-1.354534E-001	-7.493625E-002	4.561470E-002
1.450000E+009	5.414963E-002	-4.772135E-002	2.308273E-001	-1.361196E-001	2.310669E-001	-1.362664E-001	-7.468813E-002	4.607132E-002
1.460000E+009	5.382560E-002	-4.785534E-002	2.302838E-001	-1.369288E-001	2.304831E-001	-1.370522E-001	-7.446791E-002	4.653362E-002
1.470000E+009	5.358063E-002	-4.797885E-002	2.297280E-001	-1.377258E-001	2.299488E-001	-1.378091E-001	-7.420728E-002	4.703050E-002
1.480000E+009	5.324767E-002	-4.806909E-002	2.291606E-001	-1.384464E-001	2.293559E-001	-1.385737E-001	-7.394595E-002	4.755719E-002
1.490000E+009	5.297591E-002	-4.818004E-002	2.286027E-001	-1.392327E-001	2.288285E-001	-1.393335E-001	-7.367661E-002	4.805860E-002
1.500000E+009	5.268836E-002	-4.832331E-002	2.280532E-001	-1.400108E-001	2.282448E-001	-1.401087E-001	-7.340273E-002	4.860594E-002
