! Device ID: PE43711P
! File Path: z:\PE43711P\CHAR_NOM_04282014\AMB\3p300\LS_ATT_25p50dB\PE43711P_AMB_3p300V_3p000V_0p000V_LS_ATT_25p50dB_S2P_SN_5_A0137A.s2p
! Serial: 5
! Lot: A0137A
! Temp: 25C
! VDD: 3.300
! VSS: 0.000
! Control_Hi: 3.000
! Control_Lo: 0.000
! Attenuation Step: 25.50dB
! Port 1: RF1
! Port 2: RF2
! ThroughPath:1-2
! IDD: 0.0001276181
! ISS: -1.37e-007
!

#  Hz  S   RI  R   50

1.000000E+007	3.111613E-002	4.373510E-004	4.607505E-002	-1.532359E-004	4.611203E-002	-1.925761E-004	-1.230432E-001	9.315688E-004
2.000000E+007	3.137580E-002	5.463689E-004	4.607304E-002	-2.668805E-004	4.608940E-002	-2.896275E-004	-1.227681E-001	1.573213E-003
3.000000E+007	3.162193E-002	6.803936E-004	4.607138E-002	-4.151015E-004	4.609702E-002	-4.208513E-004	-1.224701E-001	2.084111E-003
4.000000E+007	3.180508E-002	7.434705E-004	4.607209E-002	-5.630358E-004	4.608510E-002	-5.774338E-004	-1.223001E-001	2.684765E-003
5.000000E+007	3.190055E-002	8.180844E-004	4.605511E-002	-7.246099E-004	4.610033E-002	-7.124695E-004	-1.222694E-001	3.285906E-003
6.000000E+007	3.206380E-002	8.496667E-004	4.604791E-002	-8.590368E-004	4.608458E-002	-8.497856E-004	-1.221379E-001	3.772374E-003
7.000000E+007	3.220066E-002	8.475192E-004	4.604658E-002	-9.980124E-004	4.608338E-002	-1.003163E-003	-1.219561E-001	4.239891E-003
8.000000E+007	3.233920E-002	8.750980E-004	4.604356E-002	-1.121506E-003	4.607527E-002	-1.118164E-003	-1.217967E-001	4.712578E-003
9.000000E+007	3.245904E-002	8.838332E-004	4.603421E-002	-1.273383E-003	4.607409E-002	-1.263711E-003	-1.216877E-001	5.114188E-003
1.000000E+008	3.259629E-002	8.939664E-004	4.603008E-002	-1.419430E-003	4.606555E-002	-1.409482E-003	-1.216434E-001	5.540178E-003
1.100000E+008	3.272432E-002	8.805282E-004	4.603093E-002	-1.557542E-003	4.604825E-002	-1.549197E-003	-1.215544E-001	5.938027E-003
1.200000E+008	3.287530E-002	8.447359E-004	4.600070E-002	-1.697293E-003	4.603883E-002	-1.696857E-003	-1.214370E-001	6.281913E-003
1.300000E+008	3.298831E-002	8.446668E-004	4.599499E-002	-1.827771E-003	4.603554E-002	-1.823934E-003	-1.213295E-001	6.664826E-003
1.400000E+008	3.306329E-002	8.659718E-004	4.597940E-002	-1.956138E-003	4.601783E-002	-1.976858E-003	-1.212366E-001	7.031604E-003
1.500000E+008	3.313185E-002	8.979451E-004	4.596946E-002	-2.102946E-003	4.600953E-002	-2.106863E-003	-1.211532E-001	7.383073E-003
1.600000E+008	3.318826E-002	9.526145E-004	4.595798E-002	-2.234912E-003	4.598212E-002	-2.230399E-003	-1.210820E-001	7.747687E-003
1.700000E+008	3.328126E-002	9.667598E-004	4.595121E-002	-2.374884E-003	4.599865E-002	-2.373375E-003	-1.210130E-001	8.126799E-003
1.800000E+008	3.333602E-002	9.737369E-004	4.593170E-002	-2.523947E-003	4.598637E-002	-2.514473E-003	-1.208972E-001	8.497443E-003
1.900000E+008	3.332045E-002	9.518051E-004	4.590498E-002	-2.660080E-003	4.595742E-002	-2.659304E-003	-1.208669E-001	8.791673E-003
2.000000E+008	3.328613E-002	9.192890E-004	4.588653E-002	-2.794322E-003	4.594578E-002	-2.789197E-003	-1.208169E-001	9.078989E-003
2.100000E+008	3.326857E-002	8.315597E-004	4.587302E-002	-2.924140E-003	4.591516E-002	-2.927051E-003	-1.207549E-001	9.312466E-003
2.200000E+008	3.326101E-002	7.647706E-004	4.586383E-002	-3.053138E-003	4.590356E-002	-3.049660E-003	-1.206577E-001	9.535779E-003
2.300000E+008	3.328749E-002	6.907637E-004	4.584360E-002	-3.195630E-003	4.588375E-002	-3.185514E-003	-1.205202E-001	9.773891E-003
2.400000E+008	3.332895E-002	6.037076E-004	4.583389E-002	-3.323633E-003	4.586867E-002	-3.314117E-003	-1.203763E-001	1.005596E-002
2.500000E+008	3.337551E-002	5.489628E-004	4.581304E-002	-3.456368E-003	4.584777E-002	-3.451946E-003	-1.201686E-001	1.033802E-002
2.600000E+008	3.346176E-002	4.871579E-004	4.577519E-002	-3.606307E-003	4.583551E-002	-3.589625E-003	-1.199617E-001	1.067004E-002
2.700000E+008	3.352649E-002	4.411449E-004	4.576613E-002	-3.733809E-003	4.581192E-002	-3.722815E-003	-1.197368E-001	1.103514E-002
2.800000E+008	3.364158E-002	4.006710E-004	4.576010E-002	-3.850602E-003	4.579202E-002	-3.852942E-003	-1.195293E-001	1.138258E-002
2.900000E+008	3.367580E-002	4.017957E-004	4.571724E-002	-3.997336E-003	4.576826E-002	-3.978215E-003	-1.193858E-001	1.175256E-002
3.000000E+008	3.373324E-002	4.407385E-004	4.572256E-002	-4.126161E-003	4.575690E-002	-4.112450E-003	-1.192559E-001	1.216423E-002
3.100000E+008	3.374855E-002	4.514014E-004	4.570769E-002	-4.258118E-003	4.573924E-002	-4.245202E-003	-1.191387E-001	1.258558E-002
3.200000E+008	3.373577E-002	4.967360E-004	4.567722E-002	-4.395561E-003	4.570857E-002	-4.379729E-003	-1.190645E-001	1.298341E-002
3.300000E+008	3.373075E-002	5.366922E-004	4.564755E-002	-4.528320E-003	4.568994E-002	-4.528144E-003	-1.189875E-001	1.334531E-002
3.400000E+008	3.367490E-002	5.421822E-004	4.561819E-002	-4.664585E-003	4.565550E-002	-4.672926E-003	-1.188534E-001	1.368621E-002
3.500000E+008	3.361282E-002	5.273282E-004	4.560051E-002	-4.794046E-003	4.561432E-002	-4.800399E-003	-1.187275E-001	1.396610E-002
3.600000E+008	3.354453E-002	5.148785E-004	4.558604E-002	-4.941828E-003	4.559045E-002	-4.913222E-003	-1.185560E-001	1.428807E-002
3.700000E+008	3.350439E-002	4.779642E-004	4.554482E-002	-5.053871E-003	4.555727E-002	-5.032926E-003	-1.183762E-001	1.458172E-002
3.800000E+008	3.346672E-002	4.355153E-004	4.551408E-002	-5.190462E-003	4.554676E-002	-5.158261E-003	-1.181771E-001	1.489814E-002
3.900000E+008	3.342584E-002	3.696807E-004	4.549275E-002	-5.325850E-003	4.553163E-002	-5.299664E-003	-1.179018E-001	1.527934E-002
4.000000E+008	3.342838E-002	2.790869E-004	4.545875E-002	-5.445188E-003	4.552018E-002	-5.437824E-003	-1.176006E-001	1.563869E-002
4.100000E+008	3.340892E-002	2.110542E-004	4.544464E-002	-5.554009E-003	4.548213E-002	-5.555788E-003	-1.173317E-001	1.599760E-002
4.200000E+008	3.340298E-002	1.297455E-004	4.541795E-002	-5.683011E-003	4.545881E-002	-5.698640E-003	-1.171224E-001	1.642667E-002
4.300000E+008	3.341318E-002	9.447380E-005	4.539239E-002	-5.816421E-003	4.542556E-002	-5.812734E-003	-1.169065E-001	1.688832E-002
4.400000E+008	3.340454E-002	6.749039E-005	4.537361E-002	-5.948753E-003	4.539954E-002	-5.957070E-003	-1.167270E-001	1.738120E-002
4.500000E+008	3.342730E-002	5.537794E-005	4.535174E-002	-6.079865E-003	4.538433E-002	-6.063221E-003	-1.165454E-001	1.788450E-002
4.600000E+008	3.343666E-002	2.725318E-006	4.530599E-002	-6.210982E-003	4.533892E-002	-6.211273E-003	-1.163524E-001	1.838394E-002
4.700000E+008	3.343947E-002	-1.990758E-005	4.528488E-002	-6.325298E-003	4.532176E-002	-6.345707E-003	-1.161877E-001	1.881379E-002
4.800000E+008	3.342994E-002	-6.698149E-006	4.524720E-002	-6.474505E-003	4.528823E-002	-6.448648E-003	-1.160433E-001	1.928312E-002
4.900000E+008	3.340038E-002	-9.647767E-006	4.521604E-002	-6.571131E-003	4.525642E-002	-6.582403E-003	-1.159128E-001	1.971543E-002
5.000000E+008	3.336390E-002	-8.391087E-006	4.518976E-002	-6.712700E-003	4.522460E-002	-6.703007E-003	-1.157434E-001	2.014015E-002
5.100000E+008	3.334394E-002	-4.277417E-006	4.516382E-002	-6.831949E-003	4.520682E-002	-6.840238E-003	-1.155632E-001	2.057198E-002
5.200000E+008	3.330873E-002	-3.168924E-005	4.514869E-002	-6.975080E-003	4.517387E-002	-6.963513E-003	-1.154100E-001	2.100184E-002
5.300000E+008	3.323758E-002	-7.347045E-005	4.511187E-002	-7.095712E-003	4.514748E-002	-7.095201E-003	-1.151636E-001	2.141696E-002
5.400000E+008	3.316618E-002	-1.576476E-004	4.507524E-002	-7.226371E-003	4.510732E-002	-7.220016E-003	-1.149297E-001	2.184669E-002
5.500000E+008	3.312926E-002	-2.110917E-004	4.504639E-002	-7.347562E-003	4.507993E-002	-7.349826E-003	-1.147393E-001	2.228861E-002
5.600000E+008	3.309472E-002	-2.997310E-004	4.502602E-002	-7.467340E-003	4.504062E-002	-7.467693E-003	-1.145205E-001	2.274258E-002
5.700000E+008	3.305593E-002	-3.924091E-004	4.498633E-002	-7.614021E-003	4.501215E-002	-7.591371E-003	-1.143529E-001	2.325660E-002
5.800000E+008	3.304092E-002	-4.712601E-004	4.495372E-002	-7.718849E-003	4.497398E-002	-7.725340E-003	-1.141596E-001	2.373825E-002
5.900000E+008	3.305258E-002	-5.754057E-004	4.491416E-002	-7.852743E-003	4.495284E-002	-7.846440E-003	-1.139867E-001	2.428549E-002
6.000000E+008	3.309843E-002	-6.615335E-004	4.487680E-002	-7.973655E-003	4.490979E-002	-7.985088E-003	-1.137632E-001	2.475169E-002
6.100000E+008	3.314191E-002	-7.388192E-004	4.484834E-002	-8.098278E-003	4.488171E-002	-8.104191E-003	-1.136266E-001	2.525632E-002
6.200000E+008	3.319411E-002	-7.410029E-004	4.480509E-002	-8.207851E-003	4.485388E-002	-8.215365E-003	-1.134304E-001	2.571771E-002
6.300000E+008	3.325535E-002	-7.583860E-004	4.477656E-002	-8.336156E-003	4.479726E-002	-8.335739E-003	-1.132678E-001	2.619855E-002
6.400000E+008	3.330452E-002	-7.618279E-004	4.473309E-002	-8.452875E-003	4.477411E-002	-8.460592E-003	-1.130695E-001	2.666440E-002
6.500000E+008	3.333667E-002	-7.672437E-004	4.470619E-002	-8.575753E-003	4.474360E-002	-8.581245E-003	-1.128960E-001	2.716812E-002
6.600000E+008	3.335808E-002	-7.685753E-004	4.467273E-002	-8.701043E-003	4.471102E-002	-8.708679E-003	-1.127169E-001	2.764461E-002
6.700000E+008	3.334591E-002	-7.378351E-004	4.463412E-002	-8.824138E-003	4.468187E-002	-8.828966E-003	-1.125336E-001	2.813829E-002
6.800000E+008	3.329883E-002	-7.235828E-004	4.460894E-002	-8.950372E-003	4.462734E-002	-8.942195E-003	-1.123410E-001	2.865057E-002
6.900000E+008	3.327737E-002	-7.148885E-004	4.457032E-002	-9.072535E-003	4.459281E-002	-9.077307E-003	-1.121500E-001	2.918562E-002
7.000000E+008	3.326856E-002	-7.088669E-004	4.453384E-002	-9.175235E-003	4.456609E-002	-9.187036E-003	-1.120244E-001	2.968094E-002
7.100000E+008	3.323332E-002	-7.075531E-004	4.447546E-002	-9.300288E-003	4.452414E-002	-9.307952E-003	-1.118971E-001	3.018312E-002
7.200000E+008	3.319207E-002	-7.251113E-004	4.445345E-002	-9.423899E-003	4.448888E-002	-9.433626E-003	-1.117572E-001	3.067293E-002
7.300000E+008	3.314207E-002	-7.620358E-004	4.442056E-002	-9.547694E-003	4.446312E-002	-9.550324E-003	-1.116274E-001	3.114909E-002
7.400000E+008	3.311067E-002	-7.738780E-004	4.438768E-002	-9.662930E-003	4.441590E-002	-9.678012E-003	-1.115136E-001	3.159662E-002
7.500000E+008	3.309375E-002	-8.220462E-004	4.434128E-002	-9.790375E-003	4.438517E-002	-9.793705E-003	-1.113996E-001	3.202643E-002
7.600000E+008	3.304834E-002	-8.606106E-004	4.431223E-002	-9.902229E-003	4.434149E-002	-9.918860E-003	-1.112537E-001	3.244354E-002
7.700000E+008	3.300339E-002	-9.195855E-004	4.428462E-002	-1.002445E-002	4.431122E-002	-1.002753E-002	-1.110937E-001	3.285435E-002
7.800000E+008	3.299820E-002	-9.747119E-004	4.422894E-002	-1.015955E-002	4.427237E-002	-1.014962E-002	-1.109178E-001	3.324881E-002
7.900000E+008	3.297844E-002	-1.064886E-003	4.419387E-002	-1.026727E-002	4.423429E-002	-1.027383E-002	-1.107526E-001	3.366185E-002
8.000000E+008	3.296885E-002	-1.132125E-003	4.415356E-002	-1.037986E-002	4.418469E-002	-1.040433E-002	-1.105070E-001	3.410683E-002
8.100000E+008	3.300380E-002	-1.225988E-003	4.411262E-002	-1.048787E-002	4.414181E-002	-1.051630E-002	-1.102634E-001	3.457878E-002
8.200000E+008	3.305831E-002	-1.287521E-003	4.406857E-002	-1.062284E-002	4.410948E-002	-1.061201E-002	-1.100079E-001	3.503163E-002
8.300000E+008	3.308425E-002	-1.344215E-003	4.402692E-002	-1.073795E-002	4.407885E-002	-1.073050E-002	-1.098030E-001	3.548991E-002
8.400000E+008	3.313685E-002	-1.367815E-003	4.399777E-002	-1.085238E-002	4.401319E-002	-1.085366E-002	-1.095651E-001	3.595598E-002
8.500000E+008	3.320836E-002	-1.389503E-003	4.395060E-002	-1.097573E-002	4.398686E-002	-1.098609E-002	-1.094054E-001	3.643082E-002
8.600000E+008	3.323699E-002	-1.399348E-003	4.390470E-002	-1.107318E-002	4.395047E-002	-1.109350E-002	-1.092402E-001	3.690605E-002
8.700000E+008	3.327048E-002	-1.366235E-003	4.387709E-002	-1.120597E-002	4.391451E-002	-1.121383E-002	-1.090770E-001	3.735692E-002
8.800000E+008	3.329301E-002	-1.341871E-003	4.382664E-002	-1.132735E-002	4.386843E-002	-1.131910E-002	-1.089153E-001	3.781190E-002
8.900000E+008	3.327747E-002	-1.332949E-003	4.379865E-002	-1.144732E-002	4.380451E-002	-1.145908E-002	-1.087467E-001	3.820198E-002
9.000000E+008	3.325385E-002	-1.342240E-003	4.375065E-002	-1.156842E-002	4.378107E-002	-1.156814E-002	-1.085540E-001	3.862694E-002
9.100000E+008	3.322904E-002	-1.345659E-003	4.370393E-002	-1.167797E-002	4.374639E-002	-1.167608E-002	-1.083231E-001	3.901493E-002
9.200000E+008	3.322266E-002	-1.389555E-003	4.366566E-002	-1.179750E-002	4.371131E-002	-1.179042E-002	-1.080379E-001	3.945745E-002
9.300000E+008	3.323597E-002	-1.414519E-003	4.362437E-002	-1.190350E-002	4.365949E-002	-1.192503E-002	-1.077391E-001	3.988998E-002
9.400000E+008	3.323713E-002	-1.456674E-003	4.357553E-002	-1.201727E-002	4.362065E-002	-1.204418E-002	-1.074067E-001	4.036446E-002
9.500000E+008	3.327661E-002	-1.527267E-003	4.353789E-002	-1.212905E-002	4.356566E-002	-1.214989E-002	-1.070705E-001	4.087087E-002
9.600000E+008	3.328202E-002	-1.521689E-003	4.348115E-002	-1.224260E-002	4.354193E-002	-1.225435E-002	-1.067327E-001	4.137926E-002
9.700000E+008	3.333826E-002	-1.538826E-003	4.345293E-002	-1.235327E-002	4.350086E-002	-1.238718E-002	-1.064057E-001	4.188927E-002
9.800000E+008	3.338729E-002	-1.516359E-003	4.342172E-002	-1.248116E-002	4.344693E-002	-1.246791E-002	-1.061283E-001	4.244749E-002
9.900000E+008	3.342584E-002	-1.512130E-003	4.336585E-002	-1.258967E-002	4.341410E-002	-1.261058E-002	-1.058547E-001	4.297506E-002
1.000000E+009	3.344303E-002	-1.497291E-003	4.333683E-002	-1.271848E-002	4.336495E-002	-1.271622E-002	-1.056415E-001	4.348980E-002
1.010000E+009	3.346275E-002	-1.449781E-003	4.329779E-002	-1.282827E-002	4.332688E-002	-1.282718E-002	-1.053872E-001	4.401587E-002
1.020000E+009	3.345405E-002	-1.421677E-003	4.324992E-002	-1.293027E-002	4.327729E-002	-1.294282E-002	-1.051823E-001	4.454722E-002
1.030000E+009	3.347928E-002	-1.403256E-003	4.320887E-002	-1.305754E-002	4.323422E-002	-1.304906E-002	-1.049458E-001	4.504048E-002
1.040000E+009	3.346589E-002	-1.364606E-003	4.315407E-002	-1.317327E-002	4.318866E-002	-1.317229E-002	-1.047179E-001	4.555435E-002
1.050000E+009	3.346524E-002	-1.367036E-003	4.310953E-002	-1.329081E-002	4.314928E-002	-1.327264E-002	-1.044514E-001	4.610644E-002
1.060000E+009	3.346867E-002	-1.344299E-003	4.306951E-002	-1.338885E-002	4.310704E-002	-1.340564E-002	-1.041791E-001	4.662579E-002
1.070000E+009	3.347521E-002	-1.360830E-003	4.302004E-002	-1.350409E-002	4.306602E-002	-1.351407E-002	-1.038793E-001	4.711324E-002
1.080000E+009	3.347228E-002	-1.342689E-003	4.297059E-002	-1.360747E-002	4.300975E-002	-1.362417E-002	-1.036109E-001	4.769542E-002
1.090000E+009	3.346357E-002	-1.336373E-003	4.293717E-002	-1.373703E-002	4.297075E-002	-1.374785E-002	-1.033488E-001	4.817055E-002
1.100000E+009	3.347693E-002	-1.329064E-003	4.288138E-002	-1.385601E-002	4.292219E-002	-1.386589E-002	-1.031264E-001	4.870348E-002
1.110000E+009	3.346273E-002	-1.299722E-003	4.284544E-002	-1.395970E-002	4.288659E-002	-1.397062E-002	-1.028577E-001	4.921834E-002
1.120000E+009	3.345166E-002	-1.317185E-003	4.278331E-002	-1.408034E-002	4.283066E-002	-1.409286E-002	-1.026630E-001	4.972554E-002
1.130000E+009	3.346101E-002	-1.301819E-003	4.275513E-002	-1.419978E-002	4.279392E-002	-1.419658E-002	-1.024485E-001	5.020415E-002
1.140000E+009	3.343796E-002	-1.297708E-003	4.271282E-002	-1.430842E-002	4.273570E-002	-1.432380E-002	-1.021855E-001	5.072004E-002
1.150000E+009	3.344651E-002	-1.295292E-003	4.265985E-002	-1.442902E-002	4.269253E-002	-1.442837E-002	-1.019221E-001	5.120295E-002
1.160000E+009	3.342473E-002	-1.297545E-003	4.262271E-002	-1.454308E-002	4.265005E-002	-1.455108E-002	-1.016546E-001	5.169063E-002
1.170000E+009	3.342307E-002	-1.280480E-003	4.256457E-002	-1.465017E-002	4.259232E-002	-1.465000E-002	-1.013763E-001	5.222460E-002
1.180000E+009	3.344269E-002	-1.271528E-003	4.251870E-002	-1.477430E-002	4.254886E-002	-1.478378E-002	-1.010601E-001	5.274332E-002
1.190000E+009	3.341327E-002	-1.250261E-003	4.245418E-002	-1.487473E-002	4.250167E-002	-1.489428E-002	-1.007668E-001	5.329500E-002
1.200000E+009	3.339997E-002	-1.250990E-003	4.242305E-002	-1.499488E-002	4.244656E-002	-1.499911E-002	-1.004686E-001	5.382384E-002
1.210000E+009	3.342099E-002	-1.296348E-003	4.235839E-002	-1.509822E-002	4.239103E-002	-1.510794E-002	-1.001986E-001	5.436333E-002
1.220000E+009	3.340543E-002	-1.320386E-003	4.231666E-002	-1.520732E-002	4.234727E-002	-1.523669E-002	-9.995948E-002	5.490118E-002
1.230000E+009	3.342246E-002	-1.327778E-003	4.225270E-002	-1.532897E-002	4.230065E-002	-1.534160E-002	-9.969509E-002	5.540038E-002
1.240000E+009	3.344404E-002	-1.378800E-003	4.220513E-002	-1.544188E-002	4.225736E-002	-1.544117E-002	-9.947687E-002	5.587935E-002
1.250000E+009	3.346186E-002	-1.409020E-003	4.217367E-002	-1.553971E-002	4.220321E-002	-1.556515E-002	-9.924989E-002	5.636801E-002
1.260000E+009	3.349950E-002	-1.414705E-003	4.211520E-002	-1.566367E-002	4.215167E-002	-1.567615E-002	-9.895189E-002	5.680297E-002
1.270000E+009	3.358570E-002	-1.447590E-003	4.205750E-002	-1.578090E-002	4.209233E-002	-1.578065E-002	-9.866726E-002	5.726065E-002
1.280000E+009	3.361228E-002	-1.442741E-003	4.202028E-002	-1.588476E-002	4.207000E-002	-1.590221E-002	-9.836336E-002	5.768576E-002
1.290000E+009	3.365767E-002	-1.430624E-003	4.195690E-002	-1.600970E-002	4.199494E-002	-1.602497E-002	-9.797182E-002	5.811793E-002
1.300000E+009	3.372674E-002	-1.358261E-003	4.189255E-002	-1.610521E-002	4.194518E-002	-1.612964E-002	-9.760428E-002	5.859775E-002
1.310000E+009	3.374772E-002	-1.361702E-003	4.184429E-002	-1.622504E-002	4.188456E-002	-1.622619E-002	-9.724786E-002	5.908676E-002
1.320000E+009	3.377075E-002	-1.298286E-003	4.179860E-002	-1.634292E-002	4.182915E-002	-1.634813E-002	-9.683426E-002	5.963207E-002
1.330000E+009	3.377983E-002	-1.244495E-003	4.174797E-002	-1.642905E-002	4.178211E-002	-1.644375E-002	-9.639888E-002	6.020559E-002
1.340000E+009	3.380415E-002	-1.199665E-003	4.171128E-002	-1.656496E-002	4.173334E-002	-1.657380E-002	-9.600541E-002	6.078896E-002
1.350000E+009	3.378168E-002	-1.176908E-003	4.163732E-002	-1.665989E-002	4.167988E-002	-1.668384E-002	-9.561009E-002	6.140168E-002
1.360000E+009	3.381318E-002	-1.156439E-003	4.156391E-002	-1.678152E-002	4.162400E-002	-1.680874E-002	-9.521777E-002	6.204503E-002
1.370000E+009	3.384927E-002	-1.126504E-003	4.152221E-002	-1.688043E-002	4.156075E-002	-1.690422E-002	-9.488712E-002	6.266525E-002
1.380000E+009	3.385875E-002	-1.094755E-003	4.145855E-002	-1.701108E-002	4.150993E-002	-1.700364E-002	-9.455711E-002	6.329127E-002
1.390000E+009	3.387735E-002	-1.074641E-003	4.140326E-002	-1.712432E-002	4.144188E-002	-1.713114E-002	-9.422511E-002	6.393657E-002
1.400000E+009	3.390079E-002	-1.057676E-003	4.135495E-002	-1.723278E-002	4.137420E-002	-1.723801E-002	-9.392985E-002	6.454205E-002
1.410000E+009	3.389416E-002	-1.013889E-003	4.128851E-002	-1.732676E-002	4.131684E-002	-1.734959E-002	-9.361824E-002	6.517179E-002
1.420000E+009	3.389737E-002	-9.848521E-004	4.124279E-002	-1.744047E-002	4.127196E-002	-1.744499E-002	-9.333101E-002	6.573154E-002
1.430000E+009	3.391384E-002	-9.308909E-004	4.116863E-002	-1.754700E-002	4.120605E-002	-1.755998E-002	-9.301045E-002	6.631607E-002
1.440000E+009	3.390888E-002	-9.009051E-004	4.110633E-002	-1.765524E-002	4.116544E-002	-1.766820E-002	-9.269183E-002	6.684994E-002
1.450000E+009	3.388880E-002	-8.599469E-004	4.106004E-002	-1.775840E-002	4.107904E-002	-1.777887E-002	-9.234049E-002	6.739972E-002
1.460000E+009	3.388820E-002	-8.321749E-004	4.099110E-002	-1.788924E-002	4.102570E-002	-1.788150E-002	-9.198935E-002	6.798645E-002
1.470000E+009	3.387996E-002	-8.535097E-004	4.093550E-002	-1.796670E-002	4.097784E-002	-1.798776E-002	-9.161550E-002	6.855642E-002
1.480000E+009	3.387565E-002	-7.956618E-004	4.085495E-002	-1.807628E-002	4.089590E-002	-1.809457E-002	-9.123307E-002	6.918155E-002
1.490000E+009	3.388172E-002	-8.032596E-004	4.080511E-002	-1.820371E-002	4.085171E-002	-1.818733E-002	-9.084742E-002	6.979405E-002
1.500000E+009	3.389333E-002	-7.881461E-004	4.073774E-002	-1.830963E-002	4.079414E-002	-1.830897E-002	-9.044849E-002	7.043511E-002
1.510000E+009	3.392889E-002	-7.613633E-004	4.068736E-002	-1.841107E-002	4.072090E-002	-1.843181E-002	-9.005806E-002	7.106586E-002
