! Device ID: PE43711P
! File Path: z:\PE43711P\CHAR_NOM_04282014\AMB\3p300\LS_ATT_20p00dB\PE43711P_AMB_3p300V_3p000V_0p000V_LS_ATT_20p00dB_S2P_SN_5_A0137A.s2p
! Serial: 5
! Lot: A0137A
! Temp: 25C
! VDD: 3.300
! VSS: 0.000
! Control_Hi: 3.000
! Control_Lo: 0.000
! Attenuation Step: 20.00dB
! Port 1: RF1
! Port 2: RF2
! ThroughPath:1-2
! IDD: 0.0001271841
! ISS: -1.196e-007
!

#  Hz  S   RI  R   50

1.000000E+007	5.324234E-002	1.773297E-004	8.715999E-002	-3.984384E-004	8.721690E-002	-4.333559E-004	-1.243433E-001	9.904612E-004
2.000000E+007	5.346095E-002	1.608505E-004	8.714054E-002	-5.901734E-004	8.718570E-002	-6.028283E-004	-1.240261E-001	1.530445E-003
3.000000E+007	5.370789E-002	6.094282E-005	8.714907E-002	-8.988164E-004	8.719158E-002	-9.046075E-004	-1.237442E-001	2.023916E-003
4.000000E+007	5.386565E-002	-5.666935E-005	8.713774E-002	-1.219800E-003	8.718765E-002	-1.208195E-003	-1.235612E-001	2.602199E-003
5.000000E+007	5.396124E-002	-1.805958E-004	8.712350E-002	-1.539405E-003	8.718709E-002	-1.528221E-003	-1.235199E-001	3.165049E-003
6.000000E+007	5.411705E-002	-3.546660E-004	8.710545E-002	-1.833252E-003	8.719291E-002	-1.835872E-003	-1.233782E-001	3.632868E-003
7.000000E+007	5.422979E-002	-5.424771E-004	8.709010E-002	-2.131483E-003	8.716123E-002	-2.135618E-003	-1.232003E-001	4.089400E-003
8.000000E+007	5.433931E-002	-7.339601E-004	8.707407E-002	-2.406979E-003	8.715352E-002	-2.419859E-003	-1.230274E-001	4.518722E-003
9.000000E+007	5.445956E-002	-8.972883E-004	8.705512E-002	-2.717282E-003	8.712128E-002	-2.715436E-003	-1.229161E-001	4.895054E-003
1.000000E+008	5.456633E-002	-1.080949E-003	8.706293E-002	-3.018473E-003	8.710910E-002	-3.023422E-003	-1.228451E-001	5.312838E-003
1.100000E+008	5.466055E-002	-1.281046E-003	8.702603E-002	-3.326820E-003	8.709479E-002	-3.318884E-003	-1.227550E-001	5.679949E-003
1.200000E+008	5.478298E-002	-1.516840E-003	8.698192E-002	-3.620515E-003	8.706521E-002	-3.631273E-003	-1.226503E-001	6.007740E-003
1.300000E+008	5.486802E-002	-1.712881E-003	8.696243E-002	-3.909945E-003	8.703449E-002	-3.930690E-003	-1.225243E-001	6.352161E-003
1.400000E+008	5.491805E-002	-1.885719E-003	8.694372E-002	-4.206884E-003	8.700598E-002	-4.220734E-003	-1.224075E-001	6.691023E-003
1.500000E+008	5.492343E-002	-2.047087E-003	8.690450E-002	-4.481272E-003	8.696016E-002	-4.508035E-003	-1.223001E-001	7.018992E-003
1.600000E+008	5.496002E-002	-2.168906E-003	8.689772E-002	-4.783366E-003	8.692812E-002	-4.775924E-003	-1.222352E-001	7.357168E-003
1.700000E+008	5.499700E-002	-2.332972E-003	8.687372E-002	-5.097133E-003	8.694470E-002	-5.075626E-003	-1.221705E-001	7.712671E-003
1.800000E+008	5.501346E-002	-2.520882E-003	8.681722E-002	-5.409230E-003	8.692269E-002	-5.404152E-003	-1.220536E-001	8.026580E-003
1.900000E+008	5.495302E-002	-2.732868E-003	8.675945E-002	-5.680706E-003	8.687135E-002	-5.690880E-003	-1.219945E-001	8.298739E-003
2.000000E+008	5.487632E-002	-2.945868E-003	8.672577E-002	-5.969474E-003	8.682087E-002	-5.965454E-003	-1.219409E-001	8.547062E-003
2.100000E+008	5.480946E-002	-3.221196E-003	8.668602E-002	-6.251127E-003	8.677076E-002	-6.246429E-003	-1.218427E-001	8.751215E-003
2.200000E+008	5.475026E-002	-3.463024E-003	8.667366E-002	-6.522760E-003	8.674027E-002	-6.528093E-003	-1.217311E-001	8.962635E-003
2.300000E+008	5.471848E-002	-3.708188E-003	8.663336E-002	-6.818954E-003	8.669455E-002	-6.811104E-003	-1.215960E-001	9.172088E-003
2.400000E+008	5.472246E-002	-3.960006E-003	8.659730E-002	-7.107026E-003	8.665493E-002	-7.092982E-003	-1.214080E-001	9.416377E-003
2.500000E+008	5.469203E-002	-4.202168E-003	8.655258E-002	-7.410618E-003	8.661560E-002	-7.387872E-003	-1.212240E-001	9.651264E-003
2.600000E+008	5.469790E-002	-4.437018E-003	8.650956E-002	-7.697914E-003	8.657346E-002	-7.675168E-003	-1.210003E-001	9.951901E-003
2.700000E+008	5.473580E-002	-4.669735E-003	8.643590E-002	-7.968146E-003	8.653422E-002	-7.960319E-003	-1.207636E-001	1.027814E-002
2.800000E+008	5.475727E-002	-4.867276E-003	8.639827E-002	-8.240653E-003	8.647445E-002	-8.233984E-003	-1.205417E-001	1.060620E-002
2.900000E+008	5.475028E-002	-5.054049E-003	8.636354E-002	-8.528668E-003	8.642826E-002	-8.521259E-003	-1.204003E-001	1.091510E-002
3.000000E+008	5.475522E-002	-5.175063E-003	8.633225E-002	-8.812242E-003	8.639316E-002	-8.799796E-003	-1.202433E-001	1.129750E-002
3.100000E+008	5.470372E-002	-5.318735E-003	8.628010E-002	-9.102510E-003	8.634497E-002	-9.088204E-003	-1.201125E-001	1.167354E-002
3.200000E+008	5.465104E-002	-5.441017E-003	8.622037E-002	-9.383522E-003	8.629457E-002	-9.377410E-003	-1.200118E-001	1.202646E-002
3.300000E+008	5.456680E-002	-5.574448E-003	8.618568E-002	-9.675985E-003	8.624982E-002	-9.685671E-003	-1.198985E-001	1.235708E-002
3.400000E+008	5.443155E-002	-5.716510E-003	8.611864E-002	-9.954214E-003	8.617860E-002	-9.973674E-003	-1.197619E-001	1.266016E-002
3.500000E+008	5.429058E-002	-5.884767E-003	8.607535E-002	-1.023254E-002	8.608684E-002	-1.024802E-002	-1.196078E-001	1.289908E-002
3.600000E+008	5.417392E-002	-6.061414E-003	8.601832E-002	-1.051185E-002	8.602600E-002	-1.049171E-002	-1.194417E-001	1.318100E-002
3.700000E+008	5.404265E-002	-6.240962E-003	8.594847E-002	-1.078540E-002	8.598511E-002	-1.074485E-002	-1.192467E-001	1.342875E-002
3.800000E+008	5.395050E-002	-6.455479E-003	8.588934E-002	-1.105869E-002	8.595247E-002	-1.101787E-002	-1.190396E-001	1.370422E-002
3.900000E+008	5.383999E-002	-6.686726E-003	8.583597E-002	-1.136053E-002	8.589314E-002	-1.130945E-002	-1.187403E-001	1.402468E-002
4.000000E+008	5.375629E-002	-6.929524E-003	8.575065E-002	-1.160857E-002	8.583627E-002	-1.160306E-002	-1.184342E-001	1.434245E-002
4.100000E+008	5.366339E-002	-7.138072E-003	8.568860E-002	-1.185782E-002	8.576898E-002	-1.187082E-002	-1.181516E-001	1.464896E-002
4.200000E+008	5.358791E-002	-7.368360E-003	8.565883E-002	-1.213289E-002	8.570273E-002	-1.214040E-002	-1.179160E-001	1.504218E-002
4.300000E+008	5.351785E-002	-7.558671E-003	8.560080E-002	-1.241549E-002	8.565342E-002	-1.239776E-002	-1.177062E-001	1.545366E-002
4.400000E+008	5.344591E-002	-7.727203E-003	8.554327E-002	-1.269060E-002	8.560104E-002	-1.267950E-002	-1.175025E-001	1.589381E-002
4.500000E+008	5.339931E-002	-7.905018E-003	8.548707E-002	-1.296770E-002	8.554649E-002	-1.296567E-002	-1.173118E-001	1.636138E-002
4.600000E+008	5.334489E-002	-8.087875E-003	8.541667E-002	-1.324446E-002	8.547671E-002	-1.323563E-002	-1.171181E-001	1.682010E-002
4.700000E+008	5.325423E-002	-8.248444E-003	8.535416E-002	-1.350949E-002	8.540183E-002	-1.350562E-002	-1.169315E-001	1.721341E-002
4.800000E+008	5.315470E-002	-8.381812E-003	8.527594E-002	-1.377441E-002	8.532558E-002	-1.377914E-002	-1.167833E-001	1.761977E-002
4.900000E+008	5.304543E-002	-8.509947E-003	8.521460E-002	-1.404221E-002	8.525585E-002	-1.403967E-002	-1.166463E-001	1.801084E-002
5.000000E+008	5.293695E-002	-8.639759E-003	8.514817E-002	-1.430582E-002	8.520363E-002	-1.430810E-002	-1.164788E-001	1.837869E-002
5.100000E+008	5.282454E-002	-8.800781E-003	8.508397E-002	-1.457441E-002	8.514806E-002	-1.457400E-002	-1.162930E-001	1.875553E-002
5.200000E+008	5.271134E-002	-8.969868E-003	8.500796E-002	-1.485747E-002	8.508070E-002	-1.485379E-002	-1.161045E-001	1.912895E-002
5.300000E+008	5.258367E-002	-9.152647E-003	8.494834E-002	-1.512084E-002	8.503055E-002	-1.512137E-002	-1.158658E-001	1.949562E-002
5.400000E+008	5.243491E-002	-9.373555E-003	8.486885E-002	-1.538840E-002	8.494348E-002	-1.538856E-002	-1.156267E-001	1.986414E-002
5.500000E+008	5.229609E-002	-9.554489E-003	8.479696E-002	-1.565789E-002	8.486982E-002	-1.566134E-002	-1.154184E-001	2.026903E-002
5.600000E+008	5.218027E-002	-9.771664E-003	8.473005E-002	-1.589826E-002	8.477190E-002	-1.591753E-002	-1.151669E-001	2.067555E-002
5.700000E+008	5.207323E-002	-9.992278E-003	8.465743E-002	-1.616944E-002	8.470566E-002	-1.618763E-002	-1.150105E-001	2.112431E-002
5.800000E+008	5.198238E-002	-1.020941E-002	8.458169E-002	-1.644102E-002	8.464760E-002	-1.644829E-002	-1.148365E-001	2.156169E-002
5.900000E+008	5.189991E-002	-1.043077E-002	8.451605E-002	-1.671847E-002	8.456690E-002	-1.672416E-002	-1.146552E-001	2.206468E-002
6.000000E+008	5.186327E-002	-1.065054E-002	8.442300E-002	-1.699169E-002	8.449616E-002	-1.699652E-002	-1.144476E-001	2.246900E-002
6.100000E+008	5.181271E-002	-1.084304E-002	8.435689E-002	-1.724475E-002	8.439887E-002	-1.725357E-002	-1.142845E-001	2.291197E-002
6.200000E+008	5.178975E-002	-1.098990E-002	8.425450E-002	-1.748084E-002	8.433363E-002	-1.750653E-002	-1.140870E-001	2.332143E-002
6.300000E+008	5.178148E-002	-1.114777E-002	8.418204E-002	-1.774664E-002	8.424206E-002	-1.776963E-002	-1.139148E-001	2.374086E-002
6.400000E+008	5.173636E-002	-1.125096E-002	8.410815E-002	-1.800606E-002	8.417827E-002	-1.803338E-002	-1.137262E-001	2.414842E-002
6.500000E+008	5.170438E-002	-1.138029E-002	8.404059E-002	-1.826023E-002	8.409340E-002	-1.826789E-002	-1.135367E-001	2.457177E-002
6.600000E+008	5.162538E-002	-1.152222E-002	8.396441E-002	-1.853396E-002	8.400743E-002	-1.855075E-002	-1.133338E-001	2.501472E-002
6.700000E+008	5.152306E-002	-1.160475E-002	8.388026E-002	-1.879303E-002	8.394111E-002	-1.879198E-002	-1.131584E-001	2.544829E-002
6.800000E+008	5.140499E-002	-1.171524E-002	8.379588E-002	-1.903942E-002	8.386119E-002	-1.905649E-002	-1.129757E-001	2.590918E-002
6.900000E+008	5.127953E-002	-1.180759E-002	8.370995E-002	-1.929791E-002	8.375645E-002	-1.931681E-002	-1.127942E-001	2.639568E-002
7.000000E+008	5.118472E-002	-1.192709E-002	8.364002E-002	-1.956542E-002	8.368693E-002	-1.956445E-002	-1.126508E-001	2.685771E-002
7.100000E+008	5.107000E-002	-1.205294E-002	8.353500E-002	-1.979678E-002	8.361484E-002	-1.980948E-002	-1.125196E-001	2.729137E-002
7.200000E+008	5.093178E-002	-1.219227E-002	8.346352E-002	-2.006940E-002	8.352215E-002	-2.007038E-002	-1.123971E-001	2.771204E-002
7.300000E+008	5.081629E-002	-1.234195E-002	8.337500E-002	-2.031420E-002	8.344234E-002	-2.034665E-002	-1.122873E-001	2.812342E-002
7.400000E+008	5.068411E-002	-1.248441E-002	8.329252E-002	-2.057598E-002	8.336513E-002	-2.058420E-002	-1.121755E-001	2.852050E-002
7.500000E+008	5.055614E-002	-1.263710E-002	8.321029E-002	-2.082244E-002	8.326958E-002	-2.084724E-002	-1.120655E-001	2.888020E-002
7.600000E+008	5.046002E-002	-1.279608E-002	8.311682E-002	-2.108089E-002	8.318571E-002	-2.109426E-002	-1.119201E-001	2.924514E-002
7.700000E+008	5.032099E-002	-1.295430E-002	8.303298E-002	-2.133372E-002	8.309948E-002	-2.135756E-002	-1.117657E-001	2.958347E-002
7.800000E+008	5.022117E-002	-1.311910E-002	8.294073E-002	-2.158721E-002	8.303098E-002	-2.161330E-002	-1.115739E-001	2.993704E-002
7.900000E+008	5.011016E-002	-1.331621E-002	8.286558E-002	-2.183721E-002	8.294068E-002	-2.187089E-002	-1.113968E-001	3.029314E-002
8.000000E+008	5.003548E-002	-1.351234E-002	8.276479E-002	-2.209899E-002	8.283210E-002	-2.211556E-002	-1.111725E-001	3.068215E-002
8.100000E+008	4.996196E-002	-1.368681E-002	8.266125E-002	-2.232941E-002	8.274043E-002	-2.235621E-002	-1.109203E-001	3.108481E-002
8.200000E+008	4.992618E-002	-1.387026E-002	8.259494E-002	-2.258589E-002	8.264524E-002	-2.260693E-002	-1.107060E-001	3.148296E-002
8.300000E+008	4.988707E-002	-1.404146E-002	8.249728E-002	-2.284610E-002	8.257150E-002	-2.286097E-002	-1.104954E-001	3.188723E-002
8.400000E+008	4.982611E-002	-1.418233E-002	8.239668E-002	-2.308271E-002	8.247487E-002	-2.312393E-002	-1.102917E-001	3.229483E-002
8.500000E+008	4.981475E-002	-1.430835E-002	8.232892E-002	-2.334271E-002	8.238097E-002	-2.336633E-002	-1.101425E-001	3.271284E-002
8.600000E+008	4.973983E-002	-1.440603E-002	8.222730E-002	-2.358813E-002	8.229483E-002	-2.361256E-002	-1.099815E-001	3.310132E-002
8.700000E+008	4.968566E-002	-1.450021E-002	8.214391E-002	-2.383389E-002	8.219495E-002	-2.386211E-002	-1.098116E-001	3.349287E-002
8.800000E+008	4.962862E-002	-1.458966E-002	8.203281E-002	-2.408840E-002	8.211145E-002	-2.409900E-002	-1.096607E-001	3.387919E-002
8.900000E+008	4.951446E-002	-1.467327E-002	8.195253E-002	-2.432915E-002	8.201207E-002	-2.435480E-002	-1.094821E-001	3.423690E-002
9.000000E+008	4.943984E-002	-1.479950E-002	8.182964E-002	-2.458311E-002	8.191657E-002	-2.460674E-002	-1.093042E-001	3.459709E-002
9.100000E+008	4.930982E-002	-1.487503E-002	8.175221E-002	-2.482979E-002	8.182270E-002	-2.483298E-002	-1.090778E-001	3.494648E-002
9.200000E+008	4.918517E-002	-1.503560E-002	8.165756E-002	-2.506761E-002	8.174275E-002	-2.510045E-002	-1.088240E-001	3.531846E-002
9.300000E+008	4.910344E-002	-1.516736E-002	8.155605E-002	-2.530522E-002	8.160834E-002	-2.535549E-002	-1.085276E-001	3.569287E-002
9.400000E+008	4.903036E-002	-1.531742E-002	8.145779E-002	-2.555199E-002	8.152792E-002	-2.557800E-002	-1.082156E-001	3.608885E-002
9.500000E+008	4.897204E-002	-1.547804E-002	8.137253E-002	-2.580132E-002	8.143311E-002	-2.583224E-002	-1.079077E-001	3.654290E-002
9.600000E+008	4.888947E-002	-1.557264E-002	8.125765E-002	-2.603855E-002	8.133660E-002	-2.606095E-002	-1.075802E-001	3.698163E-002
9.700000E+008	4.886275E-002	-1.568800E-002	8.115625E-002	-2.628451E-002	8.123292E-002	-2.631000E-002	-1.072889E-001	3.743496E-002
9.800000E+008	4.881940E-002	-1.578727E-002	8.108068E-002	-2.650969E-002	8.114851E-002	-2.655592E-002	-1.070054E-001	3.791345E-002
9.900000E+008	4.877333E-002	-1.586699E-002	8.098473E-002	-2.676291E-002	8.106725E-002	-2.681592E-002	-1.067331E-001	3.839150E-002
1.000000E+009	4.872120E-002	-1.593508E-002	8.088661E-002	-2.702127E-002	8.093865E-002	-2.706190E-002	-1.065390E-001	3.883876E-002
1.010000E+009	4.862405E-002	-1.598226E-002	8.079003E-002	-2.725746E-002	8.084196E-002	-2.728552E-002	-1.063011E-001	3.933036E-002
1.020000E+009	4.853525E-002	-1.605940E-002	8.067910E-002	-2.749841E-002	8.073940E-002	-2.752588E-002	-1.061240E-001	3.980892E-002
1.030000E+009	4.846507E-002	-1.611674E-002	8.058103E-002	-2.773825E-002	8.063159E-002	-2.777219E-002	-1.059105E-001	4.024449E-002
1.040000E+009	4.835474E-002	-1.618912E-002	8.046909E-002	-2.796799E-002	8.052440E-002	-2.799839E-002	-1.056948E-001	4.069673E-002
1.050000E+009	4.826871E-002	-1.627658E-002	8.037413E-002	-2.821688E-002	8.043087E-002	-2.824784E-002	-1.054590E-001	4.115923E-002
1.060000E+009	4.817341E-002	-1.636251E-002	8.027430E-002	-2.846305E-002	8.033357E-002	-2.848754E-002	-1.052057E-001	4.162152E-002
1.070000E+009	4.807178E-002	-1.645790E-002	8.014880E-002	-2.870200E-002	8.021807E-002	-2.871749E-002	-1.049506E-001	4.205317E-002
1.080000E+009	4.798299E-002	-1.654632E-002	8.005250E-002	-2.894052E-002	8.013650E-002	-2.896172E-002	-1.046773E-001	4.254227E-002
1.090000E+009	4.789482E-002	-1.664191E-002	7.996134E-002	-2.917785E-002	8.002136E-002	-2.920371E-002	-1.044524E-001	4.298287E-002
1.100000E+009	4.782052E-002	-1.671531E-002	7.982155E-002	-2.943475E-002	7.992470E-002	-2.944807E-002	-1.042230E-001	4.346355E-002
1.110000E+009	4.770998E-002	-1.678122E-002	7.974733E-002	-2.966188E-002	7.981888E-002	-2.966852E-002	-1.039878E-001	4.392813E-002
1.120000E+009	4.762662E-002	-1.687642E-002	7.963318E-002	-2.988441E-002	7.971869E-002	-2.991936E-002	-1.038073E-001	4.435574E-002
1.130000E+009	4.752912E-002	-1.697008E-002	7.951235E-002	-3.014818E-002	7.959259E-002	-3.016590E-002	-1.036191E-001	4.479366E-002
1.140000E+009	4.740807E-002	-1.706263E-002	7.942050E-002	-3.039558E-002	7.947698E-002	-3.039636E-002	-1.033967E-001	4.526208E-002
1.150000E+009	4.732443E-002	-1.713606E-002	7.931432E-002	-3.061312E-002	7.937051E-002	-3.063528E-002	-1.031339E-001	4.570528E-002
1.160000E+009	4.723578E-002	-1.721968E-002	7.919130E-002	-3.085438E-002	7.927043E-002	-3.088585E-002	-1.029174E-001	4.611166E-002
1.170000E+009	4.710894E-002	-1.728382E-002	7.908177E-002	-3.110379E-002	7.913980E-002	-3.112071E-002	-1.026553E-001	4.659578E-002
1.180000E+009	4.704137E-002	-1.737743E-002	7.895775E-002	-3.132521E-002	7.902552E-002	-3.135752E-002	-1.023671E-001	4.705160E-002
1.190000E+009	4.692213E-002	-1.745540E-002	7.885616E-002	-3.155315E-002	7.891105E-002	-3.159572E-002	-1.021108E-001	4.752081E-002
1.200000E+009	4.683123E-002	-1.755384E-002	7.873139E-002	-3.180667E-002	7.882109E-002	-3.181858E-002	-1.018421E-001	4.801921E-002
1.210000E+009	4.675857E-002	-1.765796E-002	7.863099E-002	-3.203045E-002	7.868880E-002	-3.206857E-002	-1.015894E-001	4.849774E-002
1.220000E+009	4.666342E-002	-1.778740E-002	7.850373E-002	-3.227102E-002	7.856469E-002	-3.231099E-002	-1.013757E-001	4.896906E-002
1.230000E+009	4.657166E-002	-1.787859E-002	7.838191E-002	-3.250308E-002	7.844450E-002	-3.254957E-002	-1.011411E-001	4.940424E-002
1.240000E+009	4.649425E-002	-1.801489E-002	7.826570E-002	-3.274150E-002	7.833064E-002	-3.277461E-002	-1.009383E-001	4.984568E-002
1.250000E+009	4.641904E-002	-1.812566E-002	7.817029E-002	-3.297542E-002	7.821535E-002	-3.299185E-002	-1.007321E-001	5.027189E-002
1.260000E+009	4.635158E-002	-1.822474E-002	7.802444E-002	-3.320446E-002	7.810172E-002	-3.322753E-002	-1.004895E-001	5.066967E-002
1.270000E+009	4.634812E-002	-1.832301E-002	7.792380E-002	-3.343876E-002	7.796263E-002	-3.346977E-002	-1.002256E-001	5.105146E-002
1.280000E+009	4.628930E-002	-1.839848E-002	7.780548E-002	-3.368105E-002	7.785927E-002	-3.370869E-002	-9.996903E-002	5.142458E-002
1.290000E+009	4.624577E-002	-1.846554E-002	7.766960E-002	-3.392381E-002	7.773817E-002	-3.394471E-002	-9.963273E-002	5.180425E-002
1.300000E+009	4.619197E-002	-1.849998E-002	7.754046E-002	-3.415756E-002	7.760950E-002	-3.417455E-002	-9.928426E-002	5.220638E-002
1.310000E+009	4.613777E-002	-1.857851E-002	7.741173E-002	-3.438566E-002	7.749743E-002	-3.441805E-002	-9.894915E-002	5.264532E-002
1.320000E+009	4.605188E-002	-1.862309E-002	7.730543E-002	-3.462606E-002	7.736090E-002	-3.464167E-002	-9.855962E-002	5.312022E-002
1.330000E+009	4.598571E-002	-1.863332E-002	7.717376E-002	-3.483767E-002	7.724425E-002	-3.486072E-002	-9.814900E-002	5.362770E-002
1.340000E+009	4.586934E-002	-1.867151E-002	7.706240E-002	-3.508964E-002	7.711982E-002	-3.510701E-002	-9.778594E-002	5.417111E-002
1.350000E+009	4.579502E-002	-1.874391E-002	7.692917E-002	-3.530801E-002	7.699553E-002	-3.533522E-002	-9.742670E-002	5.474692E-002
1.360000E+009	4.571422E-002	-1.879362E-002	7.678265E-002	-3.552590E-002	7.686672E-002	-3.558890E-002	-9.706435E-002	5.531831E-002
1.370000E+009	4.563568E-002	-1.879644E-002	7.666391E-002	-3.577748E-002	7.673800E-002	-3.579200E-002	-9.675289E-002	5.589442E-002
1.380000E+009	4.555261E-002	-1.888984E-002	7.653830E-002	-3.598324E-002	7.660412E-002	-3.602577E-002	-9.644028E-002	5.647696E-002
1.390000E+009	4.549509E-002	-1.894439E-002	7.641115E-002	-3.622909E-002	7.648247E-002	-3.626945E-002	-9.618577E-002	5.708259E-002
1.400000E+009	4.539202E-002	-1.900782E-002	7.626345E-002	-3.643529E-002	7.633866E-002	-3.648055E-002	-9.591879E-002	5.763296E-002
1.410000E+009	4.529766E-002	-1.903357E-002	7.611885E-002	-3.667068E-002	7.619944E-002	-3.670000E-002	-9.564661E-002	5.819235E-002
1.420000E+009	4.520090E-002	-1.909482E-002	7.598559E-002	-3.689858E-002	7.607229E-002	-3.692412E-002	-9.539413E-002	5.868454E-002
1.430000E+009	4.513568E-002	-1.912950E-002	7.585935E-002	-3.712076E-002	7.593976E-002	-3.715157E-002	-9.511062E-002	5.919621E-002
1.440000E+009	4.500858E-002	-1.917606E-002	7.573316E-002	-3.733793E-002	7.580770E-002	-3.737172E-002	-9.482291E-002	5.969395E-002
1.450000E+009	4.490279E-002	-1.919279E-002	7.558400E-002	-3.756792E-002	7.567834E-002	-3.759488E-002	-9.450652E-002	6.020331E-002
1.460000E+009	4.479726E-002	-1.925559E-002	7.544750E-002	-3.780023E-002	7.551434E-002	-3.783405E-002	-9.420151E-002	6.071127E-002
1.470000E+009	4.470569E-002	-1.931773E-002	7.530925E-002	-3.801950E-002	7.538463E-002	-3.804814E-002	-9.385628E-002	6.125064E-002
1.480000E+009	4.459346E-002	-1.935213E-002	7.517636E-002	-3.824975E-002	7.524329E-002	-3.827322E-002	-9.350968E-002	6.181858E-002
1.490000E+009	4.449454E-002	-1.941339E-002	7.505276E-002	-3.845902E-002	7.509898E-002	-3.848221E-002	-9.316960E-002	6.238899E-002
1.500000E+009	4.440961E-002	-1.948909E-002	7.489858E-002	-3.867940E-002	7.495622E-002	-3.871181E-002	-9.281332E-002	6.297439E-002
