! Device ID: PE43711P
! File Path: z:\PE43711P\CHAR_NOM_04282014\AMB\3p300\LS_ATT_9p50dB\PE43711P_AMB_3p300V_3p000V_0p000V_LS_ATT_9p50dB_S2P_SN_5_A0137A.s2p
! Serial: 5
! Lot: A0137A
! Temp: 25C
! VDD: 3.300
! VSS: 0.000
! Control_Hi: 3.000
! Control_Lo: 0.000
! Attenuation Step: 9.50dB
! Port 1: RF1
! Port 2: RF2
! ThroughPath:1-2
! IDD: 0.000127779
! ISS: -3.99e-008
!

#  Hz  S   RI  R   50

1.000000E+007	8.470011E-002	-2.248626E-004	2.948032E-001	-1.491991E-003	2.950099E-001	-1.600951E-003	-1.010759E-001	8.075941E-004
2.000000E+007	8.488468E-002	-5.101014E-004	2.947590E-001	-2.379719E-003	2.949033E-001	-2.412540E-003	-1.008082E-001	1.283713E-003
3.000000E+007	8.513096E-002	-9.207987E-004	2.947612E-001	-3.577946E-003	2.949174E-001	-3.604908E-003	-1.005031E-001	1.677130E-003
4.000000E+007	8.523848E-002	-1.361853E-003	2.947495E-001	-4.784079E-003	2.949092E-001	-4.810560E-003	-1.002803E-001	2.136768E-003
5.000000E+007	8.534895E-002	-1.838158E-003	2.947453E-001	-6.090764E-003	2.949612E-001	-6.054199E-003	-1.002007E-001	2.544422E-003
6.000000E+007	8.550562E-002	-2.373464E-003	2.946658E-001	-7.258253E-003	2.949295E-001	-7.236508E-003	-1.000644E-001	2.831557E-003
7.000000E+007	8.560163E-002	-2.923522E-003	2.945860E-001	-8.431077E-003	2.948312E-001	-8.424325E-003	-9.990615E-002	3.137804E-003
8.000000E+007	8.570232E-002	-3.445376E-003	2.945077E-001	-9.556350E-003	2.947695E-001	-9.568053E-003	-9.975895E-002	3.455233E-003
9.000000E+007	8.579721E-002	-3.967821E-003	2.944595E-001	-1.074075E-002	2.946919E-001	-1.074392E-002	-9.962852E-002	3.707822E-003
1.000000E+008	8.587067E-002	-4.479477E-003	2.944150E-001	-1.194681E-002	2.945950E-001	-1.192620E-002	-9.950867E-002	3.963456E-003
1.100000E+008	8.592707E-002	-5.014488E-003	2.943045E-001	-1.315506E-002	2.945258E-001	-1.310412E-002	-9.943962E-002	4.209691E-003
1.200000E+008	8.599574E-002	-5.565466E-003	2.941314E-001	-1.431158E-002	2.944114E-001	-1.430260E-002	-9.937993E-002	4.407424E-003
1.300000E+008	8.603041E-002	-6.110882E-003	2.940479E-001	-1.547498E-002	2.943053E-001	-1.547782E-002	-9.927318E-002	4.607441E-003
1.400000E+008	8.604060E-002	-6.661009E-003	2.939503E-001	-1.663854E-002	2.941760E-001	-1.665997E-002	-9.907700E-002	4.797973E-003
1.500000E+008	8.596518E-002	-7.172782E-003	2.938319E-001	-1.773867E-002	2.939874E-001	-1.777566E-002	-9.890974E-002	4.977997E-003
1.600000E+008	8.587551E-002	-7.620874E-003	2.937481E-001	-1.888175E-002	2.938582E-001	-1.887451E-002	-9.889838E-002	5.192045E-003
1.700000E+008	8.580678E-002	-8.095445E-003	2.936426E-001	-2.012467E-002	2.938776E-001	-2.004497E-002	-9.899560E-002	5.387941E-003
1.800000E+008	8.568463E-002	-8.593925E-003	2.933560E-001	-2.134166E-002	2.937496E-001	-2.129902E-002	-9.903161E-002	5.553736E-003
1.900000E+008	8.555498E-002	-9.137979E-003	2.931372E-001	-2.244925E-002	2.935426E-001	-2.245355E-002	-9.898729E-002	5.690030E-003
2.000000E+008	8.542944E-002	-9.726628E-003	2.930148E-001	-2.355622E-002	2.933660E-001	-2.355646E-002	-9.885617E-002	5.825369E-003
2.100000E+008	8.533977E-002	-1.033704E-002	2.928755E-001	-2.466242E-002	2.931770E-001	-2.466777E-002	-9.867171E-002	5.938830E-003
2.200000E+008	8.522228E-002	-1.090717E-002	2.927641E-001	-2.574844E-002	2.930166E-001	-2.576097E-002	-9.853432E-002	6.030915E-003
2.300000E+008	8.508649E-002	-1.148155E-002	2.926088E-001	-2.688872E-002	2.928408E-001	-2.689128E-002	-9.839595E-002	6.131413E-003
2.400000E+008	8.497098E-002	-1.205066E-002	2.924360E-001	-2.802919E-002	2.926702E-001	-2.801334E-002	-9.830154E-002	6.245363E-003
2.500000E+008	8.481191E-002	-1.259497E-002	2.922405E-001	-2.918339E-002	2.924692E-001	-2.915029E-002	-9.815825E-002	6.330423E-003
2.600000E+008	8.471014E-002	-1.317399E-002	2.920100E-001	-3.032980E-002	2.922825E-001	-3.028881E-002	-9.797289E-002	6.476472E-003
2.700000E+008	8.461519E-002	-1.371393E-002	2.917726E-001	-3.141705E-002	2.920730E-001	-3.141882E-002	-9.777638E-002	6.655438E-003
2.800000E+008	8.452629E-002	-1.422252E-002	2.915661E-001	-3.250735E-002	2.918659E-001	-3.249647E-002	-9.757061E-002	6.838511E-003
2.900000E+008	8.439077E-002	-1.469507E-002	2.913948E-001	-3.357024E-002	2.916398E-001	-3.355681E-002	-9.744636E-002	7.054947E-003
3.000000E+008	8.429294E-002	-1.512195E-002	2.912295E-001	-3.472191E-002	2.914936E-001	-3.466822E-002	-9.730632E-002	7.294279E-003
3.100000E+008	8.413362E-002	-1.556462E-002	2.910259E-001	-3.581253E-002	2.912899E-001	-3.579557E-002	-9.718907E-002	7.544927E-003
3.200000E+008	8.399444E-002	-1.597563E-002	2.908096E-001	-3.695723E-002	2.910851E-001	-3.693417E-002	-9.710961E-002	7.789099E-003
3.300000E+008	8.377919E-002	-1.638248E-002	2.906035E-001	-3.806505E-002	2.908714E-001	-3.808660E-002	-9.702050E-002	7.993397E-003
3.400000E+008	8.351145E-002	-1.682380E-002	2.903574E-001	-3.917266E-002	2.905398E-001	-3.924389E-002	-9.692697E-002	8.171709E-003
3.500000E+008	8.321271E-002	-1.724532E-002	2.901230E-001	-4.030218E-002	2.902244E-001	-4.027526E-002	-9.680301E-002	8.283390E-003
3.600000E+008	8.296055E-002	-1.768079E-002	2.898832E-001	-4.138482E-002	2.899971E-001	-4.125978E-002	-9.666246E-002	8.451090E-003
3.700000E+008	8.270333E-002	-1.814645E-002	2.895832E-001	-4.241906E-002	2.897897E-001	-4.226640E-002	-9.647926E-002	8.561987E-003
3.800000E+008	8.247746E-002	-1.862097E-002	2.893703E-001	-4.349181E-002	2.896415E-001	-4.339166E-002	-9.630062E-002	8.719576E-003
3.900000E+008	8.219849E-002	-1.914599E-002	2.890613E-001	-4.460359E-002	2.893930E-001	-4.450679E-002	-9.606333E-002	8.902597E-003
4.000000E+008	8.199754E-002	-1.963601E-002	2.887658E-001	-4.561393E-002	2.891269E-001	-4.561983E-002	-9.576841E-002	9.096173E-003
4.100000E+008	8.172387E-002	-2.014866E-002	2.885423E-001	-4.660833E-002	2.888407E-001	-4.669451E-002	-9.552626E-002	9.290555E-003
4.200000E+008	8.148435E-002	-2.061994E-002	2.883425E-001	-4.768634E-002	2.885924E-001	-4.772830E-002	-9.533507E-002	9.542728E-003
4.300000E+008	8.127059E-002	-2.106912E-002	2.880952E-001	-4.877239E-002	2.883070E-001	-4.881239E-002	-9.513618E-002	9.816583E-003
4.400000E+008	8.106089E-002	-2.148294E-002	2.878206E-001	-4.985054E-002	2.880569E-001	-4.985880E-002	-9.497685E-002	1.014051E-002
4.500000E+008	8.085625E-002	-2.191370E-002	2.875624E-001	-5.091891E-002	2.878222E-001	-5.093714E-002	-9.481373E-002	1.048157E-002
4.600000E+008	8.065485E-002	-2.232672E-002	2.872840E-001	-5.200322E-002	2.875139E-001	-5.201954E-002	-9.465347E-002	1.083066E-002
4.700000E+008	8.039261E-002	-2.273740E-002	2.869852E-001	-5.304395E-002	2.872147E-001	-5.307102E-002	-9.454445E-002	1.113140E-002
4.800000E+008	8.012841E-002	-2.308845E-002	2.867185E-001	-5.407870E-002	2.869154E-001	-5.406658E-002	-9.443842E-002	1.143354E-002
4.900000E+008	7.983852E-002	-2.347348E-002	2.864223E-001	-5.512006E-002	2.865918E-001	-5.513530E-002	-9.433026E-002	1.170310E-002
5.000000E+008	7.957886E-002	-2.384397E-002	2.861371E-001	-5.615623E-002	2.863532E-001	-5.614522E-002	-9.422913E-002	1.196077E-002
5.100000E+008	7.933697E-002	-2.424669E-002	2.858457E-001	-5.719549E-002	2.860827E-001	-5.718474E-002	-9.406073E-002	1.221530E-002
5.200000E+008	7.904491E-002	-2.466874E-002	2.855506E-001	-5.824785E-002	2.858205E-001	-5.826556E-002	-9.391424E-002	1.248561E-002
5.300000E+008	7.875047E-002	-2.508700E-002	2.852548E-001	-5.929081E-002	2.855243E-001	-5.932395E-002	-9.369811E-002	1.271185E-002
5.400000E+008	7.845589E-002	-2.555577E-002	2.849332E-001	-6.033975E-002	2.851977E-001	-6.036556E-002	-9.349094E-002	1.293286E-002
5.500000E+008	7.815869E-002	-2.595201E-002	2.846447E-001	-6.135497E-002	2.848539E-001	-6.139798E-002	-9.331302E-002	1.324195E-002
5.600000E+008	7.786410E-002	-2.635917E-002	2.843262E-001	-6.238952E-002	2.845029E-001	-6.241834E-002	-9.314133E-002	1.353541E-002
5.700000E+008	7.761458E-002	-2.680936E-002	2.839982E-001	-6.338682E-002	2.842286E-001	-6.344199E-002	-9.303846E-002	1.388175E-002
5.800000E+008	7.734411E-002	-2.720174E-002	2.836716E-001	-6.440795E-002	2.839221E-001	-6.444851E-002	-9.292343E-002	1.419645E-002
5.900000E+008	7.708090E-002	-2.765744E-002	2.833502E-001	-6.546171E-002	2.836027E-001	-6.551572E-002	-9.280224E-002	1.456190E-002
6.000000E+008	7.686726E-002	-2.806622E-002	2.830248E-001	-6.650268E-002	2.832495E-001	-6.656931E-002	-9.263492E-002	1.486385E-002
6.100000E+008	7.663825E-002	-2.847161E-002	2.827071E-001	-6.749792E-002	2.828770E-001	-6.757287E-002	-9.254748E-002	1.515951E-002
6.200000E+008	7.645490E-002	-2.885694E-002	2.823395E-001	-6.848005E-002	2.825567E-001	-6.855793E-002	-9.241021E-002	1.545657E-002
6.300000E+008	7.627307E-002	-2.921278E-002	2.819863E-001	-6.950284E-002	2.822297E-001	-6.956304E-002	-9.227379E-002	1.575349E-002
6.400000E+008	7.607986E-002	-2.955765E-002	2.816655E-001	-7.048593E-002	2.818634E-001	-7.057659E-002	-9.212172E-002	1.604804E-002
6.500000E+008	7.588812E-002	-2.988202E-002	2.813478E-001	-7.148653E-002	2.815418E-001	-7.155964E-002	-9.198086E-002	1.638876E-002
6.600000E+008	7.565474E-002	-3.022306E-002	2.810179E-001	-7.250398E-002	2.811937E-001	-7.257940E-002	-9.182965E-002	1.671329E-002
6.700000E+008	7.535249E-002	-3.051977E-002	2.806645E-001	-7.351719E-002	2.808518E-001	-7.359008E-002	-9.172049E-002	1.705801E-002
6.800000E+008	7.507039E-002	-3.081987E-002	2.803036E-001	-7.450297E-002	2.805068E-001	-7.459640E-002	-9.159638E-002	1.742232E-002
6.900000E+008	7.475835E-002	-3.108959E-002	2.799250E-001	-7.549377E-002	2.801222E-001	-7.555628E-002	-9.148267E-002	1.780323E-002
7.000000E+008	7.446938E-002	-3.138429E-002	2.795741E-001	-7.649647E-002	2.797717E-001	-7.650003E-002	-9.141119E-002	1.813972E-002
7.100000E+008	7.416431E-002	-3.173573E-002	2.792235E-001	-7.746071E-002	2.794347E-001	-7.752236E-002	-9.135244E-002	1.848228E-002
7.200000E+008	7.386328E-002	-3.206905E-002	2.788665E-001	-7.843136E-002	2.790877E-001	-7.851819E-002	-9.127067E-002	1.877308E-002
7.300000E+008	7.356412E-002	-3.241873E-002	2.784668E-001	-7.941694E-002	2.787402E-001	-7.952675E-002	-9.121350E-002	1.905790E-002
7.400000E+008	7.325570E-002	-3.273534E-002	2.780992E-001	-8.043045E-002	2.783536E-001	-8.049117E-002	-9.116493E-002	1.931405E-002
7.500000E+008	7.296888E-002	-3.307819E-002	2.777459E-001	-8.139751E-002	2.779690E-001	-8.148392E-002	-9.109584E-002	1.956292E-002
7.600000E+008	7.266250E-002	-3.342251E-002	2.773746E-001	-8.237292E-002	2.776089E-001	-8.247274E-002	-9.100423E-002	1.982593E-002
7.700000E+008	7.237414E-002	-3.377989E-002	2.769902E-001	-8.334415E-002	2.772395E-001	-8.345271E-002	-9.090073E-002	2.005204E-002
7.800000E+008	7.206186E-002	-3.412390E-002	2.766334E-001	-8.432023E-002	2.768698E-001	-8.441688E-002	-9.079756E-002	2.029968E-002
7.900000E+008	7.176431E-002	-3.450561E-002	2.762520E-001	-8.529232E-002	2.764998E-001	-8.542175E-002	-9.069871E-002	2.057052E-002
8.000000E+008	7.148764E-002	-3.486077E-002	2.758458E-001	-8.628071E-002	2.760544E-001	-8.636710E-002	-9.055206E-002	2.084853E-002
8.100000E+008	7.121478E-002	-3.523120E-002	2.754559E-001	-8.722592E-002	2.756688E-001	-8.733944E-002	-9.038299E-002	2.114236E-002
8.200000E+008	7.097969E-002	-3.556810E-002	2.750700E-001	-8.820598E-002	2.752827E-001	-8.826892E-002	-9.022481E-002	2.142528E-002
8.300000E+008	7.074914E-002	-3.594479E-002	2.746705E-001	-8.915313E-002	2.749173E-001	-8.924483E-002	-9.010111E-002	2.173947E-002
8.400000E+008	7.053495E-002	-3.624333E-002	2.742701E-001	-9.010089E-002	2.745058E-001	-9.020242E-002	-8.997155E-002	2.202315E-002
8.500000E+008	7.031852E-002	-3.655111E-002	2.738982E-001	-9.105339E-002	2.741099E-001	-9.118221E-002	-8.986788E-002	2.231664E-002
8.600000E+008	7.005934E-002	-3.683765E-002	2.734673E-001	-9.201190E-002	2.736776E-001	-9.212599E-002	-8.978135E-002	2.262834E-002
8.700000E+008	6.982142E-002	-3.708251E-002	2.730842E-001	-9.297331E-002	2.732985E-001	-9.307831E-002	-8.967680E-002	2.291649E-002
8.800000E+008	6.957354E-002	-3.733035E-002	2.726756E-001	-9.393781E-002	2.729054E-001	-9.404031E-002	-8.957601E-002	2.320351E-002
8.900000E+008	6.926192E-002	-3.759337E-002	2.722686E-001	-9.488968E-002	2.725023E-001	-9.499791E-002	-8.949900E-002	2.346702E-002
9.000000E+008	6.897709E-002	-3.784562E-002	2.718240E-001	-9.581778E-002	2.720897E-001	-9.594298E-002	-8.936801E-002	2.373463E-002
9.100000E+008	6.865607E-002	-3.810715E-002	2.714127E-001	-9.677699E-002	2.716854E-001	-9.688769E-002	-8.920623E-002	2.398462E-002
9.200000E+008	6.834541E-002	-3.841338E-002	2.710077E-001	-9.771187E-002	2.712595E-001	-9.785715E-002	-8.903742E-002	2.427247E-002
9.300000E+008	6.804571E-002	-3.871393E-002	2.705831E-001	-9.864188E-002	2.708039E-001	-9.878128E-002	-8.881292E-002	2.453062E-002
9.400000E+008	6.777143E-002	-3.898960E-002	2.701564E-001	-9.959043E-002	2.704110E-001	-9.970979E-002	-8.859377E-002	2.483436E-002
9.500000E+008	6.749353E-002	-3.930439E-002	2.697400E-001	-1.005255E-001	2.699751E-001	-1.006861E-001	-8.834691E-002	2.518223E-002
9.600000E+008	6.723093E-002	-3.955687E-002	2.693006E-001	-1.014652E-001	2.695389E-001	-1.016069E-001	-8.810055E-002	2.551811E-002
9.700000E+008	6.699277E-002	-3.981043E-002	2.688624E-001	-1.023819E-001	2.691172E-001	-1.025279E-001	-8.786438E-002	2.586768E-002
9.800000E+008	6.677620E-002	-4.005648E-002	2.684491E-001	-1.032985E-001	2.686839E-001	-1.034655E-001	-8.765935E-002	2.626035E-002
9.900000E+008	6.655658E-002	-4.030842E-002	2.680324E-001	-1.042380E-001	2.682642E-001	-1.043993E-001	-8.747050E-002	2.663136E-002
1.000000E+009	6.629864E-002	-4.050016E-002	2.675798E-001	-1.051722E-001	2.677880E-001	-1.053501E-001	-8.732100E-002	2.699071E-002
1.010000E+009	6.602814E-002	-4.068419E-002	2.671567E-001	-1.061072E-001	2.673542E-001	-1.062435E-001	-8.717873E-002	2.739806E-002
1.020000E+009	6.572120E-002	-4.090084E-002	2.667147E-001	-1.070510E-001	2.669114E-001	-1.071835E-001	-8.704806E-002	2.778796E-002
1.030000E+009	6.544868E-002	-4.107657E-002	2.662421E-001	-1.079593E-001	2.664731E-001	-1.080984E-001	-8.690952E-002	2.814822E-002
1.040000E+009	6.515216E-002	-4.126121E-002	2.657699E-001	-1.088458E-001	2.660234E-001	-1.090195E-001	-8.679169E-002	2.852636E-002
1.050000E+009	6.485731E-002	-4.148324E-002	2.653698E-001	-1.098026E-001	2.655872E-001	-1.099186E-001	-8.663278E-002	2.889216E-002
1.060000E+009	6.454270E-002	-4.173745E-002	2.648914E-001	-1.106984E-001	2.651163E-001	-1.108196E-001	-8.646453E-002	2.923314E-002
1.070000E+009	6.424353E-002	-4.194760E-002	2.644313E-001	-1.116055E-001	2.646763E-001	-1.117030E-001	-8.630027E-002	2.960993E-002
1.080000E+009	6.395099E-002	-4.219450E-002	2.639824E-001	-1.125365E-001	2.642274E-001	-1.126649E-001	-8.611145E-002	2.998116E-002
1.090000E+009	6.369088E-002	-4.241233E-002	2.635208E-001	-1.134524E-001	2.637771E-001	-1.135529E-001	-8.594095E-002	3.035018E-002
1.100000E+009	6.343647E-002	-4.262015E-002	2.630296E-001	-1.143543E-001	2.632845E-001	-1.144777E-001	-8.578522E-002	3.071873E-002
1.110000E+009	6.317506E-002	-4.282614E-002	2.625623E-001	-1.152639E-001	2.628394E-001	-1.153894E-001	-8.562332E-002	3.105773E-002
1.120000E+009	6.287210E-002	-4.302267E-002	2.621057E-001	-1.161701E-001	2.623385E-001	-1.163127E-001	-8.554602E-002	3.142655E-002
1.130000E+009	6.257572E-002	-4.323680E-002	2.616109E-001	-1.170719E-001	2.618656E-001	-1.172133E-001	-8.541170E-002	3.178291E-002
1.140000E+009	6.225797E-002	-4.342029E-002	2.611546E-001	-1.179861E-001	2.613856E-001	-1.181124E-001	-8.527539E-002	3.217862E-002
1.150000E+009	6.197322E-002	-4.362843E-002	2.606513E-001	-1.188862E-001	2.609020E-001	-1.190005E-001	-8.510641E-002	3.250250E-002
1.160000E+009	6.166708E-002	-4.383375E-002	2.601849E-001	-1.198054E-001	2.604129E-001	-1.199230E-001	-8.497415E-002	3.285961E-002
1.170000E+009	6.137082E-002	-4.401549E-002	2.596790E-001	-1.206938E-001	2.599287E-001	-1.208077E-001	-8.477825E-002	3.323753E-002
1.180000E+009	6.109452E-002	-4.426472E-002	2.591632E-001	-1.215797E-001	2.594361E-001	-1.217044E-001	-8.460625E-002	3.359957E-002
1.190000E+009	6.077391E-002	-4.445812E-002	2.586893E-001	-1.224946E-001	2.588916E-001	-1.226131E-001	-8.442630E-002	3.399726E-002
1.200000E+009	6.049561E-002	-4.465974E-002	2.582022E-001	-1.233791E-001	2.584146E-001	-1.234889E-001	-8.423241E-002	3.438409E-002
1.210000E+009	6.022269E-002	-4.490595E-002	2.576852E-001	-1.242688E-001	2.579050E-001	-1.243786E-001	-8.406907E-002	3.479383E-002
1.220000E+009	5.993737E-002	-4.510933E-002	2.571837E-001	-1.251364E-001	2.574314E-001	-1.252780E-001	-8.393041E-002	3.517230E-002
1.230000E+009	5.966263E-002	-4.533434E-002	2.566749E-001	-1.260260E-001	2.568874E-001	-1.261370E-001	-8.377200E-002	3.554768E-002
1.240000E+009	5.938731E-002	-4.554429E-002	2.561712E-001	-1.269060E-001	2.563917E-001	-1.270253E-001	-8.365632E-002	3.590796E-002
1.250000E+009	5.912044E-002	-4.576471E-002	2.556470E-001	-1.278065E-001	2.558931E-001	-1.279239E-001	-8.354474E-002	3.625590E-002
1.260000E+009	5.883377E-002	-4.596995E-002	2.551290E-001	-1.286715E-001	2.553555E-001	-1.288221E-001	-8.339035E-002	3.657199E-002
1.270000E+009	5.861235E-002	-4.617856E-002	2.546132E-001	-1.295718E-001	2.548284E-001	-1.296769E-001	-8.321317E-002	3.687646E-002
1.280000E+009	5.832124E-002	-4.636954E-002	2.540912E-001	-1.304344E-001	2.543381E-001	-1.305505E-001	-8.305928E-002	3.716676E-002
1.290000E+009	5.807664E-002	-4.652766E-002	2.535523E-001	-1.313431E-001	2.538133E-001	-1.314474E-001	-8.279303E-002	3.747850E-002
1.300000E+009	5.781913E-002	-4.666532E-002	2.530203E-001	-1.321780E-001	2.532758E-001	-1.323284E-001	-8.255176E-002	3.780280E-002
1.310000E+009	5.754811E-002	-4.682514E-002	2.524789E-001	-1.330731E-001	2.527569E-001	-1.332095E-001	-8.230347E-002	3.814126E-002
1.320000E+009	5.726850E-002	-4.698801E-002	2.519490E-001	-1.339490E-001	2.522078E-001	-1.340759E-001	-8.199807E-002	3.854160E-002
1.330000E+009	5.699925E-002	-4.708304E-002	2.514147E-001	-1.348029E-001	2.516559E-001	-1.349554E-001	-8.166943E-002	3.898418E-002
1.340000E+009	5.670134E-002	-4.719518E-002	2.508671E-001	-1.356569E-001	2.511117E-001	-1.358220E-001	-8.138469E-002	3.945518E-002
1.350000E+009	5.638374E-002	-4.733220E-002	2.503353E-001	-1.365230E-001	2.505258E-001	-1.366609E-001	-8.112341E-002	3.993860E-002
1.360000E+009	5.614051E-002	-4.745719E-002	2.497491E-001	-1.373864E-001	2.500090E-001	-1.375300E-001	-8.083256E-002	4.047622E-002
1.370000E+009	5.585971E-002	-4.757532E-002	2.492110E-001	-1.382463E-001	2.494467E-001	-1.383838E-001	-8.062872E-002	4.101202E-002
1.380000E+009	5.557122E-002	-4.771869E-002	2.486258E-001	-1.390873E-001	2.488851E-001	-1.392431E-001	-8.041413E-002	4.149964E-002
1.390000E+009	5.528665E-002	-4.786885E-002	2.480798E-001	-1.399570E-001	2.483216E-001	-1.401065E-001	-8.025436E-002	4.204352E-002
1.400000E+009	5.499745E-002	-4.802012E-002	2.475016E-001	-1.407908E-001	2.477432E-001	-1.409202E-001	-8.008935E-002	4.251929E-002
1.410000E+009	5.469271E-002	-4.814504E-002	2.469257E-001	-1.416321E-001	2.471589E-001	-1.417670E-001	-7.991013E-002	4.301836E-002
1.420000E+009	5.438336E-002	-4.823563E-002	2.463454E-001	-1.424604E-001	2.466126E-001	-1.425995E-001	-7.975934E-002	4.347009E-002
1.430000E+009	5.411137E-002	-4.840563E-002	2.457779E-001	-1.433087E-001	2.460455E-001	-1.434740E-001	-7.955808E-002	4.390757E-002
1.440000E+009	5.382058E-002	-4.851489E-002	2.452042E-001	-1.441373E-001	2.454599E-001	-1.442979E-001	-7.934590E-002	4.434194E-002
1.450000E+009	5.351507E-002	-4.863729E-002	2.446187E-001	-1.449853E-001	2.448681E-001	-1.451378E-001	-7.912496E-002	4.478718E-002
1.460000E+009	5.318036E-002	-4.872861E-002	2.440262E-001	-1.458327E-001	2.442557E-001	-1.459687E-001	-7.890894E-002	4.523210E-002
1.470000E+009	5.290724E-002	-4.885851E-002	2.434544E-001	-1.466855E-001	2.436968E-001	-1.468061E-001	-7.867031E-002	4.575030E-002
1.480000E+009	5.258579E-002	-4.894343E-002	2.428370E-001	-1.474586E-001	2.430794E-001	-1.476273E-001	-7.843282E-002	4.625955E-002
1.490000E+009	5.227980E-002	-4.908095E-002	2.422596E-001	-1.482947E-001	2.424752E-001	-1.484185E-001	-7.818647E-002	4.678662E-002
1.500000E+009	5.199319E-002	-4.918453E-002	2.416534E-001	-1.491101E-001	2.418815E-001	-1.492585E-001	-7.791723E-002	4.731497E-002
