! Device ID: PE43711P
! File Path: z:\PE43711P\CHAR_NOM_04282014\AMB\3p300\LS_ATT_8p25dB\PE43711P_AMB_3p300V_3p000V_0p000V_LS_ATT_8p25dB_S2P_SN_5_A0137A.s2p
! Serial: 5
! Lot: A0137A
! Temp: 25C
! VDD: 3.300
! VSS: 0.000
! Control_Hi: 3.000
! Control_Lo: 0.000
! Attenuation Step: 8.25dB
! Port 1: RF1
! Port 2: RF2
! ThroughPath:1-2
! IDD: 0.0001273304
! ISS: -5.98e-008
!

#  Hz  S   RI  R   50

1.000000E+007	8.442021E-002	-1.907657E-004	3.400878E-001	-1.613732E-003	3.403338E-001	-1.704779E-003	-8.157710E-002	6.647562E-004
2.000000E+007	8.458081E-002	-4.564600E-004	3.400564E-001	-2.785733E-003	3.401652E-001	-2.807138E-003	-8.131749E-002	1.154043E-003
3.000000E+007	8.484749E-002	-8.805277E-004	3.400589E-001	-4.187732E-003	3.401924E-001	-4.199601E-003	-8.103037E-002	1.506666E-003
4.000000E+007	8.495034E-002	-1.289731E-003	3.400497E-001	-5.587283E-003	3.401751E-001	-5.611472E-003	-8.079694E-002	1.883021E-003
5.000000E+007	8.509196E-002	-1.764451E-003	3.400487E-001	-7.121188E-003	3.402485E-001	-7.091911E-003	-8.070219E-002	2.223507E-003
6.000000E+007	8.525602E-002	-2.288226E-003	3.399734E-001	-8.489199E-003	3.402198E-001	-8.474685E-003	-8.056363E-002	2.448333E-003
7.000000E+007	8.534981E-002	-2.823884E-003	3.398774E-001	-9.871048E-003	3.401133E-001	-9.870015E-003	-8.041673E-002	2.687548E-003
8.000000E+007	8.547369E-002	-3.357502E-003	3.397997E-001	-1.118666E-002	3.400481E-001	-1.120543E-002	-8.029596E-002	2.948239E-003
9.000000E+007	8.556996E-002	-3.868010E-003	3.397279E-001	-1.257163E-002	3.399331E-001	-1.258415E-002	-8.016765E-002	3.133909E-003
1.000000E+008	8.563789E-002	-4.367195E-003	3.396793E-001	-1.399383E-002	3.398710E-001	-1.395823E-002	-8.004337E-002	3.320245E-003
1.100000E+008	8.570166E-002	-4.882054E-003	3.395521E-001	-1.540044E-002	3.397623E-001	-1.532999E-002	-7.997419E-002	3.484784E-003
1.200000E+008	8.578480E-002	-5.435995E-003	3.393743E-001	-1.676822E-002	3.396222E-001	-1.674155E-002	-7.996289E-002	3.643624E-003
1.300000E+008	8.584502E-002	-5.975829E-003	3.392693E-001	-1.811822E-002	3.395232E-001	-1.813338E-002	-7.984426E-002	3.779312E-003
1.400000E+008	8.585102E-002	-6.540103E-003	3.391629E-001	-1.949442E-002	3.393771E-001	-1.950958E-002	-7.963222E-002	3.888508E-003
1.500000E+008	8.579012E-002	-7.071367E-003	3.390085E-001	-2.080711E-002	3.391689E-001	-2.083709E-002	-7.944456E-002	4.017940E-003
1.600000E+008	8.569825E-002	-7.502223E-003	3.389135E-001	-2.214376E-002	3.390202E-001	-2.212097E-002	-7.948110E-002	4.166819E-003
1.700000E+008	8.561490E-002	-7.940777E-003	3.387995E-001	-2.359164E-002	3.390537E-001	-2.348388E-002	-7.963583E-002	4.298160E-003
1.800000E+008	8.544565E-002	-8.435132E-003	3.384582E-001	-2.503038E-002	3.388717E-001	-2.494149E-002	-7.972084E-002	4.406158E-003
1.900000E+008	8.534610E-002	-9.001668E-003	3.382251E-001	-2.631017E-002	3.386232E-001	-2.630356E-002	-7.969693E-002	4.472187E-003
2.000000E+008	8.525284E-002	-9.568816E-003	3.380743E-001	-2.762233E-002	3.384273E-001	-2.760063E-002	-7.954741E-002	4.563427E-003
2.100000E+008	8.517270E-002	-1.020703E-002	3.379239E-001	-2.891373E-002	3.382009E-001	-2.890272E-002	-7.935303E-002	4.634318E-003
2.200000E+008	8.508249E-002	-1.079549E-002	3.377578E-001	-3.019382E-002	3.380242E-001	-3.021793E-002	-7.920418E-002	4.692541E-003
2.300000E+008	8.494996E-002	-1.135175E-002	3.375927E-001	-3.152886E-002	3.378134E-001	-3.151885E-002	-7.910986E-002	4.724656E-003
2.400000E+008	8.482078E-002	-1.192483E-002	3.373880E-001	-3.285885E-002	3.376000E-001	-3.284731E-002	-7.903027E-002	4.780494E-003
2.500000E+008	8.468008E-002	-1.247516E-002	3.371522E-001	-3.422099E-002	3.373989E-001	-3.417059E-002	-7.891581E-002	4.785515E-003
2.600000E+008	8.458696E-002	-1.304987E-002	3.368945E-001	-3.555719E-002	3.371871E-001	-3.550501E-002	-7.877556E-002	4.887291E-003
2.700000E+008	8.446996E-002	-1.358912E-002	3.366206E-001	-3.684693E-002	3.369316E-001	-3.684901E-002	-7.858692E-002	5.020562E-003
2.800000E+008	8.440897E-002	-1.410232E-002	3.363978E-001	-3.812062E-002	3.366766E-001	-3.810198E-002	-7.840998E-002	5.143082E-003
2.900000E+008	8.427536E-002	-1.457055E-002	3.361991E-001	-3.939629E-002	3.364254E-001	-3.936685E-002	-7.830449E-002	5.303102E-003
3.000000E+008	8.417877E-002	-1.501209E-002	3.359857E-001	-4.070776E-002	3.362331E-001	-4.066260E-002	-7.817913E-002	5.488194E-003
3.100000E+008	8.403512E-002	-1.542236E-002	3.357574E-001	-4.201523E-002	3.360303E-001	-4.198541E-002	-7.807871E-002	5.707094E-003
3.200000E+008	8.388394E-002	-1.584077E-002	3.354961E-001	-4.334143E-002	3.357860E-001	-4.329619E-002	-7.803044E-002	5.894722E-003
3.300000E+008	8.368887E-002	-1.624055E-002	3.352529E-001	-4.464070E-002	3.355328E-001	-4.466307E-002	-7.797744E-002	6.056430E-003
3.400000E+008	8.340919E-002	-1.667339E-002	3.349457E-001	-4.594040E-002	3.351414E-001	-4.602004E-002	-7.786875E-002	6.178852E-003
3.500000E+008	8.313188E-002	-1.711656E-002	3.346933E-001	-4.725981E-002	3.347839E-001	-4.723744E-002	-7.776245E-002	6.243040E-003
3.600000E+008	8.288994E-002	-1.755056E-002	3.343884E-001	-4.854223E-002	3.344841E-001	-4.840276E-002	-7.764630E-002	6.344805E-003
3.700000E+008	8.262586E-002	-1.799589E-002	3.340667E-001	-4.977003E-002	3.342580E-001	-4.959132E-002	-7.749589E-002	6.432044E-003
3.800000E+008	8.238732E-002	-1.847831E-002	3.337910E-001	-5.102551E-002	3.340671E-001	-5.089284E-002	-7.734792E-002	6.546424E-003
3.900000E+008	8.212669E-002	-1.897980E-002	3.334585E-001	-5.232524E-002	3.337827E-001	-5.220445E-002	-7.712975E-002	6.685205E-003
4.000000E+008	8.191025E-002	-1.949699E-002	3.331077E-001	-5.351944E-002	3.334746E-001	-5.352896E-002	-7.686360E-002	6.817747E-003
4.100000E+008	8.165683E-002	-1.999940E-002	3.328341E-001	-5.468968E-002	3.331392E-001	-5.479051E-002	-7.665376E-002	6.973233E-003
4.200000E+008	8.140197E-002	-2.046971E-002	3.325836E-001	-5.596020E-002	3.328401E-001	-5.600252E-002	-7.648173E-002	7.187473E-003
4.300000E+008	8.119500E-002	-2.090485E-002	3.323068E-001	-5.723403E-002	3.325308E-001	-5.724812E-002	-7.632125E-002	7.408449E-003
4.400000E+008	8.099981E-002	-2.132087E-002	3.319927E-001	-5.850218E-002	3.322412E-001	-5.848616E-002	-7.618506E-002	7.687524E-003
4.500000E+008	8.079100E-002	-2.175312E-002	3.316938E-001	-5.976792E-002	3.319290E-001	-5.977191E-002	-7.604076E-002	7.990300E-003
4.600000E+008	8.058529E-002	-2.218645E-002	3.313390E-001	-6.104555E-002	3.316016E-001	-6.103709E-002	-7.591247E-002	8.315431E-003
4.700000E+008	8.034548E-002	-2.256370E-002	3.309960E-001	-6.225759E-002	3.312308E-001	-6.226189E-002	-7.582056E-002	8.548632E-003
4.800000E+008	8.008492E-002	-2.293260E-002	3.306781E-001	-6.345127E-002	3.308741E-001	-6.345079E-002	-7.574523E-002	8.809616E-003
4.900000E+008	7.980221E-002	-2.331544E-002	3.303356E-001	-6.468833E-002	3.305050E-001	-6.470365E-002	-7.568096E-002	9.064292E-003
5.000000E+008	7.954490E-002	-2.366935E-002	3.300110E-001	-6.591138E-002	3.302199E-001	-6.591180E-002	-7.559683E-002	9.279351E-003
5.100000E+008	7.928573E-002	-2.406208E-002	3.296625E-001	-6.713477E-002	3.299155E-001	-6.710887E-002	-7.548134E-002	9.509373E-003
5.200000E+008	7.899382E-002	-2.449522E-002	3.293127E-001	-6.837434E-002	3.295979E-001	-6.837181E-002	-7.533528E-002	9.709735E-003
5.300000E+008	7.871433E-002	-2.492146E-002	3.289581E-001	-6.959529E-002	3.292363E-001	-6.963198E-002	-7.512793E-002	9.904707E-003
5.400000E+008	7.840011E-002	-2.539747E-002	3.285703E-001	-7.082881E-002	3.288675E-001	-7.085672E-002	-7.495172E-002	1.009324E-002
5.500000E+008	7.813605E-002	-2.579181E-002	3.282184E-001	-7.205420E-002	3.284522E-001	-7.207230E-002	-7.480822E-002	1.036406E-002
5.600000E+008	7.784245E-002	-2.621155E-002	3.278402E-001	-7.322857E-002	3.280651E-001	-7.326456E-002	-7.465439E-002	1.061587E-002
5.700000E+008	7.757945E-002	-2.663190E-002	3.274568E-001	-7.443357E-002	3.277170E-001	-7.445584E-002	-7.458502E-002	1.093008E-002
5.800000E+008	7.730899E-002	-2.702791E-002	3.270795E-001	-7.563433E-002	3.273615E-001	-7.565114E-002	-7.447921E-002	1.122622E-002
5.900000E+008	7.706086E-002	-2.745093E-002	3.267104E-001	-7.687646E-002	3.269947E-001	-7.691083E-002	-7.440796E-002	1.154629E-002
6.000000E+008	7.684046E-002	-2.787665E-002	3.263070E-001	-7.806638E-002	3.266067E-001	-7.812627E-002	-7.427524E-002	1.180386E-002
6.100000E+008	7.665665E-002	-2.827936E-002	3.259257E-001	-7.924869E-002	3.261538E-001	-7.931248E-002	-7.421017E-002	1.207111E-002
6.200000E+008	7.643768E-002	-2.866558E-002	3.255008E-001	-8.042935E-002	3.257856E-001	-8.048248E-002	-7.410926E-002	1.233346E-002
6.300000E+008	7.626435E-002	-2.901977E-002	3.250871E-001	-8.160895E-002	3.253557E-001	-8.165337E-002	-7.401830E-002	1.258975E-002
6.400000E+008	7.607840E-002	-2.936868E-002	3.247040E-001	-8.277519E-002	3.249632E-001	-8.282823E-002	-7.388307E-002	1.287743E-002
6.500000E+008	7.588752E-002	-2.969577E-002	3.243161E-001	-8.394059E-002	3.245663E-001	-8.400372E-002	-7.377553E-002	1.318049E-002
6.600000E+008	7.565037E-002	-3.004884E-002	3.239431E-001	-8.514801E-002	3.241669E-001	-8.521335E-002	-7.363020E-002	1.348818E-002
6.700000E+008	7.536071E-002	-3.032221E-002	3.235200E-001	-8.632397E-002	3.237413E-001	-8.639724E-002	-7.356536E-002	1.378998E-002
6.800000E+008	7.505345E-002	-3.061869E-002	3.230951E-001	-8.748205E-002	3.233278E-001	-8.756717E-002	-7.345239E-002	1.412508E-002
6.900000E+008	7.474855E-002	-3.091550E-002	3.226465E-001	-8.864759E-002	3.228769E-001	-8.871524E-002	-7.340241E-002	1.447642E-002
7.000000E+008	7.446508E-002	-3.120392E-002	3.222223E-001	-8.982067E-002	3.224700E-001	-8.985375E-002	-7.334094E-002	1.480824E-002
7.100000E+008	7.418010E-002	-3.154230E-002	3.218093E-001	-9.094482E-002	3.220647E-001	-9.102846E-002	-7.331797E-002	1.507815E-002
7.200000E+008	7.385394E-002	-3.188585E-002	3.213867E-001	-9.211426E-002	3.216541E-001	-9.219906E-002	-7.325659E-002	1.536943E-002
7.300000E+008	7.356123E-002	-3.222961E-002	3.209309E-001	-9.328595E-002	3.212430E-001	-9.338510E-002	-7.323063E-002	1.560350E-002
7.400000E+008	7.325502E-002	-3.255266E-002	3.204955E-001	-9.443486E-002	3.207851E-001	-9.451665E-002	-7.320781E-002	1.582794E-002
7.500000E+008	7.297374E-002	-3.290047E-002	3.200669E-001	-9.557975E-002	3.203430E-001	-9.568021E-002	-7.316736E-002	1.603732E-002
7.600000E+008	7.266293E-002	-3.323880E-002	3.196141E-001	-9.673622E-002	3.198930E-001	-9.684115E-002	-7.310041E-002	1.626709E-002
7.700000E+008	7.237588E-002	-3.361654E-002	3.191708E-001	-9.788574E-002	3.194643E-001	-9.799175E-002	-7.302015E-002	1.647687E-002
7.800000E+008	7.206030E-002	-3.393489E-002	3.187201E-001	-9.904340E-002	3.190272E-001	-9.911894E-002	-7.295393E-002	1.667084E-002
7.900000E+008	7.176389E-002	-3.432932E-002	3.182898E-001	-1.001657E-001	3.185766E-001	-1.002894E-001	-7.289365E-002	1.691350E-002
8.000000E+008	7.145719E-002	-3.469599E-002	3.178007E-001	-1.013158E-001	3.180627E-001	-1.014071E-001	-7.278106E-002	1.716636E-002
8.100000E+008	7.118044E-002	-3.506928E-002	3.173495E-001	-1.024501E-001	3.175798E-001	-1.025409E-001	-7.263253E-002	1.744955E-002
8.200000E+008	7.094677E-002	-3.539558E-002	3.168933E-001	-1.035886E-001	3.171294E-001	-1.036555E-001	-7.251244E-002	1.770986E-002
8.300000E+008	7.073205E-002	-3.574543E-002	3.163975E-001	-1.047150E-001	3.166886E-001	-1.047905E-001	-7.239874E-002	1.798759E-002
8.400000E+008	7.052281E-002	-3.606799E-002	3.159202E-001	-1.058339E-001	3.162135E-001	-1.059238E-001	-7.230188E-002	1.826321E-002
8.500000E+008	7.030697E-002	-3.636559E-002	3.154887E-001	-1.069400E-001	3.157581E-001	-1.070620E-001	-7.223739E-002	1.852904E-002
8.600000E+008	7.005521E-002	-3.665416E-002	3.149919E-001	-1.080684E-001	3.152227E-001	-1.081768E-001	-7.216081E-002	1.880575E-002
8.700000E+008	6.979643E-002	-3.691055E-002	3.145249E-001	-1.091980E-001	3.147544E-001	-1.093135E-001	-7.209364E-002	1.907176E-002
8.800000E+008	6.952549E-002	-3.716169E-002	3.140636E-001	-1.103272E-001	3.143062E-001	-1.104061E-001	-7.205089E-002	1.933364E-002
8.900000E+008	6.925155E-002	-3.742782E-002	3.135419E-001	-1.114248E-001	3.138316E-001	-1.115433E-001	-7.197848E-002	1.957021E-002
9.000000E+008	6.894801E-002	-3.767653E-002	3.130305E-001	-1.125376E-001	3.133467E-001	-1.126686E-001	-7.188175E-002	1.982942E-002
9.100000E+008	6.862138E-002	-3.794327E-002	3.125305E-001	-1.136677E-001	3.128506E-001	-1.137750E-001	-7.175178E-002	2.005519E-002
9.200000E+008	6.829479E-002	-3.823558E-002	3.120431E-001	-1.147735E-001	3.123572E-001	-1.149075E-001	-7.159493E-002	2.031702E-002
9.300000E+008	6.800154E-002	-3.853091E-002	3.115411E-001	-1.158764E-001	3.118013E-001	-1.160085E-001	-7.141835E-002	2.054986E-002
9.400000E+008	6.771815E-002	-3.882739E-002	3.110301E-001	-1.169680E-001	3.113359E-001	-1.170939E-001	-7.121249E-002	2.083455E-002
9.500000E+008	6.744265E-002	-3.912249E-002	3.105564E-001	-1.181033E-001	3.108176E-001	-1.182460E-001	-7.099129E-002	2.115383E-002
9.600000E+008	6.717257E-002	-3.938551E-002	3.100190E-001	-1.191936E-001	3.102891E-001	-1.193177E-001	-7.076896E-002	2.148508E-002
9.700000E+008	6.694307E-002	-3.963873E-002	3.094943E-001	-1.202628E-001	3.097578E-001	-1.204164E-001	-7.054670E-002	2.181095E-002
9.800000E+008	6.671507E-002	-3.987508E-002	3.089925E-001	-1.213292E-001	3.092747E-001	-1.215188E-001	-7.034469E-002	2.215536E-002
9.900000E+008	6.647622E-002	-4.012619E-002	3.085176E-001	-1.224567E-001	3.087749E-001	-1.226194E-001	-7.020000E-002	2.250974E-002
1.000000E+009	6.622318E-002	-4.031928E-002	3.079922E-001	-1.235455E-001	3.082276E-001	-1.237049E-001	-7.008207E-002	2.285412E-002
1.010000E+009	6.593533E-002	-4.051658E-002	3.074623E-001	-1.246412E-001	3.077102E-001	-1.247874E-001	-6.996513E-002	2.324656E-002
1.020000E+009	6.564754E-002	-4.070257E-002	3.069407E-001	-1.257241E-001	3.071703E-001	-1.258833E-001	-6.986283E-002	2.360930E-002
1.030000E+009	6.535762E-002	-4.087313E-002	3.063751E-001	-1.268045E-001	3.066470E-001	-1.269446E-001	-6.975986E-002	2.396170E-002
1.040000E+009	6.505888E-002	-4.108117E-002	3.058288E-001	-1.278689E-001	3.061151E-001	-1.280263E-001	-6.965680E-002	2.429919E-002
1.050000E+009	6.475846E-002	-4.130051E-002	3.053130E-001	-1.289611E-001	3.055883E-001	-1.290975E-001	-6.951957E-002	2.467199E-002
1.060000E+009	6.445877E-002	-4.153288E-002	3.047774E-001	-1.300162E-001	3.050225E-001	-1.301623E-001	-6.937570E-002	2.499169E-002
1.070000E+009	6.414207E-002	-4.176043E-002	3.042043E-001	-1.310998E-001	3.044724E-001	-1.312047E-001	-6.923377E-002	2.533787E-002
1.080000E+009	6.385225E-002	-4.199815E-002	3.036762E-001	-1.322048E-001	3.039613E-001	-1.323150E-001	-6.907500E-002	2.568451E-002
1.090000E+009	6.357090E-002	-4.220922E-002	3.031160E-001	-1.332524E-001	3.034227E-001	-1.333746E-001	-6.893555E-002	2.603448E-002
1.100000E+009	6.333830E-002	-4.242515E-002	3.025277E-001	-1.343418E-001	3.028492E-001	-1.344282E-001	-6.879354E-002	2.638128E-002
1.110000E+009	6.306330E-002	-4.261477E-002	3.019779E-001	-1.353831E-001	3.022975E-001	-1.355111E-001	-6.865218E-002	2.669874E-002
1.120000E+009	6.277078E-002	-4.283650E-002	3.014494E-001	-1.364417E-001	3.017309E-001	-1.365888E-001	-6.858156E-002	2.704251E-002
1.130000E+009	6.249609E-002	-4.302307E-002	3.008815E-001	-1.375067E-001	3.011300E-001	-1.376564E-001	-6.848522E-002	2.738361E-002
1.140000E+009	6.215702E-002	-4.320927E-002	3.003087E-001	-1.385739E-001	3.005878E-001	-1.387052E-001	-6.837905E-002	2.774132E-002
1.150000E+009	6.185660E-002	-4.340616E-002	2.997000E-001	-1.396563E-001	2.999880E-001	-1.397752E-001	-6.824654E-002	2.808042E-002
1.160000E+009	6.155469E-002	-4.357267E-002	2.991392E-001	-1.407081E-001	2.994185E-001	-1.408516E-001	-6.812948E-002	2.839603E-002
1.170000E+009	6.123368E-002	-4.380636E-002	2.985437E-001	-1.417545E-001	2.988324E-001	-1.418532E-001	-6.799184E-002	2.878488E-002
1.180000E+009	6.095501E-002	-4.401213E-002	2.979434E-001	-1.427966E-001	2.982621E-001	-1.429269E-001	-6.782164E-002	2.911334E-002
1.190000E+009	6.063168E-002	-4.422116E-002	2.973646E-001	-1.438573E-001	2.976190E-001	-1.439791E-001	-6.766154E-002	2.948664E-002
1.200000E+009	6.033948E-002	-4.441803E-002	2.967795E-001	-1.448959E-001	2.970333E-001	-1.450076E-001	-6.748442E-002	2.986736E-002
1.210000E+009	6.009316E-002	-4.464588E-002	2.961677E-001	-1.459426E-001	2.964184E-001	-1.460790E-001	-6.733789E-002	3.025372E-002
1.220000E+009	5.980717E-002	-4.487512E-002	2.955651E-001	-1.469687E-001	2.958531E-001	-1.471106E-001	-6.721623E-002	3.062451E-002
1.230000E+009	5.952588E-002	-4.506122E-002	2.949691E-001	-1.480271E-001	2.952216E-001	-1.481545E-001	-6.711616E-002	3.096463E-002
1.240000E+009	5.926223E-002	-4.531513E-002	2.943477E-001	-1.490593E-001	2.946085E-001	-1.491836E-001	-6.701337E-002	3.130899E-002
1.250000E+009	5.897984E-002	-4.551808E-002	2.937332E-001	-1.500962E-001	2.940389E-001	-1.502084E-001	-6.689600E-002	3.165687E-002
1.260000E+009	5.867022E-002	-4.569145E-002	2.931099E-001	-1.511312E-001	2.933836E-001	-1.512814E-001	-6.680027E-002	3.194340E-002
1.270000E+009	5.844409E-002	-4.589936E-002	2.925099E-001	-1.521692E-001	2.927392E-001	-1.522709E-001	-6.664696E-002	3.223093E-002
1.280000E+009	5.814801E-002	-4.608110E-002	2.918779E-001	-1.532120E-001	2.921450E-001	-1.533138E-001	-6.652149E-002	3.250569E-002
1.290000E+009	5.790648E-002	-4.622084E-002	2.912340E-001	-1.542285E-001	2.915176E-001	-1.543780E-001	-6.628643E-002	3.278495E-002
1.300000E+009	5.764715E-002	-4.637253E-002	2.905848E-001	-1.552328E-001	2.909169E-001	-1.553704E-001	-6.605729E-002	3.311855E-002
1.310000E+009	5.735968E-002	-4.654750E-002	2.899401E-001	-1.562786E-001	2.902447E-001	-1.564048E-001	-6.584505E-002	3.344606E-002
1.320000E+009	5.707597E-002	-4.665645E-002	2.893078E-001	-1.573070E-001	2.896096E-001	-1.574232E-001	-6.555171E-002	3.381264E-002
1.330000E+009	5.682475E-002	-4.676780E-002	2.886742E-001	-1.582843E-001	2.889689E-001	-1.584780E-001	-6.524385E-002	3.424879E-002
1.340000E+009	5.652695E-002	-4.688393E-002	2.880275E-001	-1.592943E-001	2.883084E-001	-1.594654E-001	-6.497167E-002	3.470799E-002
1.350000E+009	5.621035E-002	-4.700065E-002	2.873729E-001	-1.603270E-001	2.876204E-001	-1.604756E-001	-6.476749E-002	3.518634E-002
1.360000E+009	5.595785E-002	-4.710536E-002	2.866758E-001	-1.613141E-001	2.869807E-001	-1.614764E-001	-6.449446E-002	3.569451E-002
1.370000E+009	5.566538E-002	-4.723357E-002	2.860474E-001	-1.623305E-001	2.863176E-001	-1.624832E-001	-6.431258E-002	3.622423E-002
1.380000E+009	5.536318E-002	-4.737427E-002	2.853666E-001	-1.633311E-001	2.856476E-001	-1.634900E-001	-6.411734E-002	3.669623E-002
1.390000E+009	5.508446E-002	-4.750218E-002	2.846832E-001	-1.643394E-001	2.849630E-001	-1.644976E-001	-6.398685E-002	3.721206E-002
1.400000E+009	5.477816E-002	-4.763858E-002	2.840023E-001	-1.653225E-001	2.842932E-001	-1.654393E-001	-6.383304E-002	3.767838E-002
1.410000E+009	5.447964E-002	-4.773197E-002	2.833270E-001	-1.663101E-001	2.835923E-001	-1.664425E-001	-6.367823E-002	3.818840E-002
1.420000E+009	5.419494E-002	-4.786995E-002	2.826367E-001	-1.672741E-001	2.829300E-001	-1.674376E-001	-6.353712E-002	3.861904E-002
1.430000E+009	5.392031E-002	-4.797258E-002	2.819561E-001	-1.682583E-001	2.822335E-001	-1.684293E-001	-6.335871E-002	3.904708E-002
1.440000E+009	5.360272E-002	-4.809362E-002	2.812524E-001	-1.692281E-001	2.815446E-001	-1.693871E-001	-6.320366E-002	3.945478E-002
1.450000E+009	5.331225E-002	-4.819160E-002	2.805635E-001	-1.702246E-001	2.808525E-001	-1.703839E-001	-6.299094E-002	3.990787E-002
1.460000E+009	5.298797E-002	-4.829249E-002	2.798538E-001	-1.712018E-001	2.801322E-001	-1.713715E-001	-6.278880E-002	4.035629E-002
1.470000E+009	5.269175E-002	-4.841336E-002	2.791600E-001	-1.721846E-001	2.794332E-001	-1.723256E-001	-6.259802E-002	4.084416E-002
1.480000E+009	5.237255E-002	-4.849819E-002	2.784307E-001	-1.731144E-001	2.787105E-001	-1.732870E-001	-6.238148E-002	4.137004E-002
1.490000E+009	5.208918E-002	-4.859196E-002	2.777342E-001	-1.740765E-001	2.780102E-001	-1.742130E-001	-6.215315E-002	4.187323E-002
1.500000E+009	5.180170E-002	-4.870802E-002	2.770323E-001	-1.750446E-001	2.772720E-001	-1.751906E-001	-6.190363E-002	4.237739E-002
