! Device ID: PE43711P
! File Path: z:\PE43711P\CHAR_NOM_04282014\AMB\3p300\LS_ATT_6p00dB\PE43711P_AMB_3p300V_3p000V_0p000V_LS_ATT_6p00dB_S2P_SN_5_A0137A.s2p
! Serial: 5
! Lot: A0137A
! Temp: 25C
! VDD: 3.300
! VSS: 0.000
! Control_Hi: 3.000
! Control_Lo: 0.000
! Attenuation Step: 6.00dB
! Port 1: RF1
! Port 2: RF2
! ThroughPath:1-2
! IDD: 0.0001279107
! ISS: -5.98e-008
!

#  Hz  S   RI  R   50

1.000000E+007	9.506064E-002	-3.974265E-004	4.429976E-001	-2.212727E-003	4.432044E-001	-2.397487E-003	-6.632115E-002	5.252738E-004
2.000000E+007	9.517733E-002	-7.114456E-004	4.428886E-001	-3.693987E-003	4.428495E-001	-3.752182E-003	-6.609643E-002	8.993758E-004
3.000000E+007	9.545445E-002	-1.266853E-003	4.428962E-001	-5.564693E-003	4.428549E-001	-5.594415E-003	-6.579762E-002	1.157377E-003
4.000000E+007	9.554446E-002	-1.801107E-003	4.428843E-001	-7.453086E-003	4.428327E-001	-7.462237E-003	-6.549426E-002	1.427341E-003
5.000000E+007	9.572101E-002	-2.427434E-003	4.428366E-001	-9.479721E-003	4.429268E-001	-9.422062E-003	-6.535552E-002	1.592020E-003
6.000000E+007	9.590341E-002	-3.114395E-003	4.427248E-001	-1.131097E-002	4.428980E-001	-1.129462E-002	-6.522442E-002	1.666709E-003
7.000000E+007	9.599586E-002	-3.812085E-003	4.426095E-001	-1.314822E-002	4.427452E-001	-1.315792E-002	-6.510773E-002	1.741439E-003
8.000000E+007	9.612169E-002	-4.492793E-003	4.425306E-001	-1.492314E-002	4.426619E-001	-1.494422E-002	-6.501049E-002	1.870861E-003
9.000000E+007	9.620118E-002	-5.153277E-003	4.424137E-001	-1.676409E-002	4.425259E-001	-1.675929E-002	-6.487769E-002	1.928883E-003
1.000000E+008	9.626767E-002	-5.809954E-003	4.423364E-001	-1.864465E-002	4.423845E-001	-1.861272E-002	-6.471458E-002	1.981618E-003
1.100000E+008	9.631700E-002	-6.445626E-003	4.421449E-001	-2.052079E-002	4.422899E-001	-2.044505E-002	-6.463517E-002	2.002696E-003
1.200000E+008	9.638871E-002	-7.122203E-003	4.419127E-001	-2.235749E-002	4.420903E-001	-2.232130E-002	-6.466176E-002	2.027175E-003
1.300000E+008	9.643427E-002	-7.838472E-003	4.417711E-001	-2.414555E-002	4.419248E-001	-2.415945E-002	-6.455977E-002	1.992544E-003
1.400000E+008	9.643554E-002	-8.604454E-003	4.416092E-001	-2.598381E-002	4.417320E-001	-2.600048E-002	-6.424942E-002	1.942098E-003
1.500000E+008	9.633101E-002	-9.299938E-003	4.414205E-001	-2.773748E-002	4.414647E-001	-2.775364E-002	-6.400098E-002	1.902289E-003
1.600000E+008	9.617503E-002	-9.852294E-003	4.412866E-001	-2.951059E-002	4.412618E-001	-2.949261E-002	-6.410827E-002	1.949949E-003
1.700000E+008	9.598166E-002	-1.039284E-002	4.410924E-001	-3.144488E-002	4.412720E-001	-3.129598E-002	-6.439653E-002	1.948491E-003
1.800000E+008	9.576147E-002	-1.100799E-002	4.406559E-001	-3.334904E-002	4.410449E-001	-3.323789E-002	-6.462088E-002	1.883259E-003
1.900000E+008	9.560993E-002	-1.172796E-002	4.403333E-001	-3.506230E-002	4.407209E-001	-3.504842E-002	-6.462079E-002	1.808611E-003
2.000000E+008	9.552185E-002	-1.250275E-002	4.401306E-001	-3.680564E-002	4.404389E-001	-3.678164E-002	-6.439637E-002	1.786842E-003
2.100000E+008	9.544874E-002	-1.330374E-002	4.399327E-001	-3.854120E-002	4.401677E-001	-3.853623E-002	-6.412503E-002	1.742396E-003
2.200000E+008	9.535142E-002	-1.404445E-002	4.397330E-001	-4.023754E-002	4.399046E-001	-4.027723E-002	-6.394947E-002	1.703604E-003
2.300000E+008	9.516509E-002	-1.475865E-002	4.394496E-001	-4.202538E-002	4.396201E-001	-4.199918E-002	-6.386841E-002	1.617350E-003
2.400000E+008	9.497798E-002	-1.548047E-002	4.391840E-001	-4.382454E-002	4.392951E-001	-4.376339E-002	-6.381248E-002	1.515492E-003
2.500000E+008	9.477219E-002	-1.616229E-002	4.388706E-001	-4.560208E-002	4.390217E-001	-4.554265E-002	-6.375678E-002	1.366251E-003
2.600000E+008	9.461350E-002	-1.689150E-002	4.385258E-001	-4.739592E-002	4.387497E-001	-4.732367E-002	-6.364706E-002	1.298787E-003
2.700000E+008	9.443184E-002	-1.756479E-002	4.381596E-001	-4.911936E-002	4.383976E-001	-4.908167E-002	-6.348196E-002	1.270235E-003
2.800000E+008	9.433122E-002	-1.823715E-002	4.378320E-001	-5.079534E-002	4.380724E-001	-5.077248E-002	-6.332193E-002	1.274308E-003
2.900000E+008	9.411841E-002	-1.880974E-002	4.375192E-001	-5.249670E-002	4.377080E-001	-5.243806E-002	-6.322201E-002	1.301450E-003
3.000000E+008	9.398942E-002	-1.936671E-002	4.372349E-001	-5.425087E-002	4.374732E-001	-5.417485E-002	-6.312076E-002	1.362299E-003
3.100000E+008	9.379804E-002	-1.990247E-002	4.368993E-001	-5.595832E-002	4.371670E-001	-5.591437E-002	-6.304809E-002	1.439954E-003
3.200000E+008	9.359006E-002	-2.045017E-002	4.365501E-001	-5.774322E-002	4.368143E-001	-5.767445E-002	-6.300221E-002	1.511619E-003
3.300000E+008	9.333978E-002	-2.098171E-002	4.362261E-001	-5.944579E-002	4.364827E-001	-5.949735E-002	-6.295273E-002	1.534343E-003
3.400000E+008	9.298812E-002	-2.151929E-002	4.358079E-001	-6.117077E-002	4.359385E-001	-6.126057E-002	-6.288987E-002	1.511724E-003
3.500000E+008	9.263019E-002	-2.208717E-002	4.354503E-001	-6.292406E-002	4.354242E-001	-6.288484E-002	-6.281478E-002	1.437489E-003
3.600000E+008	9.231348E-002	-2.261416E-002	4.350698E-001	-6.462824E-002	4.350620E-001	-6.444518E-002	-6.272177E-002	1.418865E-003
3.700000E+008	9.200128E-002	-2.319636E-002	4.346119E-001	-6.623438E-002	4.347314E-001	-6.601915E-002	-6.256259E-002	1.396463E-003
3.800000E+008	9.169025E-002	-2.378088E-002	4.342563E-001	-6.791917E-002	4.344486E-001	-6.774962E-002	-6.242563E-002	1.347482E-003
3.900000E+008	9.134909E-002	-2.438709E-002	4.337744E-001	-6.967183E-002	4.340834E-001	-6.949812E-002	-6.221878E-002	1.349492E-003
4.000000E+008	9.108272E-002	-2.500832E-002	4.333114E-001	-7.123013E-002	4.336746E-001	-7.123690E-002	-6.200828E-002	1.349052E-003
4.100000E+008	9.072094E-002	-2.563753E-002	4.329412E-001	-7.280175E-002	4.332184E-001	-7.289665E-002	-6.183468E-002	1.385431E-003
4.200000E+008	9.035111E-002	-2.621369E-002	4.325881E-001	-7.447036E-002	4.328082E-001	-7.450577E-002	-6.169560E-002	1.428059E-003
4.300000E+008	9.006654E-002	-2.674593E-002	4.322046E-001	-7.615971E-002	4.323788E-001	-7.618114E-002	-6.156744E-002	1.511654E-003
4.400000E+008	8.979176E-002	-2.725419E-002	4.317578E-001	-7.786023E-002	4.319919E-001	-7.782896E-002	-6.147787E-002	1.665346E-003
4.500000E+008	8.953535E-002	-2.778425E-002	4.313372E-001	-7.952072E-002	4.315587E-001	-7.951092E-002	-6.136418E-002	1.832266E-003
4.600000E+008	8.925540E-002	-2.833498E-002	4.308821E-001	-8.119492E-002	4.310941E-001	-8.119568E-002	-6.127321E-002	2.005706E-003
4.700000E+008	8.893412E-002	-2.881410E-002	4.304267E-001	-8.280562E-002	4.306177E-001	-8.281323E-002	-6.121716E-002	2.136499E-003
4.800000E+008	8.860700E-002	-2.926317E-002	4.299600E-001	-8.439532E-002	4.301347E-001	-8.439468E-002	-6.118530E-002	2.270756E-003
4.900000E+008	8.821702E-002	-2.973652E-002	4.294939E-001	-8.602592E-002	4.296242E-001	-8.602333E-002	-6.115943E-002	2.417468E-003
5.000000E+008	8.788132E-002	-3.018520E-002	4.290227E-001	-8.763996E-002	4.292124E-001	-8.762705E-002	-6.112352E-002	2.519441E-003
5.100000E+008	8.754953E-002	-3.067362E-002	4.285745E-001	-8.927840E-002	4.287936E-001	-8.921224E-002	-6.101691E-002	2.609717E-003
5.200000E+008	8.716992E-002	-3.119611E-002	4.281124E-001	-9.092493E-002	4.283328E-001	-9.087502E-002	-6.090544E-002	2.685911E-003
5.300000E+008	8.680017E-002	-3.172413E-002	4.276293E-001	-9.254305E-002	4.278677E-001	-9.253673E-002	-6.073850E-002	2.739254E-003
5.400000E+008	8.640967E-002	-3.229972E-002	4.271116E-001	-9.417608E-002	4.273681E-001	-9.416310E-002	-6.060888E-002	2.782974E-003
5.500000E+008	8.604209E-002	-3.277660E-002	4.266285E-001	-9.578699E-002	4.268190E-001	-9.576850E-002	-6.049977E-002	2.899080E-003
5.600000E+008	8.566430E-002	-3.326641E-002	4.260981E-001	-9.736810E-002	4.262829E-001	-9.737337E-002	-6.039789E-002	3.029727E-003
5.700000E+008	8.533049E-002	-3.375850E-002	4.255756E-001	-9.893417E-002	4.258062E-001	-9.893976E-002	-6.037814E-002	3.216571E-003
5.800000E+008	8.499675E-002	-3.422120E-002	4.250708E-001	-1.005141E-001	4.253432E-001	-1.005324E-001	-6.033353E-002	3.371626E-003
5.900000E+008	8.464417E-002	-3.474386E-002	4.245428E-001	-1.021493E-001	4.248511E-001	-1.021715E-001	-6.032178E-002	3.548329E-003
6.000000E+008	8.434991E-002	-3.524108E-002	4.240214E-001	-1.037096E-001	4.243053E-001	-1.037761E-001	-6.025453E-002	3.684544E-003
6.100000E+008	8.405170E-002	-3.571982E-002	4.235076E-001	-1.052752E-001	4.237173E-001	-1.053491E-001	-6.023770E-002	3.796253E-003
6.200000E+008	8.377024E-002	-3.616480E-002	4.229285E-001	-1.068301E-001	4.231818E-001	-1.068808E-001	-6.019611E-002	3.954346E-003
6.300000E+008	8.350738E-002	-3.663262E-002	4.223583E-001	-1.083920E-001	4.226293E-001	-1.084379E-001	-6.013852E-002	4.092705E-003
6.400000E+008	8.325162E-002	-3.705581E-002	4.218482E-001	-1.099469E-001	4.220817E-001	-1.100131E-001	-6.004634E-002	4.239534E-003
6.500000E+008	8.298400E-002	-3.744704E-002	4.212912E-001	-1.114723E-001	4.215450E-001	-1.115543E-001	-5.998566E-002	4.420545E-003
6.600000E+008	8.265618E-002	-3.788751E-002	4.207844E-001	-1.130471E-001	4.209915E-001	-1.131304E-001	-5.990059E-002	4.577351E-003
6.700000E+008	8.227467E-002	-3.822561E-002	4.202008E-001	-1.146266E-001	4.204286E-001	-1.146851E-001	-5.990192E-002	4.759936E-003
6.800000E+008	8.187780E-002	-3.861529E-002	4.196168E-001	-1.161545E-001	4.198723E-001	-1.162394E-001	-5.987079E-002	5.009855E-003
6.900000E+008	8.146312E-002	-3.896320E-002	4.190199E-001	-1.177188E-001	4.192500E-001	-1.177428E-001	-5.987599E-002	5.245325E-003
7.000000E+008	8.109908E-002	-3.932623E-002	4.184755E-001	-1.192246E-001	4.186990E-001	-1.192451E-001	-5.988502E-002	5.410141E-003
7.100000E+008	8.073907E-002	-3.975337E-002	4.178902E-001	-1.207435E-001	4.181390E-001	-1.208182E-001	-5.990131E-002	5.585180E-003
7.200000E+008	8.033852E-002	-4.014712E-002	4.173248E-001	-1.222565E-001	4.175806E-001	-1.223470E-001	-5.991224E-002	5.704765E-003
7.300000E+008	7.993980E-002	-4.057067E-002	4.167022E-001	-1.237973E-001	4.170391E-001	-1.239112E-001	-5.994428E-002	5.810596E-003
7.400000E+008	7.951571E-002	-4.096168E-002	4.161220E-001	-1.253462E-001	4.164117E-001	-1.254031E-001	-5.997424E-002	5.913035E-003
7.500000E+008	7.918679E-002	-4.136108E-002	4.155399E-001	-1.268484E-001	4.158448E-001	-1.269500E-001	-6.000794E-002	6.013305E-003
7.600000E+008	7.875619E-002	-4.178812E-002	4.149292E-001	-1.283796E-001	4.152341E-001	-1.284754E-001	-6.001753E-002	6.108043E-003
7.700000E+008	7.836379E-002	-4.221243E-002	4.143297E-001	-1.298813E-001	4.146377E-001	-1.299619E-001	-5.998739E-002	6.161606E-003
7.800000E+008	7.795807E-002	-4.261601E-002	4.137295E-001	-1.314011E-001	4.140548E-001	-1.314876E-001	-6.000117E-002	6.249092E-003
7.900000E+008	7.753888E-002	-4.305822E-002	4.131177E-001	-1.328672E-001	4.134259E-001	-1.330051E-001	-5.999490E-002	6.362066E-003
8.000000E+008	7.715556E-002	-4.349828E-002	4.124919E-001	-1.343881E-001	4.127463E-001	-1.344963E-001	-5.996602E-002	6.485581E-003
8.100000E+008	7.678593E-002	-4.392574E-002	4.118170E-001	-1.358479E-001	4.121045E-001	-1.359938E-001	-5.989755E-002	6.640794E-003
8.200000E+008	7.646316E-002	-4.431872E-002	4.112361E-001	-1.373858E-001	4.114850E-001	-1.374595E-001	-5.985359E-002	6.763704E-003
8.300000E+008	7.613055E-002	-4.473520E-002	4.105671E-001	-1.388575E-001	4.108777E-001	-1.389641E-001	-5.982448E-002	6.917707E-003
8.400000E+008	7.583815E-002	-4.509045E-002	4.099193E-001	-1.403303E-001	4.102632E-001	-1.404436E-001	-5.979070E-002	7.079838E-003
8.500000E+008	7.552924E-002	-4.544271E-002	4.093292E-001	-1.418119E-001	4.096054E-001	-1.419484E-001	-5.980165E-002	7.219979E-003
8.600000E+008	7.518280E-002	-4.580731E-002	4.086592E-001	-1.432868E-001	4.089229E-001	-1.434134E-001	-5.981918E-002	7.394697E-003
8.700000E+008	7.484060E-002	-4.611195E-002	4.080377E-001	-1.447902E-001	4.082819E-001	-1.448778E-001	-5.982900E-002	7.542523E-003
8.800000E+008	7.444984E-002	-4.640625E-002	4.073489E-001	-1.462679E-001	4.076502E-001	-1.463374E-001	-5.985008E-002	7.687178E-003
8.900000E+008	7.405649E-002	-4.673688E-002	4.066763E-001	-1.477240E-001	4.069875E-001	-1.478380E-001	-5.986677E-002	7.809594E-003
9.000000E+008	7.365486E-002	-4.704926E-002	4.059791E-001	-1.491759E-001	4.063299E-001	-1.492952E-001	-5.982853E-002	7.959354E-003
9.100000E+008	7.322776E-002	-4.738188E-002	4.053349E-001	-1.506516E-001	4.056800E-001	-1.507615E-001	-5.980377E-002	8.068070E-003
9.200000E+008	7.281245E-002	-4.771751E-002	4.046601E-001	-1.521072E-001	4.050078E-001	-1.522490E-001	-5.970677E-002	8.173343E-003
9.300000E+008	7.241235E-002	-4.804069E-002	4.039831E-001	-1.535393E-001	4.042703E-001	-1.537066E-001	-5.962382E-002	8.311231E-003
9.400000E+008	7.200815E-002	-4.839396E-002	4.033034E-001	-1.549857E-001	4.036525E-001	-1.551244E-001	-5.948056E-002	8.484848E-003
9.500000E+008	7.163599E-002	-4.873787E-002	4.026502E-001	-1.564680E-001	4.029528E-001	-1.566252E-001	-5.933886E-002	8.663965E-003
9.600000E+008	7.128027E-002	-4.902807E-002	4.019231E-001	-1.579091E-001	4.022434E-001	-1.580353E-001	-5.920367E-002	8.896869E-003
9.700000E+008	7.095301E-002	-4.932369E-002	4.012153E-001	-1.592986E-001	4.015552E-001	-1.595059E-001	-5.906144E-002	9.119151E-003
9.800000E+008	7.063378E-002	-4.961027E-002	4.005695E-001	-1.607160E-001	4.008765E-001	-1.609321E-001	-5.894756E-002	9.351342E-003
9.900000E+008	7.030212E-002	-4.989651E-002	3.998768E-001	-1.621862E-001	4.001750E-001	-1.623860E-001	-5.890685E-002	9.576218E-003
1.000000E+009	6.994817E-002	-5.013986E-002	3.991780E-001	-1.636066E-001	3.994504E-001	-1.637899E-001	-5.888329E-002	9.818843E-003
1.010000E+009	6.954582E-002	-5.035665E-002	3.984728E-001	-1.650634E-001	3.987417E-001	-1.652148E-001	-5.884414E-002	1.008020E-002
1.020000E+009	6.914724E-002	-5.058886E-002	3.977747E-001	-1.665151E-001	3.980305E-001	-1.666336E-001	-5.883643E-002	1.036001E-002
1.030000E+009	6.877175E-002	-5.078503E-002	3.970045E-001	-1.679079E-001	3.972920E-001	-1.680679E-001	-5.880337E-002	1.060340E-002
1.040000E+009	6.838371E-002	-5.102365E-002	3.962668E-001	-1.692878E-001	3.965853E-001	-1.694607E-001	-5.877190E-002	1.083890E-002
1.050000E+009	6.797868E-002	-5.130210E-002	3.955816E-001	-1.707410E-001	3.958612E-001	-1.708862E-001	-5.872799E-002	1.108243E-002
1.060000E+009	6.757822E-002	-5.157034E-002	3.948597E-001	-1.721392E-001	3.951395E-001	-1.722488E-001	-5.867431E-002	1.132014E-002
1.070000E+009	6.715278E-002	-5.181607E-002	3.940861E-001	-1.735531E-001	3.944297E-001	-1.736420E-001	-5.863779E-002	1.154895E-002
1.080000E+009	6.678268E-002	-5.208480E-002	3.933447E-001	-1.749745E-001	3.937282E-001	-1.750727E-001	-5.857693E-002	1.178748E-002
1.090000E+009	6.640483E-002	-5.231872E-002	3.926058E-001	-1.763823E-001	3.929816E-001	-1.764893E-001	-5.852706E-002	1.202700E-002
1.100000E+009	6.607431E-002	-5.257219E-002	3.918205E-001	-1.777921E-001	3.922173E-001	-1.778920E-001	-5.847402E-002	1.228077E-002
1.110000E+009	6.572723E-002	-5.279884E-002	3.910768E-001	-1.791901E-001	3.914729E-001	-1.793014E-001	-5.841749E-002	1.250156E-002
1.120000E+009	6.534186E-002	-5.303773E-002	3.903624E-001	-1.805580E-001	3.907207E-001	-1.807320E-001	-5.844956E-002	1.274211E-002
1.130000E+009	6.493658E-002	-5.327179E-002	3.895690E-001	-1.819670E-001	3.899297E-001	-1.821115E-001	-5.845290E-002	1.296915E-002
1.140000E+009	6.451232E-002	-5.346679E-002	3.888120E-001	-1.833466E-001	3.891773E-001	-1.834939E-001	-5.845546E-002	1.322110E-002
1.150000E+009	6.412852E-002	-5.369054E-002	3.880370E-001	-1.847401E-001	3.883814E-001	-1.848750E-001	-5.841396E-002	1.345836E-002
1.160000E+009	6.372316E-002	-5.390574E-002	3.872658E-001	-1.861479E-001	3.876143E-001	-1.862796E-001	-5.838993E-002	1.366388E-002
1.170000E+009	6.330970E-002	-5.414483E-002	3.864644E-001	-1.875295E-001	3.868044E-001	-1.876286E-001	-5.831127E-002	1.394384E-002
1.180000E+009	6.293348E-002	-5.439791E-002	3.856435E-001	-1.889023E-001	3.860548E-001	-1.890461E-001	-5.825725E-002	1.416063E-002
1.190000E+009	6.253949E-002	-5.461821E-002	3.848605E-001	-1.902609E-001	3.851905E-001	-1.904048E-001	-5.818881E-002	1.444294E-002
1.200000E+009	6.214046E-002	-5.484782E-002	3.840645E-001	-1.916432E-001	3.844209E-001	-1.917372E-001	-5.810672E-002	1.470440E-002
1.210000E+009	6.178521E-002	-5.509370E-002	3.832631E-001	-1.930103E-001	3.835932E-001	-1.931496E-001	-5.808245E-002	1.501128E-002
1.220000E+009	6.140424E-002	-5.534299E-002	3.824523E-001	-1.943532E-001	3.828316E-001	-1.944989E-001	-5.805814E-002	1.527401E-002
1.230000E+009	6.102848E-002	-5.555930E-002	3.816333E-001	-1.957331E-001	3.819569E-001	-1.958688E-001	-5.803658E-002	1.554949E-002
1.240000E+009	6.067500E-002	-5.581072E-002	3.808435E-001	-1.970935E-001	3.811488E-001	-1.971849E-001	-5.805011E-002	1.579421E-002
1.250000E+009	6.028991E-002	-5.604563E-002	3.799950E-001	-1.984379E-001	3.803817E-001	-1.985478E-001	-5.806137E-002	1.602422E-002
1.260000E+009	5.987812E-002	-5.625152E-002	3.791406E-001	-1.997933E-001	3.794944E-001	-1.999349E-001	-5.804691E-002	1.623304E-002
1.270000E+009	5.955789E-002	-5.647488E-002	3.783571E-001	-2.011379E-001	3.786423E-001	-2.012437E-001	-5.801176E-002	1.642459E-002
1.280000E+009	5.916140E-002	-5.665649E-002	3.775071E-001	-2.025066E-001	3.778560E-001	-2.025970E-001	-5.797973E-002	1.662502E-002
1.290000E+009	5.881248E-002	-5.682451E-002	3.766399E-001	-2.038507E-001	3.770117E-001	-2.039541E-001	-5.786454E-002	1.680690E-002
1.300000E+009	5.844929E-002	-5.697259E-002	3.757789E-001	-2.051485E-001	3.761782E-001	-2.053077E-001	-5.772896E-002	1.702264E-002
1.310000E+009	5.806393E-002	-5.713502E-002	3.749029E-001	-2.065198E-001	3.753128E-001	-2.066371E-001	-5.761330E-002	1.725163E-002
1.320000E+009	5.766081E-002	-5.726786E-002	3.740489E-001	-2.078502E-001	3.744804E-001	-2.079925E-001	-5.743194E-002	1.754668E-002
1.330000E+009	5.730929E-002	-5.739136E-002	3.732004E-001	-2.091392E-001	3.736064E-001	-2.093590E-001	-5.722106E-002	1.788965E-002
1.340000E+009	5.692976E-002	-5.748189E-002	3.723318E-001	-2.104408E-001	3.727001E-001	-2.106387E-001	-5.707321E-002	1.826683E-002
1.350000E+009	5.651070E-002	-5.758868E-002	3.714476E-001	-2.117927E-001	3.717804E-001	-2.119472E-001	-5.692924E-002	1.866919E-002
1.360000E+009	5.617966E-002	-5.771798E-002	3.705471E-001	-2.130835E-001	3.709409E-001	-2.132721E-001	-5.678469E-002	1.910048E-002
1.370000E+009	5.578787E-002	-5.783241E-002	3.696975E-001	-2.144234E-001	3.700507E-001	-2.145808E-001	-5.670313E-002	1.953384E-002
1.380000E+009	5.542282E-002	-5.798411E-002	3.687865E-001	-2.157191E-001	3.691655E-001	-2.158871E-001	-5.662542E-002	1.991722E-002
1.390000E+009	5.504846E-002	-5.812711E-002	3.678571E-001	-2.170278E-001	3.682412E-001	-2.172060E-001	-5.661676E-002	2.036525E-002
1.400000E+009	5.464763E-002	-5.828426E-002	3.669611E-001	-2.183319E-001	3.673443E-001	-2.184662E-001	-5.656297E-002	2.074763E-002
1.410000E+009	5.422650E-002	-5.837959E-002	3.660510E-001	-2.196301E-001	3.664104E-001	-2.197588E-001	-5.653151E-002	2.115557E-002
1.420000E+009	5.385356E-002	-5.849048E-002	3.651361E-001	-2.208861E-001	3.655393E-001	-2.210246E-001	-5.650592E-002	2.153027E-002
1.430000E+009	5.350601E-002	-5.860847E-002	3.642392E-001	-2.221686E-001	3.646329E-001	-2.223458E-001	-5.642521E-002	2.188909E-002
1.440000E+009	5.311092E-002	-5.872028E-002	3.633034E-001	-2.234297E-001	3.637010E-001	-2.236182E-001	-5.636206E-002	2.221897E-002
1.450000E+009	5.273084E-002	-5.882502E-002	3.623610E-001	-2.247162E-001	3.627436E-001	-2.248904E-001	-5.629744E-002	2.259075E-002
1.460000E+009	5.230525E-002	-5.891717E-002	3.614627E-001	-2.260153E-001	3.618081E-001	-2.261820E-001	-5.620008E-002	2.296290E-002
1.470000E+009	5.192106E-002	-5.902421E-002	3.605244E-001	-2.272858E-001	3.608754E-001	-2.274445E-001	-5.611401E-002	2.338829E-002
1.480000E+009	5.151755E-002	-5.908190E-002	3.595585E-001	-2.284998E-001	3.598922E-001	-2.286907E-001	-5.602813E-002	2.383343E-002
1.490000E+009	5.113717E-002	-5.915506E-002	3.586044E-001	-2.297491E-001	3.589960E-001	-2.299214E-001	-5.592241E-002	2.431106E-002
1.500000E+009	5.076825E-002	-5.927901E-002	3.576904E-001	-2.310029E-001	3.580206E-001	-2.311577E-001	-5.578582E-002	2.474717E-002
