! Device ID: PE43711P
! File Path: z:\PE43711P\CHAR_NOM_04282014\AMB\3p300\LS_ATT_0p25dB\PE43711P_AMB_3p300V_3p000V_0p000V_LS_ATT_0p25dB_S2P_SN_5_A0137A.s2p
! Serial: 5
! Lot: A0137A
! Temp: 25C
! VDD: 3.300
! VSS: 0.000
! Control_Hi: 3.000
! Control_Lo: 0.000
! Attenuation Step: 0.25dB
! Port 1: RF1
! Port 2: RF2
! ThroughPath:1-2
! IDD: 0.0001273353
! ISS: -7.5e-009
!

#  Hz  S   RI  R   50

1.000000E+007	1.046694E-001	-5.689411E-004	8.646073E-001	-4.358824E-003	8.648725E-001	-4.266827E-003	9.929158E-002	-8.719014E-004
2.000000E+007	1.047250E-001	-6.225969E-004	8.644672E-001	-7.360051E-003	8.644246E-001	-7.436774E-003	9.930097E-002	-9.338218E-004
3.000000E+007	1.051434E-001	-1.310578E-003	8.644470E-001	-1.110342E-002	8.644373E-001	-1.121371E-002	9.956851E-002	-1.365761E-003
4.000000E+007	1.051488E-001	-1.910054E-003	8.644685E-001	-1.488075E-002	8.643591E-001	-1.498241E-002	1.003048E-001	-1.978718E-003
5.000000E+007	1.056141E-001	-2.687018E-003	8.643998E-001	-1.893372E-002	8.642869E-001	-1.892240E-002	1.007178E-001	-2.939694E-003
6.000000E+007	1.059966E-001	-3.604199E-003	8.642597E-001	-2.270561E-002	8.642160E-001	-2.274885E-002	1.008695E-001	-4.033679E-003
7.000000E+007	1.061260E-001	-4.531029E-003	8.640247E-001	-2.651206E-002	8.639747E-001	-2.655021E-002	1.007303E-001	-5.082679E-003
8.000000E+007	1.064387E-001	-5.413886E-003	8.638167E-001	-3.023945E-002	8.638299E-001	-3.028706E-002	1.006012E-001	-5.856672E-003
9.000000E+007	1.066129E-001	-6.259068E-003	8.636327E-001	-3.400851E-002	8.635783E-001	-3.405135E-002	1.007537E-001	-6.714103E-003
1.000000E+008	1.067404E-001	-7.089406E-003	8.634647E-001	-3.779556E-002	8.633205E-001	-3.779604E-002	1.011995E-001	-7.717431E-003
1.100000E+008	1.068493E-001	-7.872769E-003	8.631287E-001	-4.158965E-002	8.630148E-001	-4.154159E-002	1.012250E-001	-8.718728E-003
1.200000E+008	1.070323E-001	-8.632638E-003	8.626857E-001	-4.535880E-002	8.626612E-001	-4.530558E-002	1.008330E-001	-9.639150E-003
1.300000E+008	1.072243E-001	-9.673026E-003	8.623988E-001	-4.905059E-002	8.623787E-001	-4.907013E-002	1.009313E-001	-1.083988E-002
1.400000E+008	1.073155E-001	-1.100564E-002	8.621341E-001	-5.284366E-002	8.620579E-001	-5.289079E-002	1.017236E-001	-1.209360E-002
1.500000E+008	1.071854E-001	-1.211698E-002	8.617679E-001	-5.652917E-002	8.615576E-001	-5.662230E-002	1.023758E-001	-1.312011E-002
1.600000E+008	1.067630E-001	-1.269794E-002	8.613567E-001	-6.019039E-002	8.609704E-001	-6.022258E-002	1.017464E-001	-1.388969E-002
1.700000E+008	1.061219E-001	-1.310168E-002	8.609456E-001	-6.406619E-002	8.606951E-001	-6.382113E-002	1.003359E-001	-1.484541E-002
1.800000E+008	1.056492E-001	-1.378223E-002	8.601439E-001	-6.787711E-002	8.601513E-001	-6.764809E-002	9.918643E-002	-1.600171E-002
1.900000E+008	1.055102E-001	-1.489176E-002	8.595449E-001	-7.141708E-002	8.595955E-001	-7.130724E-002	9.909567E-002	-1.712244E-002
2.000000E+008	1.057105E-001	-1.617197E-002	8.591392E-001	-7.505540E-002	8.591384E-001	-7.502103E-002	9.964778E-002	-1.802965E-002
2.100000E+008	1.059628E-001	-1.742410E-002	8.587205E-001	-7.867590E-002	8.586354E-001	-7.870271E-002	1.003061E-001	-1.878717E-002
2.200000E+008	1.060653E-001	-1.853923E-002	8.582544E-001	-8.218697E-002	8.581283E-001	-8.230716E-002	1.006029E-001	-1.951922E-002
2.300000E+008	1.058868E-001	-1.954081E-002	8.576227E-001	-8.582920E-002	8.575769E-001	-8.592212E-002	1.005379E-001	-2.048164E-002
2.400000E+008	1.055915E-001	-2.055281E-002	8.570512E-001	-8.948343E-002	8.568873E-001	-8.956443E-002	1.002725E-001	-2.160425E-002
2.500000E+008	1.052342E-001	-2.152078E-002	8.563811E-001	-9.315919E-002	8.561954E-001	-9.318238E-002	9.988593E-002	-2.290915E-002
2.600000E+008	1.049050E-001	-2.258411E-002	8.556753E-001	-9.683100E-002	8.555715E-001	-9.681229E-002	9.964410E-002	-2.410192E-002
2.700000E+008	1.046316E-001	-2.349303E-002	8.549337E-001	-1.004162E-001	8.548973E-001	-1.004234E-001	9.953499E-002	-2.508998E-002
2.800000E+008	1.044877E-001	-2.439741E-002	8.542332E-001	-1.039547E-001	8.541842E-001	-1.039507E-001	9.946522E-002	-2.593613E-002
2.900000E+008	1.042430E-001	-2.511513E-002	8.535692E-001	-1.073982E-001	8.534282E-001	-1.073995E-001	9.936646E-002	-2.668346E-002
3.000000E+008	1.041342E-001	-2.583383E-002	8.529021E-001	-1.109522E-001	8.528841E-001	-1.109112E-001	9.928031E-002	-2.749132E-002
3.100000E+008	1.039233E-001	-2.653050E-002	8.521477E-001	-1.144161E-001	8.522078E-001	-1.144502E-001	9.921248E-002	-2.825288E-002
3.200000E+008	1.036837E-001	-2.735702E-002	8.513847E-001	-1.179935E-001	8.515114E-001	-1.180293E-001	9.904610E-002	-2.911263E-002
3.300000E+008	1.033293E-001	-2.806273E-002	8.507003E-001	-1.214496E-001	8.507877E-001	-1.217076E-001	9.880796E-002	-2.997301E-002
3.400000E+008	1.028376E-001	-2.879469E-002	8.498828E-001	-1.250416E-001	8.497588E-001	-1.253657E-001	9.863064E-002	-3.091579E-002
3.500000E+008	1.023495E-001	-2.948158E-002	8.490997E-001	-1.286585E-001	8.487278E-001	-1.286711E-001	9.843501E-002	-3.193123E-002
3.600000E+008	1.020107E-001	-3.018082E-002	8.482454E-001	-1.321689E-001	8.479224E-001	-1.318946E-001	9.827625E-002	-3.271388E-002
3.700000E+008	1.016761E-001	-3.097647E-002	8.472809E-001	-1.354600E-001	8.471973E-001	-1.350925E-001	9.831111E-002	-3.350523E-002
3.800000E+008	1.012637E-001	-3.176786E-002	8.464897E-001	-1.388406E-001	8.465567E-001	-1.386188E-001	9.830325E-002	-3.443265E-002
3.900000E+008	1.007247E-001	-3.250557E-002	8.455110E-001	-1.423549E-001	8.457189E-001	-1.421168E-001	9.820353E-002	-3.541011E-002
4.000000E+008	1.003458E-001	-3.328781E-002	8.446167E-001	-1.455928E-001	8.448555E-001	-1.456230E-001	9.800444E-002	-3.628075E-002
4.100000E+008	9.974363E-002	-3.408816E-002	8.437719E-001	-1.488590E-001	8.439010E-001	-1.490410E-001	9.780428E-002	-3.704155E-002
4.200000E+008	9.908513E-002	-3.479985E-002	8.430355E-001	-1.522989E-001	8.429367E-001	-1.523445E-001	9.761274E-002	-3.783199E-002
4.300000E+008	9.871262E-002	-3.545021E-002	8.421574E-001	-1.557078E-001	8.419873E-001	-1.557779E-001	9.741068E-002	-3.867820E-002
4.400000E+008	9.834554E-002	-3.610977E-002	8.411931E-001	-1.591295E-001	8.411345E-001	-1.591516E-001	9.718948E-002	-3.940527E-002
4.500000E+008	9.797441E-002	-3.686125E-002	8.402596E-001	-1.625356E-001	8.402456E-001	-1.625276E-001	9.703490E-002	-4.015925E-002
4.600000E+008	9.758590E-002	-3.756708E-002	8.393205E-001	-1.659074E-001	8.392722E-001	-1.659204E-001	9.675185E-002	-4.080986E-002
4.700000E+008	9.712703E-002	-3.813843E-002	8.383409E-001	-1.691925E-001	8.382920E-001	-1.692358E-001	9.638273E-002	-4.139893E-002
4.800000E+008	9.663934E-002	-3.863871E-002	8.373793E-001	-1.724796E-001	8.372953E-001	-1.724391E-001	9.605316E-002	-4.189537E-002
4.900000E+008	9.610831E-002	-3.920388E-002	8.363863E-001	-1.758135E-001	8.362427E-001	-1.758172E-001	9.571476E-002	-4.244073E-002
5.000000E+008	9.566455E-002	-3.970537E-002	8.353429E-001	-1.791163E-001	8.352869E-001	-1.790648E-001	9.542019E-002	-4.307494E-002
5.100000E+008	9.523679E-002	-4.038247E-002	8.343785E-001	-1.824056E-001	8.343253E-001	-1.823091E-001	9.525488E-002	-4.376102E-002
5.200000E+008	9.468701E-002	-4.116016E-002	8.333333E-001	-1.857135E-001	8.333359E-001	-1.856501E-001	9.505293E-002	-4.458041E-002
5.300000E+008	9.412889E-002	-4.190170E-002	8.323161E-001	-1.889862E-001	8.323617E-001	-1.890012E-001	9.488433E-002	-4.539740E-002
5.400000E+008	9.350668E-002	-4.267567E-002	8.312653E-001	-1.923654E-001	8.313173E-001	-1.923059E-001	9.459621E-002	-4.622663E-002
5.500000E+008	9.298527E-002	-4.318407E-002	8.302293E-001	-1.956159E-001	8.301504E-001	-1.955895E-001	9.431760E-002	-4.685880E-002
5.600000E+008	9.248305E-002	-4.368702E-002	8.290890E-001	-1.988398E-001	8.290125E-001	-1.988663E-001	9.404431E-002	-4.749008E-002
5.700000E+008	9.209082E-002	-4.423646E-002	8.279841E-001	-2.020187E-001	8.280205E-001	-2.020322E-001	9.364530E-002	-4.805219E-002
5.800000E+008	9.161905E-002	-4.473198E-002	8.268949E-001	-2.052594E-001	8.269078E-001	-2.052072E-001	9.328915E-002	-4.874640E-002
5.900000E+008	9.112431E-002	-4.534015E-002	8.257668E-001	-2.085025E-001	8.258302E-001	-2.084736E-001	9.277622E-002	-4.943531E-002
6.000000E+008	9.066426E-002	-4.587995E-002	8.246757E-001	-2.116674E-001	8.247205E-001	-2.116619E-001	9.239748E-002	-5.011093E-002
6.100000E+008	9.024801E-002	-4.642639E-002	8.235681E-001	-2.148942E-001	8.235188E-001	-2.148899E-001	9.188035E-002	-5.068145E-002
6.200000E+008	8.984373E-002	-4.702527E-002	8.224177E-001	-2.180736E-001	8.224312E-001	-2.180724E-001	9.152356E-002	-5.126800E-002
6.300000E+008	8.948921E-002	-4.759228E-002	8.212218E-001	-2.212712E-001	8.212432E-001	-2.212617E-001	9.121290E-002	-5.190040E-002
6.400000E+008	8.911172E-002	-4.820589E-002	8.200694E-001	-2.244328E-001	8.200523E-001	-2.244534E-001	9.093372E-002	-5.245055E-002
6.500000E+008	8.874914E-002	-4.875403E-002	8.188871E-001	-2.275493E-001	8.188885E-001	-2.275676E-001	9.053840E-002	-5.302283E-002
6.600000E+008	8.823089E-002	-4.935810E-002	8.177881E-001	-2.307284E-001	8.177105E-001	-2.307581E-001	9.016643E-002	-5.357681E-002
6.700000E+008	8.756665E-002	-4.982157E-002	8.165826E-001	-2.338974E-001	8.165220E-001	-2.339084E-001	8.962636E-002	-5.408313E-002
6.800000E+008	8.698631E-002	-5.023509E-002	8.153800E-001	-2.370217E-001	8.153304E-001	-2.370542E-001	8.913822E-002	-5.446561E-002
6.900000E+008	8.637312E-002	-5.063954E-002	8.140546E-001	-2.401534E-001	8.140267E-001	-2.401302E-001	8.863004E-002	-5.486221E-002
7.000000E+008	8.588283E-002	-5.110070E-002	8.128865E-001	-2.432488E-001	8.128682E-001	-2.431913E-001	8.818205E-002	-5.543261E-002
7.100000E+008	8.541630E-002	-5.167933E-002	8.116459E-001	-2.462865E-001	8.116187E-001	-2.463621E-001	8.773400E-002	-5.600891E-002
7.200000E+008	8.483438E-002	-5.224907E-002	8.104224E-001	-2.493864E-001	8.103672E-001	-2.494370E-001	8.730166E-002	-5.672996E-002
7.300000E+008	8.426210E-002	-5.277023E-002	8.091383E-001	-2.524744E-001	8.092151E-001	-2.525628E-001	8.672469E-002	-5.740763E-002
7.400000E+008	8.365577E-002	-5.319117E-002	8.078652E-001	-2.556079E-001	8.079522E-001	-2.555779E-001	8.622394E-002	-5.799517E-002
7.500000E+008	8.314948E-002	-5.363960E-002	8.066368E-001	-2.587090E-001	8.066588E-001	-2.587340E-001	8.574781E-002	-5.857972E-002
7.600000E+008	8.248592E-002	-5.414762E-002	8.053574E-001	-2.618226E-001	8.053761E-001	-2.618206E-001	8.527772E-002	-5.922059E-002
7.700000E+008	8.189987E-002	-5.471140E-002	8.040526E-001	-2.649071E-001	8.040680E-001	-2.648791E-001	8.483252E-002	-5.992575E-002
7.800000E+008	8.110986E-002	-5.519663E-002	8.026872E-001	-2.679314E-001	8.027179E-001	-2.678722E-001	8.427062E-002	-6.061435E-002
7.900000E+008	8.050514E-002	-5.577498E-002	8.013942E-001	-2.709607E-001	8.014558E-001	-2.709525E-001	8.363597E-002	-6.124001E-002
8.000000E+008	7.983185E-002	-5.630174E-002	8.000413E-001	-2.739717E-001	8.000270E-001	-2.739434E-001	8.308742E-002	-6.183904E-002
8.100000E+008	7.924381E-002	-5.681506E-002	7.986641E-001	-2.769291E-001	7.986681E-001	-2.769978E-001	8.258410E-002	-6.230641E-002
8.200000E+008	7.874017E-002	-5.726681E-002	7.973731E-001	-2.800292E-001	7.973537E-001	-2.799616E-001	8.212883E-002	-6.281347E-002
8.300000E+008	7.832215E-002	-5.772991E-002	7.959893E-001	-2.830071E-001	7.960308E-001	-2.830013E-001	8.168174E-002	-6.335497E-002
8.400000E+008	7.790880E-002	-5.816474E-002	7.945783E-001	-2.859867E-001	7.946859E-001	-2.860135E-001	8.120254E-002	-6.385295E-002
8.500000E+008	7.738556E-002	-5.863464E-002	7.932677E-001	-2.889535E-001	7.933445E-001	-2.889784E-001	8.061129E-002	-6.439036E-002
8.600000E+008	7.677952E-002	-5.907437E-002	7.918576E-001	-2.919218E-001	7.918611E-001	-2.919333E-001	7.999313E-002	-6.480937E-002
8.700000E+008	7.613952E-002	-5.939688E-002	7.905334E-001	-2.949093E-001	7.904711E-001	-2.949288E-001	7.940878E-002	-6.526420E-002
8.800000E+008	7.544432E-002	-5.970282E-002	7.890991E-001	-2.979338E-001	7.891432E-001	-2.978463E-001	7.878413E-002	-6.566244E-002
8.900000E+008	7.482001E-002	-6.011907E-002	7.876911E-001	-3.008720E-001	7.876630E-001	-3.008979E-001	7.826730E-002	-6.614594E-002
9.000000E+008	7.422023E-002	-6.052808E-002	7.862073E-001	-3.038818E-001	7.862612E-001	-3.038239E-001	7.774384E-002	-6.663105E-002
9.100000E+008	7.350780E-002	-6.102412E-002	7.847673E-001	-3.068328E-001	7.848035E-001	-3.067936E-001	7.732697E-002	-6.727831E-002
9.200000E+008	7.284011E-002	-6.145658E-002	7.833162E-001	-3.097048E-001	7.833736E-001	-3.097478E-001	7.683767E-002	-6.786384E-002
9.300000E+008	7.214764E-002	-6.179975E-002	7.818805E-001	-3.126235E-001	7.818324E-001	-3.126660E-001	7.635196E-002	-6.835646E-002
9.400000E+008	7.153572E-002	-6.208530E-002	7.804351E-001	-3.154636E-001	7.804454E-001	-3.155289E-001	7.590875E-002	-6.873263E-002
9.500000E+008	7.088566E-002	-6.239215E-002	7.790113E-001	-3.184448E-001	7.789523E-001	-3.185062E-001	7.552743E-002	-6.905431E-002
9.600000E+008	7.036517E-002	-6.265103E-002	7.774847E-001	-3.213432E-001	7.774918E-001	-3.213374E-001	7.519325E-002	-6.936632E-002
9.700000E+008	6.983936E-002	-6.295603E-002	7.759479E-001	-3.242179E-001	7.759571E-001	-3.242252E-001	7.482962E-002	-6.980823E-002
9.800000E+008	6.928052E-002	-6.329936E-002	7.745108E-001	-3.270179E-001	7.745196E-001	-3.271098E-001	7.436017E-002	-7.025917E-002
9.900000E+008	6.865461E-002	-6.363299E-002	7.730593E-001	-3.299642E-001	7.729989E-001	-3.299959E-001	7.366781E-002	-7.062811E-002
1.000000E+009	6.802686E-002	-6.387969E-002	7.715382E-001	-3.327926E-001	7.714817E-001	-3.328672E-001	7.311186E-002	-7.086888E-002
1.010000E+009	6.735325E-002	-6.406167E-002	7.700674E-001	-3.357238E-001	7.699757E-001	-3.357110E-001	7.254564E-002	-7.112831E-002
1.020000E+009	6.671177E-002	-6.422733E-002	7.685344E-001	-3.385684E-001	7.684237E-001	-3.385468E-001	7.207027E-002	-7.137627E-002
1.030000E+009	6.623223E-002	-6.441792E-002	7.669168E-001	-3.413780E-001	7.668960E-001	-3.414168E-001	7.160043E-002	-7.171974E-002
1.040000E+009	6.565327E-002	-6.469457E-002	7.653678E-001	-3.441980E-001	7.653875E-001	-3.442293E-001	7.110710E-002	-7.209461E-002
1.050000E+009	6.492591E-002	-6.506793E-002	7.638992E-001	-3.470459E-001	7.637932E-001	-3.470395E-001	7.047270E-002	-7.247196E-002
1.060000E+009	6.420058E-002	-6.530978E-002	7.623309E-001	-3.498676E-001	7.622476E-001	-3.498181E-001	6.987562E-002	-7.270034E-002
1.070000E+009	6.349619E-002	-6.546535E-002	7.607265E-001	-3.526512E-001	7.607120E-001	-3.525816E-001	6.931136E-002	-7.298075E-002
1.080000E+009	6.294874E-002	-6.567812E-002	7.591241E-001	-3.554995E-001	7.592080E-001	-3.554225E-001	6.877678E-002	-7.317505E-002
1.090000E+009	6.243567E-002	-6.586250E-002	7.576155E-001	-3.583254E-001	7.576326E-001	-3.582413E-001	6.833245E-002	-7.348404E-002
1.100000E+009	6.196144E-002	-6.614190E-002	7.559100E-001	-3.611581E-001	7.560195E-001	-3.610418E-001	6.787530E-002	-7.377248E-002
1.110000E+009	6.144380E-002	-6.638394E-002	7.543347E-001	-3.639290E-001	7.544625E-001	-3.638316E-001	6.728597E-002	-7.426441E-002
1.120000E+009	6.084972E-002	-6.657148E-002	7.527473E-001	-3.666939E-001	7.528086E-001	-3.666652E-001	6.662417E-002	-7.457294E-002
1.130000E+009	6.018291E-002	-6.682394E-002	7.511508E-001	-3.694345E-001	7.511910E-001	-3.694234E-001	6.594156E-002	-7.482787E-002
1.140000E+009	5.949903E-002	-6.693109E-002	7.495370E-001	-3.722626E-001	7.495671E-001	-3.721813E-001	6.531697E-002	-7.503298E-002
1.150000E+009	5.887654E-002	-6.709117E-002	7.478828E-001	-3.750230E-001	7.478587E-001	-3.749357E-001	6.479310E-002	-7.529941E-002
1.160000E+009	5.834409E-002	-6.720645E-002	7.462582E-001	-3.777717E-001	7.462780E-001	-3.777638E-001	6.426180E-002	-7.558965E-002
1.170000E+009	5.772072E-002	-6.746322E-002	7.445431E-001	-3.805380E-001	7.446006E-001	-3.804199E-001	6.379753E-002	-7.589283E-002
1.180000E+009	5.714163E-002	-6.779564E-002	7.427928E-001	-3.832411E-001	7.429528E-001	-3.832334E-001	6.316244E-002	-7.620122E-002
1.190000E+009	5.651407E-002	-6.796091E-002	7.411305E-001	-3.859956E-001	7.411300E-001	-3.859821E-001	6.260515E-002	-7.642512E-002
1.200000E+009	5.583578E-002	-6.806782E-002	7.394253E-001	-3.887240E-001	7.395172E-001	-3.886966E-001	6.200264E-002	-7.660679E-002
1.210000E+009	5.531138E-002	-6.823370E-002	7.376955E-001	-3.914209E-001	7.377667E-001	-3.914372E-001	6.145125E-002	-7.675310E-002
1.220000E+009	5.479752E-002	-6.833883E-002	7.360251E-001	-3.941059E-001	7.361343E-001	-3.941049E-001	6.094225E-002	-7.693134E-002
1.230000E+009	5.428519E-002	-6.854786E-002	7.342904E-001	-3.968538E-001	7.343502E-001	-3.968050E-001	6.028623E-002	-7.719729E-002
1.240000E+009	5.373011E-002	-6.882363E-002	7.325404E-001	-3.995284E-001	7.326026E-001	-3.994843E-001	5.967599E-002	-7.745338E-002
1.250000E+009	5.303595E-002	-6.898508E-002	7.307646E-001	-4.022347E-001	7.309422E-001	-4.022127E-001	5.897998E-002	-7.771030E-002
1.260000E+009	5.236330E-002	-6.907543E-002	7.289930E-001	-4.049045E-001	7.290634E-001	-4.049069E-001	5.825915E-002	-7.803182E-002
1.270000E+009	5.177316E-002	-6.920032E-002	7.272623E-001	-4.075766E-001	7.273142E-001	-4.075206E-001	5.765323E-002	-7.821208E-002
1.280000E+009	5.114020E-002	-6.921125E-002	7.255341E-001	-4.102601E-001	7.256114E-001	-4.101885E-001	5.705929E-002	-7.847862E-002
1.290000E+009	5.052640E-002	-6.928341E-002	7.236479E-001	-4.129908E-001	7.237646E-001	-4.128314E-001	5.660132E-002	-7.875979E-002
1.300000E+009	4.996209E-002	-6.936086E-002	7.218419E-001	-4.155068E-001	7.220403E-001	-4.155153E-001	5.615938E-002	-7.897545E-002
1.310000E+009	4.929762E-002	-6.935746E-002	7.200187E-001	-4.181781E-001	7.201839E-001	-4.181295E-001	5.555129E-002	-7.919858E-002
1.320000E+009	4.859534E-002	-6.933564E-002	7.182013E-001	-4.208002E-001	7.183885E-001	-4.207769E-001	5.501407E-002	-7.935923E-002
1.330000E+009	4.808216E-002	-6.922575E-002	7.163943E-001	-4.233825E-001	7.165531E-001	-4.234173E-001	5.463701E-002	-7.936077E-002
1.340000E+009	4.746578E-002	-6.913601E-002	7.145636E-001	-4.259434E-001	7.146830E-001	-4.260095E-001	5.413221E-002	-7.933254E-002
1.350000E+009	4.688041E-002	-6.906069E-002	7.127365E-001	-4.285804E-001	7.127727E-001	-4.285785E-001	5.367443E-002	-7.933883E-002
1.360000E+009	4.646390E-002	-6.901411E-002	7.108197E-001	-4.311238E-001	7.110281E-001	-4.311688E-001	5.321342E-002	-7.928464E-002
1.370000E+009	4.588958E-002	-6.904819E-002	7.090321E-001	-4.337281E-001	7.091627E-001	-4.337297E-001	5.266240E-002	-7.927920E-002
1.380000E+009	4.526989E-002	-6.907461E-002	7.071193E-001	-4.362843E-001	7.072536E-001	-4.363246E-001	5.202826E-002	-7.932005E-002
1.390000E+009	4.470152E-002	-6.909010E-002	7.052315E-001	-4.388860E-001	7.053579E-001	-4.389049E-001	5.137209E-002	-7.922287E-002
1.400000E+009	4.410786E-002	-6.903403E-002	7.033363E-001	-4.413885E-001	7.034625E-001	-4.413650E-001	5.080148E-002	-7.909864E-002
1.410000E+009	4.355202E-002	-6.891779E-002	7.014679E-001	-4.439432E-001	7.015189E-001	-4.439327E-001	5.017858E-002	-7.899288E-002
1.420000E+009	4.308752E-002	-6.888434E-002	6.995251E-001	-4.464504E-001	6.996589E-001	-4.464189E-001	4.957389E-002	-7.893235E-002
1.430000E+009	4.261261E-002	-6.888297E-002	6.976204E-001	-4.489501E-001	6.977866E-001	-4.490329E-001	4.903679E-002	-7.897555E-002
1.440000E+009	4.201416E-002	-6.881538E-002	6.956885E-001	-4.514627E-001	6.958099E-001	-4.514758E-001	4.844887E-002	-7.900905E-002
1.450000E+009	4.145351E-002	-6.873942E-002	6.937204E-001	-4.539510E-001	6.939064E-001	-4.539863E-001	4.773746E-002	-7.895603E-002
1.460000E+009	4.088919E-002	-6.861050E-002	6.918166E-001	-4.564774E-001	6.919023E-001	-4.565392E-001	4.713232E-002	-7.887385E-002
1.470000E+009	4.038866E-002	-6.847312E-002	6.898585E-001	-4.589433E-001	6.899920E-001	-4.589661E-001	4.652390E-002	-7.862690E-002
1.480000E+009	3.990610E-002	-6.828372E-002	6.878792E-001	-4.613404E-001	6.879975E-001	-4.613867E-001	4.599318E-002	-7.843112E-002
1.490000E+009	3.941072E-002	-6.815885E-002	6.859043E-001	-4.637970E-001	6.860604E-001	-4.638049E-001	4.541691E-002	-7.827176E-002
1.500000E+009	3.897112E-002	-6.812763E-002	6.839623E-001	-4.662614E-001	6.841011E-001	-4.662773E-001	4.496651E-002	-7.817642E-002
