! Device ID: PE43711P
! File Path: z:\PE43711P\CHAR_NOM_04282014\AMB\3p300\LS_ATT_25p75dB\PE43711P_AMB_3p300V_3p000V_0p000V_LS_ATT_25p75dB_S2P_SN_5_A0137A.s2p
! Serial: 5
! Lot: A0137A
! Temp: 25C
! VDD: 3.300
! VSS: 0.000
! Control_Hi: 3.000
! Control_Lo: 0.000
! Attenuation Step: 25.75dB
! Port 1: RF1
! Port 2: RF2
! ThroughPath:1-2
! IDD: 0.000127545
! ISS: -1.619e-007
!

#  Hz  S   RI  R   50

1.000000E+007	3.113573E-002	4.428364E-004	4.468974E-002	-1.625952E-004	4.474292E-002	-1.848154E-004	-1.145147E-001	8.847877E-004
2.000000E+007	3.138028E-002	5.548247E-004	4.468822E-002	-2.739733E-004	4.471601E-002	-2.811164E-004	-1.142162E-001	1.503898E-003
3.000000E+007	3.163669E-002	6.523478E-004	4.469471E-002	-4.092470E-004	4.471683E-002	-4.172212E-004	-1.139082E-001	1.998867E-003
4.000000E+007	3.179448E-002	7.471575E-004	4.469320E-002	-5.541455E-004	4.471021E-002	-5.505119E-004	-1.137406E-001	2.557046E-003
5.000000E+007	3.190783E-002	8.264267E-004	4.468410E-002	-7.018409E-004	4.472078E-002	-7.018775E-004	-1.137035E-001	3.137922E-003
6.000000E+007	3.207697E-002	8.491920E-004	4.467898E-002	-8.315060E-004	4.471412E-002	-8.349017E-004	-1.135695E-001	3.601974E-003
7.000000E+007	3.220122E-002	8.557272E-004	4.467415E-002	-9.732761E-004	4.469457E-002	-9.704753E-004	-1.133766E-001	4.038700E-003
8.000000E+007	3.233285E-002	8.663094E-004	4.467298E-002	-1.096616E-003	4.470025E-002	-1.101503E-003	-1.132286E-001	4.485961E-003
9.000000E+007	3.245928E-002	8.761828E-004	4.466382E-002	-1.232722E-003	4.469754E-002	-1.239586E-003	-1.131265E-001	4.860406E-003
1.000000E+008	3.258503E-002	8.910572E-004	4.466667E-002	-1.379719E-003	4.468280E-002	-1.364918E-003	-1.130646E-001	5.263957E-003
1.100000E+008	3.271402E-002	8.822247E-004	4.464815E-002	-1.510090E-003	4.467746E-002	-1.512518E-003	-1.129686E-001	5.634031E-003
1.200000E+008	3.287818E-002	8.387635E-004	4.462952E-002	-1.650109E-003	4.466435E-002	-1.650921E-003	-1.128555E-001	5.948796E-003
1.300000E+008	3.298049E-002	8.322153E-004	4.462278E-002	-1.784763E-003	4.465257E-002	-1.787961E-003	-1.127578E-001	6.308266E-003
1.400000E+008	3.307675E-002	8.658042E-004	4.461509E-002	-1.931842E-003	4.464897E-002	-1.916087E-003	-1.126521E-001	6.633539E-003
1.500000E+008	3.313006E-002	9.075139E-004	4.460081E-002	-2.053159E-003	4.461998E-002	-2.048571E-003	-1.125659E-001	6.963887E-003
1.600000E+008	3.319762E-002	9.486734E-004	4.459104E-002	-2.181747E-003	4.461424E-002	-2.179908E-003	-1.124900E-001	7.314822E-003
1.700000E+008	3.328387E-002	9.574344E-004	4.458186E-002	-2.327354E-003	4.461358E-002	-2.314816E-003	-1.124221E-001	7.664387E-003
1.800000E+008	3.333704E-002	9.755720E-004	4.456019E-002	-2.478289E-003	4.462069E-002	-2.463874E-003	-1.123263E-001	7.994919E-003
1.900000E+008	3.331464E-002	9.562422E-004	4.453583E-002	-2.597104E-003	4.457708E-002	-2.602530E-003	-1.122749E-001	8.259299E-003
2.000000E+008	3.329571E-002	9.169713E-004	4.453362E-002	-2.720820E-003	4.456268E-002	-2.726866E-003	-1.122304E-001	8.518452E-003
2.100000E+008	3.327135E-002	8.277244E-004	4.450685E-002	-2.857864E-003	4.454312E-002	-2.853269E-003	-1.121489E-001	8.720259E-003
2.200000E+008	3.325929E-002	7.662643E-004	4.450244E-002	-2.986307E-003	4.453050E-002	-2.985941E-003	-1.120309E-001	8.924042E-003
2.300000E+008	3.328443E-002	6.904503E-004	4.448558E-002	-3.112639E-003	4.452458E-002	-3.116359E-003	-1.119096E-001	9.142441E-003
2.400000E+008	3.333842E-002	6.044030E-004	4.447720E-002	-3.254604E-003	4.449761E-002	-3.238437E-003	-1.117457E-001	9.383293E-003
2.500000E+008	3.336785E-002	5.570039E-004	4.445887E-002	-3.385723E-003	4.447957E-002	-3.373589E-003	-1.115508E-001	9.619977E-003
2.600000E+008	3.345021E-002	4.867737E-004	4.443456E-002	-3.514002E-003	4.448325E-002	-3.513329E-003	-1.113415E-001	9.940922E-003
2.700000E+008	3.353386E-002	4.388067E-004	4.440235E-002	-3.652363E-003	4.444126E-002	-3.642539E-003	-1.111063E-001	1.027573E-002
2.800000E+008	3.363261E-002	4.026835E-004	4.438613E-002	-3.783119E-003	4.441820E-002	-3.768291E-003	-1.109179E-001	1.059379E-002
2.900000E+008	3.367520E-002	4.033816E-004	4.438089E-002	-3.901690E-003	4.440036E-002	-3.894648E-003	-1.107690E-001	1.093769E-002
3.000000E+008	3.373022E-002	4.343458E-004	4.436198E-002	-4.036546E-003	4.438227E-002	-4.028942E-003	-1.106215E-001	1.130634E-002
3.100000E+008	3.373842E-002	4.539514E-004	4.433971E-002	-4.160264E-003	4.436434E-002	-4.154482E-003	-1.105067E-001	1.169789E-002
3.200000E+008	3.375689E-002	5.031580E-004	4.430975E-002	-4.292068E-003	4.435339E-002	-4.288724E-003	-1.104187E-001	1.205779E-002
3.300000E+008	3.374061E-002	5.399061E-004	4.429830E-002	-4.438277E-003	4.433945E-002	-4.438547E-003	-1.103424E-001	1.238427E-002
3.400000E+008	3.367557E-002	5.490008E-004	4.426433E-002	-4.570385E-003	4.429492E-002	-4.571027E-003	-1.102132E-001	1.270822E-002
3.500000E+008	3.360080E-002	5.191385E-004	4.424598E-002	-4.690990E-003	4.425634E-002	-4.704468E-003	-1.100758E-001	1.295384E-002
3.600000E+008	3.355196E-002	4.985630E-004	4.422645E-002	-4.825001E-003	4.423534E-002	-4.810995E-003	-1.099136E-001	1.324554E-002
3.700000E+008	3.350400E-002	4.807660E-004	4.419150E-002	-4.946460E-003	4.421708E-002	-4.925407E-003	-1.097180E-001	1.349323E-002
3.800000E+008	3.345540E-002	4.382938E-004	4.415524E-002	-5.071499E-003	4.419946E-002	-5.056461E-003	-1.095190E-001	1.377849E-002
3.900000E+008	3.342362E-002	3.580461E-004	4.413926E-002	-5.215735E-003	4.417205E-002	-5.188304E-003	-1.092488E-001	1.412635E-002
4.000000E+008	3.342151E-002	2.758620E-004	4.410227E-002	-5.329869E-003	4.414759E-002	-5.317296E-003	-1.089365E-001	1.444357E-002
4.100000E+008	3.340274E-002	2.200228E-004	4.407714E-002	-5.453290E-003	4.413291E-002	-5.457078E-003	-1.086594E-001	1.479102E-002
4.200000E+008	3.341085E-002	1.422786E-004	4.405616E-002	-5.564564E-003	4.409700E-002	-5.570574E-003	-1.084486E-001	1.517850E-002
4.300000E+008	3.340299E-002	9.392612E-005	4.404285E-002	-5.711179E-003	4.407203E-002	-5.697428E-003	-1.082312E-001	1.560579E-002
4.400000E+008	3.341909E-002	7.980358E-005	4.401691E-002	-5.829023E-003	4.405940E-002	-5.826230E-003	-1.080569E-001	1.606011E-002
4.500000E+008	3.342569E-002	5.185160E-005	4.399153E-002	-5.966324E-003	4.403569E-002	-5.950706E-003	-1.078702E-001	1.650970E-002
4.600000E+008	3.345275E-002	-1.430459E-006	4.396940E-002	-6.080250E-003	4.400449E-002	-6.094221E-003	-1.076783E-001	1.700206E-002
4.700000E+008	3.344495E-002	-8.954333E-006	4.394217E-002	-6.202951E-003	4.396307E-002	-6.212859E-003	-1.075116E-001	1.739755E-002
4.800000E+008	3.343602E-002	-5.993250E-006	4.391878E-002	-6.334310E-003	4.393677E-002	-6.320584E-003	-1.073678E-001	1.782493E-002
4.900000E+008	3.339154E-002	-7.914320E-006	4.386795E-002	-6.455756E-003	4.390560E-002	-6.453539E-003	-1.072229E-001	1.822177E-002
5.000000E+008	3.336379E-002	-3.918933E-006	4.385598E-002	-6.582846E-003	4.387323E-002	-6.566276E-003	-1.070523E-001	1.862091E-002
5.100000E+008	3.334118E-002	7.564873E-008	4.381259E-002	-6.706679E-003	4.386005E-002	-6.685021E-003	-1.068949E-001	1.899694E-002
5.200000E+008	3.329443E-002	-3.601062E-005	4.379494E-002	-6.838498E-003	4.384523E-002	-6.824402E-003	-1.067097E-001	1.940376E-002
5.300000E+008	3.323291E-002	-8.949788E-005	4.375745E-002	-6.953768E-003	4.380593E-002	-6.947285E-003	-1.064789E-001	1.979610E-002
5.400000E+008	3.317111E-002	-1.784326E-004	4.373411E-002	-7.082683E-003	4.377035E-002	-7.072216E-003	-1.062558E-001	2.017675E-002
5.500000E+008	3.310631E-002	-2.171052E-004	4.371001E-002	-7.205596E-003	4.373658E-002	-7.197660E-003	-1.060553E-001	2.058769E-002
5.600000E+008	3.309599E-002	-3.019955E-004	4.366610E-002	-7.328950E-003	4.370998E-002	-7.326062E-003	-1.058391E-001	2.100798E-002
5.700000E+008	3.305716E-002	-3.977844E-004	4.363017E-002	-7.451493E-003	4.368373E-002	-7.448259E-003	-1.056598E-001	2.147383E-002
5.800000E+008	3.304506E-002	-4.744977E-004	4.361329E-002	-7.566464E-003	4.363952E-002	-7.557221E-003	-1.054791E-001	2.192804E-002
5.900000E+008	3.304746E-002	-5.829499E-004	4.358442E-002	-7.687422E-003	4.362102E-002	-7.688540E-003	-1.053148E-001	2.243483E-002
6.000000E+008	3.310002E-002	-6.602129E-004	4.354555E-002	-7.820269E-003	4.357967E-002	-7.819904E-003	-1.050918E-001	2.286579E-002
6.100000E+008	3.314277E-002	-7.192250E-004	4.351452E-002	-7.944463E-003	4.354456E-002	-7.943813E-003	-1.049354E-001	2.332355E-002
6.200000E+008	3.318474E-002	-7.493121E-004	4.347784E-002	-8.050081E-003	4.350559E-002	-8.059186E-003	-1.047523E-001	2.376302E-002
6.300000E+008	3.325130E-002	-7.611041E-004	4.343092E-002	-8.172298E-003	4.347217E-002	-8.178693E-003	-1.045789E-001	2.421074E-002
6.400000E+008	3.330088E-002	-7.583311E-004	4.340761E-002	-8.295096E-003	4.344091E-002	-8.286986E-003	-1.043973E-001	2.464717E-002
6.500000E+008	3.335490E-002	-7.526884E-004	4.336914E-002	-8.412104E-003	4.341203E-002	-8.417466E-003	-1.042183E-001	2.509911E-002
6.600000E+008	3.335723E-002	-7.588221E-004	4.335523E-002	-8.540996E-003	4.337271E-002	-8.537282E-003	-1.040134E-001	2.554133E-002
6.700000E+008	3.332468E-002	-7.307781E-004	4.329955E-002	-8.663005E-003	4.334650E-002	-8.660014E-003	-1.038478E-001	2.599205E-002
6.800000E+008	3.330684E-002	-7.312186E-004	4.327084E-002	-8.783137E-003	4.329687E-002	-8.776509E-003	-1.036786E-001	2.647564E-002
6.900000E+008	3.327068E-002	-7.108639E-004	4.323371E-002	-8.891295E-003	4.326003E-002	-8.889948E-003	-1.034625E-001	2.696279E-002
7.000000E+008	3.326115E-002	-7.042777E-004	4.319968E-002	-9.017724E-003	4.323061E-002	-9.005245E-003	-1.033311E-001	2.744379E-002
7.100000E+008	3.322684E-002	-7.277681E-004	4.317118E-002	-9.126299E-003	4.318459E-002	-9.133471E-003	-1.032151E-001	2.790368E-002
7.200000E+008	3.318345E-002	-7.295237E-004	4.313296E-002	-9.247322E-003	4.316459E-002	-9.254845E-003	-1.030634E-001	2.836248E-002
7.300000E+008	3.316594E-002	-7.552815E-004	4.308827E-002	-9.370573E-003	4.312158E-002	-9.366703E-003	-1.029523E-001	2.878420E-002
7.400000E+008	3.310009E-002	-7.628624E-004	4.305658E-002	-9.483204E-003	4.308450E-002	-9.483526E-003	-1.028558E-001	2.921101E-002
7.500000E+008	3.308667E-002	-8.095914E-004	4.302736E-002	-9.600969E-003	4.306312E-002	-9.609548E-003	-1.027373E-001	2.958895E-002
7.600000E+008	3.303895E-002	-8.498699E-004	4.298527E-002	-9.723158E-003	4.302768E-002	-9.740566E-003	-1.025792E-001	2.997799E-002
7.700000E+008	3.301039E-002	-9.331804E-004	4.294055E-002	-9.832917E-003	4.299259E-002	-9.834197E-003	-1.024474E-001	3.035055E-002
7.800000E+008	3.299060E-002	-9.886530E-004	4.291322E-002	-9.960050E-003	4.293743E-002	-9.972043E-003	-1.022685E-001	3.070429E-002
7.900000E+008	3.298746E-002	-1.074964E-003	4.288519E-002	-1.008872E-002	4.290709E-002	-1.008199E-002	-1.021093E-001	3.108484E-002
8.000000E+008	3.297219E-002	-1.138900E-003	4.283055E-002	-1.018492E-002	4.285615E-002	-1.019700E-002	-1.018778E-001	3.150033E-002
8.100000E+008	3.298403E-002	-1.229940E-003	4.278925E-002	-1.031000E-002	4.283626E-002	-1.030813E-002	-1.015889E-001	3.191300E-002
8.200000E+008	3.304567E-002	-1.270353E-003	4.276193E-002	-1.043773E-002	4.279454E-002	-1.042303E-002	-1.013679E-001	3.232960E-002
8.300000E+008	3.308601E-002	-1.342400E-003	4.272352E-002	-1.053417E-002	4.273910E-002	-1.054817E-002	-1.011497E-001	3.277293E-002
8.400000E+008	3.314091E-002	-1.358313E-003	4.267335E-002	-1.065198E-002	4.270788E-002	-1.065836E-002	-1.009429E-001	3.317565E-002
8.500000E+008	3.320597E-002	-1.386268E-003	4.264503E-002	-1.076957E-002	4.266590E-002	-1.077967E-002	-1.008025E-001	3.363491E-002
8.600000E+008	3.322054E-002	-1.395960E-003	4.260686E-002	-1.087772E-002	4.262504E-002	-1.089049E-002	-1.006264E-001	3.405919E-002
8.700000E+008	3.325646E-002	-1.351694E-003	4.255726E-002	-1.100026E-002	4.258534E-002	-1.101348E-002	-1.004630E-001	3.446917E-002
8.800000E+008	3.328579E-002	-1.324728E-003	4.252182E-002	-1.111552E-002	4.256304E-002	-1.110383E-002	-1.003027E-001	3.486357E-002
8.900000E+008	3.326057E-002	-1.327527E-003	4.247244E-002	-1.123115E-002	4.250936E-002	-1.124807E-002	-1.001423E-001	3.523884E-002
9.000000E+008	3.325295E-002	-1.328420E-003	4.244553E-002	-1.133849E-002	4.246963E-002	-1.135804E-002	-9.994394E-002	3.563125E-002
9.100000E+008	3.323367E-002	-1.337184E-003	4.239652E-002	-1.146446E-002	4.243215E-002	-1.146267E-002	-9.971160E-002	3.597836E-002
9.200000E+008	3.320338E-002	-1.369453E-003	4.234632E-002	-1.158026E-002	4.237331E-002	-1.157689E-002	-9.944668E-002	3.637386E-002
9.300000E+008	3.324271E-002	-1.421042E-003	4.230635E-002	-1.168186E-002	4.234754E-002	-1.169745E-002	-9.917312E-002	3.677087E-002
9.400000E+008	3.323743E-002	-1.448033E-003	4.226384E-002	-1.178787E-002	4.232177E-002	-1.180782E-002	-9.883300E-002	3.720303E-002
9.500000E+008	3.328631E-002	-1.511464E-003	4.223288E-002	-1.191671E-002	4.227835E-002	-1.193639E-002	-9.848991E-002	3.767219E-002
9.600000E+008	3.330462E-002	-1.532333E-003	4.218213E-002	-1.202995E-002	4.222754E-002	-1.204031E-002	-9.815703E-002	3.814679E-002
9.700000E+008	3.333732E-002	-1.521698E-003	4.212978E-002	-1.214171E-002	4.217892E-002	-1.215525E-002	-9.784669E-002	3.863446E-002
9.800000E+008	3.337982E-002	-1.519814E-003	4.210612E-002	-1.223957E-002	4.213369E-002	-1.224538E-002	-9.758879E-002	3.912766E-002
9.900000E+008	3.343240E-002	-1.519033E-003	4.206884E-002	-1.237228E-002	4.209932E-002	-1.239945E-002	-9.730780E-002	3.962569E-002
1.000000E+009	3.344089E-002	-1.487312E-003	4.201782E-002	-1.247393E-002	4.204716E-002	-1.250293E-002	-9.709926E-002	4.010718E-002
1.010000E+009	3.345314E-002	-1.440063E-003	4.197668E-002	-1.258961E-002	4.201543E-002	-1.259524E-002	-9.684810E-002	4.059560E-002
1.020000E+009	3.348113E-002	-1.437404E-003	4.193659E-002	-1.270998E-002	4.197462E-002	-1.271270E-002	-9.664442E-002	4.107288E-002
1.030000E+009	3.347383E-002	-1.401623E-003	4.189212E-002	-1.282010E-002	4.191997E-002	-1.282886E-002	-9.644433E-002	4.155050E-002
1.040000E+009	3.346609E-002	-1.372044E-003	4.184278E-002	-1.292618E-002	4.188099E-002	-1.295240E-002	-9.620186E-002	4.201836E-002
1.050000E+009	3.347454E-002	-1.366304E-003	4.180993E-002	-1.304372E-002	4.183638E-002	-1.304484E-002	-9.596241E-002	4.249672E-002
1.060000E+009	3.348199E-002	-1.347058E-003	4.176211E-002	-1.314863E-002	4.179453E-002	-1.314770E-002	-9.568854E-002	4.298978E-002
1.070000E+009	3.344259E-002	-1.359154E-003	4.171496E-002	-1.326908E-002	4.174443E-002	-1.327131E-002	-9.541405E-002	4.347205E-002
1.080000E+009	3.347392E-002	-1.338483E-003	4.166785E-002	-1.338194E-002	4.171168E-002	-1.338645E-002	-9.513105E-002	4.396446E-002
1.090000E+009	3.345453E-002	-1.337707E-003	4.162948E-002	-1.348898E-002	4.167319E-002	-1.349759E-002	-9.488409E-002	4.442854E-002
1.100000E+009	3.345772E-002	-1.333566E-003	4.158037E-002	-1.360036E-002	4.161021E-002	-1.360843E-002	-9.464866E-002	4.494154E-002
1.110000E+009	3.345356E-002	-1.317026E-003	4.153112E-002	-1.372642E-002	4.156002E-002	-1.371988E-002	-9.442890E-002	4.540755E-002
1.120000E+009	3.343453E-002	-1.318497E-003	4.149964E-002	-1.382360E-002	4.152433E-002	-1.382812E-002	-9.423787E-002	4.587064E-002
1.130000E+009	3.345228E-002	-1.299316E-003	4.146949E-002	-1.393629E-002	4.149647E-002	-1.395390E-002	-9.402320E-002	4.631783E-002
1.140000E+009	3.343160E-002	-1.306752E-003	4.139769E-002	-1.404722E-002	4.142900E-002	-1.406140E-002	-9.379126E-002	4.678165E-002
1.150000E+009	3.345491E-002	-1.305383E-003	4.135540E-002	-1.416218E-002	4.138946E-002	-1.417958E-002	-9.351407E-002	4.723699E-002
1.160000E+009	3.344845E-002	-1.292385E-003	4.129512E-002	-1.428914E-002	4.135518E-002	-1.429780E-002	-9.325135E-002	4.765858E-002
1.170000E+009	3.342569E-002	-1.282625E-003	4.127447E-002	-1.439454E-002	4.129989E-002	-1.438400E-002	-9.299565E-002	4.817418E-002
1.180000E+009	3.345271E-002	-1.274774E-003	4.119921E-002	-1.449229E-002	4.125463E-002	-1.451543E-002	-9.268028E-002	4.863859E-002
1.190000E+009	3.341059E-002	-1.257869E-003	4.115747E-002	-1.461263E-002	4.119316E-002	-1.462376E-002	-9.241364E-002	4.914838E-002
1.200000E+009	3.340462E-002	-1.252331E-003	4.111343E-002	-1.471823E-002	4.114582E-002	-1.473055E-002	-9.210727E-002	4.967863E-002
1.210000E+009	3.342325E-002	-1.273535E-003	4.106344E-002	-1.482708E-002	4.110038E-002	-1.483368E-002	-9.185837E-002	5.017301E-002
1.220000E+009	3.341966E-002	-1.321007E-003	4.101499E-002	-1.492977E-002	4.106588E-002	-1.494432E-002	-9.162982E-002	5.065925E-002
1.230000E+009	3.340416E-002	-1.349942E-003	4.094562E-002	-1.505840E-002	4.100573E-002	-1.506118E-002	-9.140096E-002	5.112264E-002
1.240000E+009	3.342568E-002	-1.371498E-003	4.090970E-002	-1.517006E-002	4.095089E-002	-1.517965E-002	-9.118027E-002	5.155841E-002
1.250000E+009	3.348132E-002	-1.416279E-003	4.086471E-002	-1.527820E-002	4.091005E-002	-1.528108E-002	-9.094333E-002	5.200411E-002
1.260000E+009	3.349023E-002	-1.424620E-003	4.081151E-002	-1.539200E-002	4.085539E-002	-1.538160E-002	-9.068627E-002	5.241613E-002
1.270000E+009	3.359405E-002	-1.422692E-003	4.075715E-002	-1.549375E-002	4.078458E-002	-1.550931E-002	-9.037395E-002	5.281224E-002
1.280000E+009	3.361893E-002	-1.446906E-003	4.072008E-002	-1.561271E-002	4.075067E-002	-1.560544E-002	-9.010363E-002	5.319404E-002
1.290000E+009	3.365882E-002	-1.419079E-003	4.068030E-002	-1.571272E-002	4.070264E-002	-1.572478E-002	-8.974587E-002	5.360291E-002
1.300000E+009	3.371462E-002	-1.362606E-003	4.060575E-002	-1.584058E-002	4.066082E-002	-1.581744E-002	-8.939520E-002	5.404962E-002
1.310000E+009	3.375285E-002	-1.334472E-003	4.053634E-002	-1.596009E-002	4.059725E-002	-1.595805E-002	-8.902297E-002	5.449357E-002
1.320000E+009	3.377770E-002	-1.293712E-003	4.049889E-002	-1.605117E-002	4.053814E-002	-1.604315E-002	-8.863191E-002	5.499500E-002
1.330000E+009	3.379336E-002	-1.250427E-003	4.043354E-002	-1.616956E-002	4.048354E-002	-1.616448E-002	-8.820500E-002	5.552394E-002
1.340000E+009	3.380246E-002	-1.209766E-003	4.038717E-002	-1.626477E-002	4.042992E-002	-1.627174E-002	-8.782748E-002	5.607547E-002
1.350000E+009	3.378118E-002	-1.186690E-003	4.033852E-002	-1.636977E-002	4.036718E-002	-1.640463E-002	-8.744407E-002	5.664290E-002
1.360000E+009	3.381912E-002	-1.168520E-003	4.029027E-002	-1.648343E-002	4.031715E-002	-1.648342E-002	-8.705856E-002	5.725073E-002
1.370000E+009	3.382049E-002	-1.113609E-003	4.022070E-002	-1.660497E-002	4.026752E-002	-1.662215E-002	-8.676277E-002	5.782942E-002
1.380000E+009	3.386531E-002	-1.099642E-003	4.016272E-002	-1.671401E-002	4.020012E-002	-1.671205E-002	-8.641958E-002	5.841530E-002
1.390000E+009	3.388564E-002	-1.083015E-003	4.010571E-002	-1.682373E-002	4.015742E-002	-1.684476E-002	-8.611723E-002	5.904265E-002
1.400000E+009	3.386988E-002	-1.070972E-003	4.005183E-002	-1.692037E-002	4.007777E-002	-1.691501E-002	-8.583794E-002	5.959383E-002
1.410000E+009	3.388745E-002	-1.026357E-003	3.998760E-002	-1.702012E-002	4.002436E-002	-1.702191E-002	-8.553327E-002	6.018175E-002
1.420000E+009	3.389047E-002	-9.651753E-004	3.992543E-002	-1.714605E-002	3.997583E-002	-1.714870E-002	-8.525453E-002	6.071039E-002
1.430000E+009	3.391756E-002	-9.361472E-004	3.989356E-002	-1.722919E-002	3.991058E-002	-1.724538E-002	-8.495591E-002	6.124456E-002
1.440000E+009	3.392391E-002	-9.186059E-004	3.982199E-002	-1.734890E-002	3.985665E-002	-1.735515E-002	-8.466266E-002	6.175738E-002
1.450000E+009	3.389023E-002	-8.587995E-004	3.975880E-002	-1.746084E-002	3.979287E-002	-1.745294E-002	-8.432510E-002	6.228889E-002
1.460000E+009	3.385868E-002	-8.456414E-004	3.970578E-002	-1.757139E-002	3.975026E-002	-1.756412E-002	-8.397941E-002	6.280188E-002
1.470000E+009	3.386352E-002	-8.523859E-004	3.963515E-002	-1.766047E-002	3.967296E-002	-1.767881E-002	-8.362418E-002	6.336729E-002
1.480000E+009	3.386684E-002	-7.900732E-004	3.956581E-002	-1.778440E-002	3.960500E-002	-1.776780E-002	-8.327698E-002	6.394226E-002
1.490000E+009	3.388086E-002	-7.967309E-004	3.952619E-002	-1.788481E-002	3.955350E-002	-1.788120E-002	-8.287154E-002	6.451871E-002
1.500000E+009	3.388758E-002	-7.888408E-004	3.946255E-002	-1.797547E-002	3.948981E-002	-1.797848E-002	-8.251024E-002	6.511944E-002
1.510000E+009	3.392363E-002	-7.690056E-004	3.940126E-002	-1.808682E-002	3.942825E-002	-1.810296E-002	-8.213944E-002	6.569494E-002
