! Device ID: PE43711P
! File Path: z:\PE43711P\CHAR_NOM_04282014\AMB\3p300\LS_ATT_2p25dB\PE43711P_AMB_3p300V_3p000V_0p000V_LS_ATT_2p25dB_S2P_SN_5_A0137A.s2p
! Serial: 5
! Lot: A0137A
! Temp: 25C
! VDD: 3.300
! VSS: 0.000
! Control_Hi: 3.000
! Control_Lo: 0.000
! Attenuation Step: 2.25dB
! Port 1: RF1
! Port 2: RF2
! ThroughPath:1-2
! IDD: 0.0001276913
! ISS: -6.23e-008
!

#  Hz  S   RI  R   50

1.000000E+007	1.058350E-001	-6.132780E-004	6.847864E-001	-3.533108E-003	6.850183E-001	-3.575362E-003	2.091288E-002	-1.696292E-004
2.000000E+007	1.058825E-001	-8.675379E-004	6.848807E-001	-5.849394E-003	6.848439E-001	-5.920420E-003	2.096458E-002	-4.740730E-005
3.000000E+007	1.062149E-001	-1.555547E-003	6.848721E-001	-8.828460E-003	6.848777E-001	-8.875217E-003	2.126840E-002	-1.405338E-004
4.000000E+007	1.062426E-001	-2.168971E-003	6.848423E-001	-1.178721E-002	6.847975E-001	-1.185417E-002	2.175315E-002	-3.102499E-004
5.000000E+007	1.065790E-001	-2.943923E-003	6.848174E-001	-1.498472E-002	6.847741E-001	-1.493165E-002	2.203157E-002	-6.984269E-004
6.000000E+007	1.068660E-001	-3.828813E-003	6.846789E-001	-1.794857E-002	6.847051E-001	-1.793290E-002	2.217654E-002	-1.229217E-003
7.000000E+007	1.069742E-001	-4.735223E-003	6.844940E-001	-2.090900E-002	6.844819E-001	-2.092886E-002	2.217178E-002	-1.717594E-003
8.000000E+007	1.071682E-001	-5.613101E-003	6.843351E-001	-2.379111E-002	6.843266E-001	-2.380521E-002	2.217228E-002	-2.059422E-003
9.000000E+007	1.072627E-001	-6.439414E-003	6.841735E-001	-2.672928E-002	6.841125E-001	-2.675620E-002	2.231047E-002	-2.483412E-003
1.000000E+008	1.073297E-001	-7.220728E-003	6.840227E-001	-2.970289E-002	6.838713E-001	-2.968435E-002	2.260702E-002	-2.952993E-003
1.100000E+008	1.074067E-001	-8.005577E-003	6.837879E-001	-3.269086E-002	6.836845E-001	-3.262169E-002	2.266911E-002	-3.433358E-003
1.200000E+008	1.075331E-001	-8.789831E-003	6.834109E-001	-3.562576E-002	6.834083E-001	-3.557778E-002	2.245473E-002	-3.875542E-003
1.300000E+008	1.076535E-001	-9.767360E-003	6.831578E-001	-3.852254E-002	6.831773E-001	-3.852184E-002	2.256821E-002	-4.493151E-003
1.400000E+008	1.076676E-001	-1.088928E-002	6.829325E-001	-4.147121E-002	6.828780E-001	-4.151826E-002	2.311621E-002	-5.177129E-003
1.500000E+008	1.075123E-001	-1.187041E-002	6.826389E-001	-4.432039E-002	6.824720E-001	-4.436613E-002	2.356999E-002	-5.732089E-003
1.600000E+008	1.071761E-001	-1.250542E-002	6.823648E-001	-4.718928E-002	6.820386E-001	-4.717091E-002	2.320689E-002	-6.091404E-003
1.700000E+008	1.067481E-001	-1.302616E-002	6.820486E-001	-5.023265E-002	6.819035E-001	-5.003087E-002	2.234895E-002	-6.565437E-003
1.800000E+008	1.063881E-001	-1.371827E-002	6.813545E-001	-5.325452E-002	6.815010E-001	-5.307426E-002	2.166364E-002	-7.188744E-003
1.900000E+008	1.062521E-001	-1.471864E-002	6.808838E-001	-5.602897E-002	6.810533E-001	-5.596321E-002	2.164127E-002	-7.779861E-003
2.000000E+008	1.062772E-001	-1.583043E-002	6.805637E-001	-5.885608E-002	6.806468E-001	-5.879924E-002	2.204412E-002	-8.263270E-003
2.100000E+008	1.063260E-001	-1.695443E-002	6.802295E-001	-6.166142E-002	6.802220E-001	-6.164399E-002	2.251347E-002	-8.693630E-003
2.200000E+008	1.062820E-001	-1.794367E-002	6.798674E-001	-6.439066E-002	6.798353E-001	-6.444629E-002	2.274099E-002	-9.085854E-003
2.300000E+008	1.060428E-001	-1.885106E-002	6.794314E-001	-6.722050E-002	6.793418E-001	-6.725198E-002	2.275122E-002	-9.613149E-003
2.400000E+008	1.057961E-001	-1.974831E-002	6.789507E-001	-7.008931E-002	6.788367E-001	-7.009946E-002	2.264319E-002	-1.021908E-002
2.500000E+008	1.055146E-001	-2.063773E-002	6.784383E-001	-7.296143E-002	6.783234E-001	-7.293230E-002	2.250307E-002	-1.095264E-002
2.600000E+008	1.052444E-001	-2.160573E-002	6.778767E-001	-7.585732E-002	6.778343E-001	-7.575939E-002	2.245806E-002	-1.157620E-002
2.700000E+008	1.049928E-001	-2.249114E-002	6.772714E-001	-7.865696E-002	6.772744E-001	-7.857464E-002	2.249948E-002	-1.211037E-002
2.800000E+008	1.048116E-001	-2.334644E-002	6.767593E-001	-8.135797E-002	6.767410E-001	-8.129767E-002	2.254068E-002	-1.256829E-002
2.900000E+008	1.045371E-001	-2.403617E-002	6.762419E-001	-8.405539E-002	6.761716E-001	-8.399621E-002	2.253907E-002	-1.292895E-002
3.000000E+008	1.043740E-001	-2.470210E-002	6.757441E-001	-8.684282E-002	6.757194E-001	-8.670346E-002	2.254033E-002	-1.330224E-002
3.100000E+008	1.041427E-001	-2.537665E-002	6.752101E-001	-8.957764E-002	6.752195E-001	-8.951137E-002	2.255285E-002	-1.364974E-002
3.200000E+008	1.039309E-001	-2.612791E-002	6.746269E-001	-9.238780E-002	6.746793E-001	-9.230272E-002	2.252515E-002	-1.405813E-002
3.300000E+008	1.036048E-001	-2.680504E-002	6.740648E-001	-9.512585E-002	6.741208E-001	-9.519314E-002	2.243161E-002	-1.448914E-002
3.400000E+008	1.031399E-001	-2.751783E-002	6.734400E-001	-9.791419E-002	6.732753E-001	-9.807276E-002	2.239605E-002	-1.499280E-002
3.500000E+008	1.026433E-001	-2.820753E-002	6.727970E-001	-1.007168E-001	6.724645E-001	-1.006474E-001	2.232369E-002	-1.556395E-002
3.600000E+008	1.022733E-001	-2.886740E-002	6.721047E-001	-1.034307E-001	6.718404E-001	-1.031386E-001	2.229054E-002	-1.596992E-002
3.700000E+008	1.019307E-001	-2.958825E-002	6.713998E-001	-1.060219E-001	6.713253E-001	-1.056432E-001	2.238971E-002	-1.637702E-002
3.800000E+008	1.015440E-001	-3.032625E-002	6.707830E-001	-1.086887E-001	6.708599E-001	-1.084151E-001	2.248406E-002	-1.686475E-002
3.900000E+008	1.011008E-001	-3.105340E-002	6.700497E-001	-1.114416E-001	6.702029E-001	-1.111850E-001	2.254977E-002	-1.737366E-002
4.000000E+008	1.007248E-001	-3.183766E-002	6.693009E-001	-1.139787E-001	6.694981E-001	-1.139534E-001	2.257795E-002	-1.782403E-002
4.100000E+008	1.001826E-001	-3.261033E-002	6.686405E-001	-1.164945E-001	6.687470E-001	-1.166317E-001	2.256428E-002	-1.822918E-002
4.200000E+008	9.961378E-002	-3.329644E-002	6.680804E-001	-1.191932E-001	6.680144E-001	-1.191852E-001	2.252128E-002	-1.861508E-002
4.300000E+008	9.924772E-002	-3.391359E-002	6.673945E-001	-1.218734E-001	6.673120E-001	-1.218947E-001	2.250789E-002	-1.900251E-002
4.400000E+008	9.893333E-002	-3.453709E-002	6.666985E-001	-1.245434E-001	6.666521E-001	-1.244814E-001	2.245112E-002	-1.929446E-002
4.500000E+008	9.857209E-002	-3.522284E-002	6.659866E-001	-1.271775E-001	6.659541E-001	-1.271341E-001	2.245998E-002	-1.959104E-002
4.600000E+008	9.821020E-002	-3.589457E-002	6.652293E-001	-1.298463E-001	6.651973E-001	-1.298252E-001	2.236687E-002	-1.984225E-002
4.700000E+008	9.775967E-002	-3.649895E-002	6.644762E-001	-1.324369E-001	6.644055E-001	-1.324237E-001	2.223911E-002	-2.011334E-002
4.800000E+008	9.730051E-002	-3.703152E-002	6.637440E-001	-1.349850E-001	6.636378E-001	-1.349379E-001	2.206325E-002	-2.032093E-002
4.900000E+008	9.677502E-002	-3.756363E-002	6.629583E-001	-1.375864E-001	6.628193E-001	-1.375539E-001	2.191065E-002	-2.051707E-002
5.000000E+008	9.635713E-002	-3.806262E-002	6.621591E-001	-1.401731E-001	6.620935E-001	-1.400842E-001	2.179555E-002	-2.079363E-002
5.100000E+008	9.595880E-002	-3.869952E-002	6.614271E-001	-1.427739E-001	6.613720E-001	-1.426462E-001	2.177998E-002	-2.108850E-002
5.200000E+008	9.548917E-002	-3.939567E-002	6.606554E-001	-1.453600E-001	6.606353E-001	-1.452930E-001	2.174380E-002	-2.148876E-002
5.300000E+008	9.498833E-002	-4.009520E-002	6.598604E-001	-1.479725E-001	6.598532E-001	-1.479222E-001	2.176459E-002	-2.189257E-002
5.400000E+008	9.443126E-002	-4.081577E-002	6.590189E-001	-1.505782E-001	6.590466E-001	-1.505288E-001	2.169303E-002	-2.233082E-002
5.500000E+008	9.391588E-002	-4.133834E-002	6.582115E-001	-1.531492E-001	6.581373E-001	-1.530705E-001	2.160095E-002	-2.260311E-002
5.600000E+008	9.343676E-002	-4.187136E-002	6.573315E-001	-1.556603E-001	6.572565E-001	-1.556377E-001	2.152202E-002	-2.285356E-002
5.700000E+008	9.305452E-002	-4.240307E-002	6.564766E-001	-1.581408E-001	6.565014E-001	-1.581186E-001	2.132761E-002	-2.305939E-002
5.800000E+008	9.261141E-002	-4.293328E-002	6.556260E-001	-1.606707E-001	6.556853E-001	-1.606072E-001	2.120217E-002	-2.332429E-002
5.900000E+008	9.216718E-002	-4.354194E-002	6.547695E-001	-1.632382E-001	6.548590E-001	-1.632112E-001	2.097479E-002	-2.359986E-002
6.000000E+008	9.175485E-002	-4.412183E-002	6.539188E-001	-1.657558E-001	6.539802E-001	-1.657545E-001	2.082440E-002	-2.392659E-002
6.100000E+008	9.133302E-002	-4.468252E-002	6.530271E-001	-1.682445E-001	6.530204E-001	-1.682658E-001	2.057667E-002	-2.416852E-002
6.200000E+008	9.094328E-002	-4.522574E-002	6.521176E-001	-1.707051E-001	6.521905E-001	-1.707368E-001	2.040251E-002	-2.441257E-002
6.300000E+008	9.059860E-002	-4.575603E-002	6.511956E-001	-1.732024E-001	6.512731E-001	-1.732195E-001	2.028355E-002	-2.465790E-002
6.400000E+008	9.025438E-002	-4.630831E-002	6.503385E-001	-1.756816E-001	6.503695E-001	-1.757089E-001	2.020553E-002	-2.487428E-002
6.500000E+008	8.988980E-002	-4.681830E-002	6.494467E-001	-1.781389E-001	6.494530E-001	-1.781345E-001	2.005958E-002	-2.508373E-002
6.600000E+008	8.943613E-002	-4.739055E-002	6.485843E-001	-1.806343E-001	6.485239E-001	-1.806604E-001	1.992903E-002	-2.530947E-002
6.700000E+008	8.887305E-002	-4.783430E-002	6.476509E-001	-1.831112E-001	6.476069E-001	-1.831344E-001	1.966053E-002	-2.550991E-002
6.800000E+008	8.830739E-002	-4.827297E-002	6.467149E-001	-1.855538E-001	6.466827E-001	-1.855948E-001	1.942828E-002	-2.560132E-002
6.900000E+008	8.776323E-002	-4.866577E-002	6.456760E-001	-1.880046E-001	6.456652E-001	-1.879994E-001	1.918982E-002	-2.569596E-002
7.000000E+008	8.730561E-002	-4.910659E-002	6.447656E-001	-1.904470E-001	6.448000E-001	-1.903896E-001	1.894651E-002	-2.588751E-002
7.100000E+008	8.686303E-002	-4.962952E-002	6.438118E-001	-1.928311E-001	6.438405E-001	-1.928918E-001	1.874382E-002	-2.610309E-002
7.200000E+008	8.635531E-002	-5.014890E-002	6.428757E-001	-1.952659E-001	6.428823E-001	-1.953188E-001	1.854348E-002	-2.643864E-002
7.300000E+008	8.579656E-002	-5.067729E-002	6.418603E-001	-1.977014E-001	6.419695E-001	-1.977676E-001	1.824800E-002	-2.675525E-002
7.400000E+008	8.524020E-002	-5.112859E-002	6.408930E-001	-2.001528E-001	6.410034E-001	-2.001413E-001	1.796449E-002	-2.703895E-002
7.500000E+008	8.476812E-002	-5.156557E-002	6.399200E-001	-2.025513E-001	6.400357E-001	-2.026073E-001	1.772212E-002	-2.730088E-002
7.600000E+008	8.419197E-002	-5.203633E-002	6.389337E-001	-2.049880E-001	6.390161E-001	-2.050062E-001	1.749057E-002	-2.757521E-002
7.700000E+008	8.366850E-002	-5.256583E-002	6.379198E-001	-2.073871E-001	6.380212E-001	-2.073794E-001	1.729062E-002	-2.789475E-002
7.800000E+008	8.305454E-002	-5.303873E-002	6.369191E-001	-2.097762E-001	6.370664E-001	-2.097727E-001	1.702369E-002	-2.821581E-002
7.900000E+008	8.249911E-002	-5.360321E-002	6.359020E-001	-2.121676E-001	6.360410E-001	-2.121987E-001	1.671561E-002	-2.851041E-002
8.000000E+008	8.191239E-002	-5.411668E-002	6.348514E-001	-2.145012E-001	6.349305E-001	-2.145710E-001	1.646662E-002	-2.878973E-002
8.100000E+008	8.139200E-002	-5.460476E-002	6.337941E-001	-2.168788E-001	6.339149E-001	-2.169462E-001	1.625210E-002	-2.896848E-002
8.200000E+008	8.091401E-002	-5.503672E-002	6.327665E-001	-2.192901E-001	6.328700E-001	-2.192593E-001	1.603399E-002	-2.918641E-002
8.300000E+008	8.051911E-002	-5.550886E-002	6.317399E-001	-2.216085E-001	6.318689E-001	-2.216537E-001	1.582672E-002	-2.938603E-002
8.400000E+008	8.011952E-002	-5.592769E-002	6.306536E-001	-2.239327E-001	6.307820E-001	-2.239726E-001	1.562836E-002	-2.956680E-002
8.500000E+008	7.969143E-002	-5.637858E-002	6.296459E-001	-2.263032E-001	6.297308E-001	-2.263561E-001	1.534383E-002	-2.978565E-002
8.600000E+008	7.916983E-002	-5.680820E-002	6.285626E-001	-2.286132E-001	6.285967E-001	-2.286648E-001	1.503058E-002	-2.994854E-002
8.700000E+008	7.862893E-002	-5.716333E-002	6.275184E-001	-2.309885E-001	6.275502E-001	-2.309831E-001	1.474059E-002	-3.012238E-002
8.800000E+008	7.804096E-002	-5.748277E-002	6.264341E-001	-2.333587E-001	6.265195E-001	-2.332919E-001	1.439906E-002	-3.030256E-002
8.900000E+008	7.747994E-002	-5.787309E-002	6.253069E-001	-2.356543E-001	6.254032E-001	-2.356784E-001	1.413890E-002	-3.048753E-002
9.000000E+008	7.694958E-002	-5.823078E-002	6.241635E-001	-2.379795E-001	6.243350E-001	-2.380063E-001	1.390138E-002	-3.067392E-002
9.100000E+008	7.634257E-002	-5.868269E-002	6.230619E-001	-2.403045E-001	6.232023E-001	-2.403089E-001	1.375473E-002	-3.093575E-002
9.200000E+008	7.578503E-002	-5.910366E-002	6.219705E-001	-2.426035E-001	6.221251E-001	-2.426610E-001	1.356188E-002	-3.123307E-002
9.300000E+008	7.518501E-002	-5.945744E-002	6.208563E-001	-2.448908E-001	6.209418E-001	-2.449609E-001	1.336212E-002	-3.144877E-002
9.400000E+008	7.463695E-002	-5.982384E-002	6.197051E-001	-2.471420E-001	6.198979E-001	-2.472372E-001	1.319456E-002	-3.158116E-002
9.500000E+008	7.407047E-002	-6.015764E-002	6.185956E-001	-2.494379E-001	6.187241E-001	-2.495687E-001	1.307879E-002	-3.167236E-002
9.600000E+008	7.358568E-002	-6.043968E-002	6.174393E-001	-2.517581E-001	6.176139E-001	-2.517922E-001	1.297071E-002	-3.173396E-002
9.700000E+008	7.312742E-002	-6.075551E-002	6.162426E-001	-2.539850E-001	6.164558E-001	-2.541021E-001	1.285340E-002	-3.184601E-002
9.800000E+008	7.265888E-002	-6.110134E-002	6.151915E-001	-2.562217E-001	6.153174E-001	-2.563717E-001	1.271111E-002	-3.197343E-002
9.900000E+008	7.214269E-002	-6.142929E-002	6.140496E-001	-2.585263E-001	6.141654E-001	-2.586533E-001	1.241278E-002	-3.208940E-002
1.000000E+009	7.161547E-002	-6.172483E-002	6.128624E-001	-2.607698E-001	6.129406E-001	-2.608662E-001	1.214182E-002	-3.212934E-002
1.010000E+009	7.101656E-002	-6.193140E-002	6.117329E-001	-2.630716E-001	6.117941E-001	-2.631182E-001	1.185771E-002	-3.215815E-002
1.020000E+009	7.046612E-002	-6.213036E-002	6.105487E-001	-2.653145E-001	6.105899E-001	-2.653653E-001	1.164118E-002	-3.216034E-002
1.030000E+009	6.998059E-002	-6.232524E-002	6.092866E-001	-2.675380E-001	6.094026E-001	-2.675877E-001	1.141775E-002	-3.219290E-002
1.040000E+009	6.946827E-002	-6.261145E-002	6.080851E-001	-2.697367E-001	6.082408E-001	-2.698032E-001	1.120218E-002	-3.229145E-002
1.050000E+009	6.888716E-002	-6.298910E-002	6.069522E-001	-2.719836E-001	6.070525E-001	-2.720488E-001	1.091793E-002	-3.240248E-002
1.060000E+009	6.827741E-002	-6.326078E-002	6.057442E-001	-2.742234E-001	6.058640E-001	-2.742407E-001	1.064879E-002	-3.244229E-002
1.070000E+009	6.765129E-002	-6.347637E-002	6.044649E-001	-2.763922E-001	6.047003E-001	-2.764272E-001	1.038182E-002	-3.251466E-002
1.080000E+009	6.716958E-002	-6.374155E-002	6.032768E-001	-2.786776E-001	6.035288E-001	-2.786790E-001	1.015468E-002	-3.250898E-002
1.090000E+009	6.669046E-002	-6.397754E-002	6.020693E-001	-2.808724E-001	6.023140E-001	-2.808879E-001	9.935144E-003	-3.258037E-002
1.100000E+009	6.624128E-002	-6.423689E-002	6.007846E-001	-2.830882E-001	6.010906E-001	-2.831055E-001	9.744035E-003	-3.258391E-002
1.110000E+009	6.577245E-002	-6.449420E-002	5.995915E-001	-2.853023E-001	5.998538E-001	-2.853051E-001	9.476684E-003	-3.275355E-002
1.120000E+009	6.525116E-002	-6.473322E-002	5.983703E-001	-2.874541E-001	5.985826E-001	-2.875407E-001	9.153643E-003	-3.282071E-002
1.130000E+009	6.468076E-002	-6.498605E-002	5.970874E-001	-2.896314E-001	5.973285E-001	-2.897148E-001	8.815669E-003	-3.287596E-002
1.140000E+009	6.407648E-002	-6.515964E-002	5.958424E-001	-2.918292E-001	5.960947E-001	-2.918780E-001	8.490839E-003	-3.287590E-002
1.150000E+009	6.353331E-002	-6.538158E-002	5.945705E-001	-2.940165E-001	5.947531E-001	-2.940719E-001	8.256841E-003	-3.290857E-002
1.160000E+009	6.301291E-002	-6.554510E-002	5.932761E-001	-2.962130E-001	5.935002E-001	-2.962640E-001	7.987330E-003	-3.295727E-002
1.170000E+009	6.249217E-002	-6.581021E-002	5.919688E-001	-2.983859E-001	5.921939E-001	-2.983801E-001	7.817508E-003	-3.299655E-002
1.180000E+009	6.196535E-002	-6.613289E-002	5.906410E-001	-3.005196E-001	5.909603E-001	-3.005911E-001	7.533935E-003	-3.306483E-002
1.190000E+009	6.142657E-002	-6.634627E-002	5.893645E-001	-3.027193E-001	5.895569E-001	-3.027752E-001	7.298667E-003	-3.306250E-002
1.200000E+009	6.085296E-002	-6.653980E-002	5.880549E-001	-3.048578E-001	5.883029E-001	-3.048808E-001	7.024160E-003	-3.306338E-002
1.210000E+009	6.034702E-002	-6.676324E-002	5.867200E-001	-3.069919E-001	5.869339E-001	-3.070790E-001	6.766293E-003	-3.305683E-002
1.220000E+009	5.986314E-002	-6.694410E-002	5.854052E-001	-3.091011E-001	5.856783E-001	-3.091956E-001	6.513001E-003	-3.300187E-002
1.230000E+009	5.937822E-002	-6.715076E-002	5.840534E-001	-3.112754E-001	5.842747E-001	-3.113200E-001	6.190685E-003	-3.302735E-002
1.240000E+009	5.889428E-002	-6.743001E-002	5.827087E-001	-3.133786E-001	5.829052E-001	-3.134292E-001	5.894536E-003	-3.305031E-002
1.250000E+009	5.832953E-002	-6.764508E-002	5.813344E-001	-3.155074E-001	5.816364E-001	-3.155610E-001	5.563410E-003	-3.311000E-002
1.260000E+009	5.775337E-002	-6.782975E-002	5.799890E-001	-3.176452E-001	5.802251E-001	-3.177403E-001	5.203454E-003	-3.319294E-002
1.270000E+009	5.724693E-002	-6.801929E-002	5.786133E-001	-3.197333E-001	5.788482E-001	-3.197734E-001	4.915164E-003	-3.322723E-002
1.280000E+009	5.668870E-002	-6.811890E-002	5.772729E-001	-3.218341E-001	5.775291E-001	-3.218923E-001	4.621420E-003	-3.326937E-002
1.290000E+009	5.615552E-002	-6.826058E-002	5.758559E-001	-3.239870E-001	5.761220E-001	-3.239766E-001	4.439136E-003	-3.335370E-002
1.300000E+009	5.567620E-002	-6.839191E-002	5.744352E-001	-3.259905E-001	5.747690E-001	-3.260937E-001	4.290819E-003	-3.337077E-002
1.310000E+009	5.512107E-002	-6.849507E-002	5.729897E-001	-3.281145E-001	5.733425E-001	-3.282142E-001	4.062274E-003	-3.338851E-002
1.320000E+009	5.453388E-002	-6.856585E-002	5.715903E-001	-3.302234E-001	5.719494E-001	-3.302937E-001	3.889634E-003	-3.336312E-002
1.330000E+009	5.404749E-002	-6.858797E-002	5.702154E-001	-3.322411E-001	5.705662E-001	-3.324041E-001	3.805760E-003	-3.322484E-002
1.340000E+009	5.350865E-002	-6.859128E-002	5.687859E-001	-3.342934E-001	5.690800E-001	-3.344209E-001	3.625243E-003	-3.305068E-002
1.350000E+009	5.297084E-002	-6.862335E-002	5.673499E-001	-3.363804E-001	5.676122E-001	-3.364797E-001	3.454056E-003	-3.286921E-002
1.360000E+009	5.252631E-002	-6.867523E-002	5.658611E-001	-3.383954E-001	5.662538E-001	-3.385349E-001	3.294662E-003	-3.265699E-002
1.370000E+009	5.203417E-002	-6.875235E-002	5.644491E-001	-3.404666E-001	5.647762E-001	-3.405738E-001	3.084942E-003	-3.244368E-002
1.380000E+009	5.148905E-002	-6.886240E-002	5.629743E-001	-3.424714E-001	5.633164E-001	-3.425893E-001	2.827704E-003	-3.232210E-002
1.390000E+009	5.098635E-002	-6.896525E-002	5.615041E-001	-3.445230E-001	5.618335E-001	-3.446617E-001	2.500163E-003	-3.208762E-002
1.400000E+009	5.044928E-002	-6.902900E-002	5.600606E-001	-3.465423E-001	5.603718E-001	-3.466063E-001	2.209607E-003	-3.188837E-002
1.410000E+009	4.992727E-002	-6.905272E-002	5.585967E-001	-3.485784E-001	5.588646E-001	-3.486453E-001	1.902842E-003	-3.165332E-002
1.420000E+009	4.945608E-002	-6.909149E-002	5.570340E-001	-3.505237E-001	5.574175E-001	-3.506415E-001	1.616955E-003	-3.146592E-002
1.430000E+009	4.897924E-002	-6.914438E-002	5.555771E-001	-3.524942E-001	5.559259E-001	-3.526707E-001	1.378288E-003	-3.129103E-002
1.440000E+009	4.846940E-002	-6.918960E-002	5.540962E-001	-3.544765E-001	5.544248E-001	-3.546076E-001	1.131708E-003	-3.119342E-002
1.450000E+009	4.796211E-002	-6.920904E-002	5.525447E-001	-3.564758E-001	5.529544E-001	-3.566554E-001	8.362591E-004	-3.102495E-002
1.460000E+009	4.741571E-002	-6.922143E-002	5.510614E-001	-3.584846E-001	5.513591E-001	-3.586385E-001	5.558605E-004	-3.081576E-002
1.470000E+009	4.691999E-002	-6.921282E-002	5.495028E-001	-3.604426E-001	5.498726E-001	-3.605974E-001	3.026074E-004	-3.054001E-002
1.480000E+009	4.642608E-002	-6.917455E-002	5.479589E-001	-3.623465E-001	5.483047E-001	-3.625393E-001	4.308939E-005	-3.021834E-002
1.490000E+009	4.596893E-002	-6.914245E-002	5.464741E-001	-3.643289E-001	5.468302E-001	-3.644340E-001	-1.837260E-004	-2.995616E-002
1.500000E+009	4.551425E-002	-6.918931E-002	5.449395E-001	-3.662628E-001	5.452539E-001	-3.663512E-001	-3.525148E-004	-2.970098E-002
