! Device ID: PE43711P
! File Path: z:\PE43711P\CHAR_NOM_04282014\AMB\3p300\LS_ATT_3p50dB\PE43711P_AMB_3p300V_3p000V_0p000V_LS_ATT_3p50dB_S2P_SN_5_A0137A.s2p
! Serial: 5
! Lot: A0137A
! Temp: 25C
! VDD: 3.300
! VSS: 0.000
! Control_Hi: 3.000
! Control_Lo: 0.000
! Attenuation Step: 3.50dB
! Port 1: RF1
! Port 2: RF2
! ThroughPath:1-2
! IDD: 0.0001278912
! ISS: -5.23e-008
!

#  Hz  S   RI  R   50

1.000000E+007	9.485601E-002	-3.915165E-004	5.925195E-001	-3.013763E-003	5.926855E-001	-3.058520E-003	-4.187685E-002	2.408905E-004
2.000000E+007	9.493520E-002	-6.063326E-004	5.925509E-001	-4.957267E-003	5.925446E-001	-5.002753E-003	-4.173605E-002	5.470667E-004
3.000000E+007	9.525216E-002	-1.157571E-003	5.925603E-001	-7.456199E-003	5.925617E-001	-7.499733E-003	-4.146252E-002	6.814761E-004
4.000000E+007	9.530542E-002	-1.649559E-003	5.925299E-001	-9.978744E-003	5.924847E-001	-1.001104E-002	-4.104734E-002	7.867668E-004
5.000000E+007	9.557620E-002	-2.267107E-003	5.925028E-001	-1.267970E-002	5.924332E-001	-1.263251E-002	-4.083064E-002	7.326713E-004
6.000000E+007	9.582856E-002	-2.969916E-003	5.923684E-001	-1.518322E-002	5.923843E-001	-1.515136E-002	-4.069403E-002	5.609770E-004
7.000000E+007	9.594378E-002	-3.709364E-003	5.922204E-001	-1.766143E-002	5.921888E-001	-1.766180E-002	-4.065951E-002	3.869279E-004
8.000000E+007	9.612995E-002	-4.412607E-003	5.920731E-001	-2.006724E-002	5.920512E-001	-2.006767E-002	-4.061193E-002	3.159897E-004
9.000000E+007	9.622106E-002	-5.073807E-003	5.919440E-001	-2.254488E-002	5.918773E-001	-2.253800E-002	-4.049012E-002	1.973528E-004
1.000000E+008	9.629611E-002	-5.721364E-003	5.918079E-001	-2.505647E-002	5.916958E-001	-2.500186E-002	-4.027022E-002	3.591554E-005
1.100000E+008	9.638315E-002	-6.365622E-003	5.915810E-001	-2.756443E-002	5.915157E-001	-2.748835E-002	-4.020019E-002	-1.412238E-004
1.200000E+008	9.650891E-002	-7.020756E-003	5.912560E-001	-3.004361E-002	5.913072E-001	-3.001248E-002	-4.033338E-002	-2.900607E-004
1.300000E+008	9.662210E-002	-7.789899E-003	5.910667E-001	-3.247208E-002	5.910849E-001	-3.245280E-002	-4.022206E-002	-5.682496E-004
1.400000E+008	9.664730E-002	-8.688217E-003	5.908702E-001	-3.494406E-002	5.908336E-001	-3.495018E-002	-3.979185E-002	-8.952349E-004
1.500000E+008	9.654053E-002	-9.472193E-003	5.906344E-001	-3.730901E-002	5.904816E-001	-3.732875E-002	-3.943906E-002	-1.128851E-003
1.600000E+008	9.630094E-002	-9.983298E-003	5.904032E-001	-3.970018E-002	5.901631E-001	-3.967287E-002	-3.969520E-002	-1.226945E-003
1.700000E+008	9.598563E-002	-1.041809E-002	5.901396E-001	-4.228196E-002	5.901118E-001	-4.208742E-002	-4.032490E-002	-1.418105E-003
1.800000E+008	9.572835E-002	-1.100271E-002	5.895510E-001	-4.483160E-002	5.897851E-001	-4.468386E-002	-4.081280E-002	-1.688365E-003
1.900000E+008	9.560593E-002	-1.179588E-002	5.891235E-001	-4.715273E-002	5.893671E-001	-4.708879E-002	-4.082398E-002	-1.984284E-003
2.000000E+008	9.563042E-002	-1.268980E-002	5.888645E-001	-4.951395E-002	5.890128E-001	-4.945096E-002	-4.051006E-002	-2.182168E-003
2.100000E+008	9.565361E-002	-1.360092E-002	5.885838E-001	-5.187350E-002	5.886190E-001	-5.181780E-002	-4.014343E-002	-2.343654E-003
2.200000E+008	9.560487E-002	-1.440746E-002	5.882831E-001	-5.414519E-002	5.882685E-001	-5.417232E-002	-3.994704E-002	-2.506682E-003
2.300000E+008	9.543120E-002	-1.515675E-002	5.879237E-001	-5.654547E-002	5.879065E-001	-5.651140E-002	-3.991231E-002	-2.738585E-003
2.400000E+008	9.522158E-002	-1.589906E-002	5.875383E-001	-5.893774E-002	5.874701E-001	-5.887861E-002	-3.994545E-002	-3.034175E-003
2.500000E+008	9.501563E-002	-1.661781E-002	5.871319E-001	-6.135159E-002	5.870644E-001	-6.125888E-002	-4.001741E-002	-3.425208E-003
2.600000E+008	9.481833E-002	-1.742262E-002	5.866485E-001	-6.372762E-002	5.866711E-001	-6.366284E-002	-4.000491E-002	-3.718383E-003
2.700000E+008	9.464823E-002	-1.815281E-002	5.861612E-001	-6.606210E-002	5.862160E-001	-6.602621E-002	-3.992447E-002	-3.936228E-003
2.800000E+008	9.452249E-002	-1.884203E-002	5.857293E-001	-6.836114E-002	5.857642E-001	-6.826905E-002	-3.982934E-002	-4.091528E-003
2.900000E+008	9.431111E-002	-1.942020E-002	5.852751E-001	-7.064905E-002	5.852815E-001	-7.054484E-002	-3.981672E-002	-4.195241E-003
3.000000E+008	9.419971E-002	-1.996132E-002	5.849155E-001	-7.298115E-002	5.849399E-001	-7.286734E-002	-3.977574E-002	-4.293151E-003
3.100000E+008	9.402172E-002	-2.051164E-002	5.844529E-001	-7.528593E-002	5.845275E-001	-7.521113E-002	-3.974236E-002	-4.349092E-003
3.200000E+008	9.384932E-002	-2.109964E-002	5.839682E-001	-7.765950E-002	5.840934E-001	-7.755777E-002	-3.974611E-002	-4.438475E-003
3.300000E+008	9.357962E-002	-2.164986E-002	5.835128E-001	-7.996535E-002	5.835963E-001	-7.999069E-002	-3.978231E-002	-4.570965E-003
3.400000E+008	9.322875E-002	-2.223167E-002	5.829703E-001	-8.228508E-002	5.828886E-001	-8.240221E-002	-3.979734E-002	-4.780709E-003
3.500000E+008	9.283151E-002	-2.279539E-002	5.824573E-001	-8.464006E-002	5.821900E-001	-8.455661E-002	-3.979886E-002	-5.040850E-003
3.600000E+008	9.249587E-002	-2.333177E-002	5.819199E-001	-8.694743E-002	5.816746E-001	-8.666763E-002	-3.979058E-002	-5.174886E-003
3.700000E+008	9.221008E-002	-2.393640E-002	5.813361E-001	-8.910137E-002	5.812515E-001	-8.876675E-002	-3.967215E-002	-5.324132E-003
3.800000E+008	9.191322E-002	-2.454814E-002	5.808526E-001	-9.134457E-002	5.808904E-001	-9.108239E-002	-3.958641E-002	-5.487111E-003
3.900000E+008	9.155227E-002	-2.515030E-002	5.802201E-001	-9.368096E-002	5.803495E-001	-9.343248E-002	-3.945112E-002	-5.686806E-003
4.000000E+008	9.126771E-002	-2.582674E-002	5.795673E-001	-9.580593E-002	5.798031E-001	-9.576943E-002	-3.933730E-002	-5.857362E-003
4.100000E+008	9.084553E-002	-2.645744E-002	5.790507E-001	-9.790605E-002	5.792106E-001	-9.798039E-002	-3.927554E-002	-5.982070E-003
4.200000E+008	9.040958E-002	-2.704960E-002	5.786052E-001	-1.001488E-001	5.786318E-001	-1.001645E-001	-3.924938E-002	-6.065407E-003
4.300000E+008	9.011990E-002	-2.755813E-002	5.780549E-001	-1.024271E-001	5.780305E-001	-1.024163E-001	-3.922351E-002	-6.133548E-003
4.400000E+008	8.984854E-002	-2.808610E-002	5.774662E-001	-1.046671E-001	5.775078E-001	-1.046504E-001	-3.920388E-002	-6.129014E-003
4.500000E+008	8.960447E-002	-2.866110E-002	5.768949E-001	-1.069066E-001	5.769815E-001	-1.068711E-001	-3.916195E-002	-6.130230E-003
4.600000E+008	8.931712E-002	-2.919610E-002	5.762781E-001	-1.091661E-001	5.763289E-001	-1.091203E-001	-3.918657E-002	-6.070155E-003
4.700000E+008	8.898435E-002	-2.970249E-002	5.756424E-001	-1.113430E-001	5.756475E-001	-1.113252E-001	-3.923241E-002	-6.076071E-003
4.800000E+008	8.857767E-002	-3.014455E-002	5.750504E-001	-1.134786E-001	5.750160E-001	-1.134318E-001	-3.932778E-002	-6.022541E-003
4.900000E+008	8.818096E-002	-3.059968E-002	5.744192E-001	-1.156654E-001	5.743528E-001	-1.156273E-001	-3.941370E-002	-5.982809E-003
5.000000E+008	8.784993E-002	-3.102113E-002	5.737744E-001	-1.178521E-001	5.737822E-001	-1.177660E-001	-3.945296E-002	-5.974778E-003
5.100000E+008	8.750963E-002	-3.154028E-002	5.731533E-001	-1.200313E-001	5.731825E-001	-1.199086E-001	-3.941809E-002	-5.996214E-003
5.200000E+008	8.713009E-002	-3.212022E-002	5.725099E-001	-1.222223E-001	5.725605E-001	-1.221320E-001	-3.940194E-002	-6.084259E-003
5.300000E+008	8.673207E-002	-3.268236E-002	5.718628E-001	-1.244089E-001	5.719396E-001	-1.243472E-001	-3.931846E-002	-6.185205E-003
5.400000E+008	8.629259E-002	-3.329920E-002	5.711509E-001	-1.265847E-001	5.712589E-001	-1.265384E-001	-3.929482E-002	-6.301819E-003
5.500000E+008	8.589530E-002	-3.375035E-002	5.705121E-001	-1.287422E-001	5.705252E-001	-1.287014E-001	-3.932027E-002	-6.289043E-003
5.600000E+008	8.549993E-002	-3.422523E-002	5.697872E-001	-1.308555E-001	5.698182E-001	-1.308530E-001	-3.931893E-002	-6.279285E-003
5.700000E+008	8.520211E-002	-3.469929E-002	5.690839E-001	-1.329492E-001	5.692013E-001	-1.329593E-001	-3.940981E-002	-6.198418E-003
5.800000E+008	8.484133E-002	-3.513034E-002	5.684067E-001	-1.351159E-001	5.685298E-001	-1.350559E-001	-3.946264E-002	-6.180573E-003
5.900000E+008	8.449228E-002	-3.566934E-002	5.676959E-001	-1.372757E-001	5.678867E-001	-1.372914E-001	-3.958769E-002	-6.139571E-003
6.000000E+008	8.416190E-002	-3.615901E-002	5.669989E-001	-1.393814E-001	5.671560E-001	-1.394221E-001	-3.964717E-002	-6.137309E-003
6.100000E+008	8.383835E-002	-3.663081E-002	5.662760E-001	-1.414777E-001	5.663530E-001	-1.415322E-001	-3.977690E-002	-6.126814E-003
6.200000E+008	8.354908E-002	-3.710991E-002	5.655224E-001	-1.435605E-001	5.656442E-001	-1.436228E-001	-3.986522E-002	-6.086266E-003
6.300000E+008	8.329332E-002	-3.756148E-002	5.647584E-001	-1.456705E-001	5.649090E-001	-1.456994E-001	-3.989393E-002	-6.069403E-003
6.400000E+008	8.301993E-002	-3.800448E-002	5.640249E-001	-1.477562E-001	5.641539E-001	-1.477921E-001	-3.990166E-002	-5.999494E-003
6.500000E+008	8.276616E-002	-3.841965E-002	5.633219E-001	-1.498247E-001	5.634196E-001	-1.498671E-001	-3.994603E-002	-5.933485E-003
6.600000E+008	8.239677E-002	-3.890198E-002	5.626325E-001	-1.519298E-001	5.626395E-001	-1.519785E-001	-3.997763E-002	-5.860391E-003
6.700000E+008	8.198352E-002	-3.926594E-002	5.618539E-001	-1.540345E-001	5.618993E-001	-1.540601E-001	-4.012307E-002	-5.789971E-003
6.800000E+008	8.154350E-002	-3.962848E-002	5.610697E-001	-1.560893E-001	5.611494E-001	-1.561546E-001	-4.025994E-002	-5.634779E-003
6.900000E+008	8.109390E-002	-3.997219E-002	5.602469E-001	-1.581863E-001	5.603186E-001	-1.581826E-001	-4.036820E-002	-5.481163E-003
7.000000E+008	8.071344E-002	-4.034987E-002	5.595102E-001	-1.602102E-001	5.595769E-001	-1.601857E-001	-4.051326E-002	-5.391151E-003
7.100000E+008	8.033375E-002	-4.078055E-002	5.587296E-001	-1.622319E-001	5.588337E-001	-1.623087E-001	-4.062772E-002	-5.314378E-003
7.200000E+008	7.994261E-002	-4.122208E-002	5.579474E-001	-1.642777E-001	5.580445E-001	-1.643394E-001	-4.072215E-002	-5.340762E-003
7.300000E+008	7.952073E-002	-4.166383E-002	5.571119E-001	-1.663370E-001	5.573054E-001	-1.664221E-001	-4.089059E-002	-5.366817E-003
7.400000E+008	7.906597E-002	-4.204026E-002	5.563056E-001	-1.684054E-001	5.565009E-001	-1.684350E-001	-4.105201E-002	-5.372742E-003
7.500000E+008	7.867876E-002	-4.243059E-002	5.555165E-001	-1.704221E-001	5.557320E-001	-1.705276E-001	-4.120541E-002	-5.365660E-003
7.600000E+008	7.820881E-002	-4.284872E-002	5.546989E-001	-1.724872E-001	5.548836E-001	-1.725666E-001	-4.133461E-002	-5.370623E-003
7.700000E+008	7.779401E-002	-4.330978E-002	5.539147E-001	-1.745074E-001	5.540740E-001	-1.745557E-001	-4.141689E-002	-5.419394E-003
7.800000E+008	7.731461E-002	-4.370484E-002	5.530598E-001	-1.765030E-001	5.532890E-001	-1.766002E-001	-4.156074E-002	-5.445831E-003
7.900000E+008	7.690655E-002	-4.419164E-002	5.522409E-001	-1.785284E-001	5.524940E-001	-1.786338E-001	-4.171009E-002	-5.448755E-003
8.000000E+008	7.644635E-002	-4.463113E-002	5.514032E-001	-1.805460E-001	5.515747E-001	-1.806055E-001	-4.184972E-002	-5.430495E-003
8.100000E+008	7.603392E-002	-4.506618E-002	5.505324E-001	-1.825254E-001	5.507014E-001	-1.826370E-001	-4.194373E-002	-5.359648E-003
8.200000E+008	7.565747E-002	-4.545054E-002	5.497162E-001	-1.845669E-001	5.498775E-001	-1.845988E-001	-4.201621E-002	-5.296297E-003
8.300000E+008	7.534772E-002	-4.585103E-002	5.488159E-001	-1.865351E-001	5.490331E-001	-1.866099E-001	-4.209689E-002	-5.223375E-003
8.400000E+008	7.502534E-002	-4.622956E-002	5.479574E-001	-1.885009E-001	5.481439E-001	-1.885858E-001	-4.218822E-002	-5.135409E-003
8.500000E+008	7.469083E-002	-4.659812E-002	5.471382E-001	-1.905007E-001	5.473363E-001	-1.905964E-001	-4.233740E-002	-5.091812E-003
8.600000E+008	7.430922E-002	-4.696378E-002	5.462665E-001	-1.924526E-001	5.463792E-001	-1.925582E-001	-4.251143E-002	-5.003897E-003
8.700000E+008	7.389905E-002	-4.725442E-002	5.453617E-001	-1.944582E-001	5.455080E-001	-1.945471E-001	-4.267877E-002	-4.925708E-003
8.800000E+008	7.345565E-002	-4.754935E-002	5.445231E-001	-1.964745E-001	5.446676E-001	-1.964835E-001	-4.286677E-002	-4.836720E-003
8.900000E+008	7.300865E-002	-4.787774E-002	5.435879E-001	-1.984077E-001	5.437655E-001	-1.985008E-001	-4.298922E-002	-4.765269E-003
9.000000E+008	7.258396E-002	-4.819953E-002	5.426520E-001	-2.003791E-001	5.429179E-001	-2.004559E-001	-4.311720E-002	-4.693940E-003
9.100000E+008	7.210342E-002	-4.856612E-002	5.417366E-001	-2.023292E-001	5.419833E-001	-2.024033E-001	-4.314922E-002	-4.680220E-003
9.200000E+008	7.165694E-002	-4.892955E-002	5.408573E-001	-2.042616E-001	5.411005E-001	-2.043964E-001	-4.320501E-002	-4.661363E-003
9.300000E+008	7.118443E-002	-4.924446E-002	5.399558E-001	-2.062256E-001	5.401387E-001	-2.063570E-001	-4.324633E-002	-4.601783E-003
9.400000E+008	7.076051E-002	-4.957403E-002	5.390092E-001	-2.081441E-001	5.392971E-001	-2.082819E-001	-4.327027E-002	-4.493073E-003
9.500000E+008	7.031851E-002	-4.989096E-002	5.381179E-001	-2.101053E-001	5.383270E-001	-2.102681E-001	-4.325569E-002	-4.336989E-003
9.600000E+008	6.992301E-002	-5.015344E-002	5.371400E-001	-2.120515E-001	5.374075E-001	-2.121707E-001	-4.323130E-002	-4.164376E-003
9.700000E+008	6.958069E-002	-5.043167E-002	5.361782E-001	-2.139227E-001	5.364720E-001	-2.141053E-001	-4.320618E-002	-4.015555E-003
9.800000E+008	6.921109E-002	-5.071207E-002	5.353124E-001	-2.158075E-001	5.355184E-001	-2.160377E-001	-4.321755E-002	-3.879494E-003
9.900000E+008	6.883852E-002	-5.101075E-002	5.343913E-001	-2.177688E-001	5.345926E-001	-2.179760E-001	-4.333790E-002	-3.724063E-003
1.000000E+009	6.844591E-002	-5.124769E-002	5.334559E-001	-2.196568E-001	5.336317E-001	-2.198730E-001	-4.344712E-002	-3.528003E-003
1.010000E+009	6.797110E-002	-5.145296E-002	5.324840E-001	-2.216179E-001	5.326621E-001	-2.217465E-001	-4.357709E-002	-3.306975E-003
1.020000E+009	6.751229E-002	-5.164842E-002	5.315511E-001	-2.235319E-001	5.316768E-001	-2.236711E-001	-4.367803E-002	-3.062087E-003
1.030000E+009	6.713080E-002	-5.182041E-002	5.305171E-001	-2.254316E-001	5.307241E-001	-2.255874E-001	-4.377196E-002	-2.862912E-003
1.040000E+009	6.671665E-002	-5.204099E-002	5.295282E-001	-2.273106E-001	5.297465E-001	-2.274624E-001	-4.384392E-002	-2.687093E-003
1.050000E+009	6.625830E-002	-5.235169E-002	5.286096E-001	-2.292242E-001	5.288070E-001	-2.293515E-001	-4.396910E-002	-2.530977E-003
1.060000E+009	6.579837E-002	-5.259952E-002	5.275848E-001	-2.310984E-001	5.278345E-001	-2.311968E-001	-4.405977E-002	-2.328877E-003
1.070000E+009	6.532055E-002	-5.283082E-002	5.265921E-001	-2.329688E-001	5.268624E-001	-2.330531E-001	-4.416560E-002	-2.168805E-003
1.080000E+009	6.490689E-002	-5.307594E-002	5.256116E-001	-2.349149E-001	5.259143E-001	-2.350017E-001	-4.423759E-002	-1.939268E-003
1.090000E+009	6.452319E-002	-5.328553E-002	5.246248E-001	-2.367669E-001	5.248889E-001	-2.368575E-001	-4.430676E-002	-1.754100E-003
1.100000E+009	6.417152E-002	-5.352436E-002	5.235244E-001	-2.386545E-001	5.238948E-001	-2.387338E-001	-4.435356E-002	-1.542063E-003
1.110000E+009	6.380015E-002	-5.374090E-002	5.225412E-001	-2.405090E-001	5.228942E-001	-2.406493E-001	-4.444982E-002	-1.415708E-003
1.120000E+009	6.337806E-002	-5.395727E-002	5.215691E-001	-2.423589E-001	5.218703E-001	-2.425309E-001	-4.462341E-002	-1.238354E-003
1.130000E+009	6.296482E-002	-5.419252E-002	5.205064E-001	-2.442353E-001	5.208192E-001	-2.443776E-001	-4.478357E-002	-1.062860E-003
1.140000E+009	6.246598E-002	-5.435734E-002	5.195107E-001	-2.460965E-001	5.198150E-001	-2.462217E-001	-4.494329E-002	-8.326272E-004
1.150000E+009	6.203203E-002	-5.454598E-002	5.184494E-001	-2.479722E-001	5.187330E-001	-2.480667E-001	-4.504277E-002	-6.357344E-004
1.160000E+009	6.162204E-002	-5.473080E-002	5.174178E-001	-2.498121E-001	5.177174E-001	-2.499779E-001	-4.514371E-002	-4.462296E-004
1.170000E+009	6.117843E-002	-5.494761E-002	5.163258E-001	-2.516717E-001	5.166347E-001	-2.517586E-001	-4.518909E-002	-2.218706E-004
1.180000E+009	6.076161E-002	-5.523126E-002	5.152271E-001	-2.535019E-001	5.155921E-001	-2.536156E-001	-4.528800E-002	-6.508361E-005
1.190000E+009	6.034156E-002	-5.543038E-002	5.141923E-001	-2.553536E-001	5.144607E-001	-2.554824E-001	-4.535147E-002	1.709243E-004
1.200000E+009	5.989241E-002	-5.561613E-002	5.131047E-001	-2.571610E-001	5.134056E-001	-2.572860E-001	-4.543163E-002	3.982522E-004
1.210000E+009	5.948917E-002	-5.584021E-002	5.120250E-001	-2.590127E-001	5.123031E-001	-2.591478E-001	-4.551933E-002	6.666174E-004
1.220000E+009	5.907950E-002	-5.603574E-002	5.109378E-001	-2.608100E-001	5.112550E-001	-2.609325E-001	-4.562262E-002	9.093754E-004
1.230000E+009	5.869977E-002	-5.622894E-002	5.098277E-001	-2.626427E-001	5.101177E-001	-2.627673E-001	-4.576921E-002	1.124626E-003
1.240000E+009	5.832424E-002	-5.647948E-002	5.087280E-001	-2.644716E-001	5.090363E-001	-2.645665E-001	-4.589622E-002	1.345925E-003
1.250000E+009	5.788077E-002	-5.667905E-002	5.076138E-001	-2.662750E-001	5.079987E-001	-2.663796E-001	-4.606169E-002	1.522953E-003
1.260000E+009	5.743103E-002	-5.684484E-002	5.064867E-001	-2.680894E-001	5.067950E-001	-2.682311E-001	-4.620831E-002	1.686104E-003
1.270000E+009	5.706213E-002	-5.706133E-002	5.053878E-001	-2.698803E-001	5.056721E-001	-2.699867E-001	-4.630379E-002	1.869118E-003
1.280000E+009	5.660874E-002	-5.718012E-002	5.042687E-001	-2.716831E-001	5.046140E-001	-2.717862E-001	-4.644251E-002	2.031411E-003
1.290000E+009	5.618499E-002	-5.730675E-002	5.031092E-001	-2.735334E-001	5.034685E-001	-2.735910E-001	-4.644707E-002	2.188227E-003
1.300000E+009	5.580949E-002	-5.742404E-002	5.019543E-001	-2.752402E-001	5.023425E-001	-2.753813E-001	-4.643848E-002	2.382604E-003
1.310000E+009	5.538245E-002	-5.755088E-002	5.008018E-001	-2.770679E-001	5.012043E-001	-2.771798E-001	-4.647861E-002	2.578483E-003
1.320000E+009	5.491838E-002	-5.761801E-002	4.996450E-001	-2.788669E-001	5.000616E-001	-2.789953E-001	-4.646784E-002	2.838497E-003
1.330000E+009	5.454707E-002	-5.766860E-002	4.985201E-001	-2.805888E-001	4.988589E-001	-2.807921E-001	-4.639494E-002	3.173059E-003
1.340000E+009	5.411160E-002	-5.771882E-002	4.973467E-001	-2.823520E-001	4.976882E-001	-2.825344E-001	-4.636541E-002	3.540274E-003
1.350000E+009	5.367017E-002	-5.776124E-002	4.961604E-001	-2.841353E-001	4.964614E-001	-2.842939E-001	-4.637166E-002	3.935499E-003
1.360000E+009	5.332219E-002	-5.781952E-002	4.949495E-001	-2.858790E-001	4.953262E-001	-2.860620E-001	-4.633550E-002	4.376143E-003
1.370000E+009	5.291357E-002	-5.792237E-002	4.937837E-001	-2.876244E-001	4.941509E-001	-2.878024E-001	-4.639691E-002	4.779399E-003
1.380000E+009	5.249631E-002	-5.800656E-002	4.925444E-001	-2.893694E-001	4.929406E-001	-2.895617E-001	-4.645347E-002	5.149947E-003
1.390000E+009	5.210347E-002	-5.812923E-002	4.913423E-001	-2.911477E-001	4.917330E-001	-2.913003E-001	-4.660752E-002	5.590317E-003
1.400000E+009	5.166803E-002	-5.819858E-002	4.901246E-001	-2.928493E-001	4.904837E-001	-2.929720E-001	-4.669935E-002	6.003161E-003
1.410000E+009	5.124770E-002	-5.826447E-002	4.889292E-001	-2.945849E-001	4.892493E-001	-2.947231E-001	-4.682688E-002	6.418156E-003
1.420000E+009	5.084931E-002	-5.831411E-002	4.876651E-001	-2.962684E-001	4.880619E-001	-2.964209E-001	-4.693201E-002	6.804943E-003
1.430000E+009	5.048027E-002	-5.838073E-002	4.864492E-001	-2.979797E-001	4.868419E-001	-2.981875E-001	-4.698358E-002	7.156907E-003
1.440000E+009	5.006233E-002	-5.843390E-002	4.852127E-001	-2.996910E-001	4.855943E-001	-2.998542E-001	-4.704897E-002	7.473451E-003
1.450000E+009	4.962697E-002	-5.848727E-002	4.839483E-001	-3.014083E-001	4.843546E-001	-3.015992E-001	-4.715329E-002	7.855327E-003
1.460000E+009	4.919536E-002	-5.851955E-002	4.827342E-001	-3.031462E-001	4.830592E-001	-3.033127E-001	-4.720514E-002	8.233607E-003
1.470000E+009	4.882881E-002	-5.855709E-002	4.814730E-001	-3.048088E-001	4.818109E-001	-3.049815E-001	-4.726831E-002	8.705798E-003
1.480000E+009	4.842103E-002	-5.853284E-002	4.801773E-001	-3.064607E-001	4.805295E-001	-3.066324E-001	-4.732149E-002	9.179013E-003
1.490000E+009	4.803244E-002	-5.855666E-002	4.789433E-001	-3.081293E-001	4.792961E-001	-3.083007E-001	-4.735901E-002	9.655882E-003
