! Device ID: PE43711P
! File Path: z:\PE43711P\CHAR_NOM_04282014\AMB\3p300\LS_ATT_14p50dB\PE43711P_AMB_3p300V_3p000V_0p000V_LS_ATT_14p50dB_S2P_SN_5_A0137A.s2p
! Serial: 5
! Lot: A0137A
! Temp: 25C
! VDD: 3.300
! VSS: 0.000
! Control_Hi: 3.000
! Control_Lo: 0.000
! Attenuation Step: 14.50dB
! Port 1: RF1
! Port 2: RF2
! ThroughPath:1-2
! IDD: 0.0001278814
! ISS: -6.48e-008
!

#  Hz  S   RI  R   50

1.000000E+007	6.399151E-002	5.250261E-005	1.649803E-001	-7.223432E-004	1.651803E-001	-7.834792E-004	-1.260774E-001	8.968853E-004
2.000000E+007	6.419438E-002	-4.986804E-005	1.649537E-001	-1.233383E-003	1.650480E-001	-1.252050E-003	-1.257669E-001	1.532607E-003
3.000000E+007	6.444979E-002	-2.539871E-004	1.649615E-001	-1.850509E-003	1.650914E-001	-1.872689E-003	-1.254812E-001	2.030419E-003
4.000000E+007	6.459022E-002	-4.576828E-004	1.649406E-001	-2.483340E-003	1.650573E-001	-2.476124E-003	-1.253071E-001	2.604178E-003
5.000000E+007	6.469988E-002	-6.930596E-004	1.649326E-001	-3.125741E-003	1.650881E-001	-3.129593E-003	-1.252527E-001	3.181230E-003
6.000000E+007	6.484214E-002	-9.897743E-004	1.648862E-001	-3.738463E-003	1.650571E-001	-3.742491E-003	-1.251090E-001	3.622422E-003
7.000000E+007	6.495538E-002	-1.289488E-003	1.648491E-001	-4.331270E-003	1.649999E-001	-4.357335E-003	-1.249345E-001	4.072527E-003
8.000000E+007	6.507256E-002	-1.585262E-003	1.648246E-001	-4.928515E-003	1.649759E-001	-4.947802E-003	-1.247649E-001	4.512544E-003
9.000000E+007	6.517889E-002	-1.864470E-003	1.648008E-001	-5.524260E-003	1.649367E-001	-5.550343E-003	-1.246483E-001	4.888868E-003
1.000000E+008	6.526353E-002	-2.135731E-003	1.647722E-001	-6.154290E-003	1.648764E-001	-6.155099E-003	-1.245953E-001	5.309013E-003
1.100000E+008	6.536317E-002	-2.447000E-003	1.647234E-001	-6.775309E-003	1.648590E-001	-6.771233E-003	-1.244852E-001	5.680314E-003
1.200000E+008	6.545133E-002	-2.777063E-003	1.646364E-001	-7.381308E-003	1.647894E-001	-7.397824E-003	-1.244057E-001	6.012979E-003
1.300000E+008	6.552251E-002	-3.083190E-003	1.645823E-001	-7.968684E-003	1.647346E-001	-7.991993E-003	-1.242983E-001	6.366045E-003
1.400000E+008	6.556394E-002	-3.365588E-003	1.645405E-001	-8.566242E-003	1.646851E-001	-8.595818E-003	-1.241708E-001	6.693941E-003
1.500000E+008	6.555172E-002	-3.634532E-003	1.644887E-001	-9.156116E-003	1.645885E-001	-9.187892E-003	-1.240554E-001	7.021983E-003
1.600000E+008	6.552980E-002	-3.874801E-003	1.644401E-001	-9.727437E-003	1.645115E-001	-9.744422E-003	-1.240213E-001	7.356058E-003
1.700000E+008	6.555545E-002	-4.134668E-003	1.643983E-001	-1.038835E-002	1.645336E-001	-1.034457E-002	-1.239940E-001	7.696562E-003
1.800000E+008	6.551892E-002	-4.425954E-003	1.642680E-001	-1.101287E-002	1.644719E-001	-1.099765E-002	-1.239390E-001	8.031086E-003
1.900000E+008	6.544575E-002	-4.733611E-003	1.641423E-001	-1.158919E-002	1.643764E-001	-1.159935E-002	-1.238721E-001	8.294198E-003
2.000000E+008	6.536712E-002	-5.068310E-003	1.640891E-001	-1.216035E-002	1.642763E-001	-1.217198E-002	-1.237983E-001	8.563047E-003
2.100000E+008	6.527529E-002	-5.435442E-003	1.640243E-001	-1.272632E-002	1.641904E-001	-1.273282E-002	-1.236918E-001	8.784212E-003
2.200000E+008	6.520234E-002	-5.777943E-003	1.639708E-001	-1.327003E-002	1.641014E-001	-1.329916E-002	-1.235818E-001	8.987437E-003
2.300000E+008	6.513241E-002	-6.118520E-003	1.638897E-001	-1.388072E-002	1.640167E-001	-1.388449E-002	-1.234585E-001	9.213116E-003
2.400000E+008	6.508657E-002	-6.473352E-003	1.638169E-001	-1.446693E-002	1.639472E-001	-1.446697E-002	-1.233223E-001	9.470666E-003
2.500000E+008	6.503529E-002	-6.815987E-003	1.637151E-001	-1.507025E-002	1.638390E-001	-1.504924E-002	-1.231368E-001	9.703208E-003
2.600000E+008	6.501900E-002	-7.162888E-003	1.635956E-001	-1.565150E-002	1.637371E-001	-1.563440E-002	-1.229472E-001	1.002065E-002
2.700000E+008	6.501538E-002	-7.468392E-003	1.634892E-001	-1.620592E-002	1.636438E-001	-1.623221E-002	-1.227296E-001	1.034192E-002
2.800000E+008	6.501229E-002	-7.770557E-003	1.634009E-001	-1.679142E-002	1.635435E-001	-1.677769E-002	-1.225123E-001	1.066454E-002
2.900000E+008	6.494815E-002	-8.043367E-003	1.633103E-001	-1.735540E-002	1.634279E-001	-1.733954E-002	-1.223853E-001	1.100181E-002
3.000000E+008	6.491775E-002	-8.279468E-003	1.632277E-001	-1.794236E-002	1.633466E-001	-1.790713E-002	-1.222332E-001	1.137278E-002
3.100000E+008	6.484201E-002	-8.502007E-003	1.631437E-001	-1.850107E-002	1.632580E-001	-1.850510E-002	-1.221263E-001	1.175974E-002
3.200000E+008	6.477697E-002	-8.718015E-003	1.630171E-001	-1.910006E-002	1.631720E-001	-1.908836E-002	-1.220507E-001	1.213934E-002
3.300000E+008	6.465182E-002	-8.944742E-003	1.629188E-001	-1.967054E-002	1.630493E-001	-1.969839E-002	-1.219625E-001	1.249774E-002
3.400000E+008	6.446840E-002	-9.165970E-003	1.627921E-001	-2.024728E-002	1.629039E-001	-2.030785E-002	-1.218458E-001	1.281273E-002
3.500000E+008	6.428410E-002	-9.430167E-003	1.626858E-001	-2.081906E-002	1.627412E-001	-2.083524E-002	-1.217047E-001	1.305452E-002
3.600000E+008	6.412088E-002	-9.677523E-003	1.625722E-001	-2.138496E-002	1.626165E-001	-2.135164E-002	-1.215525E-001	1.336240E-002
3.700000E+008	6.395749E-002	-9.950515E-003	1.624107E-001	-2.192502E-002	1.625126E-001	-2.185821E-002	-1.213732E-001	1.360409E-002
3.800000E+008	6.382128E-002	-1.024614E-002	1.623162E-001	-2.249941E-002	1.624467E-001	-2.244416E-002	-1.211901E-001	1.390249E-002
3.900000E+008	6.364962E-002	-1.056792E-002	1.621609E-001	-2.306843E-002	1.623287E-001	-2.302389E-002	-1.209116E-001	1.424091E-002
4.000000E+008	6.354456E-002	-1.089560E-002	1.620227E-001	-2.359003E-002	1.621858E-001	-2.360693E-002	-1.206114E-001	1.457898E-002
4.100000E+008	6.339686E-002	-1.120056E-002	1.618894E-001	-2.411635E-002	1.620462E-001	-2.414994E-002	-1.203539E-001	1.491328E-002
4.200000E+008	6.327349E-002	-1.150745E-002	1.618113E-001	-2.466260E-002	1.619383E-001	-2.468966E-002	-1.201463E-001	1.529984E-002
4.300000E+008	6.317130E-002	-1.176392E-002	1.617026E-001	-2.522512E-002	1.618056E-001	-2.525216E-002	-1.199345E-001	1.572620E-002
4.400000E+008	6.305672E-002	-1.203499E-002	1.615464E-001	-2.579483E-002	1.616774E-001	-2.580527E-002	-1.197434E-001	1.619778E-002
4.500000E+008	6.297184E-002	-1.228388E-002	1.614311E-001	-2.635710E-002	1.615715E-001	-2.637592E-002	-1.195727E-001	1.668415E-002
4.600000E+008	6.285662E-002	-1.253679E-002	1.612831E-001	-2.692782E-002	1.614150E-001	-2.693090E-002	-1.194067E-001	1.716474E-002
4.700000E+008	6.273302E-002	-1.277652E-002	1.611395E-001	-2.746428E-002	1.612537E-001	-2.748421E-002	-1.192535E-001	1.757778E-002
4.800000E+008	6.258418E-002	-1.298558E-002	1.610185E-001	-2.798310E-002	1.611111E-001	-2.799665E-002	-1.191124E-001	1.801752E-002
4.900000E+008	6.240539E-002	-1.319508E-002	1.608744E-001	-2.853028E-002	1.609722E-001	-2.856942E-002	-1.190057E-001	1.842470E-002
5.000000E+008	6.225433E-002	-1.340230E-002	1.607362E-001	-2.907181E-002	1.608493E-001	-2.908145E-002	-1.188535E-001	1.882334E-002
5.100000E+008	6.211212E-002	-1.362889E-002	1.605993E-001	-2.963736E-002	1.607187E-001	-2.961059E-002	-1.186940E-001	1.921354E-002
5.200000E+008	6.193799E-002	-1.389457E-002	1.604598E-001	-3.017132E-002	1.605909E-001	-3.017366E-002	-1.185171E-001	1.959549E-002
5.300000E+008	6.175634E-002	-1.414875E-002	1.603081E-001	-3.072315E-002	1.604484E-001	-3.073462E-002	-1.182815E-001	2.001290E-002
5.400000E+008	6.158697E-002	-1.446240E-002	1.601507E-001	-3.125945E-002	1.602880E-001	-3.128623E-002	-1.180614E-001	2.038425E-002
5.500000E+008	6.139819E-002	-1.468771E-002	1.600137E-001	-3.179694E-002	1.601123E-001	-3.181340E-002	-1.178573E-001	2.081738E-002
5.600000E+008	6.122199E-002	-1.499332E-002	1.598381E-001	-3.232279E-002	1.599374E-001	-3.235564E-002	-1.176608E-001	2.124433E-002
5.700000E+008	6.107657E-002	-1.526695E-002	1.596901E-001	-3.284967E-002	1.597993E-001	-3.289071E-002	-1.174991E-001	2.174320E-002
5.800000E+008	6.094633E-002	-1.553620E-002	1.595340E-001	-3.339804E-002	1.596577E-001	-3.340584E-002	-1.173488E-001	2.220350E-002
5.900000E+008	6.080453E-002	-1.583729E-002	1.593816E-001	-3.394233E-002	1.595033E-001	-3.396390E-002	-1.171858E-001	2.272333E-002
6.000000E+008	6.070429E-002	-1.612001E-002	1.592189E-001	-3.448090E-002	1.593370E-001	-3.450483E-002	-1.169938E-001	2.315831E-002
6.100000E+008	6.060786E-002	-1.638541E-002	1.590711E-001	-3.501189E-002	1.591442E-001	-3.503394E-002	-1.168431E-001	2.362057E-002
6.200000E+008	6.053511E-002	-1.659305E-002	1.588803E-001	-3.553210E-002	1.589762E-001	-3.557041E-002	-1.166811E-001	2.406182E-002
6.300000E+008	6.046046E-002	-1.682331E-002	1.587110E-001	-3.604915E-002	1.588189E-001	-3.607588E-002	-1.165148E-001	2.450116E-002
6.400000E+008	6.039116E-002	-1.701978E-002	1.585458E-001	-3.657260E-002	1.586545E-001	-3.660792E-002	-1.163351E-001	2.494163E-002
6.500000E+008	6.030155E-002	-1.720974E-002	1.583841E-001	-3.709445E-002	1.584919E-001	-3.712853E-002	-1.161650E-001	2.540326E-002
6.600000E+008	6.018398E-002	-1.740551E-002	1.582305E-001	-3.760514E-002	1.583221E-001	-3.765630E-002	-1.159884E-001	2.586552E-002
6.700000E+008	6.002867E-002	-1.757347E-002	1.580549E-001	-3.814729E-002	1.581453E-001	-3.818277E-002	-1.158217E-001	2.635014E-002
6.800000E+008	5.985608E-002	-1.773231E-002	1.578775E-001	-3.866950E-002	1.579755E-001	-3.871294E-002	-1.156462E-001	2.685003E-002
6.900000E+008	5.968465E-002	-1.788534E-002	1.576884E-001	-3.918698E-002	1.577945E-001	-3.921458E-002	-1.154805E-001	2.735376E-002
7.000000E+008	5.953352E-002	-1.805655E-002	1.575201E-001	-3.970095E-002	1.576294E-001	-3.972098E-002	-1.153651E-001	2.785723E-002
7.100000E+008	5.936000E-002	-1.824892E-002	1.573489E-001	-4.020087E-002	1.574621E-001	-4.024824E-002	-1.152672E-001	2.830825E-002
7.200000E+008	5.916742E-002	-1.845279E-002	1.571913E-001	-4.071281E-002	1.573056E-001	-4.076602E-002	-1.151522E-001	2.878513E-002
7.300000E+008	5.900435E-002	-1.867654E-002	1.569986E-001	-4.124245E-002	1.571375E-001	-4.130113E-002	-1.150453E-001	2.919954E-002
7.400000E+008	5.880750E-002	-1.886624E-002	1.568250E-001	-4.175445E-002	1.569416E-001	-4.179186E-002	-1.149468E-001	2.961145E-002
7.500000E+008	5.863999E-002	-1.907895E-002	1.566304E-001	-4.226259E-002	1.567617E-001	-4.231318E-002	-1.148472E-001	3.002097E-002
7.600000E+008	5.848523E-002	-1.930601E-002	1.564572E-001	-4.277948E-002	1.565816E-001	-4.282856E-002	-1.146912E-001	3.040588E-002
7.700000E+008	5.830350E-002	-1.955581E-002	1.562656E-001	-4.329368E-002	1.564038E-001	-4.334357E-002	-1.145668E-001	3.077816E-002
7.800000E+008	5.815691E-002	-1.975009E-002	1.560770E-001	-4.379931E-002	1.562383E-001	-4.384320E-002	-1.143943E-001	3.117520E-002
7.900000E+008	5.799141E-002	-2.002990E-002	1.559042E-001	-4.430017E-002	1.560258E-001	-4.437848E-002	-1.142444E-001	3.157509E-002
8.000000E+008	5.784314E-002	-2.026461E-002	1.557120E-001	-4.482196E-002	1.558217E-001	-4.487364E-002	-1.140503E-001	3.200738E-002
8.100000E+008	5.770403E-002	-2.051788E-002	1.555269E-001	-4.532690E-002	1.556138E-001	-4.538123E-002	-1.138036E-001	3.244598E-002
8.200000E+008	5.759989E-002	-2.073129E-002	1.553305E-001	-4.584042E-002	1.554222E-001	-4.587052E-002	-1.135919E-001	3.285036E-002
8.300000E+008	5.750539E-002	-2.096434E-002	1.551446E-001	-4.633258E-002	1.552549E-001	-4.638467E-002	-1.133947E-001	3.330521E-002
8.400000E+008	5.741355E-002	-2.117812E-002	1.549300E-001	-4.682881E-002	1.550618E-001	-4.688029E-002	-1.132083E-001	3.374636E-002
8.500000E+008	5.733400E-002	-2.134809E-002	1.547557E-001	-4.733873E-002	1.548586E-001	-4.740597E-002	-1.130766E-001	3.419123E-002
8.600000E+008	5.720896E-002	-2.152450E-002	1.545592E-001	-4.783676E-002	1.546520E-001	-4.788811E-002	-1.129209E-001	3.463131E-002
8.700000E+008	5.711960E-002	-2.166873E-002	1.543564E-001	-4.834241E-002	1.544501E-001	-4.840173E-002	-1.127616E-001	3.505007E-002
8.800000E+008	5.699429E-002	-2.180106E-002	1.541654E-001	-4.884708E-002	1.542751E-001	-4.889691E-002	-1.126195E-001	3.548240E-002
8.900000E+008	5.683172E-002	-2.195294E-002	1.539466E-001	-4.935307E-002	1.540866E-001	-4.940040E-002	-1.124611E-001	3.585994E-002
9.000000E+008	5.668326E-002	-2.210436E-002	1.537415E-001	-4.985077E-002	1.538817E-001	-4.989509E-002	-1.122769E-001	3.628283E-002
9.100000E+008	5.650452E-002	-2.226662E-002	1.535465E-001	-5.035110E-002	1.536673E-001	-5.040026E-002	-1.120613E-001	3.667206E-002
9.200000E+008	5.632398E-002	-2.247071E-002	1.533597E-001	-5.084031E-002	1.534769E-001	-5.090526E-002	-1.118152E-001	3.708903E-002
9.300000E+008	5.618435E-002	-2.263744E-002	1.531388E-001	-5.134143E-002	1.532469E-001	-5.138898E-002	-1.115497E-001	3.749970E-002
9.400000E+008	5.604205E-002	-2.283880E-002	1.529269E-001	-5.181675E-002	1.530508E-001	-5.188213E-002	-1.112659E-001	3.793842E-002
9.500000E+008	5.590640E-002	-2.304660E-002	1.527133E-001	-5.229945E-002	1.528458E-001	-5.238504E-002	-1.109203E-001	3.842708E-002
9.600000E+008	5.579135E-002	-2.320429E-002	1.525269E-001	-5.280215E-002	1.526398E-001	-5.286047E-002	-1.106186E-001	3.888051E-002
9.700000E+008	5.569628E-002	-2.337320E-002	1.522956E-001	-5.327544E-002	1.524295E-001	-5.335759E-002	-1.103154E-001	3.937741E-002
9.800000E+008	5.559687E-002	-2.352282E-002	1.521047E-001	-5.377225E-002	1.522203E-001	-5.386195E-002	-1.100600E-001	3.990081E-002
9.900000E+008	5.549635E-002	-2.365632E-002	1.519023E-001	-5.428156E-002	1.520001E-001	-5.434910E-002	-1.098057E-001	4.043180E-002
1.000000E+009	5.539364E-002	-2.376990E-002	1.516979E-001	-5.476090E-002	1.517934E-001	-5.483311E-002	-1.095966E-001	4.092031E-002
1.010000E+009	5.524255E-002	-2.386988E-002	1.514909E-001	-5.525080E-002	1.515810E-001	-5.533251E-002	-1.093625E-001	4.142841E-002
1.020000E+009	5.511111E-002	-2.399079E-002	1.512535E-001	-5.573710E-002	1.513603E-001	-5.581336E-002	-1.091907E-001	4.195851E-002
1.030000E+009	5.497029E-002	-2.408577E-002	1.510269E-001	-5.623753E-002	1.511416E-001	-5.630066E-002	-1.089961E-001	4.245644E-002
1.040000E+009	5.479694E-002	-2.419370E-002	1.508113E-001	-5.671899E-002	1.509201E-001	-5.678726E-002	-1.087857E-001	4.294649E-002
1.050000E+009	5.464455E-002	-2.434841E-002	1.506017E-001	-5.719076E-002	1.507074E-001	-5.724898E-002	-1.085557E-001	4.345807E-002
1.060000E+009	5.449058E-002	-2.447647E-002	1.503818E-001	-5.767345E-002	1.504797E-001	-5.772518E-002	-1.083229E-001	4.394675E-002
1.070000E+009	5.433703E-002	-2.460927E-002	1.501442E-001	-5.816264E-002	1.502670E-001	-5.820812E-002	-1.080642E-001	4.444240E-002
1.080000E+009	5.419818E-002	-2.476468E-002	1.499137E-001	-5.866274E-002	1.500548E-001	-5.869678E-002	-1.077859E-001	4.494760E-002
1.090000E+009	5.405090E-002	-2.490774E-002	1.496839E-001	-5.911483E-002	1.498183E-001	-5.917816E-002	-1.075601E-001	4.544171E-002
1.100000E+009	5.391583E-002	-2.502907E-002	1.494474E-001	-5.962407E-002	1.495947E-001	-5.966436E-002	-1.073269E-001	4.594545E-002
1.110000E+009	5.378823E-002	-2.513766E-002	1.492459E-001	-6.009089E-002	1.493887E-001	-6.013322E-002	-1.070894E-001	4.643993E-002
1.120000E+009	5.361645E-002	-2.527984E-002	1.490098E-001	-6.057053E-002	1.491569E-001	-6.065066E-002	-1.069263E-001	4.693684E-002
1.130000E+009	5.347557E-002	-2.539893E-002	1.487792E-001	-6.105883E-002	1.489044E-001	-6.112023E-002	-1.067295E-001	4.740123E-002
1.140000E+009	5.329225E-002	-2.551587E-002	1.485521E-001	-6.153380E-002	1.486691E-001	-6.158047E-002	-1.065234E-001	4.791318E-002
1.150000E+009	5.315669E-002	-2.564729E-002	1.483208E-001	-6.201867E-002	1.484318E-001	-6.206877E-002	-1.062845E-001	4.838099E-002
1.160000E+009	5.296679E-002	-2.575723E-002	1.480738E-001	-6.250588E-002	1.482097E-001	-6.255319E-002	-1.060546E-001	4.884666E-002
1.170000E+009	5.281637E-002	-2.589448E-002	1.478356E-001	-6.297735E-002	1.479668E-001	-6.300792E-002	-1.057949E-001	4.937888E-002
1.180000E+009	5.267878E-002	-2.603879E-002	1.475830E-001	-6.343868E-002	1.477269E-001	-6.349720E-002	-1.055036E-001	4.985996E-002
1.190000E+009	5.250134E-002	-2.615607E-002	1.473363E-001	-6.392152E-002	1.474489E-001	-6.398384E-002	-1.052617E-001	5.037794E-002
1.200000E+009	5.234639E-002	-2.629590E-002	1.470963E-001	-6.438806E-002	1.472163E-001	-6.444608E-002	-1.049794E-001	5.089651E-002
1.210000E+009	5.223775E-002	-2.644431E-002	1.468642E-001	-6.487315E-002	1.469705E-001	-6.492655E-002	-1.047167E-001	5.142205E-002
1.220000E+009	5.207499E-002	-2.660249E-002	1.466056E-001	-6.533711E-002	1.467312E-001	-6.539863E-002	-1.044943E-001	5.193549E-002
1.230000E+009	5.193197E-002	-2.674913E-002	1.463717E-001	-6.581090E-002	1.464735E-001	-6.585975E-002	-1.042849E-001	5.243946E-002
1.240000E+009	5.179070E-002	-2.688992E-002	1.460990E-001	-6.629003E-002	1.462236E-001	-6.631672E-002	-1.040787E-001	5.291471E-002
1.250000E+009	5.166214E-002	-2.707138E-002	1.458594E-001	-6.674886E-002	1.460009E-001	-6.678617E-002	-1.038754E-001	5.340384E-002
1.260000E+009	5.152120E-002	-2.720095E-002	1.456130E-001	-6.722778E-002	1.457179E-001	-6.727588E-002	-1.036350E-001	5.384495E-002
1.270000E+009	5.145290E-002	-2.731838E-002	1.453411E-001	-6.767643E-002	1.454607E-001	-6.773089E-002	-1.033630E-001	5.427855E-002
1.280000E+009	5.131933E-002	-2.743490E-002	1.451100E-001	-6.816080E-002	1.452245E-001	-6.820007E-002	-1.031078E-001	5.469916E-002
1.290000E+009	5.122085E-002	-2.756218E-002	1.448443E-001	-6.864304E-002	1.449686E-001	-6.869048E-002	-1.027779E-001	5.510425E-002
1.300000E+009	5.111034E-002	-2.762869E-002	1.445610E-001	-6.910140E-002	1.447095E-001	-6.914106E-002	-1.024478E-001	5.554797E-002
1.310000E+009	5.097921E-002	-2.773374E-002	1.443050E-001	-6.955602E-002	1.444328E-001	-6.963566E-002	-1.020987E-001	5.599990E-002
1.320000E+009	5.085382E-002	-2.781616E-002	1.440502E-001	-7.003775E-002	1.441738E-001	-7.008073E-002	-1.016931E-001	5.654262E-002
1.330000E+009	5.071054E-002	-2.788205E-002	1.437977E-001	-7.047441E-002	1.439127E-001	-7.055537E-002	-1.012866E-001	5.708804E-002
1.340000E+009	5.057800E-002	-2.795708E-002	1.435181E-001	-7.093762E-002	1.436495E-001	-7.101754E-002	-1.009292E-001	5.768642E-002
1.350000E+009	5.041060E-002	-2.803387E-002	1.432345E-001	-7.140347E-002	1.433544E-001	-7.146543E-002	-1.005461E-001	5.829099E-002
1.360000E+009	5.028620E-002	-2.809203E-002	1.429578E-001	-7.186404E-002	1.430987E-001	-7.192486E-002	-1.001965E-001	5.893023E-002
1.370000E+009	5.014818E-002	-2.817592E-002	1.426969E-001	-7.234074E-002	1.428255E-001	-7.240499E-002	-9.988418E-002	5.957995E-002
1.380000E+009	4.998768E-002	-2.827015E-002	1.424310E-001	-7.279625E-002	1.425508E-001	-7.284526E-002	-9.958336E-002	6.017732E-002
1.390000E+009	4.986927E-002	-2.837403E-002	1.421510E-001	-7.324870E-002	1.422690E-001	-7.331892E-002	-9.932047E-002	6.082532E-002
1.400000E+009	4.969932E-002	-2.844914E-002	1.418699E-001	-7.369113E-002	1.419740E-001	-7.374548E-002	-9.904806E-002	6.142869E-002
1.410000E+009	4.955901E-002	-2.852866E-002	1.415709E-001	-7.415530E-002	1.416841E-001	-7.419255E-002	-9.878417E-002	6.202186E-002
1.420000E+009	4.939005E-002	-2.860888E-002	1.412852E-001	-7.460282E-002	1.414157E-001	-7.464617E-002	-9.852130E-002	6.258648E-002
1.430000E+009	4.925878E-002	-2.869543E-002	1.409932E-001	-7.505201E-002	1.411330E-001	-7.511097E-002	-9.823592E-002	6.314025E-002
1.440000E+009	4.909859E-002	-2.875313E-002	1.407163E-001	-7.550676E-002	1.408485E-001	-7.555175E-002	-9.794181E-002	6.368010E-002
1.450000E+009	4.893103E-002	-2.881832E-002	1.404350E-001	-7.596272E-002	1.405673E-001	-7.599845E-002	-9.761732E-002	6.424187E-002
1.460000E+009	4.873924E-002	-2.888795E-002	1.401435E-001	-7.642044E-002	1.402470E-001	-7.646131E-002	-9.728587E-002	6.480985E-002
1.470000E+009	4.859829E-002	-2.900409E-002	1.398441E-001	-7.685390E-002	1.399809E-001	-7.690618E-002	-9.694117E-002	6.540277E-002
1.480000E+009	4.841211E-002	-2.905191E-002	1.395504E-001	-7.726813E-002	1.396720E-001	-7.733737E-002	-9.660384E-002	6.602544E-002
1.490000E+009	4.825997E-002	-2.913054E-002	1.392471E-001	-7.772470E-002	1.393608E-001	-7.777286E-002	-9.624675E-002	6.665418E-002
1.500000E+009	4.810029E-002	-2.921290E-002	1.389747E-001	-7.815683E-002	1.390878E-001	-7.820858E-002	-9.589842E-002	6.727254E-002
