! Device ID: PE43711P
! File Path: z:\PE43711P\CHAR_NOM_04282014\AMB\3p300\LS_ATT_5p25dB\PE43711P_AMB_3p300V_3p000V_0p000V_LS_ATT_5p25dB_S2P_SN_5_A0137A.s2p
! Serial: 5
! Lot: A0137A
! Temp: 25C
! VDD: 3.300
! VSS: 0.000
! Control_Hi: 3.000
! Control_Lo: 0.000
! Attenuation Step: 5.25dB
! Port 1: RF1
! Port 2: RF2
! ThroughPath:1-2
! IDD: 0.0001280229
! ISS: -1.993e-007
!

#  Hz  S   RI  R   50

1.000000E+007	9.450423E-002	-3.682029E-004	4.816587E-001	-2.564562E-003	4.818987E-001	-2.642111E-003	-3.236432E-002	3.198827E-004
2.000000E+007	9.462190E-002	-6.579273E-004	4.815845E-001	-4.099030E-003	4.815217E-001	-4.145494E-003	-3.216397E-002	6.138043E-004
3.000000E+007	9.489363E-002	-1.193721E-003	4.815732E-001	-6.171056E-003	4.815481E-001	-6.194212E-003	-3.187375E-002	7.655773E-004
4.000000E+007	9.497391E-002	-1.690767E-003	4.815683E-001	-8.245366E-003	4.815061E-001	-8.282433E-003	-3.153953E-002	9.098306E-004
5.000000E+007	9.517219E-002	-2.295852E-003	4.815186E-001	-1.047660E-002	4.815322E-001	-1.043182E-002	-3.139445E-002	9.403834E-004
6.000000E+007	9.540666E-002	-2.962249E-003	4.814119E-001	-1.253138E-002	4.815186E-001	-1.249854E-002	-3.126699E-002	8.735768E-004
7.000000E+007	9.549399E-002	-3.644804E-003	4.812684E-001	-1.457551E-002	4.813746E-001	-1.457477E-002	-3.116691E-002	7.957912E-004
8.000000E+007	9.563071E-002	-4.325967E-003	4.811864E-001	-1.656177E-002	4.812717E-001	-1.657726E-002	-3.108168E-002	7.984276E-004
9.000000E+007	9.571671E-002	-4.972752E-003	4.810665E-001	-1.860131E-002	4.811338E-001	-1.861384E-002	-3.095552E-002	7.313252E-004
1.000000E+008	9.579938E-002	-5.607674E-003	4.809942E-001	-2.068299E-002	4.810041E-001	-2.064565E-002	-3.076150E-002	6.372715E-004
1.100000E+008	9.585310E-002	-6.223809E-003	4.807814E-001	-2.276760E-002	4.808716E-001	-2.268456E-002	-3.070577E-002	5.223119E-004
1.200000E+008	9.596208E-002	-6.878648E-003	4.805316E-001	-2.479465E-002	4.806823E-001	-2.475011E-002	-3.077466E-002	4.435085E-004
1.300000E+008	9.602213E-002	-7.581507E-003	4.803859E-001	-2.679256E-002	4.804854E-001	-2.679180E-002	-3.066960E-002	2.598820E-004
1.400000E+008	9.604290E-002	-8.370708E-003	4.802155E-001	-2.883539E-002	4.802855E-001	-2.886491E-002	-3.033858E-002	5.569373E-005
1.500000E+008	9.593873E-002	-9.073475E-003	4.800385E-001	-3.080217E-002	4.799914E-001	-3.083052E-002	-3.006763E-002	-9.562033E-005
1.600000E+008	9.576399E-002	-9.596044E-003	4.798602E-001	-3.276668E-002	4.797711E-001	-3.275269E-002	-3.021318E-002	-1.771286E-004
1.700000E+008	9.556625E-002	-1.008073E-002	4.796469E-001	-3.491823E-002	4.797839E-001	-3.475884E-002	-3.058414E-002	-3.171330E-004
1.800000E+008	9.534072E-002	-1.069407E-002	4.791673E-001	-3.702547E-002	4.795116E-001	-3.689489E-002	-3.088617E-002	-5.161438E-004
1.900000E+008	9.521463E-002	-1.140749E-002	4.788127E-001	-3.896276E-002	4.791410E-001	-3.891540E-002	-3.088735E-002	-7.159373E-004
2.000000E+008	9.515506E-002	-1.218779E-002	4.786125E-001	-4.089214E-002	4.788623E-001	-4.085329E-002	-3.065900E-002	-8.733005E-004
2.100000E+008	9.510329E-002	-1.300125E-002	4.783827E-001	-4.283010E-002	4.785381E-001	-4.282279E-002	-3.037676E-002	-1.011921E-003
2.200000E+008	9.502128E-002	-1.375753E-002	4.781301E-001	-4.472869E-002	4.782820E-001	-4.474626E-002	-3.019370E-002	-1.165208E-003
2.300000E+008	9.485687E-002	-1.447084E-002	4.778618E-001	-4.671035E-002	4.779588E-001	-4.671890E-002	-3.013486E-002	-1.374319E-003
2.400000E+008	9.467411E-002	-1.517657E-002	4.775498E-001	-4.870774E-002	4.776411E-001	-4.869137E-002	-3.011197E-002	-1.607367E-003
2.500000E+008	9.448290E-002	-1.584794E-002	4.772135E-001	-5.069802E-002	4.773305E-001	-5.065636E-002	-3.008688E-002	-1.891372E-003
2.600000E+008	9.431689E-002	-1.658206E-002	4.768411E-001	-5.269194E-002	4.769999E-001	-5.261931E-002	-3.002705E-002	-2.106479E-003
2.700000E+008	9.417491E-002	-1.727021E-002	4.764199E-001	-5.461426E-002	4.766381E-001	-5.460801E-002	-2.988892E-002	-2.245365E-003
2.800000E+008	9.404693E-002	-1.792053E-002	4.760450E-001	-5.651728E-002	4.762770E-001	-5.647039E-002	-2.974654E-002	-2.367862E-003
2.900000E+008	9.386279E-002	-1.847735E-002	4.757252E-001	-5.839612E-002	4.758767E-001	-5.832712E-002	-2.968075E-002	-2.450794E-003
3.000000E+008	9.374972E-002	-1.904139E-002	4.754072E-001	-6.034656E-002	4.756034E-001	-6.026983E-002	-2.960269E-002	-2.528223E-003
3.100000E+008	9.356143E-002	-1.956378E-002	4.750532E-001	-6.226378E-002	4.752551E-001	-6.220738E-002	-2.954514E-002	-2.547639E-003
3.200000E+008	9.338822E-002	-2.010309E-002	4.746470E-001	-6.422254E-002	4.749166E-001	-6.416863E-002	-2.953844E-002	-2.609195E-003
3.300000E+008	9.314214E-002	-2.061843E-002	4.742589E-001	-6.612544E-002	4.744966E-001	-6.618265E-002	-2.950558E-002	-2.701892E-003
3.400000E+008	9.279444E-002	-2.116757E-002	4.738395E-001	-6.807813E-002	4.739048E-001	-6.819541E-002	-2.946117E-002	-2.847899E-003
3.500000E+008	9.244592E-002	-2.172968E-002	4.734037E-001	-7.002387E-002	4.733671E-001	-6.998013E-002	-2.942734E-002	-3.056510E-003
3.600000E+008	9.213016E-002	-2.223875E-002	4.729688E-001	-7.192333E-002	4.729327E-001	-7.173341E-002	-2.937699E-002	-3.184048E-003
3.700000E+008	9.185039E-002	-2.282690E-002	4.724759E-001	-7.373475E-002	4.725719E-001	-7.346672E-002	-2.924265E-002	-3.307125E-003
3.800000E+008	9.155848E-002	-2.341201E-002	4.720623E-001	-7.559826E-002	4.722900E-001	-7.540589E-002	-2.911942E-002	-3.481167E-003
3.900000E+008	9.121551E-002	-2.401228E-002	4.715438E-001	-7.754060E-002	4.718495E-001	-7.735440E-002	-2.894632E-002	-3.609138E-003
4.000000E+008	9.095639E-002	-2.463640E-002	4.710334E-001	-7.929055E-002	4.714087E-001	-7.929753E-002	-2.878770E-002	-3.719747E-003
4.100000E+008	9.059487E-002	-2.525550E-002	4.706032E-001	-8.104962E-002	4.708967E-001	-8.116634E-002	-2.863629E-002	-3.806237E-003
4.200000E+008	9.021854E-002	-2.583586E-002	4.702332E-001	-8.291819E-002	4.704264E-001	-8.293837E-002	-2.853610E-002	-3.864988E-003
4.300000E+008	8.995222E-002	-2.636291E-002	4.697985E-001	-8.481133E-002	4.699538E-001	-8.482141E-002	-2.844847E-002	-3.892155E-003
4.400000E+008	8.968928E-002	-2.686477E-002	4.693192E-001	-8.669591E-002	4.695295E-001	-8.667925E-002	-2.837780E-002	-3.861454E-003
4.500000E+008	8.942908E-002	-2.740448E-002	4.688234E-001	-8.854248E-002	4.690799E-001	-8.853785E-002	-2.830440E-002	-3.817710E-003
4.600000E+008	8.917259E-002	-2.792900E-002	4.683140E-001	-9.042373E-002	4.685354E-001	-9.041712E-002	-2.824066E-002	-3.751434E-003
4.700000E+008	8.886533E-002	-2.841192E-002	4.677962E-001	-9.221419E-002	4.679944E-001	-9.222850E-002	-2.823744E-002	-3.731453E-003
4.800000E+008	8.852350E-002	-2.886056E-002	4.672883E-001	-9.401163E-002	4.674490E-001	-9.399464E-002	-2.824072E-002	-3.689319E-003
4.900000E+008	8.815660E-002	-2.932043E-002	4.668010E-001	-9.582379E-002	4.669373E-001	-9.582996E-002	-2.825869E-002	-3.656186E-003
5.000000E+008	8.782435E-002	-2.974477E-002	4.662521E-001	-9.765223E-002	4.664313E-001	-9.760036E-002	-2.825821E-002	-3.662212E-003
5.100000E+008	8.749168E-002	-3.024030E-002	4.657630E-001	-9.944678E-002	4.659395E-001	-9.937081E-002	-2.818833E-002	-3.671847E-003
5.200000E+008	8.714397E-002	-3.077761E-002	4.652174E-001	-1.012691E-001	4.654455E-001	-1.012350E-001	-2.812166E-002	-3.722816E-003
5.300000E+008	8.678204E-002	-3.132374E-002	4.647100E-001	-1.031006E-001	4.649268E-001	-1.030913E-001	-2.798301E-002	-3.788107E-003
5.400000E+008	8.640273E-002	-3.190735E-002	4.640924E-001	-1.049097E-001	4.643775E-001	-1.049337E-001	-2.788591E-002	-3.858329E-003
5.500000E+008	8.602134E-002	-3.236807E-002	4.635649E-001	-1.067286E-001	4.637540E-001	-1.067046E-001	-2.783120E-002	-3.839002E-003
5.600000E+008	8.565805E-002	-3.285161E-002	4.629600E-001	-1.084857E-001	4.631730E-001	-1.084881E-001	-2.777178E-002	-3.818923E-003
5.700000E+008	8.534059E-002	-3.334330E-002	4.623808E-001	-1.102372E-001	4.626405E-001	-1.102625E-001	-2.779849E-002	-3.749423E-003
5.800000E+008	8.500582E-002	-3.380328E-002	4.618290E-001	-1.119977E-001	4.621051E-001	-1.120346E-001	-2.779956E-002	-3.695061E-003
5.900000E+008	8.468044E-002	-3.430869E-002	4.612330E-001	-1.138363E-001	4.615624E-001	-1.138476E-001	-2.782607E-002	-3.632274E-003
6.000000E+008	8.439538E-002	-3.479929E-002	4.606381E-001	-1.155946E-001	4.609391E-001	-1.156368E-001	-2.779984E-002	-3.618582E-003
6.100000E+008	8.409785E-002	-3.528561E-002	4.600530E-001	-1.173267E-001	4.602952E-001	-1.174077E-001	-2.785075E-002	-3.578297E-003
6.200000E+008	8.382149E-002	-3.573836E-002	4.594217E-001	-1.190594E-001	4.596936E-001	-1.191202E-001	-2.784141E-002	-3.557519E-003
6.300000E+008	8.356448E-002	-3.619734E-002	4.587794E-001	-1.208145E-001	4.590654E-001	-1.208761E-001	-2.784111E-002	-3.530016E-003
6.400000E+008	8.331196E-002	-3.664061E-002	4.581922E-001	-1.225463E-001	4.584423E-001	-1.226121E-001	-2.777905E-002	-3.469650E-003
6.500000E+008	8.304491E-002	-3.703717E-002	4.575813E-001	-1.242754E-001	4.578506E-001	-1.243378E-001	-2.777101E-002	-3.382794E-003
6.600000E+008	8.273700E-002	-3.746255E-002	4.570047E-001	-1.260321E-001	4.571987E-001	-1.261176E-001	-2.773520E-002	-3.315515E-003
6.700000E+008	8.235348E-002	-3.782976E-002	4.563721E-001	-1.277838E-001	4.565905E-001	-1.278668E-001	-2.778021E-002	-3.231773E-003
6.800000E+008	8.195608E-002	-3.819239E-002	4.557158E-001	-1.294954E-001	4.559468E-001	-1.295868E-001	-2.781651E-002	-3.111696E-003
6.900000E+008	8.154963E-002	-3.855067E-002	4.550368E-001	-1.312601E-001	4.552377E-001	-1.312732E-001	-2.786042E-002	-2.960793E-003
7.000000E+008	8.119517E-002	-3.892035E-002	4.544054E-001	-1.329525E-001	4.546497E-001	-1.329567E-001	-2.792862E-002	-2.881555E-003
7.100000E+008	8.081323E-002	-3.933343E-002	4.537467E-001	-1.346296E-001	4.540057E-001	-1.347006E-001	-2.798608E-002	-2.808212E-003
7.200000E+008	8.044466E-002	-3.975074E-002	4.531015E-001	-1.363163E-001	4.533560E-001	-1.364078E-001	-2.802997E-002	-2.792017E-003
7.300000E+008	8.005130E-002	-4.019020E-002	4.524066E-001	-1.380261E-001	4.527448E-001	-1.381351E-001	-2.812134E-002	-2.802536E-003
7.400000E+008	7.963873E-002	-4.056392E-002	4.517172E-001	-1.397636E-001	4.520487E-001	-1.398190E-001	-2.821228E-002	-2.798848E-003
7.500000E+008	7.929089E-002	-4.097609E-002	4.510833E-001	-1.414648E-001	4.513863E-001	-1.415542E-001	-2.827724E-002	-2.802089E-003
7.600000E+008	7.887652E-002	-4.139103E-002	4.504075E-001	-1.431769E-001	4.507127E-001	-1.432630E-001	-2.834289E-002	-2.809309E-003
7.700000E+008	7.848049E-002	-4.183505E-002	4.497237E-001	-1.448598E-001	4.500147E-001	-1.449021E-001	-2.835883E-002	-2.850379E-003
7.800000E+008	7.804715E-002	-4.220566E-002	4.490228E-001	-1.465403E-001	4.493776E-001	-1.465957E-001	-2.841964E-002	-2.885414E-003
7.900000E+008	7.766647E-002	-4.267863E-002	4.483426E-001	-1.482294E-001	4.486761E-001	-1.483302E-001	-2.848922E-002	-2.864660E-003
8.000000E+008	7.727077E-002	-4.310072E-002	4.476186E-001	-1.499120E-001	4.479154E-001	-1.499977E-001	-2.850912E-002	-2.839653E-003
8.100000E+008	7.689216E-002	-4.353824E-002	4.468915E-001	-1.515305E-001	4.472038E-001	-1.516878E-001	-2.849879E-002	-2.772236E-003
8.200000E+008	7.656919E-002	-4.394456E-002	4.461922E-001	-1.532527E-001	4.464735E-001	-1.533076E-001	-2.851946E-002	-2.739103E-003
8.300000E+008	7.625050E-002	-4.435389E-002	4.454815E-001	-1.548751E-001	4.457940E-001	-1.550037E-001	-2.852578E-002	-2.680608E-003
8.400000E+008	7.596376E-002	-4.473302E-002	4.447343E-001	-1.565420E-001	4.450720E-001	-1.566551E-001	-2.855210E-002	-2.625203E-003
8.500000E+008	7.566245E-002	-4.508655E-002	4.440411E-001	-1.581833E-001	4.443375E-001	-1.583230E-001	-2.861993E-002	-2.568848E-003
8.600000E+008	7.530859E-002	-4.545393E-002	4.432905E-001	-1.598263E-001	4.435481E-001	-1.599502E-001	-2.866977E-002	-2.503823E-003
8.700000E+008	7.495304E-002	-4.575602E-002	4.425855E-001	-1.615096E-001	4.428182E-001	-1.615973E-001	-2.874244E-002	-2.437164E-003
8.800000E+008	7.456632E-002	-4.605060E-002	4.418372E-001	-1.631980E-001	4.421202E-001	-1.632410E-001	-2.884758E-002	-2.388426E-003
8.900000E+008	7.416911E-002	-4.637252E-002	4.410755E-001	-1.648132E-001	4.413530E-001	-1.648898E-001	-2.890844E-002	-2.350853E-003
9.000000E+008	7.376216E-002	-4.669292E-002	4.402923E-001	-1.664501E-001	4.406248E-001	-1.665468E-001	-2.895198E-002	-2.291988E-003
9.100000E+008	7.333434E-002	-4.702183E-002	4.395191E-001	-1.681111E-001	4.398732E-001	-1.681719E-001	-2.893769E-002	-2.279539E-003
9.200000E+008	7.291674E-002	-4.738211E-002	4.387674E-001	-1.696854E-001	4.391186E-001	-1.698501E-001	-2.891004E-002	-2.272355E-003
9.300000E+008	7.251176E-002	-4.771720E-002	4.379992E-001	-1.713175E-001	4.382882E-001	-1.714719E-001	-2.886963E-002	-2.236233E-003
9.400000E+008	7.212798E-002	-4.805331E-002	4.372270E-001	-1.729392E-001	4.375707E-001	-1.730792E-001	-2.880636E-002	-2.153832E-003
9.500000E+008	7.172884E-002	-4.838861E-002	4.364686E-001	-1.745732E-001	4.367504E-001	-1.747389E-001	-2.872128E-002	-2.032256E-003
9.600000E+008	7.137587E-002	-4.867218E-002	4.356589E-001	-1.761924E-001	4.359641E-001	-1.763154E-001	-2.862789E-002	-1.908097E-003
9.700000E+008	7.105876E-002	-4.896266E-002	4.348371E-001	-1.777545E-001	4.351802E-001	-1.779250E-001	-2.855581E-002	-1.781574E-003
9.800000E+008	7.073114E-002	-4.926592E-002	4.340853E-001	-1.793222E-001	4.344090E-001	-1.795423E-001	-2.847112E-002	-1.638952E-003
9.900000E+008	7.039665E-002	-4.953729E-002	4.333215E-001	-1.809665E-001	4.336191E-001	-1.811672E-001	-2.849243E-002	-1.512379E-003
1.000000E+009	7.004327E-002	-4.978765E-002	4.325027E-001	-1.825406E-001	4.327786E-001	-1.827479E-001	-2.852758E-002	-1.360207E-003
1.010000E+009	6.963057E-002	-5.002487E-002	4.317038E-001	-1.841845E-001	4.319842E-001	-1.843202E-001	-2.854912E-002	-1.182048E-003
1.020000E+009	6.921646E-002	-5.023298E-002	4.308922E-001	-1.857864E-001	4.311579E-001	-1.859384E-001	-2.858187E-002	-9.808200E-004
1.030000E+009	6.886082E-002	-5.043136E-002	4.300272E-001	-1.873490E-001	4.303342E-001	-1.875023E-001	-2.862396E-002	-8.132791E-004
1.040000E+009	6.846181E-002	-5.066647E-002	4.292066E-001	-1.889296E-001	4.295393E-001	-1.890797E-001	-2.863389E-002	-6.724698E-004
1.050000E+009	6.805892E-002	-5.095813E-002	4.284176E-001	-1.905172E-001	4.287079E-001	-1.906669E-001	-2.866302E-002	-5.146319E-004
1.060000E+009	6.763235E-002	-5.120396E-002	4.275777E-001	-1.920839E-001	4.278673E-001	-1.922086E-001	-2.866882E-002	-3.699106E-004
1.070000E+009	6.722194E-002	-5.147764E-002	4.266973E-001	-1.936312E-001	4.270547E-001	-1.937449E-001	-2.870079E-002	-2.330146E-004
1.080000E+009	6.684319E-002	-5.172064E-002	4.258507E-001	-1.952269E-001	4.262657E-001	-1.953397E-001	-2.869159E-002	-5.380701E-005
1.090000E+009	6.645765E-002	-5.198296E-002	4.250222E-001	-1.968030E-001	4.253990E-001	-1.969062E-001	-2.869521E-002	7.822420E-005
1.100000E+009	6.612648E-002	-5.222561E-002	4.241251E-001	-1.983904E-001	4.245483E-001	-1.984755E-001	-2.868710E-002	2.625562E-004
1.110000E+009	6.577282E-002	-5.244676E-002	4.232928E-001	-1.999378E-001	4.237066E-001	-2.000591E-001	-2.871637E-002	3.834722E-004
1.120000E+009	6.539084E-002	-5.266038E-002	4.224397E-001	-2.014889E-001	4.228128E-001	-2.016550E-001	-2.878918E-002	5.298600E-004
1.130000E+009	6.498644E-002	-5.290765E-002	4.215664E-001	-2.030403E-001	4.219268E-001	-2.031830E-001	-2.884495E-002	6.715433E-004
1.140000E+009	6.455051E-002	-5.311094E-002	4.207055E-001	-2.045822E-001	4.210588E-001	-2.047150E-001	-2.890739E-002	8.474227E-004
1.150000E+009	6.416020E-002	-5.333685E-002	4.198064E-001	-2.061437E-001	4.201316E-001	-2.062888E-001	-2.892371E-002	1.002578E-003
1.160000E+009	6.375379E-002	-5.354283E-002	4.189306E-001	-2.076975E-001	4.192711E-001	-2.078280E-001	-2.897073E-002	1.126504E-003
1.170000E+009	6.335524E-002	-5.378697E-002	4.180183E-001	-2.092340E-001	4.183994E-001	-2.093343E-001	-2.896797E-002	1.330804E-003
1.180000E+009	6.297688E-002	-5.403074E-002	4.170828E-001	-2.107476E-001	4.174922E-001	-2.109069E-001	-2.897312E-002	1.486468E-003
1.190000E+009	6.255340E-002	-5.424874E-002	4.161765E-001	-2.122941E-001	4.165217E-001	-2.124446E-001	-2.897195E-002	1.653578E-003
1.200000E+009	6.214608E-002	-5.447571E-002	4.152794E-001	-2.138242E-001	4.156336E-001	-2.139240E-001	-2.895403E-002	1.859266E-003
1.210000E+009	6.180891E-002	-5.472815E-002	4.143585E-001	-2.153412E-001	4.147184E-001	-2.154924E-001	-2.897118E-002	2.059731E-003
1.220000E+009	6.143277E-002	-5.496429E-002	4.134365E-001	-2.168556E-001	4.138128E-001	-2.170033E-001	-2.901091E-002	2.254262E-003
1.230000E+009	6.104801E-002	-5.516440E-002	4.124807E-001	-2.183761E-001	4.128489E-001	-2.185148E-001	-2.906919E-002	2.419458E-003
1.240000E+009	6.071039E-002	-5.543795E-002	4.115536E-001	-2.198609E-001	4.119114E-001	-2.200058E-001	-2.912534E-002	2.590529E-003
1.250000E+009	6.030269E-002	-5.565976E-002	4.106133E-001	-2.213948E-001	4.110405E-001	-2.215215E-001	-2.920800E-002	2.757014E-003
1.260000E+009	5.990295E-002	-5.586940E-002	4.096455E-001	-2.229010E-001	4.100187E-001	-2.230688E-001	-2.924644E-002	2.856770E-003
1.270000E+009	5.956523E-002	-5.606944E-002	4.087012E-001	-2.243817E-001	4.090739E-001	-2.245167E-001	-2.927680E-002	2.998549E-003
1.280000E+009	5.916436E-002	-5.625940E-002	4.077584E-001	-2.258958E-001	4.081352E-001	-2.260031E-001	-2.931693E-002	3.085653E-003
1.290000E+009	5.878753E-002	-5.640142E-002	4.067657E-001	-2.274278E-001	4.071637E-001	-2.275039E-001	-2.926555E-002	3.189200E-003
1.300000E+009	5.844747E-002	-5.654645E-002	4.057883E-001	-2.288469E-001	4.062068E-001	-2.290222E-001	-2.919844E-002	3.357435E-003
1.310000E+009	5.803994E-002	-5.670212E-002	4.047812E-001	-2.303694E-001	4.052149E-001	-2.305048E-001	-2.914923E-002	3.501730E-003
1.320000E+009	5.763886E-002	-5.684519E-002	4.038266E-001	-2.318787E-001	4.042233E-001	-2.320108E-001	-2.904638E-002	3.712771E-003
1.330000E+009	5.729405E-002	-5.692148E-002	4.028387E-001	-2.333099E-001	4.032539E-001	-2.335043E-001	-2.889940E-002	3.971994E-003
1.340000E+009	5.689034E-002	-5.701996E-002	4.018582E-001	-2.347527E-001	4.022418E-001	-2.349297E-001	-2.880412E-002	4.297588E-003
1.350000E+009	5.647105E-002	-5.712193E-002	4.008401E-001	-2.362571E-001	4.011822E-001	-2.364247E-001	-2.873381E-002	4.626939E-003
1.360000E+009	5.615718E-002	-5.721304E-002	3.998047E-001	-2.376793E-001	4.002603E-001	-2.378840E-001	-2.864407E-002	4.991185E-003
1.370000E+009	5.576135E-002	-5.734066E-002	3.988393E-001	-2.391440E-001	3.991981E-001	-2.393478E-001	-2.863403E-002	5.324208E-003
1.380000E+009	5.536250E-002	-5.746627E-002	3.977666E-001	-2.405915E-001	3.981711E-001	-2.407783E-001	-2.862882E-002	5.637588E-003
1.390000E+009	5.501028E-002	-5.761648E-002	3.967689E-001	-2.420633E-001	3.971542E-001	-2.422556E-001	-2.865630E-002	6.017071E-003
1.400000E+009	5.459531E-002	-5.773514E-002	3.957335E-001	-2.434892E-001	3.961183E-001	-2.436307E-001	-2.869139E-002	6.342058E-003
1.410000E+009	5.419520E-002	-5.784359E-002	3.946923E-001	-2.449342E-001	3.950651E-001	-2.451006E-001	-2.873446E-002	6.666272E-003
1.420000E+009	5.381105E-002	-5.794307E-002	3.936180E-001	-2.463392E-001	3.940266E-001	-2.464925E-001	-2.877639E-002	6.981443E-003
1.430000E+009	5.346082E-002	-5.805050E-002	3.925844E-001	-2.477684E-001	3.930202E-001	-2.479523E-001	-2.875784E-002	7.274834E-003
1.440000E+009	5.306246E-002	-5.815299E-002	3.915607E-001	-2.491616E-001	3.919387E-001	-2.493502E-001	-2.874639E-002	7.542944E-003
1.450000E+009	5.267743E-002	-5.823651E-002	3.904614E-001	-2.505938E-001	3.908574E-001	-2.507710E-001	-2.875239E-002	7.854043E-003
1.460000E+009	5.227879E-002	-5.831130E-002	3.894171E-001	-2.520351E-001	3.897827E-001	-2.522003E-001	-2.872146E-002	8.136310E-003
1.470000E+009	5.189383E-002	-5.841554E-002	3.883437E-001	-2.534025E-001	3.887216E-001	-2.536027E-001	-2.869432E-002	8.513931E-003
1.480000E+009	5.150548E-002	-5.846016E-002	3.872543E-001	-2.547763E-001	3.876161E-001	-2.549930E-001	-2.868331E-002	8.905752E-003
1.490000E+009	5.112072E-002	-5.854527E-002	3.861798E-001	-2.561762E-001	3.865608E-001	-2.563716E-001	-2.864615E-002	9.293059E-003
1.500000E+009	5.075245E-002	-5.863405E-002	3.851144E-001	-2.575644E-001	3.854607E-001	-2.577172E-001	-2.858592E-002	9.658686E-003
