! Device ID: PE43711P
! File Path: z:\PE43711P\CHAR_NOM_04282014\AMB\3p300\LS_ATT_26p25dB\PE43711P_AMB_3p300V_3p000V_0p000V_LS_ATT_26p25dB_S2P_SN_5_A0137A.s2p
! Serial: 5
! Lot: A0137A
! Temp: 25C
! VDD: 3.300
! VSS: 0.000
! Control_Hi: 3.000
! Control_Lo: 0.000
! Attenuation Step: 26.25dB
! Port 1: RF1
! Port 2: RF2
! ThroughPath:1-2
! IDD: 0.0001273743
! ISS: -1.046e-007
!

#  Hz  S   RI  R   50

1.000000E+007	3.112851E-002	4.286225E-004	4.212271E-002	-1.784785E-004	4.215789E-002	-1.614031E-004	-1.027114E-001	8.382306E-004
2.000000E+007	3.136575E-002	5.507396E-004	4.212583E-002	-2.514664E-004	4.214927E-002	-2.655289E-004	-1.024281E-001	1.408761E-003
3.000000E+007	3.161819E-002	6.468794E-004	4.212741E-002	-3.796275E-004	4.214739E-002	-3.917416E-004	-1.021164E-001	1.855770E-003
4.000000E+007	3.179331E-002	7.268042E-004	4.212379E-002	-5.299005E-004	4.215761E-002	-5.094947E-004	-1.019428E-001	2.390258E-003
5.000000E+007	3.189620E-002	8.227720E-004	4.212514E-002	-6.534269E-004	4.215230E-002	-6.682766E-004	-1.019019E-001	2.915288E-003
6.000000E+007	3.205345E-002	8.329203E-004	4.211421E-002	-7.945121E-004	4.214900E-002	-7.816801E-004	-1.017814E-001	3.313459E-003
7.000000E+007	3.219708E-002	8.537502E-004	4.211223E-002	-9.133490E-004	4.214111E-002	-9.185724E-004	-1.015980E-001	3.730982E-003
8.000000E+007	3.233230E-002	8.685311E-004	4.210447E-002	-1.048116E-003	4.213540E-002	-1.043655E-003	-1.014406E-001	4.140055E-003
9.000000E+007	3.245331E-002	8.773020E-004	4.209706E-002	-1.169188E-003	4.213018E-002	-1.173037E-003	-1.013360E-001	4.460511E-003
1.000000E+008	3.258113E-002	8.811142E-004	4.209892E-002	-1.300675E-003	4.212492E-002	-1.298881E-003	-1.012700E-001	4.830686E-003
1.100000E+008	3.271796E-002	8.871499E-004	4.208224E-002	-1.437983E-003	4.212320E-002	-1.437793E-003	-1.011774E-001	5.158922E-003
1.200000E+008	3.286294E-002	8.377664E-004	4.206645E-002	-1.571834E-003	4.210408E-002	-1.567817E-003	-1.010805E-001	5.430729E-003
1.300000E+008	3.298157E-002	8.436302E-004	4.205595E-002	-1.696971E-003	4.209147E-002	-1.705469E-003	-1.009757E-001	5.730087E-003
1.400000E+008	3.306756E-002	8.628610E-004	4.204043E-002	-1.828321E-003	4.208143E-002	-1.825041E-003	-1.008661E-001	6.037033E-003
1.500000E+008	3.314503E-002	8.861453E-004	4.202709E-002	-1.947088E-003	4.206200E-002	-1.943747E-003	-1.007709E-001	6.327410E-003
1.600000E+008	3.319866E-002	9.510924E-004	4.203301E-002	-2.062817E-003	4.205985E-002	-2.068409E-003	-1.006996E-001	6.625619E-003
1.700000E+008	3.329162E-002	9.651244E-004	4.202432E-002	-2.206748E-003	4.205212E-002	-2.198008E-003	-1.006242E-001	6.930467E-003
1.800000E+008	3.333418E-002	9.825924E-004	4.200184E-002	-2.342466E-003	4.204927E-002	-2.333023E-003	-1.005252E-001	7.202401E-003
1.900000E+008	3.332257E-002	9.529831E-004	4.197739E-002	-2.470456E-003	4.203742E-002	-2.473319E-003	-1.004879E-001	7.438407E-003
2.000000E+008	3.329440E-002	9.171214E-004	4.197729E-002	-2.594011E-003	4.201190E-002	-2.578640E-003	-1.004326E-001	7.636905E-003
2.100000E+008	3.326268E-002	8.343285E-004	4.195472E-002	-2.708340E-003	4.198967E-002	-2.712627E-003	-1.003462E-001	7.818390E-003
2.200000E+008	3.326272E-002	7.721402E-004	4.194012E-002	-2.838438E-003	4.198229E-002	-2.829449E-003	-1.002505E-001	7.973326E-003
2.300000E+008	3.328205E-002	6.962006E-004	4.193469E-002	-2.966377E-003	4.196378E-002	-2.948451E-003	-1.001109E-001	8.129480E-003
2.400000E+008	3.333561E-002	6.212538E-004	4.192360E-002	-3.080184E-003	4.194636E-002	-3.075888E-003	-9.994874E-002	8.358095E-003
2.500000E+008	3.336719E-002	5.457093E-004	4.189313E-002	-3.205622E-003	4.193953E-002	-3.202038E-003	-9.974854E-002	8.545872E-003
2.600000E+008	3.345236E-002	4.819463E-004	4.186601E-002	-3.341801E-003	4.191891E-002	-3.339596E-003	-9.954989E-002	8.809675E-003
2.700000E+008	3.353143E-002	4.324767E-004	4.185017E-002	-3.458565E-003	4.189639E-002	-3.464292E-003	-9.930026E-002	9.105886E-003
2.800000E+008	3.363704E-002	4.014918E-004	4.184706E-002	-3.583615E-003	4.188175E-002	-3.585201E-003	-9.910123E-002	9.369883E-003
2.900000E+008	3.366868E-002	4.005588E-004	4.182579E-002	-3.705416E-003	4.186238E-002	-3.690904E-003	-9.896133E-002	9.667130E-003
3.000000E+008	3.371935E-002	4.427113E-004	4.181271E-002	-3.826477E-003	4.185087E-002	-3.817904E-003	-9.881485E-002	1.001493E-002
3.100000E+008	3.374017E-002	4.537217E-004	4.178416E-002	-3.953658E-003	4.183365E-002	-3.945199E-003	-9.869520E-002	1.033715E-002
3.200000E+008	3.374701E-002	4.983037E-004	4.177125E-002	-4.091806E-003	4.180130E-002	-4.076513E-003	-9.861336E-002	1.065841E-002
3.300000E+008	3.373709E-002	5.389781E-004	4.175687E-002	-4.202163E-003	4.178590E-002	-4.197541E-003	-9.852914E-002	1.095360E-002
3.400000E+008	3.367660E-002	5.495586E-004	4.173063E-002	-4.328437E-003	4.175353E-002	-4.336624E-003	-9.838848E-002	1.118506E-002
3.500000E+008	3.359960E-002	5.266867E-004	4.170190E-002	-4.462265E-003	4.173206E-002	-4.467259E-003	-9.825780E-002	1.139707E-002
3.600000E+008	3.355387E-002	5.205339E-004	4.168915E-002	-4.577501E-003	4.170621E-002	-4.563241E-003	-9.809312E-002	1.164394E-002
3.700000E+008	3.349924E-002	4.762183E-004	4.165946E-002	-4.702861E-003	4.168891E-002	-4.678201E-003	-9.790538E-002	1.184593E-002
3.800000E+008	3.347030E-002	4.330905E-004	4.163737E-002	-4.819346E-003	4.167830E-002	-4.787951E-003	-9.770599E-002	1.210163E-002
3.900000E+008	3.341534E-002	3.579575E-004	4.160379E-002	-4.945333E-003	4.164041E-002	-4.927664E-003	-9.742873E-002	1.237466E-002
4.000000E+008	3.342409E-002	2.855035E-004	4.157865E-002	-5.065738E-003	4.162603E-002	-5.053765E-003	-9.713286E-002	1.267471E-002
4.100000E+008	3.340965E-002	2.042071E-004	4.154645E-002	-5.171879E-003	4.160299E-002	-5.165454E-003	-9.686411E-002	1.296990E-002
4.200000E+008	3.339700E-002	1.524087E-004	4.153912E-002	-5.290964E-003	4.156639E-002	-5.287869E-003	-9.664112E-002	1.330621E-002
4.300000E+008	3.340284E-002	9.228749E-005	4.150858E-002	-5.405043E-003	4.154115E-002	-5.416363E-003	-9.642386E-002	1.367454E-002
4.400000E+008	3.340676E-002	6.917410E-005	4.148946E-002	-5.544920E-003	4.153064E-002	-5.540507E-003	-9.624095E-002	1.409473E-002
4.500000E+008	3.341397E-002	4.082872E-005	4.148374E-002	-5.657075E-003	4.150273E-002	-5.647278E-003	-9.606503E-002	1.451489E-002
4.600000E+008	3.343131E-002	-3.442570E-006	4.143398E-002	-5.785171E-003	4.147183E-002	-5.770297E-003	-9.586638E-002	1.492922E-002
4.700000E+008	3.345018E-002	-8.132555E-006	4.142474E-002	-5.891336E-003	4.144324E-002	-5.903605E-003	-9.570620E-002	1.528173E-002
4.800000E+008	3.342215E-002	-2.594637E-005	4.138955E-002	-6.009896E-003	4.141568E-002	-6.008707E-003	-9.556911E-002	1.566123E-002
4.900000E+008	3.338043E-002	-1.154128E-005	4.136096E-002	-6.122614E-003	4.138791E-002	-6.132894E-003	-9.542336E-002	1.602759E-002
5.000000E+008	3.335891E-002	-8.919654E-006	4.134267E-002	-6.243908E-003	4.136948E-002	-6.244368E-003	-9.526518E-002	1.636241E-002
5.100000E+008	3.334152E-002	3.898860E-007	4.130806E-002	-6.370267E-003	4.135512E-002	-6.350851E-003	-9.508451E-002	1.670535E-002
5.200000E+008	3.327945E-002	-2.797307E-005	4.128827E-002	-6.491081E-003	4.130723E-002	-6.489067E-003	-9.491438E-002	1.705195E-002
5.300000E+008	3.322805E-002	-7.635488E-005	4.125093E-002	-6.606885E-003	4.128908E-002	-6.603661E-003	-9.467291E-002	1.739595E-002
5.400000E+008	3.315796E-002	-1.678810E-004	4.122365E-002	-6.731447E-003	4.126531E-002	-6.717319E-003	-9.446375E-002	1.772090E-002
5.500000E+008	3.311870E-002	-2.175275E-004	4.120863E-002	-6.839914E-003	4.123705E-002	-6.836976E-003	-9.425783E-002	1.810147E-002
5.600000E+008	3.307695E-002	-2.842761E-004	4.115798E-002	-6.964299E-003	4.118768E-002	-6.954470E-003	-9.404619E-002	1.846120E-002
5.700000E+008	3.305947E-002	-4.080439E-004	4.112447E-002	-7.074494E-003	4.116946E-002	-7.062940E-003	-9.387642E-002	1.887780E-002
5.800000E+008	3.303970E-002	-4.763933E-004	4.110816E-002	-7.182189E-003	4.114154E-002	-7.183515E-003	-9.370289E-002	1.929144E-002
5.900000E+008	3.303681E-002	-5.787475E-004	4.107721E-002	-7.310317E-003	4.112241E-002	-7.309238E-003	-9.352182E-002	1.972476E-002
6.000000E+008	3.308969E-002	-6.581927E-004	4.104719E-002	-7.425966E-003	4.107910E-002	-7.432192E-003	-9.331931E-002	2.013213E-002
6.100000E+008	3.313887E-002	-7.209460E-004	4.101794E-002	-7.539191E-003	4.103025E-002	-7.555831E-003	-9.316190E-002	2.052095E-002
6.200000E+008	3.318863E-002	-7.364065E-004	4.097900E-002	-7.661482E-003	4.102157E-002	-7.662535E-003	-9.299551E-002	2.091808E-002
6.300000E+008	3.325889E-002	-7.625033E-004	4.095525E-002	-7.774635E-003	4.097467E-002	-7.761555E-003	-9.282714E-002	2.130330E-002
6.400000E+008	3.330688E-002	-7.641968E-004	4.091493E-002	-7.878071E-003	4.094918E-002	-7.884429E-003	-9.264487E-002	2.169713E-002
6.500000E+008	3.335210E-002	-7.525320E-004	4.088284E-002	-7.993415E-003	4.090770E-002	-7.996644E-003	-9.246782E-002	2.209700E-002
6.600000E+008	3.334993E-002	-7.590170E-004	4.084802E-002	-8.102729E-003	4.087373E-002	-8.112308E-003	-9.227720E-002	2.248486E-002
6.700000E+008	3.333117E-002	-7.358385E-004	4.082501E-002	-8.227643E-003	4.084081E-002	-8.227023E-003	-9.211450E-002	2.289403E-002
6.800000E+008	3.329861E-002	-7.213162E-004	4.077078E-002	-8.336542E-003	4.080388E-002	-8.342322E-003	-9.191903E-002	2.331562E-002
6.900000E+008	3.326588E-002	-7.076538E-004	4.073806E-002	-8.452242E-003	4.077273E-002	-8.443842E-003	-9.175468E-002	2.375781E-002
7.000000E+008	3.326627E-002	-6.939074E-004	4.071813E-002	-8.565233E-003	4.075635E-002	-8.551029E-003	-9.162018E-002	2.418942E-002
7.100000E+008	3.323569E-002	-7.304692E-004	4.068452E-002	-8.675434E-003	4.072001E-002	-8.671018E-003	-9.149633E-002	2.459599E-002
7.200000E+008	3.318599E-002	-7.148492E-004	4.064974E-002	-8.787924E-003	4.068497E-002	-8.790448E-003	-9.135422E-002	2.500446E-002
7.300000E+008	3.314675E-002	-7.596254E-004	4.061106E-002	-8.895704E-003	4.063977E-002	-8.904193E-003	-9.124706E-002	2.539360E-002
7.400000E+008	3.310528E-002	-7.627507E-004	4.059074E-002	-9.019036E-003	4.060644E-002	-9.026794E-003	-9.115613E-002	2.575845E-002
7.500000E+008	3.306496E-002	-8.104347E-004	4.055237E-002	-9.123314E-003	4.058380E-002	-9.129768E-003	-9.105079E-002	2.609242E-002
7.600000E+008	3.303914E-002	-8.719808E-004	4.051201E-002	-9.238595E-003	4.054958E-002	-9.248295E-003	-9.091283E-002	2.644349E-002
7.700000E+008	3.300346E-002	-9.117762E-004	4.047761E-002	-9.350731E-003	4.051777E-002	-9.356179E-003	-9.077009E-002	2.673976E-002
7.800000E+008	3.300575E-002	-9.844193E-004	4.044153E-002	-9.463474E-003	4.049275E-002	-9.460522E-003	-9.061143E-002	2.704802E-002
7.900000E+008	3.298326E-002	-1.074602E-003	4.040716E-002	-9.587091E-003	4.043663E-002	-9.594971E-003	-9.043805E-002	2.739224E-002
8.000000E+008	3.297925E-002	-1.137962E-003	4.035682E-002	-9.678013E-003	4.038959E-002	-9.696809E-003	-9.022315E-002	2.774397E-002
8.100000E+008	3.299159E-002	-1.226099E-003	4.033818E-002	-9.793142E-003	4.035939E-002	-9.812295E-003	-8.996948E-002	2.810682E-002
8.200000E+008	3.304639E-002	-1.268527E-003	4.029083E-002	-9.914460E-003	4.032030E-002	-9.915325E-003	-8.973796E-002	2.846993E-002
8.300000E+008	3.309159E-002	-1.329744E-003	4.025899E-002	-1.002265E-002	4.028322E-002	-1.002413E-002	-8.953242E-002	2.885205E-002
8.400000E+008	3.314713E-002	-1.377158E-003	4.021289E-002	-1.013141E-002	4.025813E-002	-1.014046E-002	-8.932534E-002	2.922194E-002
8.500000E+008	3.320591E-002	-1.383049E-003	4.019425E-002	-1.024555E-002	4.021770E-002	-1.025751E-002	-8.916411E-002	2.962043E-002
8.600000E+008	3.322785E-002	-1.388814E-003	4.013523E-002	-1.036251E-002	4.017395E-002	-1.036155E-002	-8.902297E-002	2.999803E-002
8.700000E+008	3.326476E-002	-1.363586E-003	4.010693E-002	-1.046171E-002	4.013383E-002	-1.046949E-002	-8.886040E-002	3.035543E-002
8.800000E+008	3.327522E-002	-1.340578E-003	4.006705E-002	-1.057333E-002	4.009077E-002	-1.058114E-002	-8.871821E-002	3.070779E-002
8.900000E+008	3.327312E-002	-1.327510E-003	4.001958E-002	-1.068655E-002	4.005646E-002	-1.068121E-002	-8.856705E-002	3.103841E-002
9.000000E+008	3.326231E-002	-1.338744E-003	3.998652E-002	-1.078891E-002	4.002690E-002	-1.078482E-002	-8.838371E-002	3.135824E-002
9.100000E+008	3.322476E-002	-1.338789E-003	3.994241E-002	-1.089082E-002	3.996416E-002	-1.089384E-002	-8.814746E-002	3.167544E-002
9.200000E+008	3.320802E-002	-1.378713E-003	3.990496E-002	-1.099981E-002	3.995300E-002	-1.100508E-002	-8.789152E-002	3.200937E-002
9.300000E+008	3.322049E-002	-1.420876E-003	3.987085E-002	-1.111645E-002	3.990314E-002	-1.112335E-002	-8.762443E-002	3.235145E-002
9.400000E+008	3.324457E-002	-1.470645E-003	3.983282E-002	-1.120288E-002	3.986607E-002	-1.122436E-002	-8.728733E-002	3.272527E-002
9.500000E+008	3.326780E-002	-1.509163E-003	3.978787E-002	-1.132479E-002	3.981860E-002	-1.134427E-002	-8.697084E-002	3.315593E-002
9.600000E+008	3.328795E-002	-1.519718E-003	3.975793E-002	-1.144567E-002	3.978505E-002	-1.145765E-002	-8.666302E-002	3.355920E-002
9.700000E+008	3.332536E-002	-1.530070E-003	3.969580E-002	-1.152538E-002	3.973678E-002	-1.155467E-002	-8.637321E-002	3.399261E-002
9.800000E+008	3.336951E-002	-1.523664E-003	3.967964E-002	-1.163291E-002	3.970336E-002	-1.166834E-002	-8.608170E-002	3.445659E-002
9.900000E+008	3.344185E-002	-1.511275E-003	3.963195E-002	-1.176360E-002	3.966396E-002	-1.176180E-002	-8.583235E-002	3.488931E-002
1.000000E+009	3.344753E-002	-1.475734E-003	3.959121E-002	-1.186777E-002	3.961286E-002	-1.188367E-002	-8.564925E-002	3.530968E-002
1.010000E+009	3.346457E-002	-1.442603E-003	3.953361E-002	-1.196911E-002	3.958581E-002	-1.198069E-002	-8.541763E-002	3.574998E-002
1.020000E+009	3.346639E-002	-1.431856E-003	3.951042E-002	-1.208551E-002	3.955035E-002	-1.209583E-002	-8.523578E-002	3.619698E-002
1.030000E+009	3.346789E-002	-1.384873E-003	3.946881E-002	-1.219748E-002	3.950803E-002	-1.219654E-002	-8.502190E-002	3.660650E-002
1.040000E+009	3.346472E-002	-1.373275E-003	3.941479E-002	-1.230759E-002	3.946136E-002	-1.230800E-002	-8.480637E-002	3.701583E-002
1.050000E+009	3.347033E-002	-1.370989E-003	3.938423E-002	-1.240722E-002	3.940929E-002	-1.241239E-002	-8.456152E-002	3.745750E-002
1.060000E+009	3.347390E-002	-1.347669E-003	3.933209E-002	-1.250725E-002	3.936707E-002	-1.250121E-002	-8.429516E-002	3.790447E-002
1.070000E+009	3.345157E-002	-1.331624E-003	3.929635E-002	-1.261494E-002	3.933542E-002	-1.261241E-002	-8.403319E-002	3.831470E-002
1.080000E+009	3.344993E-002	-1.336237E-003	3.924497E-002	-1.270226E-002	3.929838E-002	-1.274327E-002	-8.379037E-002	3.877390E-002
1.090000E+009	3.345932E-002	-1.335676E-003	3.921735E-002	-1.283048E-002	3.925148E-002	-1.283566E-002	-8.354033E-002	3.919138E-002
1.100000E+009	3.345895E-002	-1.336598E-003	3.916179E-002	-1.293932E-002	3.920741E-002	-1.293686E-002	-8.334066E-002	3.963907E-002
1.110000E+009	3.346817E-002	-1.314617E-003	3.912857E-002	-1.304616E-002	3.915925E-002	-1.304348E-002	-8.311820E-002	4.006328E-002
1.120000E+009	3.345597E-002	-1.314606E-003	3.909769E-002	-1.315084E-002	3.911575E-002	-1.316755E-002	-8.294932E-002	4.046133E-002
1.130000E+009	3.345916E-002	-1.292974E-003	3.903791E-002	-1.326732E-002	3.907987E-002	-1.327229E-002	-8.274954E-002	4.086215E-002
1.140000E+009	3.343916E-002	-1.306697E-003	3.898728E-002	-1.337373E-002	3.902401E-002	-1.338100E-002	-8.251584E-002	4.128313E-002
1.150000E+009	3.345310E-002	-1.301277E-003	3.894994E-002	-1.346669E-002	3.898903E-002	-1.347998E-002	-8.226132E-002	4.167387E-002
1.160000E+009	3.344599E-002	-1.286970E-003	3.890641E-002	-1.358421E-002	3.893964E-002	-1.359513E-002	-8.201297E-002	4.206787E-002
1.170000E+009	3.342567E-002	-1.288116E-003	3.883991E-002	-1.368737E-002	3.889233E-002	-1.369547E-002	-8.177870E-002	4.252282E-002
1.180000E+009	3.344710E-002	-1.270234E-003	3.879968E-002	-1.376720E-002	3.884981E-002	-1.379224E-002	-8.147204E-002	4.294400E-002
1.190000E+009	3.342382E-002	-1.247268E-003	3.876270E-002	-1.391311E-002	3.878800E-002	-1.390446E-002	-8.122222E-002	4.340018E-002
1.200000E+009	3.340578E-002	-1.261367E-003	3.872446E-002	-1.400262E-002	3.875337E-002	-1.401682E-002	-8.094159E-002	4.385646E-002
1.210000E+009	3.341837E-002	-1.292157E-003	3.866745E-002	-1.410514E-002	3.869235E-002	-1.411691E-002	-8.070157E-002	4.430425E-002
1.220000E+009	3.342023E-002	-1.341652E-003	3.862413E-002	-1.420647E-002	3.866626E-002	-1.421446E-002	-8.050383E-002	4.476256E-002
1.230000E+009	3.341453E-002	-1.341073E-003	3.858074E-002	-1.433410E-002	3.861429E-002	-1.432977E-002	-8.027757E-002	4.515065E-002
1.240000E+009	3.343737E-002	-1.384487E-003	3.853196E-002	-1.442453E-002	3.856287E-002	-1.443142E-002	-8.007973E-002	4.554530E-002
1.250000E+009	3.346799E-002	-1.417412E-003	3.847716E-002	-1.452856E-002	3.852424E-002	-1.453105E-002	-7.988397E-002	4.593972E-002
1.260000E+009	3.348811E-002	-1.430912E-003	3.842775E-002	-1.463587E-002	3.846300E-002	-1.464822E-002	-7.962267E-002	4.628314E-002
1.270000E+009	3.358721E-002	-1.436732E-003	3.837093E-002	-1.473199E-002	3.841573E-002	-1.474234E-002	-7.933889E-002	4.663588E-002
1.280000E+009	3.362939E-002	-1.441653E-003	3.834666E-002	-1.484421E-002	3.838969E-002	-1.483468E-002	-7.907553E-002	4.698789E-002
1.290000E+009	3.366478E-002	-1.418565E-003	3.827327E-002	-1.497147E-002	3.832404E-002	-1.495525E-002	-7.873469E-002	4.734666E-002
1.300000E+009	3.372837E-002	-1.373716E-003	3.822323E-002	-1.505869E-002	3.826938E-002	-1.505434E-002	-7.838320E-002	4.771730E-002
1.310000E+009	3.374711E-002	-1.347814E-003	3.817850E-002	-1.517162E-002	3.821894E-002	-1.517626E-002	-7.805594E-002	4.811184E-002
1.320000E+009	3.376367E-002	-1.311174E-003	3.813042E-002	-1.526506E-002	3.817518E-002	-1.528645E-002	-7.766812E-002	4.856604E-002
1.330000E+009	3.380006E-002	-1.254692E-003	3.807963E-002	-1.537914E-002	3.811946E-002	-1.538687E-002	-7.727588E-002	4.906699E-002
1.340000E+009	3.380877E-002	-1.223876E-003	3.803223E-002	-1.547252E-002	3.804613E-002	-1.550256E-002	-7.688781E-002	4.954130E-002
1.350000E+009	3.377639E-002	-1.186875E-003	3.797549E-002	-1.558681E-002	3.800304E-002	-1.558804E-002	-7.654749E-002	5.007638E-002
1.360000E+009	3.381191E-002	-1.158109E-003	3.791455E-002	-1.568759E-002	3.794526E-002	-1.569052E-002	-7.620078E-002	5.062204E-002
1.370000E+009	3.383317E-002	-1.120234E-003	3.787107E-002	-1.578771E-002	3.790927E-002	-1.579641E-002	-7.588473E-002	5.117187E-002
1.380000E+009	3.384976E-002	-1.091626E-003	3.781674E-002	-1.588233E-002	3.784227E-002	-1.591147E-002	-7.557103E-002	5.169214E-002
1.390000E+009	3.388354E-002	-1.093426E-003	3.775863E-002	-1.602339E-002	3.779899E-002	-1.601693E-002	-7.529590E-002	5.225136E-002
1.400000E+009	3.389331E-002	-1.068456E-003	3.770895E-002	-1.611598E-002	3.774782E-002	-1.610486E-002	-7.502478E-002	5.276059E-002
1.410000E+009	3.389213E-002	-1.020341E-003	3.765622E-002	-1.618407E-002	3.766678E-002	-1.621385E-002	-7.474721E-002	5.329308E-002
1.420000E+009	3.390150E-002	-9.686872E-004	3.760051E-002	-1.630120E-002	3.762768E-002	-1.630097E-002	-7.450675E-002	5.377952E-002
1.430000E+009	3.391539E-002	-9.342508E-004	3.754363E-002	-1.640249E-002	3.755869E-002	-1.641960E-002	-7.422531E-002	5.426996E-002
1.440000E+009	3.390056E-002	-9.053024E-004	3.748553E-002	-1.649762E-002	3.750221E-002	-1.650504E-002	-7.394660E-002	5.472262E-002
1.450000E+009	3.389764E-002	-8.820758E-004	3.742524E-002	-1.659936E-002	3.745598E-002	-1.659602E-002	-7.362889E-002	5.518740E-002
1.460000E+009	3.386854E-002	-8.459468E-004	3.735875E-002	-1.669628E-002	3.739443E-002	-1.670502E-002	-7.332488E-002	5.567986E-002
1.470000E+009	3.387560E-002	-8.481347E-004	3.731503E-002	-1.679580E-002	3.733002E-002	-1.681845E-002	-7.297683E-002	5.617310E-002
1.480000E+009	3.388163E-002	-8.002398E-004	3.724995E-002	-1.689890E-002	3.728385E-002	-1.690784E-002	-7.266007E-002	5.670994E-002
1.490000E+009	3.390910E-002	-8.161664E-004	3.719191E-002	-1.700424E-002	3.721720E-002	-1.701014E-002	-7.229910E-002	5.723468E-002
1.500000E+009	3.388532E-002	-7.901493E-004	3.713098E-002	-1.708863E-002	3.716429E-002	-1.711669E-002	-7.192839E-002	5.776621E-002
1.510000E+009	3.394600E-002	-7.618066E-004	3.707653E-002	-1.720343E-002	3.711106E-002	-1.719939E-002	-7.157870E-002	5.832418E-002
