! Device ID: PE43711P
! File Path: z:\PE43711P\CHAR_NOM_04282014\AMB\3p300\LS_ATT_13p50dB\PE43711P_AMB_3p300V_3p000V_0p000V_LS_ATT_13p50dB_S2P_SN_5_A0137A.s2p
! Serial: 5
! Lot: A0137A
! Temp: 25C
! VDD: 3.300
! VSS: 0.000
! Control_Hi: 3.000
! Control_Lo: 0.000
! Attenuation Step: 13.50dB
! Port 1: RF1
! Port 2: RF2
! ThroughPath:1-2
! IDD: 0.0001279595
! ISS: -1.769e-007
!

#  Hz  S   RI  R   50

1.000000E+007	7.414847E-002	-9.336024E-005	1.852199E-001	-8.849513E-004	1.854215E-001	-9.681842E-004	-1.109108E-001	8.962413E-004
2.000000E+007	7.430578E-002	-2.791030E-004	1.851560E-001	-1.432763E-003	1.852852E-001	-1.430872E-003	-1.105994E-001	1.450870E-003
3.000000E+007	7.457268E-002	-5.696855E-004	1.851690E-001	-2.146960E-003	1.853026E-001	-2.155461E-003	-1.102763E-001	1.909336E-003
4.000000E+007	7.469133E-002	-9.064573E-004	1.851461E-001	-2.870342E-003	1.852755E-001	-2.888302E-003	-1.101134E-001	2.418970E-003
5.000000E+007	7.480118E-002	-1.242736E-003	1.851473E-001	-3.626945E-003	1.853172E-001	-3.636607E-003	-1.100339E-001	2.927681E-003
6.000000E+007	7.495622E-002	-1.646589E-003	1.850874E-001	-4.334480E-003	1.852924E-001	-4.335154E-003	-1.099111E-001	3.326572E-003
7.000000E+007	7.504557E-002	-2.041249E-003	1.850522E-001	-5.025717E-003	1.852208E-001	-5.050820E-003	-1.097365E-001	3.727627E-003
8.000000E+007	7.514880E-002	-2.447350E-003	1.850122E-001	-5.704713E-003	1.851914E-001	-5.724614E-003	-1.095724E-001	4.113960E-003
9.000000E+007	7.523930E-002	-2.838579E-003	1.849673E-001	-6.412117E-003	1.851392E-001	-6.416233E-003	-1.094512E-001	4.458705E-003
1.000000E+008	7.531114E-002	-3.214476E-003	1.849570E-001	-7.129481E-003	1.850853E-001	-7.120061E-003	-1.093629E-001	4.807970E-003
1.100000E+008	7.539034E-002	-3.628907E-003	1.848898E-001	-7.858377E-003	1.850489E-001	-7.838641E-003	-1.092625E-001	5.135144E-003
1.200000E+008	7.546603E-002	-4.071071E-003	1.847887E-001	-8.559462E-003	1.849678E-001	-8.558440E-003	-1.091864E-001	5.414340E-003
1.300000E+008	7.552240E-002	-4.494040E-003	1.847496E-001	-9.228413E-003	1.849166E-001	-9.252058E-003	-1.090847E-001	5.719734E-003
1.400000E+008	7.553769E-002	-4.870241E-003	1.846889E-001	-9.932727E-003	1.848426E-001	-9.955002E-003	-1.089433E-001	6.004246E-003
1.500000E+008	7.548923E-002	-5.255910E-003	1.846049E-001	-1.060287E-002	1.847227E-001	-1.062510E-002	-1.088098E-001	6.281535E-003
1.600000E+008	7.545792E-002	-5.573446E-003	1.845778E-001	-1.126220E-002	1.846466E-001	-1.128480E-002	-1.087680E-001	6.563364E-003
1.700000E+008	7.546572E-002	-5.941083E-003	1.845138E-001	-1.201854E-002	1.846675E-001	-1.197651E-002	-1.087649E-001	6.857030E-003
1.800000E+008	7.539486E-002	-6.340161E-003	1.843447E-001	-1.275175E-002	1.845920E-001	-1.274642E-002	-1.086987E-001	7.136130E-003
1.900000E+008	7.530265E-002	-6.742971E-003	1.842282E-001	-1.342013E-002	1.844719E-001	-1.343568E-002	-1.086428E-001	7.345337E-003
2.000000E+008	7.518254E-002	-7.159604E-003	1.841517E-001	-1.408044E-002	1.843567E-001	-1.408515E-002	-1.085397E-001	7.563016E-003
2.100000E+008	7.508221E-002	-7.646724E-003	1.840682E-001	-1.473745E-002	1.842492E-001	-1.475252E-002	-1.084294E-001	7.741600E-003
2.200000E+008	7.498840E-002	-8.087397E-003	1.840035E-001	-1.537974E-002	1.841554E-001	-1.540214E-002	-1.082986E-001	7.912836E-003
2.300000E+008	7.487501E-002	-8.520022E-003	1.839069E-001	-1.605846E-002	1.840431E-001	-1.607822E-002	-1.081675E-001	8.082276E-003
2.400000E+008	7.479170E-002	-8.979052E-003	1.838153E-001	-1.674671E-002	1.839494E-001	-1.676366E-002	-1.080165E-001	8.272673E-003
2.500000E+008	7.470881E-002	-9.407795E-003	1.836929E-001	-1.743833E-002	1.838444E-001	-1.743031E-002	-1.078340E-001	8.454737E-003
2.600000E+008	7.464669E-002	-9.856398E-003	1.835619E-001	-1.812465E-002	1.837283E-001	-1.811910E-002	-1.076395E-001	8.705130E-003
2.700000E+008	7.459480E-002	-1.027722E-002	1.834308E-001	-1.879713E-002	1.835971E-001	-1.878529E-002	-1.074167E-001	8.976042E-003
2.800000E+008	7.457377E-002	-1.065485E-002	1.833174E-001	-1.943459E-002	1.834767E-001	-1.942817E-002	-1.071967E-001	9.229164E-003
2.900000E+008	7.446334E-002	-1.102036E-002	1.832093E-001	-2.008530E-002	1.833464E-001	-2.006001E-002	-1.070568E-001	9.521404E-003
3.000000E+008	7.439476E-002	-1.134298E-002	1.831217E-001	-2.074660E-002	1.832526E-001	-2.073688E-002	-1.068973E-001	9.842780E-003
3.100000E+008	7.428851E-002	-1.167363E-002	1.829991E-001	-2.142343E-002	1.831478E-001	-2.140646E-002	-1.067775E-001	1.017383E-002
3.200000E+008	7.417363E-002	-1.196715E-002	1.828732E-001	-2.211169E-002	1.830305E-001	-2.209179E-002	-1.066838E-001	1.049642E-002
3.300000E+008	7.403089E-002	-1.226825E-002	1.827432E-001	-2.274341E-002	1.829062E-001	-2.280279E-002	-1.065913E-001	1.078860E-002
3.400000E+008	7.380105E-002	-1.259543E-002	1.826020E-001	-2.341731E-002	1.827276E-001	-2.348906E-002	-1.064575E-001	1.103885E-002
3.500000E+008	7.356371E-002	-1.293976E-002	1.824674E-001	-2.411106E-002	1.825345E-001	-2.409792E-002	-1.063152E-001	1.125102E-002
3.600000E+008	7.337474E-002	-1.326187E-002	1.823189E-001	-2.474066E-002	1.823842E-001	-2.469536E-002	-1.061602E-001	1.148451E-002
3.700000E+008	7.317106E-002	-1.360763E-002	1.821522E-001	-2.537270E-002	1.822729E-001	-2.529845E-002	-1.059678E-001	1.168508E-002
3.800000E+008	7.298215E-002	-1.399204E-002	1.820191E-001	-2.602710E-002	1.821880E-001	-2.597021E-002	-1.057829E-001	1.191474E-002
3.900000E+008	7.277810E-002	-1.441159E-002	1.818436E-001	-2.669948E-002	1.820339E-001	-2.663268E-002	-1.054909E-001	1.219194E-002
4.000000E+008	7.262948E-002	-1.482637E-002	1.816653E-001	-2.729075E-002	1.818907E-001	-2.732439E-002	-1.051955E-001	1.245784E-002
4.100000E+008	7.242713E-002	-1.521401E-002	1.815225E-001	-2.789721E-002	1.817134E-001	-2.794885E-002	-1.049251E-001	1.274884E-002
4.200000E+008	7.225383E-002	-1.559118E-002	1.814187E-001	-2.853942E-002	1.815792E-001	-2.855667E-002	-1.046934E-001	1.305989E-002
4.300000E+008	7.210608E-002	-1.593769E-002	1.812772E-001	-2.918659E-002	1.814037E-001	-2.921534E-002	-1.044766E-001	1.343119E-002
4.400000E+008	7.195631E-002	-1.626782E-002	1.811362E-001	-2.982527E-002	1.812643E-001	-2.985088E-002	-1.042968E-001	1.383980E-002
4.500000E+008	7.181110E-002	-1.658740E-002	1.809624E-001	-3.048402E-002	1.811133E-001	-3.049397E-002	-1.041059E-001	1.427162E-002
4.600000E+008	7.165946E-002	-1.693224E-002	1.808098E-001	-3.112150E-002	1.809569E-001	-3.115398E-002	-1.039246E-001	1.469007E-002
4.700000E+008	7.148285E-002	-1.724377E-002	1.806297E-001	-3.175218E-002	1.807710E-001	-3.177765E-002	-1.037742E-001	1.504679E-002
4.800000E+008	7.127193E-002	-1.751336E-002	1.804731E-001	-3.236566E-002	1.805904E-001	-3.238159E-002	-1.036425E-001	1.541150E-002
4.900000E+008	7.106563E-002	-1.781493E-002	1.803142E-001	-3.300124E-002	1.804146E-001	-3.301086E-002	-1.035082E-001	1.576406E-002
5.000000E+008	7.086321E-002	-1.808724E-002	1.801334E-001	-3.361949E-002	1.802774E-001	-3.363030E-002	-1.033515E-001	1.608968E-002
5.100000E+008	7.067319E-002	-1.839634E-002	1.799751E-001	-3.424810E-002	1.801146E-001	-3.423772E-002	-1.031773E-001	1.641658E-002
5.200000E+008	7.045247E-002	-1.872000E-002	1.798218E-001	-3.488252E-002	1.799549E-001	-3.488137E-002	-1.030136E-001	1.673805E-002
5.300000E+008	7.022184E-002	-1.906606E-002	1.796355E-001	-3.549099E-002	1.797844E-001	-3.553648E-002	-1.027653E-001	1.707689E-002
5.400000E+008	6.999182E-002	-1.943800E-002	1.794455E-001	-3.612660E-002	1.796041E-001	-3.615128E-002	-1.025450E-001	1.738487E-002
5.500000E+008	6.976976E-002	-1.974396E-002	1.792694E-001	-3.676257E-002	1.793951E-001	-3.678528E-002	-1.023369E-001	1.775400E-002
5.600000E+008	6.955143E-002	-2.011643E-002	1.790796E-001	-3.735418E-002	1.792095E-001	-3.740049E-002	-1.021229E-001	1.812946E-002
5.700000E+008	6.934523E-002	-2.045487E-002	1.789148E-001	-3.796835E-002	1.790318E-001	-3.800001E-002	-1.019623E-001	1.854877E-002
5.800000E+008	6.915844E-002	-2.079020E-002	1.787118E-001	-3.859498E-002	1.788424E-001	-3.862177E-002	-1.017850E-001	1.895375E-002
5.900000E+008	6.896862E-002	-2.115867E-002	1.785316E-001	-3.922445E-002	1.786644E-001	-3.925838E-002	-1.016514E-001	1.938820E-002
6.000000E+008	6.881942E-002	-2.150294E-002	1.783384E-001	-3.984338E-002	1.784763E-001	-3.988316E-002	-1.014662E-001	1.976377E-002
6.100000E+008	6.866285E-002	-2.183537E-002	1.781371E-001	-4.044406E-002	1.782525E-001	-4.049494E-002	-1.013001E-001	2.015274E-002
6.200000E+008	6.855000E-002	-2.211437E-002	1.779399E-001	-4.104160E-002	1.780561E-001	-4.107790E-002	-1.011398E-001	2.053561E-002
6.300000E+008	6.844501E-002	-2.240778E-002	1.777287E-001	-4.165127E-002	1.778640E-001	-4.169002E-002	-1.009496E-001	2.088166E-002
6.400000E+008	6.829675E-002	-2.269000E-002	1.775393E-001	-4.223333E-002	1.776608E-001	-4.230090E-002	-1.007874E-001	2.125711E-002
6.500000E+008	6.816980E-002	-2.292087E-002	1.773512E-001	-4.284355E-002	1.774832E-001	-4.289098E-002	-1.006027E-001	2.167352E-002
6.600000E+008	6.799898E-002	-2.318978E-002	1.771612E-001	-4.345599E-002	1.772777E-001	-4.350657E-002	-1.004352E-001	2.205676E-002
6.700000E+008	6.777748E-002	-2.341055E-002	1.769650E-001	-4.405176E-002	1.770640E-001	-4.410022E-002	-1.002644E-001	2.247778E-002
6.800000E+008	6.758045E-002	-2.362683E-002	1.767620E-001	-4.466286E-002	1.768648E-001	-4.470148E-002	-1.000912E-001	2.289640E-002
6.900000E+008	6.731442E-002	-2.384623E-002	1.765155E-001	-4.526729E-002	1.766339E-001	-4.529280E-002	-9.993263E-002	2.334058E-002
7.000000E+008	6.711078E-002	-2.408341E-002	1.763249E-001	-4.584505E-002	1.764472E-001	-4.586885E-002	-9.981490E-002	2.376166E-002
7.100000E+008	6.689142E-002	-2.433763E-002	1.761238E-001	-4.643367E-002	1.762570E-001	-4.647699E-002	-9.971700E-002	2.416185E-002
7.200000E+008	6.667568E-002	-2.459911E-002	1.759146E-001	-4.701039E-002	1.760522E-001	-4.707129E-002	-9.960445E-002	2.454086E-002
7.300000E+008	6.643887E-002	-2.488349E-002	1.756849E-001	-4.761933E-002	1.758673E-001	-4.767717E-002	-9.950685E-002	2.491090E-002
7.400000E+008	6.618672E-002	-2.512006E-002	1.754790E-001	-4.820345E-002	1.756272E-001	-4.826221E-002	-9.940590E-002	2.525107E-002
7.500000E+008	6.597771E-002	-2.540719E-002	1.752618E-001	-4.879223E-002	1.754137E-001	-4.886954E-002	-9.929978E-002	2.556841E-002
7.600000E+008	6.575117E-002	-2.568912E-002	1.750253E-001	-4.939810E-002	1.751968E-001	-4.944436E-002	-9.916507E-002	2.589393E-002
7.700000E+008	6.553643E-002	-2.597410E-002	1.748405E-001	-4.998121E-002	1.749629E-001	-5.002942E-002	-9.902082E-002	2.620725E-002
7.800000E+008	6.532815E-002	-2.625877E-002	1.746117E-001	-5.055923E-002	1.747709E-001	-5.061033E-002	-9.885682E-002	2.650921E-002
7.900000E+008	6.509972E-002	-2.657745E-002	1.743919E-001	-5.115431E-002	1.745367E-001	-5.123356E-002	-9.872751E-002	2.684397E-002
8.000000E+008	6.490369E-002	-2.686376E-002	1.741704E-001	-5.174387E-002	1.742989E-001	-5.178869E-002	-9.851244E-002	2.719410E-002
8.100000E+008	6.470680E-002	-2.717101E-002	1.739382E-001	-5.230624E-002	1.740666E-001	-5.238972E-002	-9.828473E-002	2.757287E-002
8.200000E+008	6.455406E-002	-2.746218E-002	1.737094E-001	-5.289994E-002	1.738359E-001	-5.295148E-002	-9.808503E-002	2.791124E-002
8.300000E+008	6.441725E-002	-2.772964E-002	1.734829E-001	-5.348369E-002	1.736112E-001	-5.353848E-002	-9.788795E-002	2.828563E-002
8.400000E+008	6.425218E-002	-2.799379E-002	1.732432E-001	-5.404833E-002	1.733837E-001	-5.411088E-002	-9.771102E-002	2.864419E-002
8.500000E+008	6.412045E-002	-2.824336E-002	1.730220E-001	-5.462608E-002	1.731684E-001	-5.469159E-002	-9.758507E-002	2.901773E-002
8.600000E+008	6.395072E-002	-2.846237E-002	1.727699E-001	-5.519316E-002	1.729112E-001	-5.526642E-002	-9.742213E-002	2.938787E-002
8.700000E+008	6.378190E-002	-2.863783E-002	1.725660E-001	-5.576419E-002	1.726832E-001	-5.583206E-002	-9.728238E-002	2.974572E-002
8.800000E+008	6.361655E-002	-2.883594E-002	1.723195E-001	-5.635843E-002	1.724656E-001	-5.639647E-002	-9.714931E-002	3.010007E-002
8.900000E+008	6.340580E-002	-2.904354E-002	1.720696E-001	-5.692026E-002	1.722093E-001	-5.699823E-002	-9.698042E-002	3.042012E-002
9.000000E+008	6.318939E-002	-2.923967E-002	1.718266E-001	-5.750813E-002	1.719910E-001	-5.757417E-002	-9.681024E-002	3.075397E-002
9.100000E+008	6.295307E-002	-2.944960E-002	1.715874E-001	-5.806641E-002	1.717469E-001	-5.812280E-002	-9.660956E-002	3.104932E-002
9.200000E+008	6.271606E-002	-2.968132E-002	1.713285E-001	-5.863807E-002	1.715075E-001	-5.870494E-002	-9.637039E-002	3.140038E-002
9.300000E+008	6.251526E-002	-2.991820E-002	1.710920E-001	-5.919203E-002	1.712350E-001	-5.927128E-002	-9.612656E-002	3.174117E-002
9.400000E+008	6.231741E-002	-3.016831E-002	1.708413E-001	-5.975381E-002	1.710205E-001	-5.983945E-002	-9.583238E-002	3.210333E-002
9.500000E+008	6.213901E-002	-3.042866E-002	1.706102E-001	-6.033349E-002	1.707563E-001	-6.043139E-002	-9.553029E-002	3.250260E-002
9.600000E+008	6.194395E-002	-3.064583E-002	1.703539E-001	-6.089611E-002	1.705081E-001	-6.097323E-002	-9.523031E-002	3.289943E-002
9.700000E+008	6.179342E-002	-3.085254E-002	1.700919E-001	-6.144370E-002	1.702373E-001	-6.153964E-002	-9.494688E-002	3.332220E-002
9.800000E+008	6.166600E-002	-3.105892E-002	1.698794E-001	-6.200300E-002	1.699942E-001	-6.210252E-002	-9.468248E-002	3.375814E-002
9.900000E+008	6.150555E-002	-3.123365E-002	1.696322E-001	-6.256853E-002	1.697827E-001	-6.268293E-002	-9.444316E-002	3.420279E-002
1.000000E+009	6.132868E-002	-3.138455E-002	1.693608E-001	-6.313617E-002	1.694940E-001	-6.322729E-002	-9.424358E-002	3.463696E-002
1.010000E+009	6.114807E-002	-3.153439E-002	1.691165E-001	-6.370386E-002	1.692505E-001	-6.378367E-002	-9.403127E-002	3.508152E-002
1.020000E+009	6.093414E-002	-3.168544E-002	1.688521E-001	-6.426639E-002	1.689791E-001	-6.434746E-002	-9.384924E-002	3.551245E-002
1.030000E+009	6.072967E-002	-3.182932E-002	1.685871E-001	-6.482054E-002	1.687203E-001	-6.490116E-002	-9.367672E-002	3.595366E-002
1.040000E+009	6.051005E-002	-3.200395E-002	1.683197E-001	-6.536196E-002	1.684586E-001	-6.544905E-002	-9.349140E-002	3.636537E-002
1.050000E+009	6.030886E-002	-3.218070E-002	1.680671E-001	-6.591824E-002	1.681987E-001	-6.599798E-002	-9.328452E-002	3.680382E-002
1.060000E+009	6.009318E-002	-3.235766E-002	1.678119E-001	-6.647462E-002	1.679293E-001	-6.653642E-002	-9.304328E-002	3.722664E-002
1.070000E+009	5.986220E-002	-3.253527E-002	1.675492E-001	-6.700880E-002	1.676803E-001	-6.708975E-002	-9.280432E-002	3.762616E-002
1.080000E+009	5.967876E-002	-3.272179E-002	1.672834E-001	-6.759945E-002	1.674236E-001	-6.764693E-002	-9.256232E-002	3.806708E-002
1.090000E+009	5.948141E-002	-3.291641E-002	1.670056E-001	-6.814251E-002	1.671684E-001	-6.820585E-002	-9.233047E-002	3.848148E-002
1.100000E+009	5.928938E-002	-3.307531E-002	1.667050E-001	-6.868328E-002	1.668919E-001	-6.874292E-002	-9.214099E-002	3.892453E-002
1.110000E+009	5.909962E-002	-3.324116E-002	1.664605E-001	-6.923593E-002	1.666205E-001	-6.930045E-002	-9.191485E-002	3.933070E-002
1.120000E+009	5.889848E-002	-3.340042E-002	1.661847E-001	-6.977811E-002	1.663293E-001	-6.986033E-002	-9.176938E-002	3.974500E-002
1.130000E+009	5.866870E-002	-3.356209E-002	1.658999E-001	-7.033459E-002	1.660511E-001	-7.042638E-002	-9.156815E-002	4.014202E-002
1.140000E+009	5.842829E-002	-3.372026E-002	1.656289E-001	-7.087816E-002	1.657929E-001	-7.095584E-002	-9.138729E-002	4.058214E-002
1.150000E+009	5.824242E-002	-3.390212E-002	1.653521E-001	-7.144530E-002	1.654864E-001	-7.149579E-002	-9.116888E-002	4.098426E-002
1.160000E+009	5.799862E-002	-3.406298E-002	1.650720E-001	-7.198854E-002	1.652025E-001	-7.206602E-002	-9.095870E-002	4.138739E-002
1.170000E+009	5.780727E-002	-3.423099E-002	1.647984E-001	-7.253022E-002	1.649452E-001	-7.257249E-002	-9.072738E-002	4.182112E-002
1.180000E+009	5.760085E-002	-3.441321E-002	1.644841E-001	-7.307007E-002	1.646511E-001	-7.314081E-002	-9.046581E-002	4.222666E-002
1.190000E+009	5.734814E-002	-3.458137E-002	1.642100E-001	-7.361466E-002	1.643262E-001	-7.367126E-002	-9.024249E-002	4.267489E-002
1.200000E+009	5.714500E-002	-3.475031E-002	1.639171E-001	-7.414508E-002	1.640566E-001	-7.420406E-002	-8.996409E-002	4.312098E-002
1.210000E+009	5.696915E-002	-3.494275E-002	1.636232E-001	-7.469850E-002	1.637583E-001	-7.474602E-002	-8.973565E-002	4.357304E-002
1.220000E+009	5.675871E-002	-3.513939E-002	1.633426E-001	-7.521971E-002	1.634739E-001	-7.528712E-002	-8.954354E-002	4.402849E-002
1.230000E+009	5.654865E-002	-3.530629E-002	1.630269E-001	-7.576900E-002	1.631699E-001	-7.582716E-002	-8.932559E-002	4.444528E-002
1.240000E+009	5.637629E-002	-3.550782E-002	1.627378E-001	-7.630368E-002	1.628690E-001	-7.634958E-002	-8.914165E-002	4.482463E-002
1.250000E+009	5.618764E-002	-3.570496E-002	1.624247E-001	-7.683363E-002	1.626046E-001	-7.688956E-002	-8.898067E-002	4.525344E-002
1.260000E+009	5.598109E-002	-3.586862E-002	1.621288E-001	-7.736134E-002	1.622809E-001	-7.744298E-002	-8.874318E-002	4.560159E-002
1.270000E+009	5.586572E-002	-3.605670E-002	1.618330E-001	-7.790724E-002	1.619766E-001	-7.795791E-002	-8.850837E-002	4.596806E-002
1.280000E+009	5.564895E-002	-3.619218E-002	1.615634E-001	-7.844711E-002	1.617009E-001	-7.848877E-002	-8.826557E-002	4.631393E-002
1.290000E+009	5.548581E-002	-3.633878E-002	1.612272E-001	-7.898162E-002	1.613706E-001	-7.903266E-002	-8.796484E-002	4.665246E-002
1.300000E+009	5.533284E-002	-3.646326E-002	1.609161E-001	-7.949299E-002	1.610717E-001	-7.956847E-002	-8.765254E-002	4.703199E-002
1.310000E+009	5.516473E-002	-3.658866E-002	1.605933E-001	-8.002967E-002	1.607610E-001	-8.010307E-002	-8.731963E-002	4.742172E-002
1.320000E+009	5.494945E-002	-3.673603E-002	1.602910E-001	-8.055699E-002	1.604519E-001	-8.063401E-002	-8.694982E-002	4.786540E-002
1.330000E+009	5.477200E-002	-3.680359E-002	1.599808E-001	-8.108603E-002	1.601268E-001	-8.117585E-002	-8.657528E-002	4.836308E-002
1.340000E+009	5.457246E-002	-3.691862E-002	1.596540E-001	-8.159925E-002	1.598058E-001	-8.169513E-002	-8.620853E-002	4.887811E-002
1.350000E+009	5.433815E-002	-3.702974E-002	1.593513E-001	-8.211918E-002	1.594754E-001	-8.221061E-002	-8.587916E-002	4.940979E-002
1.360000E+009	5.415686E-002	-3.712920E-002	1.590088E-001	-8.264639E-002	1.591883E-001	-8.273897E-002	-8.553759E-002	4.997440E-002
1.370000E+009	5.393811E-002	-3.722900E-002	1.587129E-001	-8.318379E-002	1.588502E-001	-8.326245E-002	-8.525953E-002	5.053171E-002
1.380000E+009	5.374144E-002	-3.738035E-002	1.583692E-001	-8.370146E-002	1.585298E-001	-8.378707E-002	-8.498795E-002	5.107167E-002
1.390000E+009	5.354809E-002	-3.750773E-002	1.580404E-001	-8.423263E-002	1.581841E-001	-8.431384E-002	-8.474684E-002	5.164768E-002
1.400000E+009	5.333751E-002	-3.762129E-002	1.577147E-001	-8.471764E-002	1.578434E-001	-8.480343E-002	-8.450007E-002	5.215739E-002
1.410000E+009	5.311624E-002	-3.772584E-002	1.573794E-001	-8.526660E-002	1.575044E-001	-8.531442E-002	-8.427199E-002	5.269412E-002
1.420000E+009	5.286946E-002	-3.784816E-002	1.570276E-001	-8.575189E-002	1.571840E-001	-8.582767E-002	-8.403851E-002	5.317898E-002
1.430000E+009	5.270851E-002	-3.794274E-002	1.566923E-001	-8.626882E-002	1.568669E-001	-8.635027E-002	-8.376764E-002	5.365014E-002
1.440000E+009	5.247531E-002	-3.806079E-002	1.563515E-001	-8.677803E-002	1.565144E-001	-8.684878E-002	-8.350692E-002	5.411569E-002
1.450000E+009	5.224835E-002	-3.814836E-002	1.560300E-001	-8.729013E-002	1.561737E-001	-8.736195E-002	-8.320475E-002	5.461725E-002
1.460000E+009	5.202382E-002	-3.827054E-002	1.556688E-001	-8.779934E-002	1.558100E-001	-8.787974E-002	-8.290555E-002	5.510732E-002
1.470000E+009	5.181327E-002	-3.837606E-002	1.553329E-001	-8.830091E-002	1.554887E-001	-8.838842E-002	-8.261460E-002	5.561068E-002
1.480000E+009	5.156262E-002	-3.845669E-002	1.549808E-001	-8.878527E-002	1.551347E-001	-8.887525E-002	-8.229605E-002	5.617815E-002
1.490000E+009	5.135764E-002	-3.857807E-002	1.546454E-001	-8.928779E-002	1.547825E-001	-8.937594E-002	-8.199744E-002	5.672200E-002
1.500000E+009	5.114321E-002	-3.867945E-002	1.542938E-001	-8.979755E-002	1.544304E-001	-8.985103E-002	-8.165542E-002	5.728548E-002
