! Device ID: PE43711P
! File Path: z:\PE43711P\CHAR_NOM_04282014\AMB\3p300\LS_ATT_10p50dB\PE43711P_AMB_3p300V_3p000V_0p000V_LS_ATT_10p50dB_S2P_SN_5_A0137A.s2p
! Serial: 5
! Lot: A0137A
! Temp: 25C
! VDD: 3.300
! VSS: 0.000
! Control_Hi: 3.000
! Control_Lo: 0.000
! Attenuation Step: 10.50dB
! Port 1: RF1
! Port 2: RF2
! ThroughPath:1-2
! IDD: 0.0001275937
! ISS: -1.495e-007
!

#  Hz  S   RI  R   50

1.000000E+007	8.431730E-002	-2.085282E-004	2.619800E-001	-1.255572E-003	2.622929E-001	-1.327705E-003	-9.231077E-002	7.491615E-004
2.000000E+007	8.449837E-002	-4.900481E-004	2.620095E-001	-2.120120E-003	2.621608E-001	-2.135795E-003	-9.204113E-002	1.283737E-003
3.000000E+007	8.474333E-002	-9.070281E-004	2.620059E-001	-3.191324E-003	2.621794E-001	-3.203591E-003	-9.174045E-002	1.647185E-003
4.000000E+007	8.486593E-002	-1.335739E-003	2.620022E-001	-4.259368E-003	2.621423E-001	-4.267691E-003	-9.153547E-002	2.082779E-003
5.000000E+007	8.497053E-002	-1.814901E-003	2.619900E-001	-5.417529E-003	2.622058E-001	-5.383841E-003	-9.145778E-002	2.498279E-003
6.000000E+007	8.510795E-002	-2.327219E-003	2.619223E-001	-6.457104E-003	2.621737E-001	-6.448557E-003	-9.132889E-002	2.795114E-003
7.000000E+007	8.519797E-002	-2.850242E-003	2.618482E-001	-7.504186E-003	2.620827E-001	-7.502418E-003	-9.116096E-002	3.093771E-003
8.000000E+007	8.530519E-002	-3.365944E-003	2.617867E-001	-8.514543E-003	2.620233E-001	-8.516849E-003	-9.100683E-002	3.410382E-003
9.000000E+007	8.538531E-002	-3.884496E-003	2.617404E-001	-9.560317E-003	2.619588E-001	-9.569348E-003	-9.087135E-002	3.648441E-003
1.000000E+008	8.545364E-002	-4.380513E-003	2.616871E-001	-1.064228E-002	2.618855E-001	-1.060686E-002	-9.077586E-002	3.894312E-003
1.100000E+008	8.551116E-002	-4.905521E-003	2.615944E-001	-1.170508E-002	2.618303E-001	-1.164792E-002	-9.068110E-002	4.134806E-003
1.200000E+008	8.557688E-002	-5.447383E-003	2.614616E-001	-1.274012E-002	2.617043E-001	-1.272375E-002	-9.063325E-002	4.348607E-003
1.300000E+008	8.561794E-002	-5.979541E-003	2.613713E-001	-1.376417E-002	2.616234E-001	-1.377626E-002	-9.052097E-002	4.541863E-003
1.400000E+008	8.563129E-002	-6.506348E-003	2.612976E-001	-1.480639E-002	2.615140E-001	-1.483931E-002	-9.034423E-002	4.726803E-003
1.500000E+008	8.554533E-002	-6.996867E-003	2.611873E-001	-1.581105E-002	2.613487E-001	-1.582087E-002	-9.019873E-002	4.909919E-003
1.600000E+008	8.548528E-002	-7.438417E-003	2.611170E-001	-1.681557E-002	2.612274E-001	-1.680702E-002	-9.019050E-002	5.128810E-003
1.700000E+008	8.541940E-002	-7.907248E-003	2.610158E-001	-1.791309E-002	2.612345E-001	-1.784949E-002	-9.023075E-002	5.313142E-003
1.800000E+008	8.531196E-002	-8.397894E-003	2.607627E-001	-1.900019E-002	2.611337E-001	-1.895795E-002	-9.023906E-002	5.479436E-003
1.900000E+008	8.518584E-002	-8.929657E-003	2.605800E-001	-1.998992E-002	2.609420E-001	-2.000115E-002	-9.017783E-002	5.605692E-003
2.000000E+008	8.506876E-002	-9.491915E-003	2.604631E-001	-2.097206E-002	2.607834E-001	-2.097233E-002	-9.006456E-002	5.742941E-003
2.100000E+008	8.494009E-002	-1.008640E-002	2.603492E-001	-2.196468E-002	2.606145E-001	-2.196641E-002	-8.990650E-002	5.833453E-003
2.200000E+008	8.482826E-002	-1.064391E-002	2.602407E-001	-2.291879E-002	2.604631E-001	-2.295436E-002	-8.976872E-002	5.928111E-003
2.300000E+008	8.470347E-002	-1.119933E-002	2.600962E-001	-2.393597E-002	2.603258E-001	-2.394440E-002	-8.963809E-002	6.032329E-003
2.400000E+008	8.457591E-002	-1.174843E-002	2.599560E-001	-2.495944E-002	2.601407E-001	-2.494473E-002	-8.951714E-002	6.145000E-003
2.500000E+008	8.444600E-002	-1.229652E-002	2.597705E-001	-2.597456E-002	2.599863E-001	-2.595352E-002	-8.936427E-002	6.201329E-003
2.600000E+008	8.435491E-002	-1.284294E-002	2.595776E-001	-2.699924E-002	2.598252E-001	-2.697197E-002	-8.919267E-002	6.359332E-003
2.700000E+008	8.425293E-002	-1.337648E-002	2.593668E-001	-2.797080E-002	2.596425E-001	-2.797817E-002	-8.897267E-002	6.542800E-003
2.800000E+008	8.417054E-002	-1.387221E-002	2.591934E-001	-2.894183E-002	2.594488E-001	-2.893404E-002	-8.877233E-002	6.710944E-003
2.900000E+008	8.403261E-002	-1.432582E-002	2.590308E-001	-2.992511E-002	2.592434E-001	-2.989269E-002	-8.864045E-002	6.912009E-003
3.000000E+008	8.394107E-002	-1.476158E-002	2.588854E-001	-3.092351E-002	2.591107E-001	-3.089451E-002	-8.848536E-002	7.154322E-003
3.100000E+008	8.380666E-002	-1.517403E-002	2.587190E-001	-3.190683E-002	2.589322E-001	-3.187981E-002	-8.837077E-002	7.401674E-003
3.200000E+008	8.363698E-002	-1.557674E-002	2.585103E-001	-3.292334E-002	2.587492E-001	-3.289837E-002	-8.827903E-002	7.633747E-003
3.300000E+008	8.344434E-002	-1.598306E-002	2.583167E-001	-3.390215E-002	2.585706E-001	-3.393982E-002	-8.819636E-002	7.834684E-003
3.400000E+008	8.315657E-002	-1.640069E-002	2.581074E-001	-3.490207E-002	2.582709E-001	-3.496839E-002	-8.808091E-002	8.012100E-003
3.500000E+008	8.289188E-002	-1.684072E-002	2.578983E-001	-3.589646E-002	2.580100E-001	-3.587997E-002	-8.794944E-002	8.116342E-003
3.600000E+008	8.263131E-002	-1.724786E-002	2.576867E-001	-3.687108E-002	2.577740E-001	-3.676848E-002	-8.780920E-002	8.248771E-003
3.700000E+008	8.238009E-002	-1.768822E-002	2.574258E-001	-3.778571E-002	2.575898E-001	-3.766443E-002	-8.763287E-002	8.380495E-003
3.800000E+008	8.215374E-002	-1.817147E-002	2.572268E-001	-3.875211E-002	2.574560E-001	-3.866004E-002	-8.745253E-002	8.516641E-003
3.900000E+008	8.189036E-002	-1.866752E-002	2.569570E-001	-3.973790E-002	2.572477E-001	-3.966204E-002	-8.717853E-002	8.705447E-003
4.000000E+008	8.168629E-002	-1.917153E-002	2.566940E-001	-4.063612E-002	2.569866E-001	-4.066562E-002	-8.690609E-002	8.881743E-003
4.100000E+008	8.144539E-002	-1.965760E-002	2.564740E-001	-4.152805E-002	2.567422E-001	-4.161053E-002	-8.663500E-002	9.068283E-003
4.200000E+008	8.120207E-002	-2.012373E-002	2.563097E-001	-4.247863E-002	2.565019E-001	-4.250680E-002	-8.644139E-002	9.325639E-003
4.300000E+008	8.099595E-002	-2.055906E-002	2.560911E-001	-4.343875E-002	2.562606E-001	-4.347713E-002	-8.624461E-002	9.597360E-003
4.400000E+008	8.080930E-002	-2.095433E-002	2.558442E-001	-4.441108E-002	2.560396E-001	-4.444227E-002	-8.608009E-002	9.913952E-003
4.500000E+008	8.060105E-002	-2.138113E-002	2.556092E-001	-4.537409E-002	2.558181E-001	-4.538473E-002	-8.590526E-002	1.025344E-002
4.600000E+008	8.040700E-002	-2.181625E-002	2.553635E-001	-4.634121E-002	2.555530E-001	-4.636381E-002	-8.574513E-002	1.058020E-002
4.700000E+008	8.016664E-002	-2.219764E-002	2.550831E-001	-4.726359E-002	2.552927E-001	-4.730187E-002	-8.561800E-002	1.087578E-002
4.800000E+008	7.991929E-002	-2.255433E-002	2.548559E-001	-4.817543E-002	2.550247E-001	-4.819613E-002	-8.550506E-002	1.114801E-002
4.900000E+008	7.963049E-002	-2.292950E-002	2.545908E-001	-4.911950E-002	2.547457E-001	-4.913777E-002	-8.539082E-002	1.141355E-002
5.000000E+008	7.937297E-002	-2.327764E-002	2.543309E-001	-5.005361E-002	2.545190E-001	-5.004515E-002	-8.526789E-002	1.166134E-002
5.100000E+008	7.912182E-002	-2.367851E-002	2.540911E-001	-5.097583E-002	2.542806E-001	-5.097944E-002	-8.510373E-002	1.190462E-002
5.200000E+008	7.884752E-002	-2.409058E-002	2.538242E-001	-5.191484E-002	2.540480E-001	-5.191568E-002	-8.494822E-002	1.214422E-002
5.300000E+008	7.855419E-002	-2.450046E-002	2.535528E-001	-5.283938E-002	2.537829E-001	-5.287920E-002	-8.472276E-002	1.239285E-002
5.400000E+008	7.826674E-002	-2.497387E-002	2.532704E-001	-5.377544E-002	2.535016E-001	-5.380588E-002	-8.452079E-002	1.262282E-002
5.500000E+008	7.798237E-002	-2.535325E-002	2.530119E-001	-5.469382E-002	2.531832E-001	-5.473756E-002	-8.433772E-002	1.289230E-002
5.600000E+008	7.769186E-002	-2.577376E-002	2.526969E-001	-5.561405E-002	2.528649E-001	-5.564273E-002	-8.414055E-002	1.317532E-002
5.700000E+008	7.744250E-002	-2.619874E-002	2.524180E-001	-5.650435E-002	2.526157E-001	-5.653726E-002	-8.401326E-002	1.351357E-002
5.800000E+008	7.720014E-002	-2.659843E-002	2.521475E-001	-5.742013E-002	2.523318E-001	-5.743171E-002	-8.387793E-002	1.383062E-002
5.900000E+008	7.694349E-002	-2.703723E-002	2.518484E-001	-5.836148E-002	2.520805E-001	-5.838718E-002	-8.376482E-002	1.418678E-002
6.000000E+008	7.673134E-002	-2.745071E-002	2.515598E-001	-5.925787E-002	2.517575E-001	-5.931414E-002	-8.358569E-002	1.447706E-002
6.100000E+008	7.652313E-002	-2.784998E-002	2.512565E-001	-6.016167E-002	2.514254E-001	-6.022366E-002	-8.348538E-002	1.476863E-002
6.200000E+008	7.633942E-002	-2.821676E-002	2.509540E-001	-6.104185E-002	2.511370E-001	-6.112058E-002	-8.334596E-002	1.504560E-002
6.300000E+008	7.615033E-002	-2.856713E-002	2.506339E-001	-6.195289E-002	2.508331E-001	-6.198299E-002	-8.320831E-002	1.533170E-002
6.400000E+008	7.597712E-002	-2.891055E-002	2.503437E-001	-6.284455E-002	2.505358E-001	-6.289222E-002	-8.303127E-002	1.563074E-002
6.500000E+008	7.579819E-002	-2.921762E-002	2.500391E-001	-6.372686E-002	2.502503E-001	-6.378540E-002	-8.288525E-002	1.595038E-002
6.600000E+008	7.555632E-002	-2.954883E-002	2.497599E-001	-6.462970E-002	2.499276E-001	-6.469772E-002	-8.272782E-002	1.624961E-002
6.700000E+008	7.527216E-002	-2.983070E-002	2.494391E-001	-6.550748E-002	2.495991E-001	-6.558397E-002	-8.261055E-002	1.659405E-002
6.800000E+008	7.498367E-002	-3.013359E-002	2.491194E-001	-6.640632E-002	2.492955E-001	-6.648081E-002	-8.245588E-002	1.695355E-002
6.900000E+008	7.469536E-002	-3.040186E-002	2.487878E-001	-6.729788E-002	2.489585E-001	-6.735217E-002	-8.233307E-002	1.730870E-002
7.000000E+008	7.441919E-002	-3.069148E-002	2.484693E-001	-6.818153E-002	2.486563E-001	-6.821046E-002	-8.224725E-002	1.764015E-002
7.100000E+008	7.413377E-002	-3.104119E-002	2.481481E-001	-6.905461E-002	2.483380E-001	-6.912062E-002	-8.219151E-002	1.795275E-002
7.200000E+008	7.384465E-002	-3.137497E-002	2.478449E-001	-6.991598E-002	2.480252E-001	-6.999132E-002	-8.209196E-002	1.825508E-002
7.300000E+008	7.355087E-002	-3.169369E-002	2.474875E-001	-7.080845E-002	2.477055E-001	-7.088606E-002	-8.202640E-002	1.851059E-002
7.400000E+008	7.324306E-002	-3.201700E-002	2.471667E-001	-7.169257E-002	2.473768E-001	-7.175057E-002	-8.195936E-002	1.879329E-002
7.500000E+008	7.295730E-002	-3.235179E-002	2.468394E-001	-7.256085E-002	2.470486E-001	-7.263213E-002	-8.190472E-002	1.902282E-002
7.600000E+008	7.268007E-002	-3.270134E-002	2.464950E-001	-7.343399E-002	2.467103E-001	-7.352347E-002	-8.178612E-002	1.926198E-002
7.700000E+008	7.237947E-002	-3.306693E-002	2.461664E-001	-7.430267E-002	2.463962E-001	-7.438319E-002	-8.167184E-002	1.947903E-002
7.800000E+008	7.210073E-002	-3.337334E-002	2.458387E-001	-7.517766E-002	2.460657E-001	-7.524189E-002	-8.156121E-002	1.970762E-002
7.900000E+008	7.181027E-002	-3.377177E-002	2.454947E-001	-7.603020E-002	2.457248E-001	-7.615022E-002	-8.143246E-002	1.994765E-002
8.000000E+008	7.154158E-002	-3.413118E-002	2.451564E-001	-7.690761E-002	2.453366E-001	-7.698009E-002	-8.127252E-002	2.022793E-002
8.100000E+008	7.126497E-002	-3.448123E-002	2.447825E-001	-7.775703E-002	2.449681E-001	-7.785922E-002	-8.109871E-002	2.051435E-002
8.200000E+008	7.105526E-002	-3.482770E-002	2.444356E-001	-7.862488E-002	2.446318E-001	-7.869794E-002	-8.093148E-002	2.078163E-002
8.300000E+008	7.082479E-002	-3.514462E-002	2.440873E-001	-7.946234E-002	2.442894E-001	-7.955640E-002	-8.078040E-002	2.106653E-002
8.400000E+008	7.063340E-002	-3.549384E-002	2.437307E-001	-8.032011E-002	2.439335E-001	-8.042112E-002	-8.062853E-002	2.135217E-002
8.500000E+008	7.041807E-002	-3.578575E-002	2.433924E-001	-8.118071E-002	2.435908E-001	-8.127381E-002	-8.055822E-002	2.164514E-002
8.600000E+008	7.018604E-002	-3.606620E-002	2.430235E-001	-8.202040E-002	2.431930E-001	-8.211708E-002	-8.042462E-002	2.192823E-002
8.700000E+008	6.994310E-002	-3.629456E-002	2.426561E-001	-8.288429E-002	2.428225E-001	-8.297955E-002	-8.031546E-002	2.221098E-002
8.800000E+008	6.969899E-002	-3.653835E-002	2.423105E-001	-8.374573E-002	2.425081E-001	-8.383619E-002	-8.020499E-002	2.247126E-002
8.900000E+008	6.941887E-002	-3.680851E-002	2.419174E-001	-8.457945E-002	2.421269E-001	-8.468031E-002	-8.011033E-002	2.270830E-002
9.000000E+008	6.914875E-002	-3.705755E-002	2.415231E-001	-8.542308E-002	2.417731E-001	-8.552342E-002	-7.996575E-002	2.297806E-002
9.100000E+008	6.882171E-002	-3.732051E-002	2.411602E-001	-8.627753E-002	2.413896E-001	-8.637109E-002	-7.979063E-002	2.321036E-002
9.200000E+008	6.852699E-002	-3.761708E-002	2.408027E-001	-8.710223E-002	2.410100E-001	-8.722421E-002	-7.960610E-002	2.346118E-002
9.300000E+008	6.824135E-002	-3.790699E-002	2.404077E-001	-8.793904E-002	2.405974E-001	-8.806271E-002	-7.939787E-002	2.372693E-002
9.400000E+008	6.797548E-002	-3.819297E-002	2.400432E-001	-8.877231E-002	2.402562E-001	-8.890425E-002	-7.915309E-002	2.401173E-002
9.500000E+008	6.771088E-002	-3.849764E-002	2.396671E-001	-8.961693E-002	2.398642E-001	-8.975928E-002	-7.888164E-002	2.432733E-002
9.600000E+008	6.746892E-002	-3.875814E-002	2.392733E-001	-9.045802E-002	2.394844E-001	-9.056484E-002	-7.862116E-002	2.464991E-002
9.700000E+008	6.724558E-002	-3.900517E-002	2.388854E-001	-9.125518E-002	2.390915E-001	-9.140815E-002	-7.839127E-002	2.500223E-002
9.800000E+008	6.703488E-002	-3.924838E-002	2.385040E-001	-9.207309E-002	2.386982E-001	-9.223775E-002	-7.815446E-002	2.534397E-002
9.900000E+008	6.682147E-002	-3.947923E-002	2.381373E-001	-9.293252E-002	2.383237E-001	-9.308483E-002	-7.794817E-002	2.571494E-002
1.000000E+009	6.658453E-002	-3.968258E-002	2.377453E-001	-9.375632E-002	2.379089E-001	-9.389327E-002	-7.779489E-002	2.607537E-002
1.010000E+009	6.629749E-002	-3.988234E-002	2.373622E-001	-9.461820E-002	2.375308E-001	-9.471615E-002	-7.763090E-002	2.645531E-002
1.020000E+009	6.602921E-002	-4.006451E-002	2.369358E-001	-9.542775E-002	2.371397E-001	-9.555124E-002	-7.750108E-002	2.679975E-002
1.030000E+009	6.575483E-002	-4.024869E-002	2.365502E-001	-9.625848E-002	2.367249E-001	-9.637102E-002	-7.736325E-002	2.718670E-002
1.040000E+009	6.547953E-002	-4.043751E-002	2.361320E-001	-9.705960E-002	2.363346E-001	-9.718869E-002	-7.721940E-002	2.752077E-002
1.050000E+009	6.519712E-002	-4.068559E-002	2.357345E-001	-9.786238E-002	2.359233E-001	-9.797453E-002	-7.706027E-002	2.785041E-002
1.060000E+009	6.489999E-002	-4.091306E-002	2.353321E-001	-9.868053E-002	2.355224E-001	-9.878449E-002	-7.686857E-002	2.820681E-002
1.070000E+009	6.460608E-002	-4.112565E-002	2.348961E-001	-9.949900E-002	2.351264E-001	-9.959126E-002	-7.668396E-002	2.852386E-002
1.080000E+009	6.434284E-002	-4.137004E-002	2.344970E-001	-1.003244E-001	2.347262E-001	-1.004355E-001	-7.649014E-002	2.889879E-002
1.090000E+009	6.409593E-002	-4.157939E-002	2.340844E-001	-1.011378E-001	2.342982E-001	-1.012263E-001	-7.631267E-002	2.924570E-002
1.100000E+009	6.383074E-002	-4.179736E-002	2.336317E-001	-1.019648E-001	2.338775E-001	-1.020488E-001	-7.615234E-002	2.960994E-002
1.110000E+009	6.357559E-002	-4.200162E-002	2.332420E-001	-1.027504E-001	2.334752E-001	-1.028610E-001	-7.595070E-002	2.995435E-002
1.120000E+009	6.328393E-002	-4.219253E-002	2.328203E-001	-1.035561E-001	2.330440E-001	-1.036941E-001	-7.585480E-002	3.028252E-002
1.130000E+009	6.302304E-002	-4.240307E-002	2.323983E-001	-1.043796E-001	2.326103E-001	-1.044850E-001	-7.571354E-002	3.062502E-002
1.140000E+009	6.269079E-002	-4.260686E-002	2.319598E-001	-1.051958E-001	2.321937E-001	-1.052989E-001	-7.558694E-002	3.099270E-002
1.150000E+009	6.242029E-002	-4.278697E-002	2.315466E-001	-1.059907E-001	2.317302E-001	-1.060997E-001	-7.540522E-002	3.132057E-002
1.160000E+009	6.213340E-002	-4.298519E-002	2.311018E-001	-1.067967E-001	2.313309E-001	-1.069222E-001	-7.525259E-002	3.162964E-002
1.170000E+009	6.182932E-002	-4.320255E-002	2.306688E-001	-1.075984E-001	2.308679E-001	-1.076957E-001	-7.505868E-002	3.201118E-002
1.180000E+009	6.157001E-002	-4.343173E-002	2.301762E-001	-1.083976E-001	2.304223E-001	-1.085007E-001	-7.487022E-002	3.233701E-002
1.190000E+009	6.126574E-002	-4.362867E-002	2.297661E-001	-1.091998E-001	2.299174E-001	-1.092963E-001	-7.467735E-002	3.271937E-002
1.200000E+009	6.099861E-002	-4.382581E-002	2.293414E-001	-1.100006E-001	2.294981E-001	-1.100728E-001	-7.445725E-002	3.307464E-002
1.210000E+009	6.073015E-002	-4.406039E-002	2.288500E-001	-1.107881E-001	2.290679E-001	-1.108976E-001	-7.427184E-002	3.345966E-002
1.220000E+009	6.046097E-002	-4.429694E-002	2.284105E-001	-1.115815E-001	2.286166E-001	-1.116821E-001	-7.412038E-002	3.383364E-002
1.230000E+009	6.019072E-002	-4.451490E-002	2.279508E-001	-1.123555E-001	2.281436E-001	-1.124753E-001	-7.395555E-002	3.417947E-002
1.240000E+009	5.993266E-002	-4.471572E-002	2.274880E-001	-1.131394E-001	2.276918E-001	-1.132502E-001	-7.383507E-002	3.451950E-002
1.250000E+009	5.966655E-002	-4.495136E-002	2.270483E-001	-1.139338E-001	2.272623E-001	-1.140243E-001	-7.370280E-002	3.483703E-002
1.260000E+009	5.936776E-002	-4.515231E-002	2.265598E-001	-1.147366E-001	2.267570E-001	-1.148285E-001	-7.353046E-002	3.513276E-002
1.270000E+009	5.917457E-002	-4.535064E-002	2.260985E-001	-1.155003E-001	2.262899E-001	-1.156031E-001	-7.335105E-002	3.544550E-002
1.280000E+009	5.890242E-002	-4.554270E-002	2.256537E-001	-1.162856E-001	2.258545E-001	-1.163886E-001	-7.316191E-002	3.569622E-002
1.290000E+009	5.866185E-002	-4.571076E-002	2.251748E-001	-1.171007E-001	2.253689E-001	-1.171642E-001	-7.292726E-002	3.599006E-002
1.300000E+009	5.843052E-002	-4.584470E-002	2.246807E-001	-1.178350E-001	2.249117E-001	-1.179341E-001	-7.265334E-002	3.627344E-002
1.310000E+009	5.817501E-002	-4.601891E-002	2.241851E-001	-1.186353E-001	2.244154E-001	-1.187381E-001	-7.239181E-002	3.660539E-002
1.320000E+009	5.790084E-002	-4.616541E-002	2.237049E-001	-1.194167E-001	2.239397E-001	-1.195124E-001	-7.207035E-002	3.699370E-002
1.330000E+009	5.765778E-002	-4.628039E-002	2.232433E-001	-1.201639E-001	2.234425E-001	-1.202958E-001	-7.172096E-002	3.740885E-002
1.340000E+009	5.737600E-002	-4.640168E-002	2.227522E-001	-1.209476E-001	2.229505E-001	-1.210508E-001	-7.142521E-002	3.785766E-002
1.350000E+009	5.706734E-002	-4.653121E-002	2.222734E-001	-1.217148E-001	2.224331E-001	-1.218214E-001	-7.113298E-002	3.833796E-002
1.360000E+009	5.683360E-002	-4.667683E-002	2.217469E-001	-1.224836E-001	2.219661E-001	-1.225859E-001	-7.086680E-002	3.883168E-002
1.370000E+009	5.653432E-002	-4.679154E-002	2.212619E-001	-1.232165E-001	2.214558E-001	-1.233458E-001	-7.065262E-002	3.933185E-002
1.380000E+009	5.627386E-002	-4.694388E-002	2.207532E-001	-1.239848E-001	2.209503E-001	-1.241122E-001	-7.041241E-002	3.981314E-002
1.390000E+009	5.600385E-002	-4.709334E-002	2.202302E-001	-1.247566E-001	2.204478E-001	-1.248972E-001	-7.022840E-002	4.032376E-002
1.400000E+009	5.572168E-002	-4.725208E-002	2.197178E-001	-1.255190E-001	2.199319E-001	-1.255975E-001	-7.006073E-002	4.077988E-002
1.410000E+009	5.542179E-002	-4.738791E-002	2.192168E-001	-1.262575E-001	2.194073E-001	-1.263651E-001	-6.988523E-002	4.124707E-002
1.420000E+009	5.513975E-002	-4.751614E-002	2.187013E-001	-1.269946E-001	2.189074E-001	-1.271091E-001	-6.968251E-002	4.164381E-002
1.430000E+009	5.486808E-002	-4.762301E-002	2.181855E-001	-1.277488E-001	2.184070E-001	-1.278953E-001	-6.947656E-002	4.208173E-002
1.440000E+009	5.457342E-002	-4.776600E-002	2.176842E-001	-1.284859E-001	2.178821E-001	-1.286083E-001	-6.926985E-002	4.248499E-002
1.450000E+009	5.427878E-002	-4.789057E-002	2.171455E-001	-1.292296E-001	2.173516E-001	-1.293450E-001	-6.903371E-002	4.289926E-002
1.460000E+009	5.398778E-002	-4.800240E-002	2.166245E-001	-1.299945E-001	2.167962E-001	-1.301063E-001	-6.880884E-002	4.332538E-002
1.470000E+009	5.368432E-002	-4.813099E-002	2.160929E-001	-1.307381E-001	2.163015E-001	-1.308519E-001	-6.855200E-002	4.381221E-002
1.480000E+009	5.339211E-002	-4.823112E-002	2.155405E-001	-1.314498E-001	2.157432E-001	-1.315797E-001	-6.831535E-002	4.430083E-002
1.490000E+009	5.309003E-002	-4.835871E-002	2.150378E-001	-1.321799E-001	2.152145E-001	-1.322668E-001	-6.804629E-002	4.479413E-002
1.500000E+009	5.280868E-002	-4.850210E-002	2.144785E-001	-1.329103E-001	2.146913E-001	-1.330136E-001	-6.777776E-002	4.528714E-002
