! Device ID: PE43711P
! File Path: z:\PE43711P\CHAR_NOM_04282014\AMB\3p300\LS_ATT_29p00dB\PE43711P_AMB_3p300V_3p000V_0p000V_LS_ATT_29p00dB_S2P_SN_5_A0137A.s2p
! Serial: 5
! Lot: A0137A
! Temp: 25C
! VDD: 3.300
! VSS: 0.000
! Control_Hi: 3.000
! Control_Lo: 0.000
! Attenuation Step: 29.00dB
! Port 1: RF1
! Port 2: RF2
! ThroughPath:1-2
! IDD: 0.000127979
! ISS: -3.99e-008
!

#  Hz  S   RI  R   50

1.000000E+007	1.958648E-002	5.508921E-004	3.073347E-002	-1.160180E-004	3.075364E-002	-1.237462E-004	-1.233401E-001	9.820398E-004
2.000000E+007	1.984449E-002	7.350753E-004	3.072964E-002	-1.775342E-004	3.074375E-002	-1.787914E-004	-1.230055E-001	1.567236E-003
3.000000E+007	2.010536E-002	9.434545E-004	3.073600E-002	-2.514028E-004	3.075549E-002	-2.738146E-004	-1.226962E-001	2.075964E-003
4.000000E+007	2.028978E-002	1.109506E-003	3.073228E-002	-3.556295E-004	3.074929E-002	-3.491611E-004	-1.225378E-001	2.683138E-003
5.000000E+007	2.039536E-002	1.291974E-003	3.072460E-002	-4.487460E-004	3.075922E-002	-4.385081E-004	-1.224881E-001	3.289431E-003
6.000000E+007	2.054998E-002	1.407002E-003	3.072710E-002	-5.354063E-004	3.074947E-002	-5.314466E-004	-1.223703E-001	3.780192E-003
7.000000E+007	2.069025E-002	1.503624E-003	3.072491E-002	-6.155692E-004	3.074072E-002	-6.227406E-004	-1.221903E-001	4.251662E-003
8.000000E+007	2.084256E-002	1.613028E-003	3.071088E-002	-6.925771E-004	3.073163E-002	-7.002118E-004	-1.220247E-001	4.712228E-003
9.000000E+007	2.097382E-002	1.706644E-003	3.071808E-002	-7.873976E-004	3.073085E-002	-7.776188E-004	-1.219230E-001	5.109583E-003
1.000000E+008	2.111949E-002	1.816506E-003	3.070120E-002	-8.687057E-004	3.072977E-002	-8.692349E-004	-1.218744E-001	5.557519E-003
1.100000E+008	2.126259E-002	1.883407E-003	3.070275E-002	-9.481001E-004	3.072975E-002	-9.573732E-004	-1.217851E-001	5.945677E-003
1.200000E+008	2.141427E-002	1.931426E-003	3.068984E-002	-1.042127E-003	3.072042E-002	-1.054958E-003	-1.216730E-001	6.300936E-003
1.300000E+008	2.156009E-002	2.029016E-003	3.069273E-002	-1.129152E-003	3.071663E-002	-1.124465E-003	-1.215642E-001	6.661756E-003
1.400000E+008	2.166763E-002	2.142412E-003	3.067574E-002	-1.211441E-003	3.071276E-002	-1.215153E-003	-1.214746E-001	7.042215E-003
1.500000E+008	2.173170E-002	2.258554E-003	3.067123E-002	-1.297368E-003	3.068996E-002	-1.299292E-003	-1.213787E-001	7.410210E-003
1.600000E+008	2.182717E-002	2.396694E-003	3.066705E-002	-1.378466E-003	3.069023E-002	-1.374458E-003	-1.213085E-001	7.772385E-003
1.700000E+008	2.192641E-002	2.493760E-003	3.067665E-002	-1.471820E-003	3.068961E-002	-1.454307E-003	-1.212503E-001	8.146134E-003
1.800000E+008	2.198750E-002	2.598334E-003	3.064347E-002	-1.554122E-003	3.068995E-002	-1.557000E-003	-1.211553E-001	8.512399E-003
1.900000E+008	2.199421E-002	2.664454E-003	3.064008E-002	-1.651502E-003	3.066902E-002	-1.634160E-003	-1.210989E-001	8.816835E-003
2.000000E+008	2.200069E-002	2.718127E-003	3.062788E-002	-1.726698E-003	3.066181E-002	-1.729798E-003	-1.210650E-001	9.105495E-003
2.100000E+008	2.198683E-002	2.706086E-003	3.061134E-002	-1.801846E-003	3.064779E-002	-1.796848E-003	-1.209772E-001	9.342569E-003
2.200000E+008	2.201369E-002	2.721359E-003	3.061379E-002	-1.880025E-003	3.062871E-002	-1.880469E-003	-1.208912E-001	9.565489E-003
2.300000E+008	2.206411E-002	2.722017E-003	3.059713E-002	-1.972015E-003	3.062132E-002	-1.951948E-003	-1.207547E-001	9.814969E-003
2.400000E+008	2.213491E-002	2.724907E-003	3.058980E-002	-2.052472E-003	3.061845E-002	-2.045071E-003	-1.206054E-001	1.009524E-002
2.500000E+008	2.218596E-002	2.758760E-003	3.058815E-002	-2.132011E-003	3.060392E-002	-2.129310E-003	-1.204122E-001	1.036173E-002
2.600000E+008	2.230047E-002	2.769798E-003	3.056694E-002	-2.217402E-003	3.059785E-002	-2.217325E-003	-1.202102E-001	1.071456E-002
2.700000E+008	2.240388E-002	2.807723E-003	3.055002E-002	-2.312087E-003	3.058600E-002	-2.287759E-003	-1.199761E-001	1.107388E-002
2.800000E+008	2.252921E-002	2.847172E-003	3.054460E-002	-2.377099E-003	3.057152E-002	-2.387773E-003	-1.197663E-001	1.142181E-002
2.900000E+008	2.261226E-002	2.926840E-003	3.053228E-002	-2.465290E-003	3.054387E-002	-2.452345E-003	-1.196358E-001	1.180142E-002
3.000000E+008	2.268250E-002	3.030428E-003	3.052663E-002	-2.546155E-003	3.054759E-002	-2.539629E-003	-1.195012E-001	1.220675E-002
3.100000E+008	2.271254E-002	3.139267E-003	3.051651E-002	-2.624166E-003	3.054259E-002	-2.623412E-003	-1.193798E-001	1.262664E-002
3.200000E+008	2.275542E-002	3.266787E-003	3.049729E-002	-2.723221E-003	3.052592E-002	-2.704127E-003	-1.192974E-001	1.302798E-002
3.300000E+008	2.275995E-002	3.361433E-003	3.048967E-002	-2.800496E-003	3.052024E-002	-2.793839E-003	-1.192178E-001	1.338526E-002
3.400000E+008	2.274480E-002	3.455991E-003	3.047284E-002	-2.877495E-003	3.047697E-002	-2.873479E-003	-1.191053E-001	1.371331E-002
3.500000E+008	2.270790E-002	3.505434E-003	3.047048E-002	-2.968157E-003	3.046359E-002	-2.965328E-003	-1.189562E-001	1.402100E-002
3.600000E+008	2.269217E-002	3.562224E-003	3.043256E-002	-3.047331E-003	3.044283E-002	-3.031960E-003	-1.188031E-001	1.433383E-002
3.700000E+008	2.266452E-002	3.604801E-003	3.041924E-002	-3.124947E-003	3.043221E-002	-3.101564E-003	-1.185986E-001	1.462048E-002
3.800000E+008	2.265431E-002	3.635564E-003	3.041255E-002	-3.215326E-003	3.043233E-002	-3.183799E-003	-1.184036E-001	1.494181E-002
3.900000E+008	2.264629E-002	3.624696E-003	3.039051E-002	-3.275917E-003	3.042453E-002	-3.277522E-003	-1.181640E-001	1.530891E-002
4.000000E+008	2.267736E-002	3.620781E-003	3.038098E-002	-3.356367E-003	3.040806E-002	-3.339710E-003	-1.178338E-001	1.569985E-002
4.100000E+008	2.269670E-002	3.625014E-003	3.036028E-002	-3.433280E-003	3.037508E-002	-3.441117E-003	-1.175649E-001	1.604820E-002
4.200000E+008	2.271713E-002	3.623134E-003	3.034346E-002	-3.507874E-003	3.036750E-002	-3.518355E-003	-1.173524E-001	1.648650E-002
4.300000E+008	2.274422E-002	3.641966E-003	3.034535E-002	-3.600546E-003	3.034880E-002	-3.587403E-003	-1.171532E-001	1.695047E-002
4.400000E+008	2.278967E-002	3.705360E-003	3.032756E-002	-3.673980E-003	3.034239E-002	-3.689184E-003	-1.169611E-001	1.743546E-002
4.500000E+008	2.284145E-002	3.722030E-003	3.030714E-002	-3.757825E-003	3.033921E-002	-3.754198E-003	-1.167768E-001	1.793211E-002
4.600000E+008	2.289544E-002	3.762658E-003	3.028724E-002	-3.841792E-003	3.031039E-002	-3.836811E-003	-1.165875E-001	1.842693E-002
4.700000E+008	2.293392E-002	3.803109E-003	3.026476E-002	-3.917826E-003	3.029190E-002	-3.934570E-003	-1.164154E-001	1.887401E-002
4.800000E+008	2.295277E-002	3.884281E-003	3.024337E-002	-3.994671E-003	3.026705E-002	-3.995751E-003	-1.162884E-001	1.934658E-002
4.900000E+008	2.295499E-002	3.944744E-003	3.023192E-002	-4.064609E-003	3.024708E-002	-4.071559E-003	-1.161353E-001	1.977935E-002
5.000000E+008	2.296936E-002	4.014687E-003	3.022125E-002	-4.137513E-003	3.023323E-002	-4.141163E-003	-1.159740E-001	2.020948E-002
5.100000E+008	2.296638E-002	4.081706E-003	3.020187E-002	-4.227891E-003	3.022674E-002	-4.214059E-003	-1.158205E-001	2.063342E-002
5.200000E+008	2.296437E-002	4.111911E-003	3.018785E-002	-4.308511E-003	3.020826E-002	-4.295140E-003	-1.156458E-001	2.107373E-002
5.300000E+008	2.291960E-002	4.129317E-003	3.015954E-002	-4.393823E-003	3.018291E-002	-4.372194E-003	-1.154168E-001	2.150344E-002
5.400000E+008	2.289424E-002	4.124894E-003	3.013628E-002	-4.448880E-003	3.017562E-002	-4.466528E-003	-1.151801E-001	2.190657E-002
5.500000E+008	2.287334E-002	4.114636E-003	3.013958E-002	-4.534849E-003	3.014444E-002	-4.523164E-003	-1.149859E-001	2.236110E-002
5.600000E+008	2.287016E-002	4.110537E-003	3.009940E-002	-4.614679E-003	3.011172E-002	-4.626029E-003	-1.147654E-001	2.281433E-002
5.700000E+008	2.289196E-002	4.059335E-003	3.008043E-002	-4.703591E-003	3.010738E-002	-4.691178E-003	-1.145925E-001	2.330595E-002
5.800000E+008	2.291368E-002	4.059173E-003	3.007068E-002	-4.771885E-003	3.008408E-002	-4.775562E-003	-1.144103E-001	2.380953E-002
5.900000E+008	2.294132E-002	4.016553E-003	3.007222E-002	-4.853639E-003	3.007914E-002	-4.846833E-003	-1.142284E-001	2.436283E-002
6.000000E+008	2.302691E-002	3.997158E-003	3.002713E-002	-4.933158E-003	3.005939E-002	-4.928733E-003	-1.140275E-001	2.484589E-002
6.100000E+008	2.312335E-002	3.985265E-003	3.001266E-002	-4.992290E-003	3.003829E-002	-5.001553E-003	-1.138543E-001	2.532362E-002
6.200000E+008	2.321336E-002	4.033352E-003	2.998696E-002	-5.083911E-003	3.000562E-002	-5.079579E-003	-1.136803E-001	2.579691E-002
6.300000E+008	2.329794E-002	4.065752E-003	2.996697E-002	-5.159009E-003	2.997580E-002	-5.160281E-003	-1.135205E-001	2.629060E-002
6.400000E+008	2.337478E-002	4.128887E-003	2.994761E-002	-5.222692E-003	2.996001E-002	-5.232599E-003	-1.133186E-001	2.674066E-002
6.500000E+008	2.345316E-002	4.208625E-003	2.993197E-002	-5.309412E-003	2.993801E-002	-5.292053E-003	-1.131606E-001	2.725791E-002
6.600000E+008	2.352128E-002	4.240157E-003	2.991783E-002	-5.380772E-003	2.991927E-002	-5.385203E-003	-1.129566E-001	2.772195E-002
6.700000E+008	2.353590E-002	4.321913E-003	2.989289E-002	-5.459180E-003	2.990753E-002	-5.462532E-003	-1.127762E-001	2.822244E-002
6.800000E+008	2.354296E-002	4.389114E-003	2.986855E-002	-5.525688E-003	2.988193E-002	-5.544233E-003	-1.125814E-001	2.873425E-002
6.900000E+008	2.354520E-002	4.462511E-003	2.983945E-002	-5.617023E-003	2.986344E-002	-5.601091E-003	-1.123997E-001	2.925814E-002
7.000000E+008	2.357079E-002	4.538075E-003	2.981925E-002	-5.690414E-003	2.984735E-002	-5.683721E-003	-1.122488E-001	2.977826E-002
7.100000E+008	2.357773E-002	4.579203E-003	2.978911E-002	-5.756810E-003	2.982841E-002	-5.761115E-003	-1.121321E-001	3.027540E-002
7.200000E+008	2.357264E-002	4.621953E-003	2.977839E-002	-5.821301E-003	2.980463E-002	-5.825161E-003	-1.119941E-001	3.078612E-002
7.300000E+008	2.356528E-002	4.644641E-003	2.975377E-002	-5.908918E-003	2.977891E-002	-5.909963E-003	-1.118688E-001	3.123460E-002
7.400000E+008	2.355201E-002	4.684189E-003	2.973678E-002	-5.971610E-003	2.975568E-002	-5.963773E-003	-1.117781E-001	3.169733E-002
7.500000E+008	2.356998E-002	4.693535E-003	2.969714E-002	-6.052429E-003	2.973601E-002	-6.065616E-003	-1.116557E-001	3.212216E-002
7.600000E+008	2.357731E-002	4.714593E-003	2.969395E-002	-6.126436E-003	2.970851E-002	-6.131671E-003	-1.115089E-001	3.256305E-002
7.700000E+008	2.356212E-002	4.686836E-003	2.966900E-002	-6.212315E-003	2.968781E-002	-6.208369E-003	-1.113382E-001	3.295697E-002
7.800000E+008	2.358949E-002	4.691535E-003	2.963998E-002	-6.271225E-003	2.967423E-002	-6.280365E-003	-1.111705E-001	3.335032E-002
7.900000E+008	2.362078E-002	4.649512E-003	2.962654E-002	-6.363268E-003	2.964281E-002	-6.344241E-003	-1.110023E-001	3.377381E-002
8.000000E+008	2.366512E-002	4.639726E-003	2.960174E-002	-6.426382E-003	2.962326E-002	-6.417722E-003	-1.107630E-001	3.421741E-002
8.100000E+008	2.371284E-002	4.598199E-003	2.957539E-002	-6.494573E-003	2.960842E-002	-6.503354E-003	-1.104894E-001	3.467587E-002
8.200000E+008	2.378737E-002	4.606043E-003	2.956930E-002	-6.567270E-003	2.958356E-002	-6.570219E-003	-1.102561E-001	3.514183E-002
8.300000E+008	2.388217E-002	4.604151E-003	2.952596E-002	-6.651065E-003	2.954657E-002	-6.636232E-003	-1.100271E-001	3.560649E-002
8.400000E+008	2.397409E-002	4.625162E-003	2.949843E-002	-6.703243E-003	2.951985E-002	-6.706263E-003	-1.098249E-001	3.606904E-002
8.500000E+008	2.407806E-002	4.668388E-003	2.948543E-002	-6.788328E-003	2.949093E-002	-6.802245E-003	-1.096524E-001	3.654767E-002
8.600000E+008	2.413960E-002	4.701108E-003	2.946063E-002	-6.868080E-003	2.948389E-002	-6.866583E-003	-1.094900E-001	3.703087E-002
8.700000E+008	2.419508E-002	4.779934E-003	2.942424E-002	-6.926093E-003	2.946292E-002	-6.925333E-003	-1.093180E-001	3.747621E-002
8.800000E+008	2.426380E-002	4.863511E-003	2.940109E-002	-7.008736E-003	2.943841E-002	-7.005081E-003	-1.091518E-001	3.791712E-002
8.900000E+008	2.428292E-002	4.916670E-003	2.938948E-002	-7.083632E-003	2.940603E-002	-7.090565E-003	-1.089832E-001	3.832572E-002
9.000000E+008	2.432246E-002	4.957519E-003	2.935880E-002	-7.144972E-003	2.938150E-002	-7.156043E-003	-1.087913E-001	3.874435E-002
9.100000E+008	2.431766E-002	5.010606E-003	2.933044E-002	-7.229269E-003	2.935748E-002	-7.228554E-003	-1.085624E-001	3.914276E-002
9.200000E+008	2.432869E-002	5.020046E-003	2.930330E-002	-7.289664E-003	2.933681E-002	-7.302013E-003	-1.082813E-001	3.956579E-002
9.300000E+008	2.439886E-002	5.036278E-003	2.927745E-002	-7.361637E-003	2.930429E-002	-7.375020E-003	-1.079840E-001	4.000506E-002
9.400000E+008	2.446513E-002	5.043106E-003	2.925019E-002	-7.440177E-003	2.927778E-002	-7.448153E-003	-1.076507E-001	4.047142E-002
9.500000E+008	2.452814E-002	5.038245E-003	2.923068E-002	-7.509840E-003	2.926254E-002	-7.516659E-003	-1.073054E-001	4.099352E-002
9.600000E+008	2.457660E-002	5.069818E-003	2.919431E-002	-7.585105E-003	2.922988E-002	-7.583537E-003	-1.069708E-001	4.149630E-002
9.700000E+008	2.467067E-002	5.127505E-003	2.916790E-002	-7.640172E-003	2.919816E-002	-7.643100E-003	-1.066534E-001	4.202207E-002
9.800000E+008	2.474141E-002	5.176740E-003	2.916325E-002	-7.716040E-003	2.917911E-002	-7.730721E-003	-1.063689E-001	4.258077E-002
9.900000E+008	2.482204E-002	5.227463E-003	2.913857E-002	-7.794085E-003	2.917019E-002	-7.796596E-003	-1.060921E-001	4.310387E-002
1.000000E+009	2.489407E-002	5.311346E-003	2.911923E-002	-7.861934E-003	2.913096E-002	-7.866138E-003	-1.058734E-001	4.361652E-002
1.010000E+009	2.494755E-002	5.388408E-003	2.908749E-002	-7.934522E-003	2.909845E-002	-7.943733E-003	-1.056305E-001	4.414220E-002
1.020000E+009	2.499643E-002	5.449221E-003	2.905373E-002	-8.017570E-003	2.909029E-002	-8.011489E-003	-1.054173E-001	4.466446E-002
1.030000E+009	2.503505E-002	5.519618E-003	2.903713E-002	-8.079239E-003	2.906580E-002	-8.075084E-003	-1.051947E-001	4.517071E-002
1.040000E+009	2.505327E-002	5.603453E-003	2.901460E-002	-8.145419E-003	2.903254E-002	-8.159587E-003	-1.049520E-001	4.568327E-002
1.050000E+009	2.510322E-002	5.653803E-003	2.897943E-002	-8.226800E-003	2.901596E-002	-8.233503E-003	-1.046885E-001	4.623597E-002
1.060000E+009	2.513160E-002	5.707735E-003	2.896249E-002	-8.287302E-003	2.898177E-002	-8.278537E-003	-1.043960E-001	4.674253E-002
1.070000E+009	2.517040E-002	5.754925E-003	2.893646E-002	-8.366144E-003	2.895563E-002	-8.370590E-003	-1.041227E-001	4.727344E-002
1.080000E+009	2.521128E-002	5.817433E-003	2.891680E-002	-8.435158E-003	2.892608E-002	-8.440990E-003	-1.038406E-001	4.780251E-002
1.090000E+009	2.524890E-002	5.861781E-003	2.887506E-002	-8.489905E-003	2.890109E-002	-8.518441E-003	-1.035862E-001	4.833132E-002
1.100000E+009	2.529459E-002	5.934377E-003	2.885321E-002	-8.579751E-003	2.887658E-002	-8.589280E-003	-1.033424E-001	4.886809E-002
1.110000E+009	2.533031E-002	5.985185E-003	2.882095E-002	-8.642477E-003	2.886051E-002	-8.636501E-003	-1.030985E-001	4.937112E-002
1.120000E+009	2.535236E-002	6.025019E-003	2.879898E-002	-8.701561E-003	2.881675E-002	-8.710005E-003	-1.029115E-001	4.984623E-002
1.130000E+009	2.541243E-002	6.082084E-003	2.878190E-002	-8.793906E-003	2.880533E-002	-8.791943E-003	-1.026708E-001	5.033629E-002
1.140000E+009	2.542638E-002	6.114425E-003	2.874251E-002	-8.868937E-003	2.875439E-002	-8.866667E-003	-1.024181E-001	5.085700E-002
1.150000E+009	2.547375E-002	6.175880E-003	2.871194E-002	-8.928044E-003	2.873170E-002	-8.928302E-003	-1.021316E-001	5.135402E-002
1.160000E+009	2.549889E-002	6.232228E-003	2.870293E-002	-9.017515E-003	2.871756E-002	-8.998876E-003	-1.018977E-001	5.182075E-002
1.170000E+009	2.553962E-002	6.280790E-003	2.865528E-002	-9.088614E-003	2.869621E-002	-9.061538E-003	-1.016033E-001	5.236888E-002
1.180000E+009	2.559017E-002	6.339516E-003	2.862394E-002	-9.135230E-003	2.866433E-002	-9.162565E-003	-1.012784E-001	5.288135E-002
1.190000E+009	2.560558E-002	6.391642E-003	2.860420E-002	-9.215920E-003	2.862388E-002	-9.224523E-003	-1.009862E-001	5.343601E-002
1.200000E+009	2.563254E-002	6.441256E-003	2.856553E-002	-9.272905E-003	2.859582E-002	-9.286489E-003	-1.006904E-001	5.397612E-002
1.210000E+009	2.569291E-002	6.464721E-003	2.855070E-002	-9.362925E-003	2.857557E-002	-9.359096E-003	-1.004046E-001	5.452009E-002
1.220000E+009	2.571292E-002	6.463793E-003	2.851737E-002	-9.424813E-003	2.853923E-002	-9.432868E-003	-1.001709E-001	5.504484E-002
1.230000E+009	2.577203E-002	6.500127E-003	2.848076E-002	-9.500629E-003	2.851237E-002	-9.502880E-003	-9.993790E-002	5.554456E-002
1.240000E+009	2.580906E-002	6.494185E-003	2.846097E-002	-9.563246E-003	2.847148E-002	-9.572199E-003	-9.971899E-002	5.603940E-002
1.250000E+009	2.589591E-002	6.495762E-003	2.844353E-002	-9.637952E-003	2.845269E-002	-9.649636E-003	-9.946751E-002	5.651815E-002
1.260000E+009	2.596222E-002	6.524247E-003	2.840095E-002	-9.704384E-003	2.842608E-002	-9.710975E-003	-9.918466E-002	5.695751E-002
1.270000E+009	2.608824E-002	6.559302E-003	2.837251E-002	-9.781293E-003	2.840510E-002	-9.766133E-003	-9.887495E-002	5.738658E-002
1.280000E+009	2.616331E-002	6.595706E-003	2.834640E-002	-9.850851E-003	2.835416E-002	-9.850720E-003	-9.856834E-002	5.783634E-002
1.290000E+009	2.626043E-002	6.655835E-003	2.831810E-002	-9.916859E-003	2.832135E-002	-9.925600E-003	-9.820803E-002	5.829627E-002
1.300000E+009	2.632506E-002	6.761576E-003	2.827545E-002	-9.985822E-003	2.829616E-002	-9.993193E-003	-9.785222E-002	5.874669E-002
1.310000E+009	2.643689E-002	6.821788E-003	2.825686E-002	-1.006293E-002	2.825251E-002	-1.006510E-002	-9.745505E-002	5.925421E-002
1.320000E+009	2.648298E-002	6.910888E-003	2.821530E-002	-1.013878E-002	2.823930E-002	-1.013338E-002	-9.705694E-002	5.978970E-002
1.330000E+009	2.654250E-002	7.019820E-003	2.818093E-002	-1.019651E-002	2.821577E-002	-1.021742E-002	-9.661896E-002	6.034780E-002
1.340000E+009	2.657622E-002	7.090263E-003	2.815356E-002	-1.026036E-002	2.816687E-002	-1.026332E-002	-9.622569E-002	6.095573E-002
1.350000E+009	2.661127E-002	7.158304E-003	2.812467E-002	-1.033460E-002	2.814197E-002	-1.034347E-002	-9.581502E-002	6.154160E-002
1.360000E+009	2.669968E-002	7.228478E-003	2.808087E-002	-1.041067E-002	2.812032E-002	-1.040202E-002	-9.543463E-002	6.218419E-002
1.370000E+009	2.673489E-002	7.302906E-003	2.805354E-002	-1.048025E-002	2.808400E-002	-1.048387E-002	-9.511146E-002	6.282265E-002
1.380000E+009	2.680482E-002	7.351377E-003	2.801309E-002	-1.054650E-002	2.804478E-002	-1.054229E-002	-9.474336E-002	6.343004E-002
1.390000E+009	2.687819E-002	7.426506E-003	2.797624E-002	-1.062098E-002	2.801511E-002	-1.063109E-002	-9.444276E-002	6.407840E-002
1.400000E+009	2.692950E-002	7.483197E-003	2.794679E-002	-1.067413E-002	2.798077E-002	-1.068818E-002	-9.411649E-002	6.470113E-002
1.410000E+009	2.697334E-002	7.564445E-003	2.790433E-002	-1.074557E-002	2.793928E-002	-1.076351E-002	-9.383935E-002	6.533217E-002
1.420000E+009	2.700280E-002	7.641479E-003	2.786766E-002	-1.081369E-002	2.791849E-002	-1.082724E-002	-9.353000E-002	6.590372E-002
1.430000E+009	2.707875E-002	7.726514E-003	2.784672E-002	-1.089457E-002	2.787789E-002	-1.089274E-002	-9.320768E-002	6.646829E-002
1.440000E+009	2.710642E-002	7.808033E-003	2.781486E-002	-1.094474E-002	2.784054E-002	-1.097050E-002	-9.289990E-002	6.701678E-002
1.450000E+009	2.713002E-002	7.876042E-003	2.776708E-002	-1.101563E-002	2.780703E-002	-1.102255E-002	-9.254802E-002	6.757514E-002
1.460000E+009	2.715886E-002	7.952252E-003	2.773312E-002	-1.109701E-002	2.777175E-002	-1.111910E-002	-9.220635E-002	6.813405E-002
1.470000E+009	2.719697E-002	7.983875E-003	2.770055E-002	-1.115156E-002	2.771657E-002	-1.115047E-002	-9.182801E-002	6.873012E-002
1.480000E+009	2.725092E-002	8.063349E-003	2.765948E-002	-1.122449E-002	2.767567E-002	-1.124085E-002	-9.142579E-002	6.932576E-002
1.490000E+009	2.728117E-002	8.104415E-003	2.761390E-002	-1.129450E-002	2.765565E-002	-1.127739E-002	-9.104272E-002	6.996855E-002
1.500000E+009	2.736175E-002	8.138591E-003	2.759979E-002	-1.135164E-002	2.762006E-002	-1.134939E-002	-9.062497E-002	7.058566E-002
1.510000E+009	2.742733E-002	8.200531E-003	2.754451E-002	-1.143388E-002	2.757632E-002	-1.142508E-002	-9.027436E-002	7.122678E-002
