! Device ID: PE43711P
! File Path: z:\PE43711P\CHAR_NOM_04282014\AMB\3p300\LS_ATT_22p50dB\PE43711P_AMB_3p300V_3p000V_0p000V_LS_ATT_22p50dB_S2P_SN_5_A0137A.s2p
! Serial: 5
! Lot: A0137A
! Temp: 25C
! VDD: 3.300
! VSS: 0.000
! Control_Hi: 3.000
! Control_Lo: 0.000
! Attenuation Step: 22.50dB
! Port 1: RF1
! Port 2: RF2
! ThroughPath:1-2
! IDD: 0.0001276474
! ISS: -1.594e-007
!

#  Hz  S   RI  R   50

1.000000E+007	4.244491E-002	2.872722E-004	6.511068E-002	-2.786175E-004	6.517488E-002	-2.718316E-004	-1.097370E-001	9.034195E-004
2.000000E+007	4.268156E-002	3.533793E-004	6.511460E-002	-4.265461E-004	6.515344E-002	-4.375220E-004	-1.094449E-001	1.459225E-003
3.000000E+007	4.293296E-002	3.634461E-004	6.511983E-002	-6.340464E-004	6.515272E-002	-6.532630E-004	-1.091642E-001	1.945732E-003
4.000000E+007	4.309646E-002	3.590869E-004	6.511911E-002	-8.603175E-004	6.515694E-002	-8.675837E-004	-1.089819E-001	2.494977E-003
5.000000E+007	4.320223E-002	3.374577E-004	6.510874E-002	-1.103081E-003	6.515747E-002	-1.093946E-003	-1.089473E-001	3.044343E-003
6.000000E+007	4.335858E-002	2.531115E-004	6.510150E-002	-1.310594E-003	6.514754E-002	-1.303523E-003	-1.088082E-001	3.483471E-003
7.000000E+007	4.348167E-002	1.608378E-004	6.508808E-002	-1.516787E-003	6.512524E-002	-1.513871E-003	-1.086352E-001	3.903785E-003
8.000000E+007	4.361721E-002	8.980566E-005	6.507282E-002	-1.725257E-003	6.511358E-002	-1.732600E-003	-1.084824E-001	4.318783E-003
9.000000E+007	4.372624E-002	2.996193E-006	6.506299E-002	-1.933642E-003	6.510729E-002	-1.938746E-003	-1.083686E-001	4.687630E-003
1.000000E+008	4.386001E-002	-8.029355E-005	6.506011E-002	-2.165257E-003	6.509173E-002	-2.144917E-003	-1.083073E-001	5.070889E-003
1.100000E+008	4.397476E-002	-1.834346E-004	6.503695E-002	-2.365735E-003	6.509159E-002	-2.360420E-003	-1.082215E-001	5.417922E-003
1.200000E+008	4.409558E-002	-3.276611E-004	6.501246E-002	-2.595236E-003	6.507570E-002	-2.586089E-003	-1.081244E-001	5.716820E-003
1.300000E+008	4.420575E-002	-4.145429E-004	6.500516E-002	-2.797845E-003	6.504645E-002	-2.797314E-003	-1.080125E-001	6.047328E-003
1.400000E+008	4.427837E-002	-4.738238E-004	6.498388E-002	-3.006649E-003	6.503073E-002	-3.013867E-003	-1.079140E-001	6.372486E-003
1.500000E+008	4.430686E-002	-5.595050E-004	6.496265E-002	-3.208856E-003	6.499715E-002	-3.214052E-003	-1.078117E-001	6.691868E-003
1.600000E+008	4.434405E-002	-5.863242E-004	6.495691E-002	-3.418253E-003	6.497635E-002	-3.413511E-003	-1.077450E-001	7.001739E-003
1.700000E+008	4.441730E-002	-6.720733E-004	6.494681E-002	-3.643530E-003	6.499809E-002	-3.620825E-003	-1.076833E-001	7.337729E-003
1.800000E+008	4.444991E-002	-7.454869E-004	6.490545E-002	-3.862165E-003	6.498895E-002	-3.846565E-003	-1.075845E-001	7.645906E-003
1.900000E+008	4.442013E-002	-8.719115E-004	6.485824E-002	-4.063329E-003	6.494377E-002	-4.077882E-003	-1.075416E-001	7.906949E-003
2.000000E+008	4.435835E-002	-9.777320E-004	6.484229E-002	-4.268924E-003	6.490860E-002	-4.278865E-003	-1.074847E-001	8.130695E-003
2.100000E+008	4.431437E-002	-1.159948E-003	6.482675E-002	-4.474600E-003	6.487340E-002	-4.470255E-003	-1.074061E-001	8.322437E-003
2.200000E+008	4.427880E-002	-1.313274E-003	6.480141E-002	-4.664065E-003	6.485435E-002	-4.662926E-003	-1.073121E-001	8.504048E-003
2.300000E+008	4.428271E-002	-1.485729E-003	6.478090E-002	-4.875051E-003	6.482003E-002	-4.869030E-003	-1.071711E-001	8.698463E-003
2.400000E+008	4.429817E-002	-1.647063E-003	6.473914E-002	-5.072639E-003	6.480564E-002	-5.070919E-003	-1.070211E-001	8.941241E-003
2.500000E+008	4.432078E-002	-1.790899E-003	6.472066E-002	-5.293271E-003	6.477226E-002	-5.286441E-003	-1.068232E-001	9.160813E-003
2.600000E+008	4.437257E-002	-1.944913E-003	6.467599E-002	-5.495557E-003	6.473629E-002	-5.483622E-003	-1.066075E-001	9.451302E-003
2.700000E+008	4.443509E-002	-2.065520E-003	6.464275E-002	-5.704373E-003	6.470208E-002	-5.691901E-003	-1.063848E-001	9.767151E-003
2.800000E+008	4.448995E-002	-2.191559E-003	6.460941E-002	-5.900087E-003	6.466830E-002	-5.898022E-003	-1.061754E-001	1.006772E-002
2.900000E+008	4.449554E-002	-2.277880E-003	6.458775E-002	-6.087791E-003	6.463163E-002	-6.094533E-003	-1.060417E-001	1.039111E-002
3.000000E+008	4.453218E-002	-2.339849E-003	6.455994E-002	-6.311853E-003	6.461414E-002	-6.294622E-003	-1.059003E-001	1.074630E-002
3.100000E+008	4.450443E-002	-2.395644E-003	6.453191E-002	-6.509239E-003	6.458089E-002	-6.507873E-003	-1.057794E-001	1.111516E-002
3.200000E+008	4.448693E-002	-2.434417E-003	6.448966E-002	-6.723688E-003	6.455065E-002	-6.726995E-003	-1.056832E-001	1.145836E-002
3.300000E+008	4.444739E-002	-2.465743E-003	6.446363E-002	-6.921084E-003	6.451844E-002	-6.924668E-003	-1.056046E-001	1.177433E-002
3.400000E+008	4.433424E-002	-2.547524E-003	6.441821E-002	-7.125152E-003	6.445005E-002	-7.144830E-003	-1.054834E-001	1.206753E-002
3.500000E+008	4.424170E-002	-2.652425E-003	6.438911E-002	-7.328153E-003	6.440713E-002	-7.333278E-003	-1.053424E-001	1.229895E-002
3.600000E+008	4.415703E-002	-2.728346E-003	6.434457E-002	-7.529708E-003	6.437702E-002	-7.518744E-003	-1.051904E-001	1.257076E-002
3.700000E+008	4.406612E-002	-2.835974E-003	6.429240E-002	-7.727821E-003	6.433198E-002	-7.698353E-003	-1.049930E-001	1.281487E-002
3.800000E+008	4.399842E-002	-2.958193E-003	6.425596E-002	-7.928553E-003	6.429703E-002	-7.894956E-003	-1.048101E-001	1.307626E-002
3.900000E+008	4.391376E-002	-3.111141E-003	6.421860E-002	-8.127795E-003	6.425454E-002	-8.095681E-003	-1.045305E-001	1.339663E-002
4.000000E+008	4.389436E-002	-3.280819E-003	6.415253E-002	-8.315051E-003	6.422613E-002	-8.303654E-003	-1.042258E-001	1.371554E-002
4.100000E+008	4.382777E-002	-3.414710E-003	6.412203E-002	-8.497985E-003	6.417973E-002	-8.512254E-003	-1.039356E-001	1.402720E-002
4.200000E+008	4.378820E-002	-3.565301E-003	6.409597E-002	-8.690597E-003	6.412719E-002	-8.695912E-003	-1.037293E-001	1.439857E-002
4.300000E+008	4.375016E-002	-3.685385E-003	6.405702E-002	-8.896600E-003	6.409008E-002	-8.886085E-003	-1.035116E-001	1.479361E-002
4.400000E+008	4.372036E-002	-3.779352E-003	6.400998E-002	-9.096781E-003	6.407967E-002	-9.081859E-003	-1.033358E-001	1.524341E-002
4.500000E+008	4.372345E-002	-3.886492E-003	6.397724E-002	-9.285767E-003	6.403008E-002	-9.287160E-003	-1.031730E-001	1.569884E-002
4.600000E+008	4.370398E-002	-3.996633E-003	6.392559E-002	-9.485236E-003	6.397773E-002	-9.499170E-003	-1.029611E-001	1.614840E-002
4.700000E+008	4.364504E-002	-4.075951E-003	6.387610E-002	-9.687562E-003	6.392281E-002	-9.683781E-003	-1.028124E-001	1.655223E-002
4.800000E+008	4.359460E-002	-4.140833E-003	6.384348E-002	-9.874000E-003	6.387732E-002	-9.867488E-003	-1.026675E-001	1.692807E-002
4.900000E+008	4.352550E-002	-4.210589E-003	6.378139E-002	-1.007284E-002	6.383800E-002	-1.007389E-002	-1.025254E-001	1.733474E-002
5.000000E+008	4.345771E-002	-4.268096E-003	6.372962E-002	-1.025732E-002	6.379100E-002	-1.026009E-002	-1.023662E-001	1.769354E-002
5.100000E+008	4.340155E-002	-4.351721E-003	6.369822E-002	-1.044975E-002	6.374827E-002	-1.044116E-002	-1.021829E-001	1.807824E-002
5.200000E+008	4.331382E-002	-4.449752E-003	6.363862E-002	-1.064806E-002	6.369726E-002	-1.064639E-002	-1.020218E-001	1.843511E-002
5.300000E+008	4.322306E-002	-4.562361E-003	6.359924E-002	-1.084532E-002	6.366484E-002	-1.083872E-002	-1.017803E-001	1.879687E-002
5.400000E+008	4.312088E-002	-4.723107E-003	6.354358E-002	-1.103025E-002	6.360664E-002	-1.103027E-002	-1.015686E-001	1.917415E-002
5.500000E+008	4.302399E-002	-4.825389E-003	6.350172E-002	-1.123352E-002	6.354220E-002	-1.123309E-002	-1.013505E-001	1.958629E-002
5.600000E+008	4.295469E-002	-4.969306E-003	6.344339E-002	-1.142197E-002	6.346987E-002	-1.141025E-002	-1.011367E-001	1.997848E-002
5.700000E+008	4.289404E-002	-5.137592E-003	6.340242E-002	-1.159924E-002	6.344573E-002	-1.160122E-002	-1.009723E-001	2.043713E-002
5.800000E+008	4.284067E-002	-5.277471E-003	6.334252E-002	-1.179718E-002	6.338792E-002	-1.179614E-002	-1.007964E-001	2.086777E-002
5.900000E+008	4.280893E-002	-5.453934E-003	6.328540E-002	-1.199829E-002	6.332918E-002	-1.199510E-002	-1.006129E-001	2.136805E-002
6.000000E+008	4.280689E-002	-5.597429E-003	6.324374E-002	-1.217597E-002	6.327537E-002	-1.219714E-002	-1.004333E-001	2.176813E-002
6.100000E+008	4.282275E-002	-5.726936E-003	6.319735E-002	-1.236478E-002	6.322613E-002	-1.236390E-002	-1.002469E-001	2.220213E-002
6.200000E+008	4.281566E-002	-5.804322E-003	6.312955E-002	-1.254675E-002	6.317699E-002	-1.255197E-002	-1.000814E-001	2.264210E-002
6.300000E+008	4.283756E-002	-5.887653E-003	6.306256E-002	-1.274129E-002	6.311935E-002	-1.274965E-002	-9.991744E-002	2.305332E-002
6.400000E+008	4.284663E-002	-5.963359E-003	6.301356E-002	-1.292242E-002	6.306239E-002	-1.292357E-002	-9.973254E-002	2.346852E-002
6.500000E+008	4.285990E-002	-6.010194E-003	6.296463E-002	-1.310625E-002	6.300700E-002	-1.311657E-002	-9.956302E-002	2.389231E-002
6.600000E+008	4.283336E-002	-6.076473E-003	6.291330E-002	-1.329575E-002	6.295190E-002	-1.329893E-002	-9.934653E-002	2.432472E-002
6.700000E+008	4.277212E-002	-6.119883E-003	6.284910E-002	-1.348574E-002	6.289970E-002	-1.349181E-002	-9.919011E-002	2.476326E-002
6.800000E+008	4.270517E-002	-6.165101E-003	6.279134E-002	-1.366621E-002	6.283847E-002	-1.368065E-002	-9.901751E-002	2.523400E-002
6.900000E+008	4.262567E-002	-6.208156E-003	6.272292E-002	-1.385126E-002	6.276974E-002	-1.385225E-002	-9.883350E-002	2.570821E-002
7.000000E+008	4.257672E-002	-6.248949E-003	6.266466E-002	-1.403051E-002	6.273196E-002	-1.403853E-002	-9.869495E-002	2.616455E-002
7.100000E+008	4.250174E-002	-6.317479E-003	6.262945E-002	-1.420869E-002	6.266819E-002	-1.422024E-002	-9.856695E-002	2.660770E-002
7.200000E+008	4.242057E-002	-6.405421E-003	6.256786E-002	-1.438541E-002	6.261618E-002	-1.441579E-002	-9.843241E-002	2.704537E-002
7.300000E+008	4.234637E-002	-6.499921E-003	6.250343E-002	-1.458763E-002	6.255563E-002	-1.459284E-002	-9.833136E-002	2.745515E-002
7.400000E+008	4.224853E-002	-6.563056E-003	6.245199E-002	-1.475962E-002	6.249891E-002	-1.477266E-002	-9.822602E-002	2.784239E-002
7.500000E+008	4.217015E-002	-6.650948E-003	6.237890E-002	-1.494525E-002	6.243546E-002	-1.495691E-002	-9.810895E-002	2.822159E-002
7.600000E+008	4.211624E-002	-6.771957E-003	6.232474E-002	-1.514280E-002	6.238016E-002	-1.513856E-002	-9.797345E-002	2.859779E-002
7.700000E+008	4.202973E-002	-6.886060E-003	6.228237E-002	-1.531481E-002	6.231495E-002	-1.531819E-002	-9.781375E-002	2.891460E-002
7.800000E+008	4.197426E-002	-6.990648E-003	6.220675E-002	-1.550659E-002	6.225996E-002	-1.551729E-002	-9.765320E-002	2.927656E-002
7.900000E+008	4.191604E-002	-7.140378E-003	6.214115E-002	-1.567629E-002	6.220428E-002	-1.569486E-002	-9.747089E-002	2.964695E-002
8.000000E+008	4.187715E-002	-7.276803E-003	6.208061E-002	-1.585808E-002	6.212322E-002	-1.587236E-002	-9.725296E-002	3.002874E-002
8.100000E+008	4.184964E-002	-7.406856E-003	6.201432E-002	-1.603246E-002	6.207033E-002	-1.605038E-002	-9.698649E-002	3.044260E-002
8.200000E+008	4.186125E-002	-7.506830E-003	6.194545E-002	-1.622280E-002	6.200750E-002	-1.622760E-002	-9.678267E-002	3.083310E-002
8.300000E+008	4.184955E-002	-7.637372E-003	6.189072E-002	-1.640456E-002	6.192053E-002	-1.641805E-002	-9.655540E-002	3.124315E-002
8.400000E+008	4.187782E-002	-7.711686E-003	6.181486E-002	-1.658284E-002	6.187294E-002	-1.659187E-002	-9.635279E-002	3.165573E-002
8.500000E+008	4.188805E-002	-7.783260E-003	6.175829E-002	-1.676700E-002	6.180684E-002	-1.677960E-002	-9.619123E-002	3.207688E-002
8.600000E+008	4.185728E-002	-7.851064E-003	6.170025E-002	-1.693211E-002	6.173344E-002	-1.695158E-002	-9.604039E-002	3.249304E-002
8.700000E+008	4.186559E-002	-7.878117E-003	6.164140E-002	-1.711632E-002	6.167863E-002	-1.712610E-002	-9.587002E-002	3.288106E-002
8.800000E+008	4.184234E-002	-7.913575E-003	6.157443E-002	-1.729890E-002	6.161142E-002	-1.731170E-002	-9.572006E-002	3.325615E-002
8.900000E+008	4.178134E-002	-7.951650E-003	6.150040E-002	-1.747813E-002	6.153244E-002	-1.749759E-002	-9.555345E-002	3.362111E-002
9.000000E+008	4.172334E-002	-8.008771E-003	6.142893E-002	-1.765928E-002	6.148964E-002	-1.766582E-002	-9.535450E-002	3.398553E-002
9.100000E+008	4.166921E-002	-8.046711E-003	6.136042E-002	-1.783578E-002	6.141268E-002	-1.784239E-002	-9.514793E-002	3.434494E-002
9.200000E+008	4.159211E-002	-8.149389E-003	6.129591E-002	-1.799676E-002	6.134531E-002	-1.802217E-002	-9.488667E-002	3.470265E-002
9.300000E+008	4.156098E-002	-8.242700E-003	6.123656E-002	-1.817989E-002	6.125942E-002	-1.818725E-002	-9.458341E-002	3.509320E-002
9.400000E+008	4.153312E-002	-8.338162E-003	6.116625E-002	-1.835157E-002	6.121055E-002	-1.836738E-002	-9.426543E-002	3.548337E-002
9.500000E+008	4.151756E-002	-8.438686E-003	6.109109E-002	-1.853620E-002	6.113246E-002	-1.856786E-002	-9.393717E-002	3.595038E-002
9.600000E+008	4.149324E-002	-8.495765E-003	6.102571E-002	-1.870305E-002	6.107244E-002	-1.871277E-002	-9.361345E-002	3.638782E-002
9.700000E+008	4.150202E-002	-8.566919E-003	6.095464E-002	-1.887416E-002	6.099570E-002	-1.888970E-002	-9.331511E-002	3.685597E-002
9.800000E+008	4.152686E-002	-8.627944E-003	6.089316E-002	-1.904424E-002	6.093883E-002	-1.906943E-002	-9.304549E-002	3.735631E-002
9.900000E+008	4.150989E-002	-8.652815E-003	6.083199E-002	-1.923046E-002	6.086584E-002	-1.926593E-002	-9.277276E-002	3.783648E-002
1.000000E+009	4.147881E-002	-8.665602E-003	6.074832E-002	-1.940268E-002	6.079956E-002	-1.941355E-002	-9.255302E-002	3.827812E-002
1.010000E+009	4.144382E-002	-8.657311E-003	6.068956E-002	-1.958500E-002	6.072371E-002	-1.960913E-002	-9.232428E-002	3.875905E-002
1.020000E+009	4.141225E-002	-8.697570E-003	6.062529E-002	-1.974516E-002	6.064048E-002	-1.977691E-002	-9.211045E-002	3.922571E-002
1.030000E+009	4.136888E-002	-8.697131E-003	6.053840E-002	-1.994125E-002	6.058784E-002	-1.994148E-002	-9.190467E-002	3.968004E-002
1.040000E+009	4.132080E-002	-8.733647E-003	6.048243E-002	-2.010412E-002	6.052622E-002	-2.012043E-002	-9.170421E-002	4.013717E-002
1.050000E+009	4.129418E-002	-8.782546E-003	6.039524E-002	-2.026741E-002	6.043463E-002	-2.030692E-002	-9.144463E-002	4.061842E-002
1.060000E+009	4.124994E-002	-8.816416E-003	6.034152E-002	-2.045406E-002	6.037393E-002	-2.047727E-002	-9.117853E-002	4.106478E-002
1.070000E+009	4.119978E-002	-8.862031E-003	6.025203E-002	-2.060480E-002	6.030270E-002	-2.061625E-002	-9.091037E-002	4.153785E-002
1.080000E+009	4.114775E-002	-8.885784E-003	6.017342E-002	-2.078600E-002	6.022982E-002	-2.081525E-002	-9.063539E-002	4.201492E-002
1.090000E+009	4.111283E-002	-8.950743E-003	6.011819E-002	-2.097538E-002	6.018193E-002	-2.098112E-002	-9.038871E-002	4.245557E-002
1.100000E+009	4.108780E-002	-8.969032E-003	6.002636E-002	-2.114592E-002	6.008959E-002	-2.116336E-002	-9.016094E-002	4.294450E-002
1.110000E+009	4.102372E-002	-9.018524E-003	5.996331E-002	-2.130977E-002	6.002445E-002	-2.133102E-002	-8.993620E-002	4.339302E-002
1.120000E+009	4.096104E-002	-9.062619E-003	5.988857E-002	-2.146326E-002	5.993183E-002	-2.152528E-002	-8.977385E-002	4.382377E-002
1.130000E+009	4.093504E-002	-9.099968E-003	5.981560E-002	-2.165507E-002	5.985239E-002	-2.168777E-002	-8.954394E-002	4.425951E-002
1.140000E+009	4.086835E-002	-9.152086E-003	5.973151E-002	-2.185272E-002	5.978140E-002	-2.185287E-002	-8.930946E-002	4.472331E-002
1.150000E+009	4.084828E-002	-9.179266E-003	5.964963E-002	-2.200970E-002	5.971170E-002	-2.201578E-002	-8.905834E-002	4.513332E-002
1.160000E+009	4.076540E-002	-9.212377E-003	5.958451E-002	-2.216638E-002	5.964892E-002	-2.220848E-002	-8.881147E-002	4.558656E-002
1.170000E+009	4.072813E-002	-9.264269E-003	5.949350E-002	-2.236747E-002	5.954975E-002	-2.238032E-002	-8.853564E-002	4.604999E-002
1.180000E+009	4.069511E-002	-9.303981E-003	5.942498E-002	-2.251470E-002	5.947771E-002	-2.253432E-002	-8.824041E-002	4.651387E-002
1.190000E+009	4.060942E-002	-9.343104E-003	5.935540E-002	-2.269602E-002	5.938846E-002	-2.269511E-002	-8.795462E-002	4.699597E-002
1.200000E+009	4.055972E-002	-9.381399E-003	5.926651E-002	-2.286405E-002	5.930295E-002	-2.286693E-002	-8.768565E-002	4.749501E-002
1.210000E+009	4.053856E-002	-9.453758E-003	5.918501E-002	-2.302661E-002	5.924578E-002	-2.306157E-002	-8.741569E-002	4.798598E-002
1.220000E+009	4.048479E-002	-9.522164E-003	5.908552E-002	-2.319665E-002	5.914194E-002	-2.321642E-002	-8.720246E-002	4.844763E-002
1.230000E+009	4.044196E-002	-9.591381E-003	5.901980E-002	-2.337427E-002	5.906276E-002	-2.339223E-002	-8.696316E-002	4.888501E-002
1.240000E+009	4.041777E-002	-9.672939E-003	5.893219E-002	-2.355795E-002	5.897833E-002	-2.355944E-002	-8.675603E-002	4.931475E-002
1.250000E+009	4.041423E-002	-9.742668E-003	5.885059E-002	-2.370302E-002	5.891122E-002	-2.370569E-002	-8.653658E-002	4.975001E-002
1.260000E+009	4.039508E-002	-9.815520E-003	5.877845E-002	-2.388287E-002	5.881331E-002	-2.390840E-002	-8.627702E-002	5.014117E-002
1.270000E+009	4.041841E-002	-9.860196E-003	5.868897E-002	-2.405000E-002	5.874331E-002	-2.406161E-002	-8.600041E-002	5.050877E-002
1.280000E+009	4.042512E-002	-9.914175E-003	5.862136E-002	-2.423503E-002	5.866399E-002	-2.423287E-002	-8.570773E-002	5.089855E-002
1.290000E+009	4.043400E-002	-9.929149E-003	5.852126E-002	-2.438102E-002	5.856660E-002	-2.441371E-002	-8.535450E-002	5.127434E-002
1.300000E+009	4.042403E-002	-9.909945E-003	5.843081E-002	-2.457201E-002	5.848192E-002	-2.458017E-002	-8.501562E-002	5.170279E-002
1.310000E+009	4.040501E-002	-9.939154E-003	5.834789E-002	-2.474510E-002	5.840801E-002	-2.475376E-002	-8.466127E-002	5.212021E-002
1.320000E+009	4.038268E-002	-9.950630E-003	5.825138E-002	-2.490522E-002	5.830604E-002	-2.492630E-002	-8.426629E-002	5.260981E-002
1.330000E+009	4.036907E-002	-9.937637E-003	5.816665E-002	-2.506941E-002	5.823480E-002	-2.509433E-002	-8.384814E-002	5.312594E-002
1.340000E+009	4.032357E-002	-9.916882E-003	5.808617E-002	-2.522766E-002	5.813579E-002	-2.525802E-002	-8.344877E-002	5.366555E-002
1.350000E+009	4.026139E-002	-9.942510E-003	5.799940E-002	-2.539261E-002	5.805144E-002	-2.543013E-002	-8.308888E-002	5.422784E-002
1.360000E+009	4.026050E-002	-9.964509E-003	5.789652E-002	-2.557066E-002	5.795782E-002	-2.559955E-002	-8.272061E-002	5.480786E-002
1.370000E+009	4.020926E-002	-9.961884E-003	5.781414E-002	-2.574257E-002	5.786475E-002	-2.574913E-002	-8.241550E-002	5.537241E-002
1.380000E+009	4.018757E-002	-1.000141E-002	5.771340E-002	-2.590547E-002	5.777246E-002	-2.591769E-002	-8.208911E-002	5.594193E-002
1.390000E+009	4.018518E-002	-1.001654E-002	5.761531E-002	-2.607898E-002	5.766643E-002	-2.609412E-002	-8.179113E-002	5.654973E-002
1.400000E+009	4.011409E-002	-1.003608E-002	5.751968E-002	-2.623772E-002	5.757415E-002	-2.624982E-002	-8.150480E-002	5.709652E-002
1.410000E+009	4.006804E-002	-1.002894E-002	5.744474E-002	-2.640098E-002	5.748269E-002	-2.642559E-002	-8.123320E-002	5.765466E-002
1.420000E+009	4.004924E-002	-1.001837E-002	5.733289E-002	-2.655808E-002	5.739402E-002	-2.658129E-002	-8.095367E-002	5.818221E-002
1.430000E+009	4.001282E-002	-1.003249E-002	5.724388E-002	-2.670628E-002	5.729577E-002	-2.674230E-002	-8.065752E-002	5.866632E-002
1.440000E+009	3.995709E-002	-1.004535E-002	5.715583E-002	-2.687844E-002	5.720831E-002	-2.690824E-002	-8.035633E-002	5.915895E-002
1.450000E+009	3.989561E-002	-1.004411E-002	5.707429E-002	-2.705937E-002	5.711876E-002	-2.706141E-002	-8.002907E-002	5.969081E-002
1.460000E+009	3.982524E-002	-1.004598E-002	5.695845E-002	-2.720123E-002	5.702345E-002	-2.722873E-002	-7.970175E-002	6.018509E-002
1.470000E+009	3.979442E-002	-1.008232E-002	5.685942E-002	-2.738684E-002	5.691272E-002	-2.738779E-002	-7.933963E-002	6.072162E-002
1.480000E+009	3.972849E-002	-1.007462E-002	5.678561E-002	-2.752611E-002	5.681831E-002	-2.754906E-002	-7.899819E-002	6.126759E-002
1.490000E+009	3.968766E-002	-1.010682E-002	5.667080E-002	-2.768723E-002	5.672116E-002	-2.772275E-002	-7.862310E-002	6.184236E-002
1.500000E+009	3.965314E-002	-1.013370E-002	5.657500E-002	-2.784534E-002	5.661905E-002	-2.786665E-002	-7.824407E-002	6.242418E-002
