! Device ID: PE43711P
! File Path: z:\PE43711P\CHAR_NOM_04282014\AMB\3p300\LS_ATT_23p00dB\PE43711P_AMB_3p300V_3p000V_0p000V_LS_ATT_23p00dB_S2P_SN_5_A0137A.s2p
! Serial: 5
! Lot: A0137A
! Temp: 25C
! VDD: 3.300
! VSS: 0.000
! Control_Hi: 3.000
! Control_Lo: 0.000
! Attenuation Step: 23.00dB
! Port 1: RF1
! Port 2: RF2
! ThroughPath:1-2
! IDD: 0.0001280277
! ISS: -1.37e-007
!

#  Hz  S   RI  R   50

1.000000E+007	4.245591E-002	2.999128E-004	6.162134E-002	-2.652941E-004	6.168715E-002	-2.756560E-004	-1.351152E-001	1.023910E-003
2.000000E+007	4.270949E-002	3.394810E-004	6.163782E-002	-3.847727E-004	6.166034E-002	-4.015797E-004	-1.348101E-001	1.608451E-003
3.000000E+007	4.295367E-002	3.582151E-004	6.162392E-002	-5.925280E-004	6.166093E-002	-5.897540E-004	-1.344909E-001	2.149440E-003
4.000000E+007	4.312677E-002	3.493662E-004	6.161850E-002	-7.959375E-004	6.165110E-002	-8.024564E-004	-1.343263E-001	2.755499E-003
5.000000E+007	4.322237E-002	3.254086E-004	6.161614E-002	-1.012431E-003	6.166755E-002	-1.022321E-003	-1.342830E-001	3.367905E-003
6.000000E+007	4.338899E-002	2.535639E-004	6.159836E-002	-1.221024E-003	6.166170E-002	-1.205211E-003	-1.341590E-001	3.858914E-003
7.000000E+007	4.350568E-002	1.673696E-004	6.158935E-002	-1.412477E-003	6.163452E-002	-1.407242E-003	-1.339643E-001	4.344172E-003
8.000000E+007	4.363505E-002	8.056182E-005	6.158185E-002	-1.586205E-003	6.162511E-002	-1.601306E-003	-1.338073E-001	4.822057E-003
9.000000E+007	4.373434E-002	2.476172E-006	6.156985E-002	-1.790872E-003	6.161220E-002	-1.786023E-003	-1.336928E-001	5.234491E-003
1.000000E+008	4.386267E-002	-8.616255E-005	6.156364E-002	-1.996916E-003	6.160573E-002	-1.996064E-003	-1.336300E-001	5.684169E-003
1.100000E+008	4.398143E-002	-1.986155E-004	6.154483E-002	-2.197762E-003	6.159389E-002	-2.185091E-003	-1.335343E-001	6.085289E-003
1.200000E+008	4.412452E-002	-3.281149E-004	6.151903E-002	-2.391346E-003	6.158161E-002	-2.394241E-003	-1.334210E-001	6.447791E-003
1.300000E+008	4.422389E-002	-4.285150E-004	6.150883E-002	-2.578457E-003	6.156237E-002	-2.586675E-003	-1.333068E-001	6.827654E-003
1.400000E+008	4.429020E-002	-4.926440E-004	6.148860E-002	-2.775233E-003	6.153789E-002	-2.777565E-003	-1.331890E-001	7.217175E-003
1.500000E+008	4.431702E-002	-5.548757E-004	6.147238E-002	-2.962849E-003	6.152320E-002	-2.976514E-003	-1.330958E-001	7.576813E-003
1.600000E+008	4.436540E-002	-5.974722E-004	6.146293E-002	-3.144359E-003	6.149205E-002	-3.153359E-003	-1.330108E-001	7.937477E-003
1.700000E+008	4.443450E-002	-6.682300E-004	6.145283E-002	-3.362859E-003	6.150330E-002	-3.345197E-003	-1.329366E-001	8.333635E-003
1.800000E+008	4.446744E-002	-7.528844E-004	6.140439E-002	-3.576148E-003	6.149587E-002	-3.562285E-003	-1.328168E-001	8.708558E-003
1.900000E+008	4.443240E-002	-8.670865E-004	6.137954E-002	-3.761897E-003	6.145171E-002	-3.763608E-003	-1.327629E-001	9.008917E-003
2.000000E+008	4.438009E-002	-9.884019E-004	6.135680E-002	-3.939464E-003	6.142234E-002	-3.951788E-003	-1.327054E-001	9.283410E-003
2.100000E+008	4.433628E-002	-1.179307E-003	6.133515E-002	-4.131211E-003	6.139879E-002	-4.125163E-003	-1.326225E-001	9.538254E-003
2.200000E+008	4.431362E-002	-1.326616E-003	6.132265E-002	-4.305962E-003	6.137283E-002	-4.307602E-003	-1.325004E-001	9.777630E-003
2.300000E+008	4.430682E-002	-1.496122E-003	6.129055E-002	-4.493906E-003	6.135116E-002	-4.489501E-003	-1.323640E-001	1.002220E-002
2.400000E+008	4.432443E-002	-1.656832E-003	6.128469E-002	-4.697449E-003	6.131476E-002	-4.689054E-003	-1.321989E-001	1.030392E-002
2.500000E+008	4.432731E-002	-1.798781E-003	6.125973E-002	-4.883378E-003	6.129075E-002	-4.866667E-003	-1.319960E-001	1.057936E-002
2.600000E+008	4.438169E-002	-1.952857E-003	6.121470E-002	-5.071758E-003	6.126936E-002	-5.071926E-003	-1.317764E-001	1.091833E-002
2.700000E+008	4.444713E-002	-2.105030E-003	6.117994E-002	-5.264043E-003	6.123675E-002	-5.263062E-003	-1.315408E-001	1.126731E-002
2.800000E+008	4.451164E-002	-2.203741E-003	6.114569E-002	-5.435605E-003	6.120896E-002	-5.445935E-003	-1.313084E-001	1.162421E-002
2.900000E+008	4.452291E-002	-2.300271E-003	6.112077E-002	-5.632788E-003	6.117624E-002	-5.614157E-003	-1.311619E-001	1.201167E-002
3.000000E+008	4.454427E-002	-2.341662E-003	6.110241E-002	-5.816735E-003	6.114857E-002	-5.800712E-003	-1.310209E-001	1.241278E-002
3.100000E+008	4.453092E-002	-2.402931E-003	6.108502E-002	-6.002862E-003	6.111644E-002	-5.992907E-003	-1.308947E-001	1.282338E-002
3.200000E+008	4.451066E-002	-2.442105E-003	6.104372E-002	-6.195332E-003	6.109149E-002	-6.189278E-003	-1.307898E-001	1.322736E-002
3.300000E+008	4.445730E-002	-2.493193E-003	6.100746E-002	-6.378147E-003	6.106428E-002	-6.383635E-003	-1.306794E-001	1.359636E-002
3.400000E+008	4.436752E-002	-2.555908E-003	6.096085E-002	-6.571876E-003	6.099989E-002	-6.601061E-003	-1.305661E-001	1.393157E-002
3.500000E+008	4.425651E-002	-2.656065E-003	6.092621E-002	-6.761880E-003	6.095552E-002	-6.763851E-003	-1.303976E-001	1.421559E-002
3.600000E+008	4.416526E-002	-2.737297E-003	6.089845E-002	-6.957646E-003	6.090936E-002	-6.923571E-003	-1.302317E-001	1.453602E-002
3.700000E+008	4.409277E-002	-2.852727E-003	6.085529E-002	-7.133090E-003	6.088363E-002	-7.081339E-003	-1.300350E-001	1.482341E-002
3.800000E+008	4.402323E-002	-2.972928E-003	6.081986E-002	-7.296086E-003	6.086819E-002	-7.274406E-003	-1.298189E-001	1.513345E-002
3.900000E+008	4.394593E-002	-3.121992E-003	6.077397E-002	-7.503346E-003	6.082640E-002	-7.469039E-003	-1.295340E-001	1.550039E-002
4.000000E+008	4.391925E-002	-3.281053E-003	6.071976E-002	-7.665974E-003	6.079976E-002	-7.660463E-003	-1.292067E-001	1.587931E-002
4.100000E+008	4.385018E-002	-3.428792E-003	6.069259E-002	-7.833876E-003	6.075431E-002	-7.844635E-003	-1.289185E-001	1.621950E-002
4.200000E+008	4.381617E-002	-3.579033E-003	6.066567E-002	-8.008439E-003	6.069890E-002	-8.021535E-003	-1.287186E-001	1.662918E-002
4.300000E+008	4.378534E-002	-3.696098E-003	6.063484E-002	-8.196589E-003	6.067971E-002	-8.201448E-003	-1.284782E-001	1.708443E-002
4.400000E+008	4.374621E-002	-3.778348E-003	6.059371E-002	-8.381610E-003	6.064831E-002	-8.382518E-003	-1.282830E-001	1.757071E-002
4.500000E+008	4.374257E-002	-3.896910E-003	6.055950E-002	-8.571557E-003	6.061362E-002	-8.567133E-003	-1.280973E-001	1.806511E-002
4.600000E+008	4.371317E-002	-3.994934E-003	6.051749E-002	-8.753504E-003	6.055829E-002	-8.736260E-003	-1.278942E-001	1.856120E-002
4.700000E+008	4.367796E-002	-4.103995E-003	6.047633E-002	-8.924469E-003	6.051224E-002	-8.927609E-003	-1.277193E-001	1.900171E-002
4.800000E+008	4.361028E-002	-4.158098E-003	6.042987E-002	-9.090186E-003	6.047637E-002	-9.097720E-003	-1.275611E-001	1.944607E-002
4.900000E+008	4.353096E-002	-4.229377E-003	6.039684E-002	-9.269159E-003	6.042390E-002	-9.277922E-003	-1.274258E-001	1.986975E-002
5.000000E+008	4.349032E-002	-4.281323E-003	6.035599E-002	-9.461814E-003	6.038091E-002	-9.446782E-003	-1.272457E-001	2.028724E-002
5.100000E+008	4.341354E-002	-4.370014E-003	6.031662E-002	-9.624839E-003	6.035201E-002	-9.618076E-003	-1.270650E-001	2.069879E-002
5.200000E+008	4.332922E-002	-4.462804E-003	6.026786E-002	-9.810245E-003	6.030296E-002	-9.811550E-003	-1.268751E-001	2.111233E-002
5.300000E+008	4.325681E-002	-4.562122E-003	6.021679E-002	-9.984742E-003	6.026793E-002	-9.980318E-003	-1.266453E-001	2.153242E-002
5.400000E+008	4.315242E-002	-4.737597E-003	6.016984E-002	-1.017437E-002	6.022971E-002	-1.018010E-002	-1.263877E-001	2.194206E-002
5.500000E+008	4.304340E-002	-4.865955E-003	6.013474E-002	-1.034644E-002	6.016660E-002	-1.034263E-002	-1.261788E-001	2.238328E-002
5.600000E+008	4.295943E-002	-5.010538E-003	6.006934E-002	-1.052089E-002	6.010361E-002	-1.050965E-002	-1.259536E-001	2.282314E-002
5.700000E+008	4.290292E-002	-5.172072E-003	6.003761E-002	-1.068417E-002	6.006625E-002	-1.069551E-002	-1.257615E-001	2.331505E-002
5.800000E+008	4.284817E-002	-5.310405E-003	5.998892E-002	-1.085355E-002	6.002105E-002	-1.085966E-002	-1.255798E-001	2.380605E-002
5.900000E+008	4.282108E-002	-5.474188E-003	5.993700E-002	-1.103401E-002	5.997906E-002	-1.103693E-002	-1.254065E-001	2.432353E-002
6.000000E+008	4.283034E-002	-5.615916E-003	5.989433E-002	-1.121039E-002	5.993521E-002	-1.123185E-002	-1.251875E-001	2.479065E-002
6.100000E+008	4.284204E-002	-5.737347E-003	5.983862E-002	-1.138828E-002	5.988252E-002	-1.139575E-002	-1.250172E-001	2.526644E-002
6.200000E+008	4.283326E-002	-5.810796E-003	5.978401E-002	-1.156408E-002	5.982146E-002	-1.156264E-002	-1.248335E-001	2.572438E-002
6.300000E+008	4.284579E-002	-5.917283E-003	5.973193E-002	-1.173755E-002	5.978648E-002	-1.174054E-002	-1.246511E-001	2.617438E-002
6.400000E+008	4.286783E-002	-5.985912E-003	5.968378E-002	-1.191377E-002	5.972611E-002	-1.190289E-002	-1.244470E-001	2.663171E-002
6.500000E+008	4.288452E-002	-6.029522E-003	5.963700E-002	-1.207226E-002	5.967071E-002	-1.208640E-002	-1.242595E-001	2.711364E-002
6.600000E+008	4.285719E-002	-6.097176E-003	5.959570E-002	-1.223832E-002	5.962352E-002	-1.225255E-002	-1.240642E-001	2.757370E-002
6.700000E+008	4.279128E-002	-6.131733E-003	5.954300E-002	-1.241636E-002	5.957931E-002	-1.242121E-002	-1.238872E-001	2.807020E-002
6.800000E+008	4.271615E-002	-6.171116E-003	5.947212E-002	-1.259678E-002	5.952381E-002	-1.259153E-002	-1.236960E-001	2.856501E-002
6.900000E+008	4.264540E-002	-6.221360E-003	5.943593E-002	-1.276049E-002	5.946042E-002	-1.276044E-002	-1.235033E-001	2.906223E-002
7.000000E+008	4.258325E-002	-6.279429E-003	5.937001E-002	-1.291747E-002	5.942029E-002	-1.292853E-002	-1.233433E-001	2.958611E-002
7.100000E+008	4.250703E-002	-6.344414E-003	5.931841E-002	-1.308578E-002	5.938319E-002	-1.308554E-002	-1.232194E-001	3.005691E-002
7.200000E+008	4.241832E-002	-6.423589E-003	5.927777E-002	-1.325555E-002	5.932166E-002	-1.326279E-002	-1.231017E-001	3.054815E-002
7.300000E+008	4.234942E-002	-6.506056E-003	5.922421E-002	-1.342977E-002	5.926971E-002	-1.343524E-002	-1.229679E-001	3.097637E-002
7.400000E+008	4.225699E-002	-6.575942E-003	5.915727E-002	-1.360345E-002	5.921866E-002	-1.360023E-002	-1.228614E-001	3.142162E-002
7.500000E+008	4.218455E-002	-6.675104E-003	5.912388E-002	-1.375589E-002	5.915961E-002	-1.378225E-002	-1.227290E-001	3.182934E-002
7.600000E+008	4.212041E-002	-6.796702E-003	5.906490E-002	-1.393276E-002	5.910521E-002	-1.394192E-002	-1.225799E-001	3.224454E-002
7.700000E+008	4.203897E-002	-6.911541E-003	5.900224E-002	-1.410760E-002	5.904015E-002	-1.411349E-002	-1.224159E-001	3.262872E-002
7.800000E+008	4.199982E-002	-7.008362E-003	5.894261E-002	-1.426503E-002	5.900143E-002	-1.427838E-002	-1.222391E-001	3.300350E-002
7.900000E+008	4.191497E-002	-7.157707E-003	5.889220E-002	-1.442697E-002	5.893771E-002	-1.445389E-002	-1.220670E-001	3.340869E-002
8.000000E+008	4.188487E-002	-7.290941E-003	5.883507E-002	-1.459947E-002	5.888070E-002	-1.461601E-002	-1.218333E-001	3.382611E-002
8.100000E+008	4.185408E-002	-7.426695E-003	5.877709E-002	-1.477599E-002	5.881906E-002	-1.477217E-002	-1.215705E-001	3.426979E-002
8.200000E+008	4.185449E-002	-7.528963E-003	5.871933E-002	-1.494015E-002	5.876621E-002	-1.493228E-002	-1.213255E-001	3.471544E-002
8.300000E+008	4.187178E-002	-7.650620E-003	5.866622E-002	-1.509794E-002	5.870773E-002	-1.510145E-002	-1.211035E-001	3.516731E-002
8.400000E+008	4.187611E-002	-7.747392E-003	5.859547E-002	-1.525572E-002	5.864139E-002	-1.527359E-002	-1.208919E-001	3.560927E-002
8.500000E+008	4.189867E-002	-7.812252E-003	5.854519E-002	-1.542483E-002	5.859795E-002	-1.545054E-002	-1.207360E-001	3.605784E-002
8.600000E+008	4.188956E-002	-7.868904E-003	5.849533E-002	-1.557963E-002	5.852577E-002	-1.560246E-002	-1.205753E-001	3.651618E-002
8.700000E+008	4.186883E-002	-7.896697E-003	5.843399E-002	-1.575825E-002	5.847303E-002	-1.576508E-002	-1.203945E-001	3.694968E-002
8.800000E+008	4.184728E-002	-7.932009E-003	5.836945E-002	-1.592486E-002	5.840845E-002	-1.592979E-002	-1.202265E-001	3.737569E-002
8.900000E+008	4.180961E-002	-7.969734E-003	5.830771E-002	-1.608395E-002	5.835562E-002	-1.610092E-002	-1.200637E-001	3.774863E-002
9.000000E+008	4.173322E-002	-8.019051E-003	5.825506E-002	-1.623652E-002	5.829046E-002	-1.626153E-002	-1.198733E-001	3.817005E-002
9.100000E+008	4.167287E-002	-8.088468E-003	5.819668E-002	-1.641907E-002	5.824240E-002	-1.642727E-002	-1.196235E-001	3.854987E-002
9.200000E+008	4.160762E-002	-8.178824E-003	5.812597E-002	-1.656659E-002	5.817526E-002	-1.657996E-002	-1.193745E-001	3.896686E-002
9.300000E+008	4.156273E-002	-8.263933E-003	5.807147E-002	-1.674663E-002	5.809813E-002	-1.675574E-002	-1.190651E-001	3.936927E-002
9.400000E+008	4.155247E-002	-8.338952E-003	5.799496E-002	-1.689773E-002	5.804686E-002	-1.692501E-002	-1.187403E-001	3.981208E-002
9.500000E+008	4.153794E-002	-8.463063E-003	5.794597E-002	-1.705728E-002	5.799293E-002	-1.707572E-002	-1.184255E-001	4.031808E-002
9.600000E+008	4.151676E-002	-8.524818E-003	5.787743E-002	-1.721130E-002	5.793026E-002	-1.724313E-002	-1.180717E-001	4.080147E-002
9.700000E+008	4.150475E-002	-8.579720E-003	5.781561E-002	-1.737594E-002	5.786907E-002	-1.740128E-002	-1.177872E-001	4.129622E-002
9.800000E+008	4.151535E-002	-8.615652E-003	5.775833E-002	-1.753356E-002	5.782212E-002	-1.755881E-002	-1.174950E-001	4.184138E-002
9.900000E+008	4.151180E-002	-8.656313E-003	5.770255E-002	-1.770181E-002	5.775890E-002	-1.772361E-002	-1.172182E-001	4.234695E-002
1.000000E+009	4.149386E-002	-8.687794E-003	5.763892E-002	-1.785149E-002	5.769125E-002	-1.789010E-002	-1.170085E-001	4.283851E-002
1.010000E+009	4.147367E-002	-8.688478E-003	5.756758E-002	-1.803474E-002	5.762520E-002	-1.804384E-002	-1.167777E-001	4.335996E-002
1.020000E+009	4.143927E-002	-8.716612E-003	5.753220E-002	-1.818952E-002	5.755604E-002	-1.820071E-002	-1.165773E-001	4.385805E-002
1.030000E+009	4.140141E-002	-8.739740E-003	5.744396E-002	-1.834055E-002	5.749869E-002	-1.836090E-002	-1.163613E-001	4.436880E-002
1.040000E+009	4.133352E-002	-8.762566E-003	5.737230E-002	-1.849216E-002	5.742922E-002	-1.851704E-002	-1.161269E-001	4.483645E-002
1.050000E+009	4.130867E-002	-8.813440E-003	5.732294E-002	-1.865688E-002	5.736811E-002	-1.867789E-002	-1.158720E-001	4.536044E-002
1.060000E+009	4.127233E-002	-8.840637E-003	5.726139E-002	-1.882924E-002	5.731229E-002	-1.883933E-002	-1.155987E-001	4.585674E-002
1.070000E+009	4.119451E-002	-8.880984E-003	5.718274E-002	-1.897230E-002	5.724244E-002	-1.899055E-002	-1.153342E-001	4.636540E-002
1.080000E+009	4.116520E-002	-8.937163E-003	5.713309E-002	-1.913077E-002	5.716696E-002	-1.916075E-002	-1.150560E-001	4.687221E-002
1.090000E+009	4.111356E-002	-8.967663E-003	5.704971E-002	-1.930205E-002	5.711245E-002	-1.931350E-002	-1.148040E-001	4.736054E-002
1.100000E+009	4.108492E-002	-8.981776E-003	5.697972E-002	-1.947053E-002	5.704106E-002	-1.946915E-002	-1.145879E-001	4.787605E-002
1.110000E+009	4.104183E-002	-9.034145E-003	5.691950E-002	-1.961373E-002	5.697577E-002	-1.962156E-002	-1.143385E-001	4.838381E-002
1.120000E+009	4.095874E-002	-9.081460E-003	5.685370E-002	-1.977230E-002	5.690025E-002	-1.978904E-002	-1.141708E-001	4.885766E-002
1.130000E+009	4.092439E-002	-9.103373E-003	5.679702E-002	-1.994001E-002	5.684530E-002	-1.995908E-002	-1.139413E-001	4.932908E-002
1.140000E+009	4.086491E-002	-9.167645E-003	5.671912E-002	-2.009566E-002	5.677706E-002	-2.009845E-002	-1.137051E-001	4.982161E-002
1.150000E+009	4.084093E-002	-9.207947E-003	5.665508E-002	-2.025612E-002	5.669168E-002	-2.027043E-002	-1.134536E-001	5.029778E-002
1.160000E+009	4.079046E-002	-9.229416E-003	5.660151E-002	-2.041318E-002	5.663074E-002	-2.044584E-002	-1.132122E-001	5.076301E-002
1.170000E+009	4.073426E-002	-9.267458E-003	5.648913E-002	-2.057868E-002	5.655958E-002	-2.059025E-002	-1.129258E-001	5.129267E-002
1.180000E+009	4.070268E-002	-9.332326E-003	5.644051E-002	-2.072883E-002	5.650286E-002	-2.073897E-002	-1.126301E-001	5.178018E-002
1.190000E+009	4.063167E-002	-9.367339E-003	5.635050E-002	-2.089870E-002	5.641213E-002	-2.091002E-002	-1.123479E-001	5.230543E-002
1.200000E+009	4.058201E-002	-9.398866E-003	5.630174E-002	-2.105327E-002	5.633661E-002	-2.105824E-002	-1.120470E-001	5.282596E-002
1.210000E+009	4.055362E-002	-9.480333E-003	5.620349E-002	-2.120659E-002	5.627324E-002	-2.121765E-002	-1.117982E-001	5.335267E-002
1.220000E+009	4.050918E-002	-9.545213E-003	5.614524E-002	-2.136695E-002	5.620750E-002	-2.137907E-002	-1.115750E-001	5.388159E-002
1.230000E+009	4.045232E-002	-9.608233E-003	5.607235E-002	-2.151181E-002	5.613453E-002	-2.153162E-002	-1.113302E-001	5.435377E-002
1.240000E+009	4.044828E-002	-9.701516E-003	5.600594E-002	-2.166482E-002	5.604212E-002	-2.168837E-002	-1.111151E-001	5.482120E-002
1.250000E+009	4.042402E-002	-9.778182E-003	5.590309E-002	-2.182583E-002	5.597113E-002	-2.184170E-002	-1.108940E-001	5.530550E-002
1.260000E+009	4.038412E-002	-9.836672E-003	5.586245E-002	-2.198251E-002	5.590158E-002	-2.201289E-002	-1.106279E-001	5.573254E-002
1.270000E+009	4.043537E-002	-9.870539E-003	5.577942E-002	-2.212631E-002	5.581767E-002	-2.214566E-002	-1.103487E-001	5.615990E-002
1.280000E+009	4.042266E-002	-9.905271E-003	5.571474E-002	-2.231477E-002	5.575102E-002	-2.230762E-002	-1.100787E-001	5.657563E-002
1.290000E+009	4.044118E-002	-9.955163E-003	5.563212E-002	-2.247040E-002	5.566662E-002	-2.247563E-002	-1.097208E-001	5.698443E-002
1.300000E+009	4.043444E-002	-9.937712E-003	5.555974E-002	-2.261437E-002	5.560089E-002	-2.262298E-002	-1.093526E-001	5.745429E-002
1.310000E+009	4.043839E-002	-9.965180E-003	5.546723E-002	-2.278044E-002	5.552487E-002	-2.279053E-002	-1.089983E-001	5.791522E-002
1.320000E+009	4.040835E-002	-9.968177E-003	5.538962E-002	-2.292229E-002	5.543757E-002	-2.292888E-002	-1.086034E-001	5.844390E-002
1.330000E+009	4.036484E-002	-9.960808E-003	5.532206E-002	-2.308207E-002	5.535387E-002	-2.309171E-002	-1.081889E-001	5.900098E-002
1.340000E+009	4.032947E-002	-9.951483E-003	5.525276E-002	-2.323338E-002	5.530070E-002	-2.326058E-002	-1.077972E-001	5.957460E-002
1.350000E+009	4.027734E-002	-9.964352E-003	5.516155E-002	-2.338402E-002	5.520482E-002	-2.340998E-002	-1.074230E-001	6.017242E-002
1.360000E+009	4.026161E-002	-9.974927E-003	5.506773E-002	-2.352281E-002	5.512466E-002	-2.355816E-002	-1.070539E-001	6.079089E-002
1.370000E+009	4.021239E-002	-9.979571E-003	5.498905E-002	-2.369761E-002	5.504065E-002	-2.373090E-002	-1.067289E-001	6.140451E-002
1.380000E+009	4.018302E-002	-1.001614E-002	5.489682E-002	-2.384020E-002	5.496344E-002	-2.386492E-002	-1.064087E-001	6.203894E-002
1.390000E+009	4.018954E-002	-1.003178E-002	5.483276E-002	-2.400920E-002	5.486699E-002	-2.401506E-002	-1.061159E-001	6.268192E-002
1.400000E+009	4.015443E-002	-1.005496E-002	5.474958E-002	-2.415463E-002	5.478467E-002	-2.416943E-002	-1.058379E-001	6.325460E-002
1.410000E+009	4.011824E-002	-1.005884E-002	5.465361E-002	-2.432844E-002	5.470088E-002	-2.431757E-002	-1.055339E-001	6.387782E-002
1.420000E+009	4.004403E-002	-1.006141E-002	5.457995E-002	-2.444692E-002	5.462039E-002	-2.446435E-002	-1.052641E-001	6.440717E-002
1.430000E+009	4.004097E-002	-1.005091E-002	5.446678E-002	-2.460894E-002	5.452452E-002	-2.462655E-002	-1.049572E-001	6.496804E-002
1.440000E+009	3.999488E-002	-1.006398E-002	5.441701E-002	-2.475649E-002	5.446489E-002	-2.477150E-002	-1.046754E-001	6.550111E-002
1.450000E+009	3.990801E-002	-1.004938E-002	5.432062E-002	-2.491145E-002	5.437639E-002	-2.492876E-002	-1.043355E-001	6.605696E-002
1.460000E+009	3.984447E-002	-1.007821E-002	5.423709E-002	-2.505141E-002	5.428451E-002	-2.506618E-002	-1.040044E-001	6.660014E-002
1.470000E+009	3.979460E-002	-1.011393E-002	5.414143E-002	-2.521609E-002	5.417557E-002	-2.522968E-002	-1.036354E-001	6.718733E-002
1.480000E+009	3.972366E-002	-1.011680E-002	5.403634E-002	-2.533663E-002	5.409500E-002	-2.537841E-002	-1.033054E-001	6.779864E-002
1.490000E+009	3.970537E-002	-1.015473E-002	5.396359E-002	-2.550847E-002	5.401169E-002	-2.551633E-002	-1.029284E-001	6.841355E-002
1.500000E+009	3.967730E-002	-1.018681E-002	5.387044E-002	-2.563755E-002	5.391598E-002	-2.565887E-002	-1.025607E-001	6.902771E-002
