! Device ID: PE43711P
! File Path: z:\PE43711P\CHAR_NOM_04282014\AMB\3p300\LS_ATT_9p75dB\PE43711P_AMB_3p300V_3p000V_0p000V_LS_ATT_9p75dB_S2P_SN_5_A0137A.s2p
! Serial: 5
! Lot: A0137A
! Temp: 25C
! VDD: 3.300
! VSS: 0.000
! Control_Hi: 3.000
! Control_Lo: 0.000
! Attenuation Step: 9.75dB
! Port 1: RF1
! Port 2: RF2
! ThroughPath:1-2
! IDD: 0.0001276766
! ISS: -1.669e-007
!

#  Hz  S   RI  R   50

1.000000E+007	8.475825E-002	-2.281576E-004	2.859035E-001	-1.464121E-003	2.861951E-001	-1.480240E-003	-9.691067E-002	7.809106E-004
2.000000E+007	8.495067E-002	-4.941480E-004	2.859466E-001	-2.316938E-003	2.860889E-001	-2.343358E-003	-9.664852E-002	1.261617E-003
3.000000E+007	8.521089E-002	-9.465191E-004	2.859585E-001	-3.490566E-003	2.861265E-001	-3.515073E-003	-9.634745E-002	1.643107E-003
4.000000E+007	8.533452E-002	-1.362854E-003	2.859487E-001	-4.664385E-003	2.860964E-001	-4.687448E-003	-9.611673E-002	2.081785E-003
5.000000E+007	8.544612E-002	-1.847896E-003	2.859328E-001	-5.939586E-003	2.861440E-001	-5.913662E-003	-9.605248E-002	2.487063E-003
6.000000E+007	8.558961E-002	-2.387503E-003	2.858474E-001	-7.083253E-003	2.861099E-001	-7.081815E-003	-9.591431E-002	2.781806E-003
7.000000E+007	8.567665E-002	-2.923472E-003	2.857723E-001	-8.223176E-003	2.860347E-001	-8.234395E-003	-9.574866E-002	3.059754E-003
8.000000E+007	8.578672E-002	-3.468565E-003	2.857205E-001	-9.337212E-003	2.859590E-001	-9.338077E-003	-9.560174E-002	3.371553E-003
9.000000E+007	8.587718E-002	-3.985984E-003	2.856512E-001	-1.048156E-002	2.858790E-001	-1.049222E-002	-9.547706E-002	3.615730E-003
1.000000E+008	8.594044E-002	-4.491825E-003	2.856015E-001	-1.166027E-002	2.857929E-001	-1.164190E-002	-9.536111E-002	3.867440E-003
1.100000E+008	8.599603E-002	-5.017142E-003	2.855080E-001	-1.285095E-002	2.857431E-001	-1.278882E-002	-9.526786E-002	4.095216E-003
1.200000E+008	8.605895E-002	-5.578441E-003	2.853753E-001	-1.398025E-002	2.856182E-001	-1.397436E-002	-9.522153E-002	4.289446E-003
1.300000E+008	8.612155E-002	-6.128898E-003	2.852657E-001	-1.510087E-002	2.855268E-001	-1.511299E-002	-9.510687E-002	4.479953E-003
1.400000E+008	8.611791E-002	-6.665603E-003	2.851743E-001	-1.624600E-002	2.854041E-001	-1.626649E-002	-9.491439E-002	4.662812E-003
1.500000E+008	8.604302E-002	-7.180365E-003	2.850757E-001	-1.734254E-002	2.852304E-001	-1.736499E-002	-9.476705E-002	4.830690E-003
1.600000E+008	8.595210E-002	-7.620640E-003	2.849747E-001	-1.845201E-002	2.850810E-001	-1.842802E-002	-9.475158E-002	5.025088E-003
1.700000E+008	8.589626E-002	-8.110996E-003	2.848595E-001	-1.966024E-002	2.851113E-001	-1.958227E-002	-9.482344E-002	5.211660E-003
1.800000E+008	8.576812E-002	-8.603387E-003	2.845963E-001	-2.085485E-002	2.849911E-001	-2.079957E-002	-9.483856E-002	5.376373E-003
1.900000E+008	8.563896E-002	-9.159799E-003	2.843998E-001	-2.192327E-002	2.847895E-001	-2.193991E-002	-9.480303E-002	5.494000E-003
2.000000E+008	8.552961E-002	-9.730261E-003	2.842642E-001	-2.301173E-002	2.846160E-001	-2.301750E-002	-9.466411E-002	5.626091E-003
2.100000E+008	8.542793E-002	-1.035359E-002	2.841435E-001	-2.410473E-002	2.844356E-001	-2.410406E-002	-9.448877E-002	5.726627E-003
2.200000E+008	8.530800E-002	-1.092184E-002	2.840215E-001	-2.517437E-002	2.842855E-001	-2.516631E-002	-9.433719E-002	5.818648E-003
2.300000E+008	8.517084E-002	-1.149536E-002	2.838786E-001	-2.628065E-002	2.841013E-001	-2.626972E-002	-9.422552E-002	5.886231E-003
2.400000E+008	8.505375E-002	-1.207178E-002	2.837212E-001	-2.738271E-002	2.839419E-001	-2.736695E-002	-9.410964E-002	5.993388E-003
2.500000E+008	8.490766E-002	-1.261319E-002	2.835187E-001	-2.850449E-002	2.837449E-001	-2.846621E-002	-9.396479E-002	6.063767E-003
2.600000E+008	8.480766E-002	-1.317800E-002	2.833048E-001	-2.963306E-002	2.835696E-001	-2.958982E-002	-9.378433E-002	6.208138E-003
2.700000E+008	8.469777E-002	-1.372340E-002	2.830777E-001	-3.069650E-002	2.833723E-001	-3.071552E-002	-9.357559E-002	6.380164E-003
2.800000E+008	8.461502E-002	-1.424080E-002	2.828855E-001	-3.177409E-002	2.831543E-001	-3.174028E-002	-9.338080E-002	6.549278E-003
2.900000E+008	8.449102E-002	-1.470089E-002	2.827036E-001	-3.283388E-002	2.829599E-001	-3.279548E-002	-9.324077E-002	6.733293E-003
3.000000E+008	8.439159E-002	-1.515306E-002	2.825453E-001	-3.393658E-002	2.827911E-001	-3.388390E-002	-9.310159E-002	6.970260E-003
3.100000E+008	8.423199E-002	-1.557308E-002	2.823526E-001	-3.500319E-002	2.826111E-001	-3.498391E-002	-9.297701E-002	7.203735E-003
3.200000E+008	8.407970E-002	-1.599853E-002	2.821260E-001	-3.612331E-002	2.824166E-001	-3.608217E-002	-9.289540E-002	7.434926E-003
3.300000E+008	8.388159E-002	-1.641945E-002	2.819348E-001	-3.719927E-002	2.822086E-001	-3.724497E-002	-9.282184E-002	7.633938E-003
3.400000E+008	8.359877E-002	-1.684548E-002	2.816889E-001	-3.828925E-002	2.818789E-001	-3.837406E-002	-9.269622E-002	7.798730E-003
3.500000E+008	8.331517E-002	-1.728303E-002	2.814662E-001	-3.938112E-002	2.815717E-001	-3.937293E-002	-9.256973E-002	7.896902E-003
3.600000E+008	8.306528E-002	-1.771916E-002	2.812142E-001	-4.045976E-002	2.813465E-001	-4.034158E-002	-9.242997E-002	8.043012E-003
3.700000E+008	8.280685E-002	-1.817076E-002	2.809655E-001	-4.147504E-002	2.811620E-001	-4.132395E-002	-9.224444E-002	8.146904E-003
3.800000E+008	8.255223E-002	-1.866216E-002	2.807357E-001	-4.253065E-002	2.809927E-001	-4.241815E-002	-9.208505E-002	8.284407E-003
3.900000E+008	8.231641E-002	-1.916563E-002	2.804312E-001	-4.362461E-002	2.807593E-001	-4.352586E-002	-9.182421E-002	8.476120E-003
4.000000E+008	8.208447E-002	-1.968378E-002	2.801499E-001	-4.460223E-002	2.804914E-001	-4.461443E-002	-9.153338E-002	8.626066E-003
4.100000E+008	8.182722E-002	-2.017992E-002	2.799207E-001	-4.558667E-002	2.802276E-001	-4.565895E-002	-9.128155E-002	8.813726E-003
4.200000E+008	8.157654E-002	-2.065584E-002	2.797274E-001	-4.662478E-002	2.799618E-001	-4.666274E-002	-9.107822E-002	9.050006E-003
4.300000E+008	8.136585E-002	-2.110401E-002	2.795048E-001	-4.770111E-002	2.796971E-001	-4.773138E-002	-9.088538E-002	9.315608E-003
4.400000E+008	8.117007E-002	-2.151110E-002	2.792440E-001	-4.875772E-002	2.794806E-001	-4.876773E-002	-9.072423E-002	9.626891E-003
4.500000E+008	8.096349E-002	-2.196630E-002	2.789719E-001	-4.981726E-002	2.792255E-001	-4.981930E-002	-9.057015E-002	9.967806E-003
4.600000E+008	8.075661E-002	-2.238519E-002	2.786988E-001	-5.087175E-002	2.789320E-001	-5.087975E-002	-9.039439E-002	1.029169E-002
4.700000E+008	8.051933E-002	-2.279056E-002	2.784185E-001	-5.188736E-002	2.786507E-001	-5.191830E-002	-9.027788E-002	1.057651E-002
4.800000E+008	8.025329E-002	-2.316274E-002	2.781443E-001	-5.290145E-002	2.783512E-001	-5.291704E-002	-9.017633E-002	1.084185E-002
4.900000E+008	7.996473E-002	-2.354935E-002	2.778703E-001	-5.391268E-002	2.780570E-001	-5.392442E-002	-9.007581E-002	1.111286E-002
5.000000E+008	7.970136E-002	-2.389968E-002	2.775919E-001	-5.493396E-002	2.777920E-001	-5.493458E-002	-8.994973E-002	1.135154E-002
5.100000E+008	7.944578E-002	-2.430008E-002	2.772952E-001	-5.597996E-002	2.775483E-001	-5.592932E-002	-8.980764E-002	1.159492E-002
5.200000E+008	7.915926E-002	-2.473080E-002	2.770114E-001	-5.699360E-002	2.772922E-001	-5.700233E-002	-8.963989E-002	1.182884E-002
5.300000E+008	7.885779E-002	-2.515416E-002	2.767428E-001	-5.801599E-002	2.769859E-001	-5.804067E-002	-8.942299E-002	1.204682E-002
5.400000E+008	7.857179E-002	-2.563645E-002	2.764206E-001	-5.905515E-002	2.766706E-001	-5.907894E-002	-8.922567E-002	1.229158E-002
5.500000E+008	7.827104E-002	-2.601891E-002	2.761269E-001	-6.005952E-002	2.763216E-001	-6.009368E-002	-8.903964E-002	1.254437E-002
5.600000E+008	7.797831E-002	-2.645128E-002	2.757994E-001	-6.104467E-002	2.760062E-001	-6.109509E-002	-8.885896E-002	1.284421E-002
5.700000E+008	7.772310E-002	-2.687564E-002	2.754972E-001	-6.203610E-002	2.757131E-001	-6.208370E-002	-8.874175E-002	1.316768E-002
5.800000E+008	7.747730E-002	-2.729033E-002	2.751882E-001	-6.304910E-002	2.754207E-001	-6.308518E-002	-8.860941E-002	1.348246E-002
5.900000E+008	7.719796E-002	-2.774437E-002	2.748814E-001	-6.408617E-002	2.751181E-001	-6.411750E-002	-8.850445E-002	1.379985E-002
6.000000E+008	7.699200E-002	-2.816416E-002	2.745515E-001	-6.507040E-002	2.747809E-001	-6.513090E-002	-8.835449E-002	1.408451E-002
6.100000E+008	7.676814E-002	-2.857212E-002	2.742245E-001	-6.606428E-002	2.744137E-001	-6.613565E-002	-8.825987E-002	1.439693E-002
6.200000E+008	7.657354E-002	-2.895590E-002	2.738975E-001	-6.703891E-002	2.740922E-001	-6.711698E-002	-8.812034E-002	1.465937E-002
6.300000E+008	7.638887E-002	-2.931850E-002	2.735355E-001	-6.802696E-002	2.737591E-001	-6.809166E-002	-8.798314E-002	1.493453E-002
6.400000E+008	7.620401E-002	-2.967231E-002	2.732077E-001	-6.901367E-002	2.734395E-001	-6.907522E-002	-8.781692E-002	1.523260E-002
6.500000E+008	7.600886E-002	-2.998321E-002	2.728853E-001	-6.998996E-002	2.730970E-001	-7.005325E-002	-8.768905E-002	1.554623E-002
6.600000E+008	7.576466E-002	-3.032213E-002	2.725777E-001	-7.099457E-002	2.727806E-001	-7.106231E-002	-8.752035E-002	1.584804E-002
6.700000E+008	7.547182E-002	-3.062366E-002	2.722354E-001	-7.198518E-002	2.724236E-001	-7.204406E-002	-8.741001E-002	1.617240E-002
6.800000E+008	7.517382E-002	-3.093351E-002	2.718852E-001	-7.296114E-002	2.720721E-001	-7.302733E-002	-8.728039E-002	1.652910E-002
6.900000E+008	7.487788E-002	-3.122173E-002	2.715069E-001	-7.391637E-002	2.716974E-001	-7.397413E-002	-8.717736E-002	1.689100E-002
7.000000E+008	7.459371E-002	-3.152851E-002	2.711810E-001	-7.489301E-002	2.713926E-001	-7.491769E-002	-8.710827E-002	1.721692E-002
7.100000E+008	7.428667E-002	-3.185711E-002	2.708104E-001	-7.585032E-002	2.710382E-001	-7.592014E-002	-8.703835E-002	1.752576E-002
7.200000E+008	7.400213E-002	-3.219523E-002	2.704808E-001	-7.680779E-002	2.706843E-001	-7.687486E-002	-8.695561E-002	1.781300E-002
7.300000E+008	7.367042E-002	-3.255002E-002	2.700970E-001	-7.779222E-002	2.703623E-001	-7.787337E-002	-8.690296E-002	1.807624E-002
7.400000E+008	7.335443E-002	-3.287847E-002	2.697413E-001	-7.875321E-002	2.699757E-001	-7.881928E-002	-8.685766E-002	1.834047E-002
7.500000E+008	7.307459E-002	-3.321410E-002	2.693729E-001	-7.969381E-002	2.695924E-001	-7.980737E-002	-8.678292E-002	1.856631E-002
7.600000E+008	7.278017E-002	-3.356254E-002	2.690124E-001	-8.068693E-002	2.692462E-001	-8.076169E-002	-8.668368E-002	1.879446E-002
7.700000E+008	7.249110E-002	-3.394748E-002	2.686525E-001	-8.162060E-002	2.688750E-001	-8.172052E-002	-8.659236E-002	1.899836E-002
7.800000E+008	7.219779E-002	-3.426775E-002	2.682736E-001	-8.256571E-002	2.685187E-001	-8.266105E-002	-8.647813E-002	1.924014E-002
7.900000E+008	7.189044E-002	-3.465450E-002	2.678998E-001	-8.353875E-002	2.681481E-001	-8.365517E-002	-8.638584E-002	1.948426E-002
8.000000E+008	7.159651E-002	-3.503366E-002	2.675091E-001	-8.449208E-002	2.677255E-001	-8.458839E-002	-8.624140E-002	1.974363E-002
8.100000E+008	7.131190E-002	-3.538125E-002	2.671197E-001	-8.542207E-002	2.673321E-001	-8.554550E-002	-8.607056E-002	2.002708E-002
8.200000E+008	7.108915E-002	-3.573758E-002	2.667514E-001	-8.638953E-002	2.669632E-001	-8.646539E-002	-8.590779E-002	2.029117E-002
8.300000E+008	7.086838E-002	-3.607994E-002	2.663387E-001	-8.731897E-002	2.665928E-001	-8.741821E-002	-8.577412E-002	2.059074E-002
8.400000E+008	7.064129E-002	-3.641119E-002	2.659547E-001	-8.825823E-002	2.661962E-001	-8.836643E-002	-8.563569E-002	2.085220E-002
8.500000E+008	7.044007E-002	-3.672477E-002	2.655963E-001	-8.921030E-002	2.658196E-001	-8.932762E-002	-8.555786E-002	2.113581E-002
8.600000E+008	7.018724E-002	-3.700816E-002	2.651915E-001	-9.013154E-002	2.653890E-001	-9.025836E-002	-8.547000E-002	2.141508E-002
8.700000E+008	6.993255E-002	-3.726165E-002	2.648038E-001	-9.108042E-002	2.649808E-001	-9.118693E-002	-8.535420E-002	2.169254E-002
8.800000E+008	6.967677E-002	-3.750313E-002	2.644081E-001	-9.203488E-002	2.646190E-001	-9.209938E-002	-8.527380E-002	2.196630E-002
8.900000E+008	6.937572E-002	-3.778095E-002	2.639939E-001	-9.295093E-002	2.642232E-001	-9.305768E-002	-8.517299E-002	2.219990E-002
9.000000E+008	6.908466E-002	-3.803683E-002	2.635615E-001	-9.387759E-002	2.638188E-001	-9.398488E-002	-8.505877E-002	2.244885E-002
9.100000E+008	6.876254E-002	-3.831946E-002	2.631441E-001	-9.481964E-002	2.634120E-001	-9.491056E-002	-8.487914E-002	2.270339E-002
9.200000E+008	6.845683E-002	-3.860471E-002	2.627525E-001	-9.573009E-002	2.630054E-001	-9.585800E-002	-8.470096E-002	2.295565E-002
9.300000E+008	6.815179E-002	-3.889466E-002	2.623407E-001	-9.664467E-002	2.625582E-001	-9.677943E-002	-8.451167E-002	2.320649E-002
9.400000E+008	6.787699E-002	-3.920137E-002	2.619107E-001	-9.755672E-002	2.621524E-001	-9.770336E-002	-8.427791E-002	2.348749E-002
9.500000E+008	6.760641E-002	-3.950899E-002	2.615032E-001	-9.849477E-002	2.617353E-001	-9.864682E-002	-8.403503E-002	2.382480E-002
9.600000E+008	6.732820E-002	-3.976722E-002	2.610638E-001	-9.942731E-002	2.612983E-001	-9.955869E-002	-8.378723E-002	2.413476E-002
9.700000E+008	6.711338E-002	-4.003568E-002	2.606366E-001	-1.003177E-001	2.608767E-001	-1.004792E-001	-8.354718E-002	2.446898E-002
9.800000E+008	6.687204E-002	-4.029289E-002	2.602449E-001	-1.012167E-001	2.604561E-001	-1.013802E-001	-8.333036E-002	2.482427E-002
9.900000E+008	6.664880E-002	-4.051434E-002	2.598279E-001	-1.021630E-001	2.600283E-001	-1.022822E-001	-8.315065E-002	2.517871E-002
1.000000E+009	6.640469E-002	-4.072937E-002	2.593908E-001	-1.030627E-001	2.595938E-001	-1.032236E-001	-8.301290E-002	2.554004E-002
1.010000E+009	6.613784E-002	-4.091856E-002	2.589700E-001	-1.039830E-001	2.591693E-001	-1.041019E-001	-8.286302E-002	2.590221E-002
1.020000E+009	6.582633E-002	-4.111273E-002	2.585331E-001	-1.048990E-001	2.587164E-001	-1.050254E-001	-8.274496E-002	2.628616E-002
1.030000E+009	6.554315E-002	-4.128175E-002	2.580498E-001	-1.058045E-001	2.582779E-001	-1.059059E-001	-8.261161E-002	2.663777E-002
1.040000E+009	6.524458E-002	-4.151161E-002	2.576165E-001	-1.066825E-001	2.578372E-001	-1.068171E-001	-8.248156E-002	2.698032E-002
1.050000E+009	6.496714E-002	-4.175109E-002	2.571714E-001	-1.076014E-001	2.573955E-001	-1.077231E-001	-8.233349E-002	2.735093E-002
1.060000E+009	6.465163E-002	-4.196713E-002	2.567336E-001	-1.084829E-001	2.569397E-001	-1.085889E-001	-8.216429E-002	2.768083E-002
1.070000E+009	6.433548E-002	-4.219898E-002	2.562678E-001	-1.093789E-001	2.565054E-001	-1.094813E-001	-8.199890E-002	2.800509E-002
1.080000E+009	6.406022E-002	-4.244991E-002	2.558132E-001	-1.102997E-001	2.560643E-001	-1.104080E-001	-8.181847E-002	2.836040E-002
1.090000E+009	6.378455E-002	-4.267151E-002	2.553705E-001	-1.111920E-001	2.555997E-001	-1.112976E-001	-8.164673E-002	2.869683E-002
1.100000E+009	6.352056E-002	-4.288695E-002	2.548693E-001	-1.120825E-001	2.551366E-001	-1.121889E-001	-8.149339E-002	2.905608E-002
1.110000E+009	6.325895E-002	-4.309363E-002	2.544208E-001	-1.129808E-001	2.546918E-001	-1.130894E-001	-8.133865E-002	2.940008E-002
1.120000E+009	6.296099E-002	-4.329357E-002	2.539738E-001	-1.138554E-001	2.542374E-001	-1.139928E-001	-8.123608E-002	2.974333E-002
1.130000E+009	6.267526E-002	-4.350806E-002	2.535004E-001	-1.147412E-001	2.537314E-001	-1.148745E-001	-8.111999E-002	3.006683E-002
1.140000E+009	6.234697E-002	-4.368356E-002	2.530292E-001	-1.156455E-001	2.532732E-001	-1.157635E-001	-8.100343E-002	3.045511E-002
1.150000E+009	6.206445E-002	-4.390262E-002	2.525585E-001	-1.165444E-001	2.527906E-001	-1.166499E-001	-8.083025E-002	3.077820E-002
1.160000E+009	6.173717E-002	-4.410664E-002	2.520701E-001	-1.174223E-001	2.523058E-001	-1.175503E-001	-8.068533E-002	3.109897E-002
1.170000E+009	6.144914E-002	-4.429081E-002	2.515610E-001	-1.183037E-001	2.518268E-001	-1.183923E-001	-8.053334E-002	3.147290E-002
1.180000E+009	6.117170E-002	-4.454228E-002	2.510901E-001	-1.191689E-001	2.513335E-001	-1.193016E-001	-8.033760E-002	3.180293E-002
1.190000E+009	6.084841E-002	-4.474749E-002	2.505787E-001	-1.200486E-001	2.508068E-001	-1.201708E-001	-8.016006E-002	3.216876E-002
1.200000E+009	6.054517E-002	-4.495661E-002	2.501237E-001	-1.209344E-001	2.503272E-001	-1.210582E-001	-7.997370E-002	3.254612E-002
1.210000E+009	6.029056E-002	-4.518275E-002	2.495940E-001	-1.218031E-001	2.498257E-001	-1.219318E-001	-7.979633E-002	3.292388E-002
1.220000E+009	6.000353E-002	-4.543219E-002	2.491096E-001	-1.226533E-001	2.493352E-001	-1.227946E-001	-7.965352E-002	3.331662E-002
1.230000E+009	5.972054E-002	-4.561374E-002	2.486017E-001	-1.235530E-001	2.488146E-001	-1.236843E-001	-7.952077E-002	3.366335E-002
1.240000E+009	5.945211E-002	-4.585839E-002	2.480918E-001	-1.244107E-001	2.483085E-001	-1.245112E-001	-7.938752E-002	3.400400E-002
1.250000E+009	5.917460E-002	-4.607380E-002	2.475902E-001	-1.252844E-001	2.478503E-001	-1.254013E-001	-7.929197E-002	3.432920E-002
1.260000E+009	5.888487E-002	-4.628160E-002	2.470655E-001	-1.261508E-001	2.472972E-001	-1.262615E-001	-7.915413E-002	3.461529E-002
1.270000E+009	5.867364E-002	-4.649932E-002	2.465732E-001	-1.269990E-001	2.467685E-001	-1.271001E-001	-7.897936E-002	3.492160E-002
1.280000E+009	5.836797E-002	-4.666647E-002	2.460660E-001	-1.278843E-001	2.462827E-001	-1.279909E-001	-7.880456E-002	3.518829E-002
1.290000E+009	5.812225E-002	-4.684434E-002	2.455187E-001	-1.287608E-001	2.457546E-001	-1.288386E-001	-7.857002E-002	3.546631E-002
1.300000E+009	5.786831E-002	-4.699075E-002	2.449875E-001	-1.295922E-001	2.452415E-001	-1.297024E-001	-7.832803E-002	3.578738E-002
1.310000E+009	5.758028E-002	-4.716114E-002	2.444465E-001	-1.304499E-001	2.446855E-001	-1.305692E-001	-7.806746E-002	3.612309E-002
1.320000E+009	5.730867E-002	-4.731155E-002	2.439221E-001	-1.313100E-001	2.441851E-001	-1.314296E-001	-7.778112E-002	3.647498E-002
1.330000E+009	5.703433E-002	-4.741963E-002	2.433998E-001	-1.321350E-001	2.436465E-001	-1.323025E-001	-7.744400E-002	3.692006E-002
1.340000E+009	5.674728E-002	-4.754224E-002	2.428789E-001	-1.329883E-001	2.430910E-001	-1.331414E-001	-7.717014E-002	3.735646E-002
1.350000E+009	5.644311E-002	-4.768445E-002	2.423119E-001	-1.338489E-001	2.425384E-001	-1.339691E-001	-7.689511E-002	3.783660E-002
1.360000E+009	5.619945E-002	-4.779212E-002	2.417466E-001	-1.346821E-001	2.420169E-001	-1.348189E-001	-7.661569E-002	3.836469E-002
1.370000E+009	5.589498E-002	-4.792793E-002	2.412256E-001	-1.355129E-001	2.414505E-001	-1.356598E-001	-7.642095E-002	3.886489E-002
1.380000E+009	5.559934E-002	-4.806950E-002	2.406446E-001	-1.363632E-001	2.408875E-001	-1.365158E-001	-7.621708E-002	3.932593E-002
1.390000E+009	5.530351E-002	-4.822631E-002	2.401159E-001	-1.372159E-001	2.403268E-001	-1.373386E-001	-7.605859E-002	3.984902E-002
1.400000E+009	5.501531E-002	-4.838813E-002	2.395287E-001	-1.380217E-001	2.397708E-001	-1.381484E-001	-7.590284E-002	4.031050E-002
1.410000E+009	5.470083E-002	-4.850236E-002	2.389865E-001	-1.388618E-001	2.391977E-001	-1.389862E-001	-7.570219E-002	4.077642E-002
1.420000E+009	5.440154E-002	-4.863017E-002	2.383775E-001	-1.396763E-001	2.386486E-001	-1.398011E-001	-7.557259E-002	4.121609E-002
1.430000E+009	5.414496E-002	-4.875508E-002	2.378183E-001	-1.404952E-001	2.380713E-001	-1.406503E-001	-7.537375E-002	4.165145E-002
1.440000E+009	5.383187E-002	-4.890188E-002	2.372470E-001	-1.413148E-001	2.375179E-001	-1.414251E-001	-7.518338E-002	4.205137E-002
1.450000E+009	5.353974E-002	-4.898403E-002	2.366692E-001	-1.421406E-001	2.369187E-001	-1.422719E-001	-7.496415E-002	4.248490E-002
1.460000E+009	5.320614E-002	-4.911664E-002	2.361117E-001	-1.429780E-001	2.363213E-001	-1.431066E-001	-7.476340E-002	4.292087E-002
1.470000E+009	5.289792E-002	-4.924739E-002	2.355303E-001	-1.437768E-001	2.357523E-001	-1.439038E-001	-7.452709E-002	4.340131E-002
1.480000E+009	5.257868E-002	-4.932772E-002	2.349282E-001	-1.445649E-001	2.351305E-001	-1.447160E-001	-7.429127E-002	4.389504E-002
1.490000E+009	5.228846E-002	-4.946697E-002	2.343420E-001	-1.453877E-001	2.345717E-001	-1.455087E-001	-7.403728E-002	4.442000E-002
1.500000E+009	5.198336E-002	-4.958792E-002	2.337600E-001	-1.461858E-001	2.339708E-001	-1.463114E-001	-7.378483E-002	4.490546E-002
