! Device ID: PE43711P
! File Path: z:\PE43711P\CHAR_NOM_04282014\AMB\3p300\LS_ATT_31p50dB\PE43711P_AMB_3p300V_3p000V_0p000V_LS_ATT_31p50dB_S2P_SN_5_A0137A.s2p
! Serial: 5
! Lot: A0137A
! Temp: 25C
! VDD: 3.300
! VSS: 0.000
! Control_Hi: 3.000
! Control_Lo: 0.000
! Attenuation Step: 31.50dB
! Port 1: RF1
! Port 2: RF2
! ThroughPath:1-2
! IDD: 0.0001282716
! ISS: -1.345e-007
!

#  Hz  S   RI  R   50

1.000000E+007	1.962133E-002	5.621073E-004	2.294905E-002	-8.572321E-005	2.299386E-002	-8.837077E-005	-1.119866E-001	8.977023E-004
2.000000E+007	1.986917E-002	7.510197E-004	2.297424E-002	-1.207254E-004	2.296689E-002	-1.343016E-004	-1.117103E-001	1.465639E-003
3.000000E+007	2.012919E-002	9.275255E-004	2.296707E-002	-1.895250E-004	2.297815E-002	-1.988580E-004	-1.114036E-001	1.946552E-003
4.000000E+007	2.030372E-002	1.119735E-003	2.297075E-002	-2.618562E-004	2.297505E-002	-2.636226E-004	-1.112283E-001	2.482890E-003
5.000000E+007	2.040851E-002	1.294714E-003	2.296470E-002	-3.298473E-004	2.298064E-002	-3.279986E-004	-1.112023E-001	3.028689E-003
6.000000E+007	2.058065E-002	1.400171E-003	2.295658E-002	-3.889731E-004	2.298428E-002	-3.885713E-004	-1.110654E-001	3.475404E-003
7.000000E+007	2.072177E-002	1.504589E-003	2.296839E-002	-4.468630E-004	2.298642E-002	-4.423077E-004	-1.108775E-001	3.895812E-003
8.000000E+007	2.086973E-002	1.608654E-003	2.295643E-002	-5.056172E-004	2.298321E-002	-5.104346E-004	-1.107253E-001	4.308394E-003
9.000000E+007	2.099975E-002	1.714059E-003	2.295144E-002	-5.657641E-004	2.297972E-002	-5.718269E-004	-1.106082E-001	4.670597E-003
1.000000E+008	2.115606E-002	1.809415E-003	2.295505E-002	-6.404307E-004	2.297057E-002	-6.288273E-004	-1.105471E-001	5.048914E-003
1.100000E+008	2.128932E-002	1.880713E-003	2.294772E-002	-7.046963E-004	2.296515E-002	-6.944154E-004	-1.104470E-001	5.396967E-003
1.200000E+008	2.145385E-002	1.932519E-003	2.295205E-002	-7.629380E-004	2.297085E-002	-7.630851E-004	-1.103372E-001	5.700771E-003
1.300000E+008	2.159013E-002	2.028044E-003	2.293529E-002	-8.230821E-004	2.296697E-002	-8.341006E-004	-1.102091E-001	6.025797E-003
1.400000E+008	2.169538E-002	2.145177E-003	2.293680E-002	-8.898471E-004	2.295201E-002	-8.901520E-004	-1.100963E-001	6.339591E-003
1.500000E+008	2.176118E-002	2.259069E-003	2.292909E-002	-9.514765E-004	2.295403E-002	-9.437027E-004	-1.100157E-001	6.648466E-003
1.600000E+008	2.185089E-002	2.397770E-003	2.292990E-002	-1.000800E-003	2.294094E-002	-9.942420E-004	-1.099286E-001	6.966394E-003
1.700000E+008	2.195796E-002	2.500963E-003	2.292061E-002	-1.069130E-003	2.293701E-002	-1.064350E-003	-1.098488E-001	7.293667E-003
1.800000E+008	2.203061E-002	2.595323E-003	2.290995E-002	-1.136264E-003	2.293907E-002	-1.142071E-003	-1.097348E-001	7.589518E-003
1.900000E+008	2.202822E-002	2.663874E-003	2.289453E-002	-1.202773E-003	2.292671E-002	-1.199115E-003	-1.096868E-001	7.842975E-003
2.000000E+008	2.202430E-002	2.708833E-003	2.289480E-002	-1.262923E-003	2.292423E-002	-1.261055E-003	-1.096369E-001	8.066066E-003
2.100000E+008	2.203353E-002	2.705124E-003	2.288961E-002	-1.314568E-003	2.290801E-002	-1.315440E-003	-1.095459E-001	8.237085E-003
2.200000E+008	2.205290E-002	2.728148E-003	2.288153E-002	-1.379144E-003	2.290894E-002	-1.380206E-003	-1.094111E-001	8.412561E-003
2.300000E+008	2.209311E-002	2.734196E-003	2.288497E-002	-1.429752E-003	2.290532E-002	-1.429979E-003	-1.092849E-001	8.596497E-003
2.400000E+008	2.216457E-002	2.733524E-003	2.287594E-002	-1.503984E-003	2.289163E-002	-1.502961E-003	-1.091077E-001	8.825498E-003
2.500000E+008	2.221024E-002	2.748223E-003	2.287035E-002	-1.554849E-003	2.288226E-002	-1.549709E-003	-1.089065E-001	9.036435E-003
2.600000E+008	2.232942E-002	2.776800E-003	2.285165E-002	-1.615967E-003	2.286861E-002	-1.611447E-003	-1.086831E-001	9.338674E-003
2.700000E+008	2.242933E-002	2.813783E-003	2.284828E-002	-1.689624E-003	2.285836E-002	-1.675196E-003	-1.084363E-001	9.633425E-003
2.800000E+008	2.256773E-002	2.852147E-003	2.282388E-002	-1.738716E-003	2.285441E-002	-1.737299E-003	-1.082239E-001	9.921863E-003
2.900000E+008	2.262565E-002	2.925450E-003	2.282864E-002	-1.800004E-003	2.283933E-002	-1.791490E-003	-1.080798E-001	1.023937E-002
3.000000E+008	2.270297E-002	3.023057E-003	2.282388E-002	-1.860383E-003	2.284627E-002	-1.853937E-003	-1.079309E-001	1.059011E-002
3.100000E+008	2.273441E-002	3.129561E-003	2.281740E-002	-1.920614E-003	2.283004E-002	-1.926269E-003	-1.077984E-001	1.093503E-002
3.200000E+008	2.278086E-002	3.257268E-003	2.280522E-002	-1.991974E-003	2.282646E-002	-1.990577E-003	-1.077075E-001	1.126870E-002
3.300000E+008	2.279129E-002	3.368558E-003	2.279805E-002	-2.043299E-003	2.281429E-002	-2.035965E-003	-1.076116E-001	1.156246E-002
3.400000E+008	2.276961E-002	3.455174E-003	2.278113E-002	-2.108818E-003	2.280159E-002	-2.117993E-003	-1.074693E-001	1.181819E-002
3.500000E+008	2.275149E-002	3.505066E-003	2.277344E-002	-2.175095E-003	2.278109E-002	-2.166349E-003	-1.073138E-001	1.205644E-002
3.600000E+008	2.271331E-002	3.562695E-003	2.276888E-002	-2.237676E-003	2.276965E-002	-2.219520E-003	-1.071352E-001	1.230351E-002
3.700000E+008	2.270410E-002	3.600368E-003	2.274674E-002	-2.289257E-003	2.275696E-002	-2.277564E-003	-1.069342E-001	1.252459E-002
3.800000E+008	2.269372E-002	3.620699E-003	2.273767E-002	-2.343838E-003	2.275548E-002	-2.334472E-003	-1.067222E-001	1.278000E-002
3.900000E+008	2.268377E-002	3.636652E-003	2.272647E-002	-2.401241E-003	2.274543E-002	-2.384854E-003	-1.064345E-001	1.308628E-002
4.000000E+008	2.271105E-002	3.637696E-003	2.270120E-002	-2.459529E-003	2.273354E-002	-2.459998E-003	-1.061202E-001	1.338602E-002
4.100000E+008	2.271187E-002	3.623860E-003	2.270139E-002	-2.523415E-003	2.271883E-002	-2.520596E-003	-1.058356E-001	1.368502E-002
4.200000E+008	2.274650E-002	3.615460E-003	2.269431E-002	-2.572988E-003	2.270389E-002	-2.565028E-003	-1.056117E-001	1.403192E-002
4.300000E+008	2.278446E-002	3.645816E-003	2.268061E-002	-2.623045E-003	2.269940E-002	-2.635094E-003	-1.053925E-001	1.441766E-002
4.400000E+008	2.282485E-002	3.698471E-003	2.267587E-002	-2.693386E-003	2.269302E-002	-2.686663E-003	-1.052045E-001	1.484035E-002
4.500000E+008	2.287157E-002	3.726891E-003	2.265685E-002	-2.755748E-003	2.267330E-002	-2.739511E-003	-1.049981E-001	1.525951E-002
4.600000E+008	2.293025E-002	3.753094E-003	2.264871E-002	-2.814535E-003	2.267446E-002	-2.802666E-003	-1.048055E-001	1.568113E-002
4.700000E+008	2.295608E-002	3.799765E-003	2.264418E-002	-2.873928E-003	2.264353E-002	-2.876360E-003	-1.046405E-001	1.606426E-002
4.800000E+008	2.299049E-002	3.882929E-003	2.262084E-002	-2.929776E-003	2.263144E-002	-2.923997E-003	-1.044719E-001	1.643092E-002
4.900000E+008	2.297455E-002	3.947358E-003	2.262100E-002	-2.986036E-003	2.261050E-002	-2.980487E-003	-1.042990E-001	1.680266E-002
5.000000E+008	2.299015E-002	4.015699E-003	2.259316E-002	-3.039923E-003	2.261544E-002	-3.034362E-003	-1.041373E-001	1.715754E-002
5.100000E+008	2.298564E-002	4.088365E-003	2.257954E-002	-3.087054E-003	2.261466E-002	-3.089893E-003	-1.039579E-001	1.750530E-002
5.200000E+008	2.296228E-002	4.117348E-003	2.257295E-002	-3.161057E-003	2.260095E-002	-3.154931E-003	-1.037730E-001	1.786408E-002
5.300000E+008	2.295329E-002	4.140215E-003	2.255742E-002	-3.198419E-003	2.257869E-002	-3.204032E-003	-1.035400E-001	1.820610E-002
5.400000E+008	2.291322E-002	4.116587E-003	2.254019E-002	-3.269746E-003	2.256352E-002	-3.278748E-003	-1.033047E-001	1.854092E-002
5.500000E+008	2.290753E-002	4.122983E-003	2.253455E-002	-3.327477E-003	2.255568E-002	-3.324981E-003	-1.031117E-001	1.892500E-002
5.600000E+008	2.289703E-002	4.093835E-003	2.251547E-002	-3.381847E-003	2.253192E-002	-3.386892E-003	-1.028816E-001	1.928929E-002
5.700000E+008	2.291655E-002	4.069944E-003	2.251412E-002	-3.434593E-003	2.252150E-002	-3.446873E-003	-1.027018E-001	1.972219E-002
5.800000E+008	2.294476E-002	4.043823E-003	2.249302E-002	-3.495245E-003	2.250266E-002	-3.501088E-003	-1.025065E-001	2.013317E-002
5.900000E+008	2.298554E-002	4.007973E-003	2.247317E-002	-3.550796E-003	2.248899E-002	-3.550698E-003	-1.023122E-001	2.057949E-002
6.000000E+008	2.305688E-002	3.993080E-003	2.245529E-002	-3.615968E-003	2.249593E-002	-3.612644E-003	-1.021105E-001	2.099011E-002
6.100000E+008	2.314270E-002	3.983454E-003	2.244191E-002	-3.664428E-003	2.245273E-002	-3.678904E-003	-1.019423E-001	2.138058E-002
6.200000E+008	2.323027E-002	4.034668E-003	2.242038E-002	-3.724274E-003	2.245404E-002	-3.717596E-003	-1.017545E-001	2.178831E-002
6.300000E+008	2.332956E-002	4.071262E-003	2.240987E-002	-3.781861E-003	2.242286E-002	-3.776696E-003	-1.015773E-001	2.217926E-002
6.400000E+008	2.342361E-002	4.124363E-003	2.238765E-002	-3.831324E-003	2.242812E-002	-3.826783E-003	-1.013943E-001	2.257632E-002
6.500000E+008	2.348787E-002	4.203763E-003	2.237596E-002	-3.886889E-003	2.241145E-002	-3.881393E-003	-1.012155E-001	2.297906E-002
6.600000E+008	2.355104E-002	4.241600E-003	2.236616E-002	-3.953190E-003	2.238157E-002	-3.940526E-003	-1.010161E-001	2.336263E-002
6.700000E+008	2.355020E-002	4.312207E-003	2.236434E-002	-4.000124E-003	2.238123E-002	-4.001296E-003	-1.008484E-001	2.378621E-002
6.800000E+008	2.356729E-002	4.384572E-003	2.234544E-002	-4.052846E-003	2.235684E-002	-4.055140E-003	-1.006644E-001	2.421400E-002
6.900000E+008	2.356771E-002	4.455644E-003	2.233425E-002	-4.116277E-003	2.233282E-002	-4.099722E-003	-1.004638E-001	2.464579E-002
7.000000E+008	2.358918E-002	4.532612E-003	2.230500E-002	-4.162627E-003	2.233352E-002	-4.171016E-003	-1.003163E-001	2.508741E-002
7.100000E+008	2.358893E-002	4.571283E-003	2.229556E-002	-4.223597E-003	2.230645E-002	-4.205982E-003	-1.001896E-001	2.548933E-002
7.200000E+008	2.358572E-002	4.626295E-003	2.228049E-002	-4.265079E-003	2.229076E-002	-4.277771E-003	-1.000433E-001	2.590387E-002
7.300000E+008	2.359228E-002	4.641695E-003	2.225559E-002	-4.328120E-003	2.227441E-002	-4.317055E-003	-9.992454E-002	2.629488E-002
7.400000E+008	2.357995E-002	4.684135E-003	2.223987E-002	-4.383080E-003	2.225658E-002	-4.386914E-003	-9.981818E-002	2.666699E-002
7.500000E+008	2.359344E-002	4.698019E-003	2.223547E-002	-4.435999E-003	2.224769E-002	-4.432817E-003	-9.971106E-002	2.701760E-002
7.600000E+008	2.358787E-002	4.702577E-003	2.220666E-002	-4.489418E-003	2.222156E-002	-4.488976E-003	-9.956735E-002	2.737050E-002
7.700000E+008	2.360417E-002	4.696677E-003	2.219776E-002	-4.547240E-003	2.222234E-002	-4.543155E-003	-9.942771E-002	2.765814E-002
7.800000E+008	2.361108E-002	4.687776E-003	2.217785E-002	-4.607452E-003	2.220447E-002	-4.609170E-003	-9.923674E-002	2.798375E-002
7.900000E+008	2.364042E-002	4.665318E-003	2.216777E-002	-4.656391E-003	2.217013E-002	-4.661837E-003	-9.906647E-002	2.830122E-002
8.000000E+008	2.369190E-002	4.649595E-003	2.213825E-002	-4.721282E-003	2.215471E-002	-4.717140E-003	-9.885066E-002	2.865285E-002
8.100000E+008	2.374941E-002	4.614434E-003	2.212720E-002	-4.759954E-003	2.214454E-002	-4.768796E-003	-9.857588E-002	2.902637E-002
8.200000E+008	2.382896E-002	4.604924E-003	2.211850E-002	-4.814962E-003	2.212217E-002	-4.821047E-003	-9.833385E-002	2.937760E-002
8.300000E+008	2.390383E-002	4.607363E-003	2.209563E-002	-4.868848E-003	2.209819E-002	-4.878484E-003	-9.813446E-002	2.978382E-002
8.400000E+008	2.399483E-002	4.619916E-003	2.207306E-002	-4.923584E-003	2.208186E-002	-4.927416E-003	-9.792186E-002	3.013735E-002
8.500000E+008	2.409529E-002	4.649687E-003	2.205888E-002	-4.981075E-003	2.207110E-002	-4.979029E-003	-9.776152E-002	3.054488E-002
8.600000E+008	2.417066E-002	4.698562E-003	2.204412E-002	-5.036538E-003	2.206261E-002	-5.027551E-003	-9.760577E-002	3.093851E-002
8.700000E+008	2.423303E-002	4.783113E-003	2.202991E-002	-5.094786E-003	2.203615E-002	-5.082383E-003	-9.744833E-002	3.128210E-002
8.800000E+008	2.430307E-002	4.856479E-003	2.202086E-002	-5.141000E-003	2.202655E-002	-5.126595E-003	-9.728386E-002	3.162837E-002
8.900000E+008	2.431852E-002	4.915608E-003	2.198435E-002	-5.201504E-003	2.200728E-002	-5.209127E-003	-9.713251E-002	3.196395E-002
9.000000E+008	2.434627E-002	4.960544E-003	2.196218E-002	-5.238011E-003	2.198594E-002	-5.237274E-003	-9.692974E-002	3.228507E-002
9.100000E+008	2.436378E-002	4.997416E-003	2.195624E-002	-5.302278E-003	2.196091E-002	-5.285447E-003	-9.670302E-002	3.259377E-002
9.200000E+008	2.436719E-002	5.016995E-003	2.194683E-002	-5.357559E-003	2.194630E-002	-5.349793E-003	-9.644557E-002	3.292649E-002
9.300000E+008	2.443083E-002	5.025022E-003	2.192303E-002	-5.408586E-003	2.193281E-002	-5.392524E-003	-9.614351E-002	3.328554E-002
9.400000E+008	2.448674E-002	5.038031E-003	2.189878E-002	-5.436318E-003	2.192933E-002	-5.455305E-003	-9.584119E-002	3.363599E-002
9.500000E+008	2.455692E-002	5.035049E-003	2.188403E-002	-5.515935E-003	2.190384E-002	-5.501779E-003	-9.551056E-002	3.406595E-002
9.600000E+008	2.460569E-002	5.066466E-003	2.184791E-002	-5.569231E-003	2.187794E-002	-5.565683E-003	-9.519529E-002	3.445978E-002
9.700000E+008	2.468596E-002	5.124848E-003	2.183957E-002	-5.610967E-003	2.187140E-002	-5.610283E-003	-9.490423E-002	3.491121E-002
9.800000E+008	2.476782E-002	5.171033E-003	2.183077E-002	-5.649232E-003	2.185090E-002	-5.685270E-003	-9.463362E-002	3.537218E-002
9.900000E+008	2.485850E-002	5.215389E-003	2.181040E-002	-5.708955E-003	2.181496E-002	-5.731757E-003	-9.438105E-002	3.580696E-002
1.000000E+009	2.492541E-002	5.307777E-003	2.178239E-002	-5.772037E-003	2.179726E-002	-5.759532E-003	-9.417717E-002	3.622938E-002
1.010000E+009	2.497262E-002	5.397665E-003	2.176583E-002	-5.822854E-003	2.179476E-002	-5.829166E-003	-9.394123E-002	3.667274E-002
1.020000E+009	2.502399E-002	5.445779E-003	2.175907E-002	-5.875571E-003	2.177670E-002	-5.875479E-003	-9.375532E-002	3.709530E-002
1.030000E+009	2.506724E-002	5.521596E-003	2.172818E-002	-5.921173E-003	2.176038E-002	-5.934315E-003	-9.353892E-002	3.752327E-002
1.040000E+009	2.509692E-002	5.597740E-003	2.172712E-002	-5.981504E-003	2.173708E-002	-6.000657E-003	-9.331727E-002	3.792447E-002
1.050000E+009	2.514568E-002	5.661226E-003	2.169683E-002	-6.025056E-003	2.172750E-002	-6.035738E-003	-9.306562E-002	3.837389E-002
1.060000E+009	2.518671E-002	5.719122E-003	2.167639E-002	-6.071615E-003	2.170473E-002	-6.077347E-003	-9.279503E-002	3.880355E-002
1.070000E+009	2.519177E-002	5.752991E-003	2.164899E-002	-6.136045E-003	2.167287E-002	-6.134315E-003	-9.255025E-002	3.923169E-002
1.080000E+009	2.524619E-002	5.817113E-003	2.164454E-002	-6.191919E-003	2.166569E-002	-6.189709E-003	-9.229452E-002	3.967734E-002
1.090000E+009	2.527939E-002	5.857450E-003	2.161409E-002	-6.235275E-003	2.164986E-002	-6.248871E-003	-9.206930E-002	4.010068E-002
1.100000E+009	2.532068E-002	5.908917E-003	2.159484E-002	-6.296570E-003	2.161485E-002	-6.284235E-003	-9.184709E-002	4.055053E-002
1.110000E+009	2.535716E-002	5.973093E-003	2.159645E-002	-6.340496E-003	2.160652E-002	-6.339850E-003	-9.162589E-002	4.097939E-002
1.120000E+009	2.539069E-002	6.019654E-003	2.156911E-002	-6.400201E-003	2.158271E-002	-6.401123E-003	-9.146118E-002	4.138001E-002
1.130000E+009	2.544493E-002	6.072256E-003	2.155190E-002	-6.459362E-003	2.155233E-002	-6.449284E-003	-9.124979E-002	4.176536E-002
1.140000E+009	2.544368E-002	6.113841E-003	2.153455E-002	-6.493053E-003	2.156769E-002	-6.495655E-003	-9.101211E-002	4.217811E-002
1.150000E+009	2.551905E-002	6.168570E-003	2.150366E-002	-6.556810E-003	2.153125E-002	-6.557171E-003	-9.078415E-002	4.258311E-002
1.160000E+009	2.552788E-002	6.229116E-003	2.149276E-002	-6.606615E-003	2.150221E-002	-6.615066E-003	-9.052772E-002	4.298377E-002
1.170000E+009	2.556940E-002	6.281489E-003	2.145379E-002	-6.656405E-003	2.146569E-002	-6.655213E-003	-9.025678E-002	4.343071E-002
1.180000E+009	2.563095E-002	6.334665E-003	2.143874E-002	-6.702225E-003	2.144517E-002	-6.717756E-003	-8.997076E-002	4.384268E-002
1.190000E+009	2.562314E-002	6.400632E-003	2.141642E-002	-6.759722E-003	2.143497E-002	-6.764755E-003	-8.970985E-002	4.431372E-002
1.200000E+009	2.566288E-002	6.454593E-003	2.139767E-002	-6.804967E-003	2.142302E-002	-6.818711E-003	-8.943954E-002	4.478383E-002
1.210000E+009	2.569984E-002	6.444006E-003	2.137840E-002	-6.862042E-003	2.139241E-002	-6.863697E-003	-8.919976E-002	4.522387E-002
1.220000E+009	2.575703E-002	6.448266E-003	2.135838E-002	-6.914709E-003	2.137834E-002	-6.917792E-003	-8.898863E-002	4.565861E-002
1.230000E+009	2.577900E-002	6.485331E-003	2.133278E-002	-6.948528E-003	2.134064E-002	-6.979731E-003	-8.877089E-002	4.605927E-002
1.240000E+009	2.585905E-002	6.479177E-003	2.132279E-002	-7.023942E-003	2.132914E-002	-7.030200E-003	-8.857771E-002	4.645134E-002
1.250000E+009	2.593184E-002	6.497127E-003	2.127955E-002	-7.076413E-003	2.130948E-002	-7.057919E-003	-8.837633E-002	4.683479E-002
1.260000E+009	2.598142E-002	6.509308E-003	2.128035E-002	-7.130053E-003	2.129483E-002	-7.124695E-003	-8.810955E-002	4.719691E-002
1.270000E+009	2.611338E-002	6.551912E-003	2.123352E-002	-7.172242E-003	2.127477E-002	-7.184726E-003	-8.784973E-002	4.754191E-002
1.280000E+009	2.618203E-002	6.598580E-003	2.120893E-002	-7.222753E-003	2.123712E-002	-7.218829E-003	-8.756801E-002	4.789934E-002
1.290000E+009	2.628223E-002	6.646521E-003	2.119853E-002	-7.275203E-003	2.121473E-002	-7.273812E-003	-8.723940E-002	4.824519E-002
1.300000E+009	2.636307E-002	6.757067E-003	2.117062E-002	-7.313485E-003	2.119196E-002	-7.324377E-003	-8.688525E-002	4.863356E-002
1.310000E+009	2.645113E-002	6.830041E-003	2.116420E-002	-7.385398E-003	2.115348E-002	-7.377684E-003	-8.655408E-002	4.903996E-002
1.320000E+009	2.650326E-002	6.901458E-003	2.112637E-002	-7.411183E-003	2.114408E-002	-7.429665E-003	-8.617496E-002	4.947842E-002
1.330000E+009	2.658504E-002	7.007643E-003	2.110115E-002	-7.483335E-003	2.112117E-002	-7.484045E-003	-8.578078E-002	4.995325E-002
1.340000E+009	2.661570E-002	7.081891E-003	2.108781E-002	-7.525583E-003	2.109482E-002	-7.548179E-003	-8.541115E-002	5.045559E-002
1.350000E+009	2.663242E-002	7.155817E-003	2.106513E-002	-7.568302E-003	2.106203E-002	-7.587657E-003	-8.505764E-002	5.097277E-002
1.360000E+009	2.672037E-002	7.216014E-003	2.103709E-002	-7.633390E-003	2.106200E-002	-7.635731E-003	-8.470375E-002	5.152142E-002
1.370000E+009	2.677688E-002	7.294693E-003	2.102467E-002	-7.679543E-003	2.104092E-002	-7.681649E-003	-8.439535E-002	5.206070E-002
1.380000E+009	2.683238E-002	7.334368E-003	2.098272E-002	-7.737856E-003	2.101712E-002	-7.734543E-003	-8.407309E-002	5.258474E-002
1.390000E+009	2.691982E-002	7.393929E-003	2.097681E-002	-7.776795E-003	2.098392E-002	-7.794971E-003	-8.380476E-002	5.315694E-002
1.400000E+009	2.697366E-002	7.473411E-003	2.093851E-002	-7.842129E-003	2.095027E-002	-7.822566E-003	-8.352921E-002	5.367542E-002
1.410000E+009	2.702132E-002	7.562742E-003	2.092283E-002	-7.886097E-003	2.093419E-002	-7.879365E-003	-8.325394E-002	5.420595E-002
1.420000E+009	2.705087E-002	7.646264E-003	2.089507E-002	-7.938084E-003	2.090280E-002	-7.939058E-003	-8.299873E-002	5.468785E-002
1.430000E+009	2.711284E-002	7.721709E-003	2.085587E-002	-7.964207E-003	2.086632E-002	-7.989112E-003	-8.273866E-002	5.514932E-002
1.440000E+009	2.715214E-002	7.807348E-003	2.083940E-002	-8.036741E-003	2.086638E-002	-8.034266E-003	-8.248184E-002	5.560703E-002
1.450000E+009	2.718035E-002	7.876048E-003	2.079690E-002	-8.079492E-003	2.082809E-002	-8.092445E-003	-8.215691E-002	5.608850E-002
1.460000E+009	2.718975E-002	7.923339E-003	2.077574E-002	-8.131176E-003	2.080517E-002	-8.146042E-003	-8.182452E-002	5.657101E-002
1.470000E+009	2.722857E-002	7.967970E-003	2.076612E-002	-8.202063E-003	2.077389E-002	-8.184477E-003	-8.151234E-002	5.704483E-002
1.480000E+009	2.728932E-002	8.048351E-003	2.074859E-002	-8.237326E-003	2.073595E-002	-8.234738E-003	-8.118877E-002	5.757262E-002
1.490000E+009	2.733164E-002	8.091901E-003	2.069929E-002	-8.273050E-003	2.072440E-002	-8.281323E-003	-8.081091E-002	5.809502E-002
1.500000E+009	2.738933E-002	8.142164E-003	2.067879E-002	-8.330559E-003	2.071470E-002	-8.332675E-003	-8.044816E-002	5.865120E-002
1.510000E+009	2.747886E-002	8.186477E-003	2.063995E-002	-8.388861E-003	2.066605E-002	-8.377710E-003	-8.012020E-002	5.919977E-002
