! Device ID: PE43711P
! File Path: z:\PE43711P\CHAR_NOM_04282014\AMB\3p300\LS_ATT_6p75dB\PE43711P_AMB_3p300V_3p000V_0p000V_LS_ATT_6p75dB_S2P_SN_5_A0137A.s2p
! Serial: 5
! Lot: A0137A
! Temp: 25C
! VDD: 3.300
! VSS: 0.000
! Control_Hi: 3.000
! Control_Lo: 0.000
! Attenuation Step: 6.75dB
! Port 1: RF1
! Port 2: RF2
! ThroughPath:1-2
! IDD: 0.0001278278
! ISS: -1.37e-007
!

#  Hz  S   RI  R   50

1.000000E+007	9.425930E-002	-3.960176E-004	4.050664E-001	-2.112578E-003	4.052934E-001	-2.218803E-003	-6.465070E-002	5.628237E-004
2.000000E+007	9.441123E-002	-7.010506E-004	4.051030E-001	-3.404257E-003	4.050958E-001	-3.441997E-003	-6.441812E-002	9.490715E-004
3.000000E+007	9.468054E-002	-1.230868E-003	4.050995E-001	-5.106647E-003	4.051302E-001	-5.137839E-003	-6.413962E-002	1.223510E-003
4.000000E+007	9.477749E-002	-1.749192E-003	4.050888E-001	-6.834307E-003	4.051089E-001	-6.851945E-003	-6.385598E-002	1.515411E-003
5.000000E+007	9.494491E-002	-2.347575E-003	4.050662E-001	-8.698650E-003	4.051953E-001	-8.653969E-003	-6.374119E-002	1.719346E-003
6.000000E+007	9.510245E-002	-3.005116E-003	4.049647E-001	-1.039426E-002	4.051689E-001	-1.036408E-002	-6.359853E-002	1.831108E-003
7.000000E+007	9.519805E-002	-3.682017E-003	4.048571E-001	-1.207923E-002	4.050410E-001	-1.206920E-002	-6.347923E-002	1.944597E-003
8.000000E+007	9.531813E-002	-4.325630E-003	4.047619E-001	-1.371464E-002	4.049518E-001	-1.372152E-002	-6.335890E-002	2.094295E-003
9.000000E+007	9.540952E-002	-4.961351E-003	4.047001E-001	-1.539466E-002	4.048477E-001	-1.542505E-002	-6.322233E-002	2.176798E-003
1.000000E+008	9.545995E-002	-5.585799E-003	4.046101E-001	-1.711347E-002	4.047163E-001	-1.709086E-002	-6.306973E-002	2.264164E-003
1.100000E+008	9.552031E-002	-6.212196E-003	4.044697E-001	-1.884126E-002	4.046200E-001	-1.878492E-002	-6.299749E-002	2.308934E-003
1.200000E+008	9.557522E-002	-6.862738E-003	4.042270E-001	-2.053207E-002	4.044556E-001	-2.049160E-002	-6.301268E-002	2.361956E-003
1.300000E+008	9.563705E-002	-7.541764E-003	4.040987E-001	-2.217467E-002	4.043066E-001	-2.217220E-002	-6.288961E-002	2.380019E-003
1.400000E+008	9.562695E-002	-8.261509E-003	4.039632E-001	-2.386675E-002	4.041309E-001	-2.388267E-002	-6.263025E-002	2.357167E-003
1.500000E+008	9.552696E-002	-8.925976E-003	4.038016E-001	-2.548712E-002	4.038835E-001	-2.550078E-002	-6.239728E-002	2.357352E-003
1.600000E+008	9.539227E-002	-9.454327E-003	4.036780E-001	-2.709449E-002	4.036882E-001	-2.707684E-002	-6.246722E-002	2.425626E-003
1.700000E+008	9.523212E-002	-9.997200E-003	4.035044E-001	-2.886629E-002	4.037015E-001	-2.874774E-002	-6.271808E-002	2.438119E-003
1.800000E+008	9.503279E-002	-1.059899E-002	4.030737E-001	-3.061652E-002	4.034898E-001	-3.054557E-002	-6.288672E-002	2.431154E-003
1.900000E+008	9.489229E-002	-1.128121E-002	4.027860E-001	-3.219874E-002	4.032044E-001	-3.218998E-002	-6.286493E-002	2.373581E-003
2.000000E+008	9.479637E-002	-1.200808E-002	4.026091E-001	-3.380923E-002	4.029386E-001	-3.379993E-002	-6.267477E-002	2.371911E-003
2.100000E+008	9.471955E-002	-1.277777E-002	4.024296E-001	-3.540259E-002	4.026809E-001	-3.539701E-002	-6.242401E-002	2.360064E-003
2.200000E+008	9.460236E-002	-1.348158E-002	4.022443E-001	-3.697069E-002	4.024385E-001	-3.697841E-002	-6.225107E-002	2.342036E-003
2.300000E+008	9.443012E-002	-1.418200E-002	4.020163E-001	-3.860079E-002	4.021795E-001	-3.859124E-002	-6.215516E-002	2.256749E-003
2.400000E+008	9.425620E-002	-1.486938E-002	4.017617E-001	-4.023748E-002	4.019381E-001	-4.022369E-002	-6.208532E-002	2.192337E-003
2.500000E+008	9.406784E-002	-1.551950E-002	4.014786E-001	-4.189008E-002	4.016515E-001	-4.182252E-002	-6.201464E-002	2.080870E-003
2.600000E+008	9.390369E-002	-1.622027E-002	4.011587E-001	-4.353636E-002	4.014085E-001	-4.346884E-002	-6.188741E-002	2.046875E-003
2.700000E+008	9.376229E-002	-1.687479E-002	4.008252E-001	-4.511950E-002	4.010929E-001	-4.510037E-002	-6.170829E-002	2.046536E-003
2.800000E+008	9.364731E-002	-1.749443E-002	4.005120E-001	-4.667414E-002	4.007773E-001	-4.663969E-002	-6.153103E-002	2.087834E-003
2.900000E+008	9.345966E-002	-1.806740E-002	4.002521E-001	-4.823758E-002	4.004554E-001	-4.817735E-002	-6.144244E-002	2.134440E-003
3.000000E+008	9.332962E-002	-1.859928E-002	4.000233E-001	-4.985148E-002	4.002185E-001	-4.976097E-002	-6.132235E-002	2.210640E-003
3.100000E+008	9.314799E-002	-1.913340E-002	3.996892E-001	-5.142501E-002	3.999687E-001	-5.138214E-002	-6.123501E-002	2.315861E-003
3.200000E+008	9.294734E-002	-1.964962E-002	3.993555E-001	-5.306259E-002	3.996634E-001	-5.298325E-002	-6.117123E-002	2.403788E-003
3.300000E+008	9.270479E-002	-2.015450E-002	3.990663E-001	-5.463024E-002	3.993236E-001	-5.467738E-002	-6.112570E-002	2.450349E-003
3.400000E+008	9.237864E-002	-2.068686E-002	3.986832E-001	-5.622351E-002	3.988336E-001	-5.632204E-002	-6.103238E-002	2.457598E-003
3.500000E+008	9.203100E-002	-2.120753E-002	3.983340E-001	-5.783050E-002	3.983800E-001	-5.779735E-002	-6.094840E-002	2.399421E-003
3.600000E+008	9.173441E-002	-2.175124E-002	3.979910E-001	-5.940162E-002	3.980423E-001	-5.922996E-002	-6.085347E-002	2.410831E-003
3.700000E+008	9.142120E-002	-2.229775E-002	3.975691E-001	-6.089109E-002	3.977263E-001	-6.067676E-002	-6.069692E-002	2.407271E-003
3.800000E+008	9.114407E-002	-2.288488E-002	3.972405E-001	-6.242756E-002	3.975135E-001	-6.227455E-002	-6.053607E-002	2.385199E-003
3.900000E+008	9.080677E-002	-2.346455E-002	3.968181E-001	-6.403548E-002	3.971456E-001	-6.387591E-002	-6.031997E-002	2.413969E-003
4.000000E+008	9.055831E-002	-2.407871E-002	3.963797E-001	-6.547467E-002	3.967602E-001	-6.548119E-002	-6.010025E-002	2.441959E-003
4.100000E+008	9.021501E-002	-2.467988E-002	3.960317E-001	-6.692743E-002	3.963543E-001	-6.700821E-002	-5.989869E-002	2.484548E-003
4.200000E+008	8.987907E-002	-2.524567E-002	3.957391E-001	-6.845617E-002	3.959630E-001	-6.848984E-002	-5.973907E-002	2.563743E-003
4.300000E+008	8.961080E-002	-2.576462E-002	3.953645E-001	-7.002204E-002	3.955726E-001	-7.004331E-002	-5.960060E-002	2.682046E-003
4.400000E+008	8.934971E-002	-2.624759E-002	3.949726E-001	-7.158010E-002	3.952155E-001	-7.155001E-002	-5.948503E-002	2.858707E-003
4.500000E+008	8.910650E-002	-2.677499E-002	3.945922E-001	-7.309915E-002	3.948389E-001	-7.310209E-002	-5.935226E-002	3.033950E-003
4.600000E+008	8.883945E-002	-2.728169E-002	3.941622E-001	-7.464938E-002	3.944104E-001	-7.464819E-002	-5.924483E-002	3.224390E-003
4.700000E+008	8.853732E-002	-2.776727E-002	3.937210E-001	-7.614537E-002	3.939522E-001	-7.615577E-002	-5.917686E-002	3.380749E-003
4.800000E+008	8.820185E-002	-2.821604E-002	3.933102E-001	-7.760954E-002	3.935213E-001	-7.759111E-002	-5.913922E-002	3.530225E-003
4.900000E+008	8.785824E-002	-2.865497E-002	3.928965E-001	-7.911280E-002	3.930755E-001	-7.910023E-002	-5.908351E-002	3.686235E-003
5.000000E+008	8.753891E-002	-2.910532E-002	3.924689E-001	-8.060883E-002	3.926961E-001	-8.058086E-002	-5.902419E-002	3.795128E-003
5.100000E+008	8.721470E-002	-2.957317E-002	3.920664E-001	-8.210828E-002	3.922962E-001	-8.204119E-002	-5.889622E-002	3.912471E-003
5.200000E+008	8.686450E-002	-3.009427E-002	3.916249E-001	-8.360570E-002	3.918796E-001	-8.358700E-002	-5.879630E-002	3.992649E-003
5.300000E+008	8.652038E-002	-3.059958E-002	3.911675E-001	-8.510338E-002	3.914429E-001	-8.510512E-002	-5.859453E-002	4.077845E-003
5.400000E+008	8.614947E-002	-3.116406E-002	3.906838E-001	-8.660349E-002	3.909888E-001	-8.662170E-002	-5.844644E-002	4.157606E-003
5.500000E+008	8.577000E-002	-3.161978E-002	3.902628E-001	-8.808366E-002	3.904788E-001	-8.808241E-002	-5.833109E-002	4.292319E-003
5.600000E+008	8.541848E-002	-3.210620E-002	3.897737E-001	-8.953663E-002	3.899722E-001	-8.956895E-002	-5.819869E-002	4.430340E-003
5.700000E+008	8.511865E-002	-3.259806E-002	3.892911E-001	-9.098003E-002	3.895583E-001	-9.099966E-002	-5.816098E-002	4.648852E-003
5.800000E+008	8.477220E-002	-3.306272E-002	3.888442E-001	-9.246221E-002	3.891167E-001	-9.244716E-002	-5.810382E-002	4.804407E-003
5.900000E+008	8.448116E-002	-3.356671E-002	3.883409E-001	-9.397171E-002	3.886693E-001	-9.396948E-002	-5.806976E-002	5.009731E-003
6.000000E+008	8.419096E-002	-3.405859E-002	3.878648E-001	-9.542178E-002	3.881586E-001	-9.545779E-002	-5.795763E-002	5.160917E-003
6.100000E+008	8.390844E-002	-3.452249E-002	3.873708E-001	-9.684821E-002	3.876254E-001	-9.691616E-002	-5.791381E-002	5.314580E-003
6.200000E+008	8.364673E-002	-3.496907E-002	3.868543E-001	-9.827528E-002	3.871482E-001	-9.833564E-002	-5.786727E-002	5.458268E-003
6.300000E+008	8.339378E-002	-3.540701E-002	3.863658E-001	-9.973828E-002	3.866245E-001	-9.975879E-002	-5.778973E-002	5.603346E-003
6.400000E+008	8.315088E-002	-3.582479E-002	3.858634E-001	-1.011416E-001	3.861180E-001	-1.012025E-001	-5.767142E-002	5.771856E-003
6.500000E+008	8.289768E-002	-3.621126E-002	3.853780E-001	-1.025636E-001	3.856474E-001	-1.026178E-001	-5.758255E-002	5.967338E-003
6.600000E+008	8.259449E-002	-3.662938E-002	3.849014E-001	-1.040300E-001	3.851230E-001	-1.040987E-001	-5.749643E-002	6.149681E-003
6.700000E+008	8.222340E-002	-3.697819E-002	3.843524E-001	-1.054561E-001	3.845849E-001	-1.055052E-001	-5.745777E-002	6.349589E-003
6.800000E+008	8.184191E-002	-3.734227E-002	3.838407E-001	-1.068826E-001	3.840647E-001	-1.069507E-001	-5.740949E-002	6.595131E-003
6.900000E+008	8.146001E-002	-3.767584E-002	3.832746E-001	-1.083157E-001	3.834957E-001	-1.083563E-001	-5.738897E-002	6.842113E-003
7.000000E+008	8.111732E-002	-3.805254E-002	3.827531E-001	-1.097262E-001	3.830162E-001	-1.097289E-001	-5.737602E-002	7.036768E-003
7.100000E+008	8.075821E-002	-3.845467E-002	3.822285E-001	-1.111025E-001	3.824835E-001	-1.111815E-001	-5.736899E-002	7.209794E-003
7.200000E+008	8.037392E-002	-3.885786E-002	3.816947E-001	-1.125172E-001	3.819655E-001	-1.126045E-001	-5.735702E-002	7.373663E-003
7.300000E+008	7.999753E-002	-3.927194E-002	3.811248E-001	-1.139285E-001	3.814665E-001	-1.140208E-001	-5.738385E-002	7.482846E-003
7.400000E+008	7.962940E-002	-3.965869E-002	3.805860E-001	-1.153546E-001	3.809039E-001	-1.154224E-001	-5.739327E-002	7.592555E-003
7.500000E+008	7.927196E-002	-4.006191E-002	3.800392E-001	-1.167524E-001	3.803665E-001	-1.168480E-001	-5.737246E-002	7.715861E-003
7.600000E+008	7.888699E-002	-4.045728E-002	3.794917E-001	-1.181474E-001	3.797822E-001	-1.182400E-001	-5.735529E-002	7.809190E-003
7.700000E+008	7.853189E-002	-4.088465E-002	3.789286E-001	-1.195411E-001	3.792383E-001	-1.196205E-001	-5.731742E-002	7.903809E-003
7.800000E+008	7.812725E-002	-4.127298E-002	3.783637E-001	-1.209189E-001	3.786875E-001	-1.210121E-001	-5.728558E-002	8.013028E-003
7.900000E+008	7.775471E-002	-4.170833E-002	3.778280E-001	-1.223030E-001	3.781324E-001	-1.224245E-001	-5.726672E-002	8.147223E-003
8.000000E+008	7.737490E-002	-4.213198E-002	3.772306E-001	-1.236968E-001	3.775301E-001	-1.238005E-001	-5.719736E-002	8.268374E-003
8.100000E+008	7.703945E-002	-4.254914E-002	3.766443E-001	-1.250520E-001	3.769182E-001	-1.251678E-001	-5.712564E-002	8.447215E-003
8.200000E+008	7.671635E-002	-4.295049E-002	3.760853E-001	-1.264582E-001	3.763417E-001	-1.265408E-001	-5.705240E-002	8.572649E-003
8.300000E+008	7.641437E-002	-4.336353E-002	3.754777E-001	-1.278223E-001	3.757995E-001	-1.279237E-001	-5.698520E-002	8.725783E-003
8.400000E+008	7.613131E-002	-4.371415E-002	3.748792E-001	-1.291680E-001	3.751944E-001	-1.292894E-001	-5.694627E-002	8.910806E-003
8.500000E+008	7.583812E-002	-4.407298E-002	3.743245E-001	-1.305655E-001	3.746057E-001	-1.306841E-001	-5.691560E-002	9.066251E-003
8.600000E+008	7.551002E-002	-4.441719E-002	3.737109E-001	-1.318884E-001	3.739632E-001	-1.320226E-001	-5.690004E-002	9.246587E-003
8.700000E+008	7.519538E-002	-4.473139E-002	3.731251E-001	-1.332799E-001	3.733716E-001	-1.333770E-001	-5.687646E-002	9.397980E-003
8.800000E+008	7.483497E-002	-4.502960E-002	3.725220E-001	-1.346491E-001	3.727879E-001	-1.347230E-001	-5.689696E-002	9.551761E-003
8.900000E+008	7.445944E-002	-4.533817E-002	3.718733E-001	-1.360098E-001	3.721678E-001	-1.361081E-001	-5.687261E-002	9.692687E-003
9.000000E+008	7.407508E-002	-4.564337E-002	3.712379E-001	-1.373598E-001	3.715834E-001	-1.374553E-001	-5.683829E-002	9.855768E-003
9.100000E+008	7.369027E-002	-4.595405E-002	3.706378E-001	-1.387114E-001	3.709910E-001	-1.388267E-001	-5.674573E-002	9.978602E-003
9.200000E+008	7.329092E-002	-4.629672E-002	3.699930E-001	-1.400322E-001	3.703702E-001	-1.401778E-001	-5.663106E-002	1.008908E-002
9.300000E+008	7.290028E-002	-4.662612E-002	3.693907E-001	-1.413757E-001	3.696705E-001	-1.415264E-001	-5.651494E-002	1.021991E-002
9.400000E+008	7.253326E-002	-4.697194E-002	3.687619E-001	-1.426950E-001	3.691085E-001	-1.428392E-001	-5.635824E-002	1.040411E-002
9.500000E+008	7.217501E-002	-4.731603E-002	3.681463E-001	-1.440623E-001	3.684317E-001	-1.442265E-001	-5.621438E-002	1.060745E-002
9.600000E+008	7.183616E-002	-4.760216E-002	3.674783E-001	-1.454019E-001	3.677871E-001	-1.455178E-001	-5.604213E-002	1.082460E-002
9.700000E+008	7.153052E-002	-4.790409E-002	3.668191E-001	-1.466783E-001	3.671480E-001	-1.468530E-001	-5.588162E-002	1.106870E-002
9.800000E+008	7.121417E-002	-4.818813E-002	3.662272E-001	-1.479847E-001	3.665277E-001	-1.481890E-001	-5.574290E-002	1.130523E-002
9.900000E+008	7.092027E-002	-4.846800E-002	3.655867E-001	-1.493450E-001	3.658788E-001	-1.495337E-001	-5.565612E-002	1.153939E-002
1.000000E+009	7.059724E-002	-4.871741E-002	3.649351E-001	-1.506561E-001	3.651964E-001	-1.508520E-001	-5.559048E-002	1.179315E-002
1.010000E+009	7.020502E-002	-4.895020E-002	3.642864E-001	-1.520169E-001	3.645636E-001	-1.521497E-001	-5.554335E-002	1.206542E-002
1.020000E+009	6.983888E-002	-4.916321E-002	3.636207E-001	-1.533183E-001	3.638933E-001	-1.534594E-001	-5.548201E-002	1.234139E-002
1.030000E+009	6.948715E-002	-4.935585E-002	3.629363E-001	-1.546213E-001	3.632284E-001	-1.547720E-001	-5.546448E-002	1.260248E-002
1.040000E+009	6.910460E-002	-4.959618E-002	3.622503E-001	-1.559062E-001	3.625327E-001	-1.560630E-001	-5.539223E-002	1.283512E-002
1.050000E+009	6.872308E-002	-4.989066E-002	3.616045E-001	-1.572353E-001	3.618795E-001	-1.573940E-001	-5.533654E-002	1.308360E-002
1.060000E+009	6.834615E-002	-5.014282E-002	3.609013E-001	-1.585290E-001	3.612022E-001	-1.586680E-001	-5.523871E-002	1.332541E-002
1.070000E+009	6.792658E-002	-5.041271E-002	3.602036E-001	-1.598121E-001	3.605406E-001	-1.599345E-001	-5.517502E-002	1.354679E-002
1.080000E+009	6.758882E-002	-5.066748E-002	3.595270E-001	-1.611511E-001	3.598916E-001	-1.612512E-001	-5.507821E-002	1.380862E-002
1.090000E+009	6.723384E-002	-5.091573E-002	3.588405E-001	-1.624330E-001	3.591886E-001	-1.625589E-001	-5.500500E-002	1.402418E-002
1.100000E+009	6.692364E-002	-5.115477E-002	3.581190E-001	-1.637284E-001	3.584881E-001	-1.638343E-001	-5.492254E-002	1.431043E-002
1.110000E+009	6.658156E-002	-5.139255E-002	3.574226E-001	-1.650071E-001	3.578122E-001	-1.651347E-001	-5.486898E-002	1.454170E-002
1.120000E+009	6.620148E-002	-5.162911E-002	3.567491E-001	-1.662912E-001	3.570873E-001	-1.664678E-001	-5.484189E-002	1.477736E-002
1.130000E+009	6.584592E-002	-5.185342E-002	3.560215E-001	-1.675614E-001	3.563849E-001	-1.677172E-001	-5.481994E-002	1.500025E-002
1.140000E+009	6.544256E-002	-5.206842E-002	3.553359E-001	-1.688779E-001	3.556828E-001	-1.689941E-001	-5.477647E-002	1.527169E-002
1.150000E+009	6.507575E-002	-5.230579E-002	3.545946E-001	-1.701445E-001	3.549261E-001	-1.702738E-001	-5.471939E-002	1.550302E-002
1.160000E+009	6.468240E-002	-5.248971E-002	3.538899E-001	-1.714185E-001	3.542209E-001	-1.715758E-001	-5.467420E-002	1.571328E-002
1.170000E+009	6.430739E-002	-5.273778E-002	3.531262E-001	-1.727136E-001	3.534894E-001	-1.728110E-001	-5.456405E-002	1.599822E-002
1.180000E+009	6.393806E-002	-5.300101E-002	3.523823E-001	-1.739615E-001	3.527717E-001	-1.740964E-001	-5.448681E-002	1.622943E-002
1.190000E+009	6.354597E-002	-5.323037E-002	3.516473E-001	-1.752337E-001	3.519852E-001	-1.753630E-001	-5.439219E-002	1.651490E-002
1.200000E+009	6.318299E-002	-5.345447E-002	3.509092E-001	-1.765235E-001	3.512531E-001	-1.766066E-001	-5.430904E-002	1.678880E-002
1.210000E+009	6.283626E-002	-5.371277E-002	3.501805E-001	-1.777536E-001	3.504925E-001	-1.779066E-001	-5.422920E-002	1.707695E-002
1.220000E+009	6.247347E-002	-5.394412E-002	3.493966E-001	-1.789946E-001	3.497620E-001	-1.791518E-001	-5.417343E-002	1.737202E-002
1.230000E+009	6.212155E-002	-5.418425E-002	3.486468E-001	-1.802769E-001	3.489720E-001	-1.804018E-001	-5.413457E-002	1.760874E-002
1.240000E+009	6.177292E-002	-5.443678E-002	3.479052E-001	-1.815133E-001	3.482212E-001	-1.816442E-001	-5.411022E-002	1.786228E-002
1.250000E+009	6.141003E-002	-5.467110E-002	3.471203E-001	-1.827510E-001	3.475069E-001	-1.828911E-001	-5.408571E-002	1.811613E-002
1.260000E+009	6.102606E-002	-5.488874E-002	3.463396E-001	-1.840249E-001	3.466830E-001	-1.841825E-001	-5.404466E-002	1.828640E-002
1.270000E+009	6.074264E-002	-5.511613E-002	3.455861E-001	-1.852675E-001	3.459030E-001	-1.853729E-001	-5.398332E-002	1.850343E-002
1.280000E+009	6.036333E-002	-5.530776E-002	3.448292E-001	-1.865161E-001	3.451636E-001	-1.866386E-001	-5.391451E-002	1.869101E-002
1.290000E+009	6.002751E-002	-5.548497E-002	3.440241E-001	-1.877761E-001	3.443727E-001	-1.878470E-001	-5.377242E-002	1.888142E-002
1.300000E+009	5.969757E-002	-5.564726E-002	3.432187E-001	-1.889569E-001	3.435948E-001	-1.891123E-001	-5.360548E-002	1.908925E-002
1.310000E+009	5.933808E-002	-5.582593E-002	3.424120E-001	-1.902031E-001	3.427917E-001	-1.903740E-001	-5.345467E-002	1.933733E-002
1.320000E+009	5.896005E-002	-5.596332E-002	3.416223E-001	-1.914516E-001	3.419936E-001	-1.915938E-001	-5.325975E-002	1.962194E-002
1.330000E+009	5.863837E-002	-5.608286E-002	3.408258E-001	-1.926588E-001	3.411889E-001	-1.928326E-001	-5.303604E-002	1.996954E-002
1.340000E+009	5.826248E-002	-5.618702E-002	3.400269E-001	-1.938567E-001	3.403508E-001	-1.940248E-001	-5.283152E-002	2.033226E-002
1.350000E+009	5.787045E-002	-5.633141E-002	3.391969E-001	-1.950776E-001	3.395169E-001	-1.952538E-001	-5.265203E-002	2.072715E-002
1.360000E+009	5.754090E-002	-5.642873E-002	3.383371E-001	-1.962692E-001	3.387348E-001	-1.964683E-001	-5.248824E-002	2.117460E-002
1.370000E+009	5.715767E-002	-5.657901E-002	3.375612E-001	-1.975149E-001	3.379275E-001	-1.976691E-001	-5.237892E-002	2.160413E-002
1.380000E+009	5.680734E-002	-5.673105E-002	3.367002E-001	-1.986800E-001	3.370740E-001	-1.988863E-001	-5.227114E-002	2.198531E-002
1.390000E+009	5.645618E-002	-5.689280E-002	3.358810E-001	-1.998949E-001	3.362249E-001	-2.000908E-001	-5.222446E-002	2.241358E-002
1.400000E+009	5.607187E-002	-5.703665E-002	3.350537E-001	-2.010874E-001	3.353855E-001	-2.012404E-001	-5.214425E-002	2.280003E-002
1.410000E+009	5.569159E-002	-5.714566E-002	3.342031E-001	-2.022731E-001	3.345250E-001	-2.024352E-001	-5.208530E-002	2.319798E-002
1.420000E+009	5.530581E-002	-5.728644E-002	3.333263E-001	-2.034537E-001	3.337065E-001	-2.036002E-001	-5.203675E-002	2.356761E-002
1.430000E+009	5.497944E-002	-5.740479E-002	3.325109E-001	-2.046269E-001	3.328598E-001	-2.048223E-001	-5.192949E-002	2.392299E-002
1.440000E+009	5.459368E-002	-5.754482E-002	3.316392E-001	-2.058134E-001	3.319952E-001	-2.059589E-001	-5.183167E-002	2.426088E-002
1.450000E+009	5.422439E-002	-5.765594E-002	3.307650E-001	-2.069917E-001	3.311428E-001	-2.071742E-001	-5.173325E-002	2.462113E-002
1.460000E+009	5.382017E-002	-5.774032E-002	3.299053E-001	-2.081523E-001	3.302112E-001	-2.083357E-001	-5.161585E-002	2.498672E-002
1.470000E+009	5.348281E-002	-5.787015E-002	3.290222E-001	-2.093407E-001	3.293658E-001	-2.095020E-001	-5.149782E-002	2.539902E-002
1.480000E+009	5.308190E-002	-5.793137E-002	3.281490E-001	-2.104674E-001	3.284850E-001	-2.106481E-001	-5.138644E-002	2.586842E-002
1.490000E+009	5.269970E-002	-5.803433E-002	3.272666E-001	-2.116283E-001	3.276260E-001	-2.117967E-001	-5.125220E-002	2.628091E-002
1.500000E+009	5.235030E-002	-5.817336E-002	3.264045E-001	-2.127804E-001	3.267327E-001	-2.129481E-001	-5.107263E-002	2.671190E-002
