! Device ID: PE43711P
! File Path: z:\PE43711P\CHAR_NOM_04282014\AMB\3p300\LS_ATT_6p50dB\PE43711P_AMB_3p300V_3p000V_0p000V_LS_ATT_6p50dB_S2P_SN_5_A0137A.s2p
! Serial: 5
! Lot: A0137A
! Temp: 25C
! VDD: 3.300
! VSS: 0.000
! Control_Hi: 3.000
! Control_Lo: 0.000
! Attenuation Step: 6.50dB
! Port 1: RF1
! Port 2: RF2
! ThroughPath:1-2
! IDD: 0.0001279253
! ISS: -1.121e-007
!

#  Hz  S   RI  R   50

1.000000E+007	9.411523E-002	-3.563814E-004	4.176326E-001	-2.163056E-003	4.178852E-001	-2.258125E-003	-6.694906E-002	5.866886E-004
2.000000E+007	9.424098E-002	-6.656399E-004	4.175728E-001	-3.475905E-003	4.175606E-001	-3.521851E-003	-6.671104E-002	9.652680E-004
3.000000E+007	9.450374E-002	-1.215051E-003	4.175790E-001	-5.242837E-003	4.175872E-001	-5.273483E-003	-6.642924E-002	1.243294E-003
4.000000E+007	9.460369E-002	-1.723642E-003	4.175672E-001	-7.017552E-003	4.175604E-001	-7.018218E-003	-6.614473E-002	1.529530E-003
5.000000E+007	9.476326E-002	-2.322726E-003	4.175459E-001	-8.905760E-003	4.176430E-001	-8.849418E-003	-6.602061E-002	1.747391E-003
6.000000E+007	9.494912E-002	-2.981466E-003	4.174295E-001	-1.064493E-002	4.176154E-001	-1.061775E-002	-6.590279E-002	1.839895E-003
7.000000E+007	9.502545E-002	-3.641768E-003	4.173068E-001	-1.236604E-002	4.174841E-001	-1.235824E-002	-6.576624E-002	1.955029E-003
8.000000E+007	9.515589E-002	-4.298214E-003	4.172201E-001	-1.404257E-002	4.174189E-001	-1.405249E-002	-6.565840E-002	2.118452E-003
9.000000E+007	9.525397E-002	-4.932609E-003	4.171261E-001	-1.577687E-002	4.172918E-001	-1.577526E-002	-6.552667E-002	2.211255E-003
1.000000E+008	9.530930E-002	-5.550261E-003	4.170355E-001	-1.751718E-002	4.171590E-001	-1.748750E-002	-6.536592E-002	2.278859E-003
1.100000E+008	9.535145E-002	-6.183950E-003	4.168786E-001	-1.930781E-002	4.170581E-001	-1.922895E-002	-6.529524E-002	2.335866E-003
1.200000E+008	9.542135E-002	-6.834095E-003	4.166603E-001	-2.101998E-002	4.168607E-001	-2.098836E-002	-6.531433E-002	2.395379E-003
1.300000E+008	9.547138E-002	-7.520132E-003	4.165178E-001	-2.271805E-002	4.167177E-001	-2.270861E-002	-6.519579E-002	2.412600E-003
1.400000E+008	9.546485E-002	-8.241798E-003	4.163834E-001	-2.442349E-002	4.165161E-001	-2.445163E-002	-6.491697E-002	2.380261E-003
1.500000E+008	9.538644E-002	-8.914827E-003	4.161992E-001	-2.608089E-002	4.162710E-001	-2.610917E-002	-6.469460E-002	2.394845E-003
1.600000E+008	9.522594E-002	-9.434284E-003	4.160767E-001	-2.774177E-002	4.160903E-001	-2.773866E-002	-6.477026E-002	2.454826E-003
1.700000E+008	9.506782E-002	-9.957641E-003	4.159043E-001	-2.956608E-002	4.161035E-001	-2.942587E-002	-6.503822E-002	2.485909E-003
1.800000E+008	9.486378E-002	-1.056439E-002	4.154697E-001	-3.135294E-002	4.158714E-001	-3.125208E-002	-6.522957E-002	2.474297E-003
1.900000E+008	9.470629E-002	-1.124900E-002	4.151627E-001	-3.298739E-002	4.155721E-001	-3.295452E-002	-6.520129E-002	2.412565E-003
2.000000E+008	9.462400E-002	-1.197822E-002	4.149786E-001	-3.461363E-002	4.153058E-001	-3.459246E-002	-6.499976E-002	2.422069E-003
2.100000E+008	9.454557E-002	-1.274349E-002	4.147695E-001	-3.625626E-002	4.150281E-001	-3.622507E-002	-6.476522E-002	2.412129E-003
2.200000E+008	9.444472E-002	-1.344943E-002	4.145887E-001	-3.785164E-002	4.148117E-001	-3.783900E-002	-6.460613E-002	2.393038E-003
2.300000E+008	9.426450E-002	-1.414732E-002	4.143595E-001	-3.951760E-002	4.145398E-001	-3.949267E-002	-6.449577E-002	2.333392E-003
2.400000E+008	9.407915E-002	-1.483091E-002	4.140979E-001	-4.118758E-002	4.142494E-001	-4.116665E-002	-6.444169E-002	2.262932E-003
2.500000E+008	9.389141E-002	-1.547866E-002	4.137985E-001	-4.287491E-002	4.139809E-001	-4.281414E-002	-6.437249E-002	2.153013E-003
2.600000E+008	9.373137E-002	-1.618943E-002	4.134545E-001	-4.455890E-002	4.137167E-001	-4.449797E-002	-6.424571E-002	2.119149E-003
2.700000E+008	9.358316E-002	-1.684253E-002	4.131253E-001	-4.617611E-002	4.133918E-001	-4.614987E-002	-6.407752E-002	2.144256E-003
2.800000E+008	9.344538E-002	-1.746858E-002	4.128199E-001	-4.776628E-002	4.130808E-001	-4.772173E-002	-6.391308E-002	2.179269E-003
2.900000E+008	9.329255E-002	-1.802035E-002	4.125503E-001	-4.936732E-002	4.127446E-001	-4.929418E-002	-6.382193E-002	2.221228E-003
3.000000E+008	9.315720E-002	-1.855380E-002	4.122822E-001	-5.098903E-002	4.125194E-001	-5.091282E-002	-6.371502E-002	2.313040E-003
3.100000E+008	9.296846E-002	-1.908279E-002	4.119724E-001	-5.261579E-002	4.122196E-001	-5.255793E-002	-6.363620E-002	2.437927E-003
3.200000E+008	9.277603E-002	-1.958982E-002	4.116182E-001	-5.427702E-002	4.119239E-001	-5.420719E-002	-6.358296E-002	2.522456E-003
3.300000E+008	9.251862E-002	-2.010330E-002	4.113236E-001	-5.587399E-002	4.115720E-001	-5.591651E-002	-6.352905E-002	2.584675E-003
3.400000E+008	9.219498E-002	-2.062557E-002	4.109249E-001	-5.749907E-002	4.110704E-001	-5.760721E-002	-6.344548E-002	2.598467E-003
3.500000E+008	9.184108E-002	-2.116441E-002	4.105849E-001	-5.916048E-002	4.106120E-001	-5.910477E-002	-6.334583E-002	2.533335E-003
3.600000E+008	9.153871E-002	-2.167148E-002	4.102085E-001	-6.075247E-002	4.102390E-001	-6.056573E-002	-6.327267E-002	2.563637E-003
3.700000E+008	9.124769E-002	-2.222257E-002	4.097757E-001	-6.227901E-002	4.099257E-001	-6.203861E-002	-6.311375E-002	2.556194E-003
3.800000E+008	9.095262E-002	-2.280416E-002	4.094361E-001	-6.386101E-002	4.096763E-001	-6.369239E-002	-6.296237E-002	2.541554E-003
3.900000E+008	9.063288E-002	-2.338597E-002	4.089966E-001	-6.547982E-002	4.093232E-001	-6.533004E-002	-6.274953E-002	2.579432E-003
4.000000E+008	9.035590E-002	-2.399121E-002	4.085621E-001	-6.696516E-002	4.089428E-001	-6.695941E-002	-6.253821E-002	2.617334E-003
4.100000E+008	9.003778E-002	-2.459066E-002	4.081988E-001	-6.845056E-002	4.085122E-001	-6.852385E-002	-6.233935E-002	2.664371E-003
4.200000E+008	8.969022E-002	-2.515493E-002	4.079024E-001	-6.999920E-002	4.081301E-001	-7.003050E-002	-6.219823E-002	2.769125E-003
4.300000E+008	8.941395E-002	-2.566540E-002	4.075089E-001	-7.158835E-002	4.077368E-001	-7.161025E-002	-6.205683E-002	2.885050E-003
4.400000E+008	8.917167E-002	-2.615672E-002	4.071294E-001	-7.316245E-002	4.073599E-001	-7.315529E-002	-6.194017E-002	3.079858E-003
4.500000E+008	8.889680E-002	-2.666274E-002	4.067253E-001	-7.473340E-002	4.069674E-001	-7.473949E-002	-6.182370E-002	3.246405E-003
4.600000E+008	8.863724E-002	-2.716581E-002	4.062702E-001	-7.632001E-002	4.065234E-001	-7.631953E-002	-6.172987E-002	3.457979E-003
4.700000E+008	8.834124E-002	-2.765150E-002	4.058399E-001	-7.784102E-002	4.060458E-001	-7.784950E-002	-6.165894E-002	3.624156E-003
4.800000E+008	8.800074E-002	-2.808137E-002	4.054060E-001	-7.934044E-002	4.056073E-001	-7.933265E-002	-6.161545E-002	3.794285E-003
4.900000E+008	8.764862E-002	-2.852795E-002	4.049805E-001	-8.085392E-002	4.051507E-001	-8.086555E-002	-6.156955E-002	3.951171E-003
5.000000E+008	8.730938E-002	-2.894781E-002	4.045503E-001	-8.240198E-002	4.047395E-001	-8.235049E-002	-6.151320E-002	4.092744E-003
5.100000E+008	8.700363E-002	-2.942929E-002	4.041241E-001	-8.390797E-002	4.043489E-001	-8.386529E-002	-6.139352E-002	4.197199E-003
5.200000E+008	8.666120E-002	-2.995097E-002	4.036747E-001	-8.545038E-002	4.039292E-001	-8.542648E-002	-6.130184E-002	4.298351E-003
5.300000E+008	8.630897E-002	-3.044758E-002	4.031999E-001	-8.700549E-002	4.034850E-001	-8.699391E-002	-6.110258E-002	4.387541E-003
5.400000E+008	8.594543E-002	-3.100375E-002	4.027398E-001	-8.852487E-002	4.030079E-001	-8.853094E-002	-6.095940E-002	4.468877E-003
5.500000E+008	8.558101E-002	-3.145587E-002	4.022799E-001	-9.003257E-002	4.024957E-001	-9.002710E-002	-6.084345E-002	4.619003E-003
5.600000E+008	8.521338E-002	-3.193518E-002	4.017825E-001	-9.151507E-002	4.019891E-001	-9.153245E-002	-6.072315E-002	4.776040E-003
5.700000E+008	8.489445E-002	-3.243424E-002	4.012953E-001	-9.298611E-002	4.015449E-001	-9.300634E-002	-6.068368E-002	5.004227E-003
5.800000E+008	8.458293E-002	-3.286864E-002	4.008252E-001	-9.447729E-002	4.010926E-001	-9.449605E-002	-6.062412E-002	5.172210E-003
5.900000E+008	8.425746E-002	-3.337540E-002	4.003056E-001	-9.600408E-002	4.006268E-001	-9.605095E-002	-6.059863E-002	5.393519E-003
6.000000E+008	8.397117E-002	-3.385232E-002	3.998394E-001	-9.749036E-002	4.001264E-001	-9.754608E-002	-6.049637E-002	5.542183E-003
6.100000E+008	8.368865E-002	-3.432054E-002	3.993288E-001	-9.894491E-002	3.995620E-001	-9.902569E-002	-6.047199E-002	5.711366E-003
6.200000E+008	8.343608E-002	-3.475645E-002	3.987975E-001	-1.004149E-001	3.990836E-001	-1.004820E-001	-6.039939E-002	5.872215E-003
6.300000E+008	8.319043E-002	-3.518327E-002	3.982810E-001	-1.018966E-001	3.985548E-001	-1.019283E-001	-6.034013E-002	6.030021E-003
6.400000E+008	8.294266E-002	-3.561003E-002	3.977757E-001	-1.033599E-001	3.980156E-001	-1.034216E-001	-6.025546E-002	6.205465E-003
6.500000E+008	8.269260E-002	-3.599578E-002	3.972852E-001	-1.047895E-001	3.975529E-001	-1.048576E-001	-6.017681E-002	6.438057E-003
6.600000E+008	8.238423E-002	-3.640519E-002	3.967938E-001	-1.062815E-001	3.969973E-001	-1.063359E-001	-6.008471E-002	6.610285E-003
6.700000E+008	8.201440E-002	-3.674687E-002	3.962366E-001	-1.077533E-001	3.964689E-001	-1.077988E-001	-6.004715E-002	6.838961E-003
6.800000E+008	8.163863E-002	-3.710176E-002	3.957116E-001	-1.092042E-001	3.959419E-001	-1.092622E-001	-6.000738E-002	7.070526E-003
6.900000E+008	8.124565E-002	-3.744465E-002	3.951405E-001	-1.106430E-001	3.953608E-001	-1.106706E-001	-5.997011E-002	7.329842E-003
7.000000E+008	8.089905E-002	-3.780278E-002	3.945971E-001	-1.120687E-001	3.948518E-001	-1.120816E-001	-5.997580E-002	7.561828E-003
7.100000E+008	8.054888E-002	-3.820484E-002	3.940721E-001	-1.134776E-001	3.943414E-001	-1.135525E-001	-5.997763E-002	7.764657E-003
7.200000E+008	8.017356E-002	-3.859093E-002	3.935385E-001	-1.149113E-001	3.937890E-001	-1.149972E-001	-5.995197E-002	7.903088E-003
7.300000E+008	7.979439E-002	-3.900420E-002	3.929500E-001	-1.163567E-001	3.932716E-001	-1.164510E-001	-5.999378E-002	8.055251E-003
7.400000E+008	7.940153E-002	-3.936653E-002	3.923937E-001	-1.177871E-001	3.927229E-001	-1.178611E-001	-5.998354E-002	8.176432E-003
7.500000E+008	7.906601E-002	-3.976502E-002	3.918458E-001	-1.192229E-001	3.921570E-001	-1.193211E-001	-6.001014E-002	8.310688E-003
7.600000E+008	7.867714E-002	-4.016755E-002	3.912634E-001	-1.206529E-001	3.915786E-001	-1.207443E-001	-5.997922E-002	8.424097E-003
7.700000E+008	7.829945E-002	-4.058022E-002	3.906964E-001	-1.220626E-001	3.910202E-001	-1.221588E-001	-5.994462E-002	8.506460E-003
7.800000E+008	7.791005E-002	-4.096624E-002	3.901354E-001	-1.234797E-001	3.904756E-001	-1.235948E-001	-5.991342E-002	8.626728E-003
7.900000E+008	7.753621E-002	-4.140172E-002	3.895745E-001	-1.248934E-001	3.898944E-001	-1.250337E-001	-5.991415E-002	8.757232E-003
8.000000E+008	7.717010E-002	-4.182666E-002	3.889808E-001	-1.263093E-001	3.892525E-001	-1.264145E-001	-5.986592E-002	8.909318E-003
8.100000E+008	7.682215E-002	-4.224488E-002	3.883740E-001	-1.276834E-001	3.886435E-001	-1.278254E-001	-5.978286E-002	9.077641E-003
8.200000E+008	7.650016E-002	-4.263710E-002	3.877879E-001	-1.291341E-001	3.880610E-001	-1.291905E-001	-5.970975E-002	9.256448E-003
8.300000E+008	7.621737E-002	-4.303253E-002	3.871658E-001	-1.305131E-001	3.874953E-001	-1.306015E-001	-5.966101E-002	9.424433E-003
8.400000E+008	7.591808E-002	-4.338564E-002	3.865907E-001	-1.318822E-001	3.868840E-001	-1.320074E-001	-5.959671E-002	9.595365E-003
8.500000E+008	7.563801E-002	-4.374133E-002	3.859923E-001	-1.332841E-001	3.863105E-001	-1.334091E-001	-5.958839E-002	9.779524E-003
8.600000E+008	7.531711E-002	-4.407859E-002	3.853873E-001	-1.346665E-001	3.856307E-001	-1.347753E-001	-5.957077E-002	9.969220E-003
8.700000E+008	7.499124E-002	-4.438592E-002	3.847852E-001	-1.360547E-001	3.850281E-001	-1.361641E-001	-5.954516E-002	1.014645E-002
8.800000E+008	7.464848E-002	-4.465091E-002	3.841712E-001	-1.374695E-001	3.844644E-001	-1.375334E-001	-5.957050E-002	1.029867E-002
8.900000E+008	7.426675E-002	-4.497370E-002	3.835274E-001	-1.388260E-001	3.838362E-001	-1.389515E-001	-5.955594E-002	1.045819E-002
9.000000E+008	7.387791E-002	-4.527019E-002	3.828883E-001	-1.402045E-001	3.832254E-001	-1.403288E-001	-5.951309E-002	1.063773E-002
9.100000E+008	7.347475E-002	-4.559465E-002	3.822465E-001	-1.415914E-001	3.826063E-001	-1.417013E-001	-5.943704E-002	1.076874E-002
9.200000E+008	7.308299E-002	-4.592803E-002	3.816337E-001	-1.429359E-001	3.819713E-001	-1.431002E-001	-5.931711E-002	1.091211E-002
9.300000E+008	7.270986E-002	-4.625117E-002	3.810011E-001	-1.443148E-001	3.812766E-001	-1.444869E-001	-5.921003E-002	1.106456E-002
9.400000E+008	7.235243E-002	-4.658304E-002	3.803341E-001	-1.456555E-001	3.806957E-001	-1.458135E-001	-5.906457E-002	1.126188E-002
9.500000E+008	7.199225E-002	-4.691628E-002	3.797315E-001	-1.470503E-001	3.800280E-001	-1.472116E-001	-5.889862E-002	1.147747E-002
9.600000E+008	7.164038E-002	-4.720245E-002	3.790542E-001	-1.484014E-001	3.793891E-001	-1.485207E-001	-5.872187E-002	1.171080E-002
9.700000E+008	7.135237E-002	-4.748557E-002	3.783914E-001	-1.497154E-001	3.787440E-001	-1.498925E-001	-5.855423E-002	1.194399E-002
9.800000E+008	7.104307E-002	-4.776368E-002	3.777710E-001	-1.510647E-001	3.780770E-001	-1.512593E-001	-5.843782E-002	1.220714E-002
9.900000E+008	7.073337E-002	-4.804364E-002	3.771325E-001	-1.524166E-001	3.774284E-001	-1.526128E-001	-5.833469E-002	1.245175E-002
1.000000E+009	7.040496E-002	-4.828024E-002	3.764815E-001	-1.537519E-001	3.767389E-001	-1.539468E-001	-5.830250E-002	1.273376E-002
1.010000E+009	7.003339E-002	-4.847588E-002	3.758235E-001	-1.551281E-001	3.760907E-001	-1.552653E-001	-5.825615E-002	1.300895E-002
1.020000E+009	6.966076E-002	-4.871921E-002	3.751418E-001	-1.564677E-001	3.754053E-001	-1.566230E-001	-5.820837E-002	1.329784E-002
1.030000E+009	6.929773E-002	-4.892222E-002	3.744143E-001	-1.577916E-001	3.747324E-001	-1.579549E-001	-5.815545E-002	1.357758E-002
1.040000E+009	6.892956E-002	-4.913848E-002	3.737445E-001	-1.591134E-001	3.740707E-001	-1.592816E-001	-5.811593E-002	1.385651E-002
1.050000E+009	6.853439E-002	-4.941692E-002	3.730924E-001	-1.604420E-001	3.734045E-001	-1.605956E-001	-5.803683E-002	1.409666E-002
1.060000E+009	6.816784E-002	-4.967368E-002	3.724136E-001	-1.617693E-001	3.727136E-001	-1.618927E-001	-5.796539E-002	1.434879E-002
1.070000E+009	6.776801E-002	-4.992456E-002	3.716977E-001	-1.630857E-001	3.720246E-001	-1.632013E-001	-5.789713E-002	1.458166E-002
1.080000E+009	6.744185E-002	-5.017245E-002	3.710166E-001	-1.644336E-001	3.713687E-001	-1.645679E-001	-5.780149E-002	1.487030E-002
1.090000E+009	6.709271E-002	-5.043197E-002	3.703153E-001	-1.657579E-001	3.706940E-001	-1.658854E-001	-5.771150E-002	1.511673E-002
1.100000E+009	6.677168E-002	-5.066135E-002	3.695644E-001	-1.670869E-001	3.699499E-001	-1.671912E-001	-5.764050E-002	1.541383E-002
1.110000E+009	6.643812E-002	-5.090151E-002	3.688788E-001	-1.683745E-001	3.692561E-001	-1.685000E-001	-5.757375E-002	1.564790E-002
1.120000E+009	6.606328E-002	-5.110483E-002	3.681801E-001	-1.696827E-001	3.685401E-001	-1.698548E-001	-5.756127E-002	1.589667E-002
1.130000E+009	6.570222E-002	-5.133552E-002	3.674558E-001	-1.709814E-001	3.678071E-001	-1.711535E-001	-5.752766E-002	1.613542E-002
1.140000E+009	6.528920E-002	-5.154954E-002	3.667492E-001	-1.723102E-001	3.671141E-001	-1.724582E-001	-5.748219E-002	1.642533E-002
1.150000E+009	6.491284E-002	-5.176083E-002	3.660143E-001	-1.736163E-001	3.663373E-001	-1.737586E-001	-5.743947E-002	1.667336E-002
1.160000E+009	6.455792E-002	-5.197383E-002	3.652803E-001	-1.749072E-001	3.656473E-001	-1.750727E-001	-5.738234E-002	1.691852E-002
1.170000E+009	6.415332E-002	-5.220854E-002	3.645175E-001	-1.762131E-001	3.648858E-001	-1.763377E-001	-5.729546E-002	1.720537E-002
1.180000E+009	6.381939E-002	-5.247577E-002	3.637679E-001	-1.774938E-001	3.641577E-001	-1.776454E-001	-5.720259E-002	1.746465E-002
1.190000E+009	6.341632E-002	-5.267973E-002	3.630234E-001	-1.788170E-001	3.633449E-001	-1.789407E-001	-5.712719E-002	1.773963E-002
1.200000E+009	6.304198E-002	-5.292007E-002	3.622979E-001	-1.800819E-001	3.626255E-001	-1.802164E-001	-5.702886E-002	1.804508E-002
1.210000E+009	6.272928E-002	-5.316876E-002	3.615174E-001	-1.813526E-001	3.618345E-001	-1.815203E-001	-5.695237E-002	1.834015E-002
1.220000E+009	6.237810E-002	-5.339806E-002	3.607507E-001	-1.826276E-001	3.611106E-001	-1.827820E-001	-5.688675E-002	1.863365E-002
1.230000E+009	6.203339E-002	-5.360798E-002	3.599758E-001	-1.839204E-001	3.603370E-001	-1.840748E-001	-5.684782E-002	1.890623E-002
1.240000E+009	6.168145E-002	-5.386714E-002	3.592236E-001	-1.851948E-001	3.595508E-001	-1.853238E-001	-5.683272E-002	1.916694E-002
1.250000E+009	6.133758E-002	-5.407654E-002	3.584366E-001	-1.864814E-001	3.588110E-001	-1.865958E-001	-5.678988E-002	1.943560E-002
1.260000E+009	6.094252E-002	-5.428044E-002	3.576307E-001	-1.877308E-001	3.580081E-001	-1.879003E-001	-5.677001E-002	1.964331E-002
1.270000E+009	6.064895E-002	-5.450706E-002	3.568843E-001	-1.889948E-001	3.572072E-001	-1.891195E-001	-5.668939E-002	1.986727E-002
1.280000E+009	6.026506E-002	-5.468874E-002	3.561156E-001	-1.902726E-001	3.564515E-001	-1.903737E-001	-5.662909E-002	2.007172E-002
1.290000E+009	5.992467E-002	-5.487045E-002	3.553005E-001	-1.915753E-001	3.556606E-001	-1.916733E-001	-5.649682E-002	2.027242E-002
1.300000E+009	5.960893E-002	-5.502846E-002	3.544940E-001	-1.927847E-001	3.548988E-001	-1.929318E-001	-5.631118E-002	2.050146E-002
1.310000E+009	5.925666E-002	-5.519589E-002	3.536763E-001	-1.940399E-001	3.540453E-001	-1.942022E-001	-5.617406E-002	2.075297E-002
1.320000E+009	5.889039E-002	-5.534451E-002	3.528726E-001	-1.952947E-001	3.532893E-001	-1.954520E-001	-5.596641E-002	2.106505E-002
1.330000E+009	5.854983E-002	-5.543833E-002	3.520798E-001	-1.965297E-001	3.524459E-001	-1.967389E-001	-5.574098E-002	2.140851E-002
1.340000E+009	5.819124E-002	-5.553652E-002	3.512333E-001	-1.977580E-001	3.516051E-001	-1.979673E-001	-5.556585E-002	2.181917E-002
1.350000E+009	5.780597E-002	-5.566116E-002	3.504250E-001	-1.990214E-001	3.507448E-001	-1.992038E-001	-5.536519E-002	2.224013E-002
1.360000E+009	5.747944E-002	-5.579179E-002	3.495784E-001	-2.002492E-001	3.499645E-001	-2.004225E-001	-5.519208E-002	2.268641E-002
1.370000E+009	5.712375E-002	-5.590749E-002	3.487702E-001	-2.014786E-001	3.491189E-001	-2.016500E-001	-5.508521E-002	2.311521E-002
1.380000E+009	5.676094E-002	-5.606228E-002	3.479163E-001	-2.027051E-001	3.482753E-001	-2.028687E-001	-5.496970E-002	2.353324E-002
1.390000E+009	5.640525E-002	-5.621597E-002	3.470760E-001	-2.039288E-001	3.474382E-001	-2.041270E-001	-5.493029E-002	2.396010E-002
1.400000E+009	5.603817E-002	-5.634750E-002	3.462404E-001	-2.051454E-001	3.465809E-001	-2.052998E-001	-5.486291E-002	2.437659E-002
1.410000E+009	5.564551E-002	-5.646105E-002	3.453824E-001	-2.063740E-001	3.457124E-001	-2.065393E-001	-5.478752E-002	2.479704E-002
1.420000E+009	5.530334E-002	-5.659274E-002	3.444829E-001	-2.075521E-001	3.448537E-001	-2.077197E-001	-5.473134E-002	2.518335E-002
1.430000E+009	5.497525E-002	-5.671084E-002	3.436649E-001	-2.087397E-001	3.440246E-001	-2.089655E-001	-5.462803E-002	2.553412E-002
1.440000E+009	5.458244E-002	-5.683141E-002	3.427881E-001	-2.099440E-001	3.431523E-001	-2.101398E-001	-5.452883E-002	2.589426E-002
1.450000E+009	5.422266E-002	-5.692507E-002	3.418891E-001	-2.111492E-001	3.422883E-001	-2.113306E-001	-5.442485E-002	2.627892E-002
1.460000E+009	5.382345E-002	-5.702207E-002	3.410350E-001	-2.123829E-001	3.413679E-001	-2.125647E-001	-5.429155E-002	2.666149E-002
1.470000E+009	5.346337E-002	-5.713060E-002	3.401521E-001	-2.135591E-001	3.404988E-001	-2.137229E-001	-5.418617E-002	2.709058E-002
1.480000E+009	5.307233E-002	-5.720006E-002	3.392383E-001	-2.146888E-001	3.395931E-001	-2.149017E-001	-5.406939E-002	2.755850E-002
1.490000E+009	5.273666E-002	-5.731132E-002	3.383805E-001	-2.158986E-001	3.387116E-001	-2.160600E-001	-5.392165E-002	2.801024E-002
1.500000E+009	5.236901E-002	-5.740769E-002	3.374935E-001	-2.170706E-001	3.378340E-001	-2.172388E-001	-5.376492E-002	2.846135E-002
