! Device ID: PE43711P
! File Path: z:\PE43711P\CHAR_NOM_04282014\AMB\3p300\LS_ATT_5p50dB\PE43711P_AMB_3p300V_3p000V_0p000V_LS_ATT_5p50dB_S2P_SN_5_A0137A.s2p
! Serial: 5
! Lot: A0137A
! Temp: 25C
! VDD: 3.300
! VSS: 0.000
! Control_Hi: 3.000
! Control_Lo: 0.000
! Attenuation Step: 5.50dB
! Port 1: RF1
! Port 2: RF2
! ThroughPath:1-2
! IDD: 0.0001278863
! ISS: -1.719e-007
!

#  Hz  S   RI  R   50

1.000000E+007	9.486577E-002	-4.068195E-004	4.699224E-001	-2.415100E-003	4.699815E-001	-2.548447E-003	-6.862255E-002	5.177494E-004
2.000000E+007	9.497412E-002	-6.875427E-004	4.698489E-001	-3.899581E-003	4.698041E-001	-3.948870E-003	-6.843992E-002	9.016348E-004
3.000000E+007	9.525854E-002	-1.251655E-003	4.698526E-001	-5.889029E-003	4.698376E-001	-5.914167E-003	-6.814566E-002	1.157990E-003
4.000000E+007	9.534908E-002	-1.779487E-003	4.698372E-001	-7.852134E-003	4.697935E-001	-7.891296E-003	-6.782171E-002	1.426904E-003
5.000000E+007	9.552619E-002	-2.407824E-003	4.698164E-001	-9.995615E-003	4.698418E-001	-9.950993E-003	-6.768886E-002	1.590701E-003
6.000000E+007	9.573474E-002	-3.081567E-003	4.696828E-001	-1.193763E-002	4.698005E-001	-1.191742E-002	-6.754778E-002	1.636188E-003
7.000000E+007	9.582124E-002	-3.778488E-003	4.695451E-001	-1.387722E-002	4.696645E-001	-1.388080E-002	-6.743478E-002	1.705809E-003
8.000000E+007	9.595417E-002	-4.468415E-003	4.694408E-001	-1.575975E-002	4.695539E-001	-1.575914E-002	-6.733670E-002	1.813249E-003
9.000000E+007	9.603098E-002	-5.127637E-003	4.693280E-001	-1.768246E-002	4.694054E-001	-1.769071E-002	-6.720156E-002	1.863450E-003
1.000000E+008	9.609341E-002	-5.773077E-003	4.692506E-001	-1.967030E-002	4.692565E-001	-1.964265E-002	-6.704643E-002	1.895613E-003
1.100000E+008	9.615923E-002	-6.406612E-003	4.690710E-001	-2.166022E-002	4.691366E-001	-2.157422E-002	-6.696725E-002	1.922056E-003
1.200000E+008	9.623902E-002	-7.093055E-003	4.688074E-001	-2.357732E-002	4.689397E-001	-2.355549E-002	-6.701342E-002	1.935602E-003
1.300000E+008	9.630700E-002	-7.810328E-003	4.686501E-001	-2.547905E-002	4.687634E-001	-2.548677E-002	-6.690225E-002	1.885799E-003
1.400000E+008	9.629668E-002	-8.592793E-003	4.684939E-001	-2.742127E-002	4.685494E-001	-2.742493E-002	-6.656993E-002	1.801074E-003
1.500000E+008	9.618625E-002	-9.307059E-003	4.682981E-001	-2.928057E-002	4.682706E-001	-2.928181E-002	-6.631380E-002	1.763231E-003
1.600000E+008	9.601252E-002	-9.842165E-003	4.681351E-001	-3.113576E-002	4.680536E-001	-3.109924E-002	-6.643252E-002	1.815596E-003
1.700000E+008	9.581076E-002	-1.036603E-002	4.679421E-001	-3.318182E-002	4.680980E-001	-3.301864E-002	-6.678248E-002	1.799744E-003
1.800000E+008	9.558810E-002	-1.097256E-002	4.674707E-001	-3.518565E-002	4.678511E-001	-3.507320E-002	-6.704924E-002	1.732103E-003
1.900000E+008	9.543330E-002	-1.169361E-002	4.671257E-001	-3.700093E-002	4.675023E-001	-3.694619E-002	-6.703526E-002	1.643434E-003
2.000000E+008	9.537149E-002	-1.247227E-002	4.669106E-001	-3.883232E-002	4.671841E-001	-3.880506E-002	-6.679390E-002	1.616906E-003
2.100000E+008	9.531827E-002	-1.330327E-002	4.666911E-001	-4.066308E-002	4.668954E-001	-4.063539E-002	-6.651516E-002	1.571756E-003
2.200000E+008	9.522110E-002	-1.405255E-002	4.664725E-001	-4.246078E-002	4.666239E-001	-4.247202E-002	-6.633469E-002	1.531860E-003
2.300000E+008	9.503186E-002	-1.476674E-002	4.662076E-001	-4.433543E-002	4.663251E-001	-4.430333E-002	-6.625605E-002	1.444671E-003
2.400000E+008	9.483877E-002	-1.548323E-002	4.659017E-001	-4.620064E-002	4.660035E-001	-4.616072E-002	-6.620794E-002	1.332722E-003
2.500000E+008	9.462831E-002	-1.618614E-002	4.655714E-001	-4.810219E-002	4.656990E-001	-4.803495E-002	-6.617995E-002	1.168359E-003
2.600000E+008	9.444228E-002	-1.691946E-002	4.652034E-001	-4.998708E-002	4.653903E-001	-4.990889E-002	-6.608156E-002	1.093605E-003
2.700000E+008	9.429606E-002	-1.760392E-002	4.648102E-001	-5.180588E-002	4.650578E-001	-5.175672E-002	-6.593213E-002	1.064635E-003
2.800000E+008	9.416604E-002	-1.825939E-002	4.644700E-001	-5.358773E-002	4.646894E-001	-5.353217E-002	-6.577281E-002	1.058136E-003
2.900000E+008	9.397312E-002	-1.883346E-002	4.641587E-001	-5.536590E-002	4.643240E-001	-5.529939E-002	-6.569299E-002	1.071887E-003
3.000000E+008	9.383202E-002	-1.938005E-002	4.638559E-001	-5.721437E-002	4.640737E-001	-5.710622E-002	-6.560825E-002	1.147361E-003
3.100000E+008	9.364644E-002	-1.992490E-002	4.635010E-001	-5.903219E-002	4.637408E-001	-5.894618E-002	-6.552532E-002	1.217937E-003
3.200000E+008	9.344923E-002	-2.047094E-002	4.631129E-001	-6.087845E-002	4.633798E-001	-6.080962E-002	-6.549413E-002	1.275665E-003
3.300000E+008	9.318516E-002	-2.100006E-002	4.627739E-001	-6.268792E-002	4.630025E-001	-6.272753E-002	-6.544718E-002	1.314460E-003
3.400000E+008	9.284213E-002	-2.154130E-002	4.623306E-001	-6.449560E-002	4.624386E-001	-6.460298E-002	-6.538830E-002	1.294667E-003
3.500000E+008	9.247711E-002	-2.211031E-002	4.619616E-001	-6.634468E-002	4.618936E-001	-6.627684E-002	-6.532585E-002	1.193597E-003
3.600000E+008	9.215714E-002	-2.262643E-002	4.615187E-001	-6.814489E-002	4.614682E-001	-6.792843E-002	-6.525078E-002	1.197740E-003
3.700000E+008	9.185785E-002	-2.321640E-002	4.610385E-001	-6.985582E-002	4.611451E-001	-6.957428E-002	-6.509705E-002	1.161265E-003
3.800000E+008	9.153897E-002	-2.379679E-002	4.606789E-001	-7.162201E-002	4.608637E-001	-7.142232E-002	-6.496754E-002	1.142701E-003
3.900000E+008	9.119995E-002	-2.440925E-002	4.601837E-001	-7.344598E-002	4.604765E-001	-7.323906E-002	-6.476041E-002	1.125332E-003
4.000000E+008	9.091975E-002	-2.504569E-002	4.596906E-001	-7.508718E-002	4.600517E-001	-7.510205E-002	-6.456360E-002	1.119218E-003
4.100000E+008	9.056278E-002	-2.565434E-002	4.592819E-001	-7.674355E-002	4.595834E-001	-7.685132E-002	-6.439522E-002	1.126519E-003
4.200000E+008	9.017058E-002	-2.623118E-002	4.589291E-001	-7.850142E-002	4.591365E-001	-7.852346E-002	-6.427980E-002	1.202564E-003
4.300000E+008	8.988153E-002	-2.676562E-002	4.585031E-001	-8.029020E-002	4.586910E-001	-8.029382E-002	-6.415499E-002	1.276969E-003
4.400000E+008	8.962995E-002	-2.727652E-002	4.580667E-001	-8.206073E-002	4.582782E-001	-8.203959E-002	-6.407103E-002	1.435268E-003
4.500000E+008	8.937018E-002	-2.780406E-002	4.576065E-001	-8.381488E-002	4.578398E-001	-8.379073E-002	-6.396519E-002	1.581685E-003
4.600000E+008	8.908722E-002	-2.833672E-002	4.571230E-001	-8.559053E-002	4.573454E-001	-8.557400E-002	-6.389597E-002	1.768191E-003
4.700000E+008	8.877125E-002	-2.881570E-002	4.566229E-001	-8.729001E-002	4.568114E-001	-8.728414E-002	-6.384965E-002	1.901293E-003
4.800000E+008	8.840695E-002	-2.926922E-002	4.561596E-001	-8.895096E-002	4.563113E-001	-8.894913E-002	-6.382979E-002	2.048565E-003
4.900000E+008	8.804446E-002	-2.972845E-002	4.556757E-001	-9.067284E-002	4.557940E-001	-9.067397E-002	-6.383967E-002	2.196053E-003
5.000000E+008	8.767606E-002	-3.016004E-002	4.551791E-001	-9.238553E-002	4.553248E-001	-9.234197E-002	-6.379155E-002	2.302931E-003
5.100000E+008	8.734675E-002	-3.065802E-002	4.547004E-001	-9.408091E-002	4.549018E-001	-9.402515E-002	-6.370075E-002	2.386312E-003
5.200000E+008	8.696747E-002	-3.118219E-002	4.542048E-001	-9.581740E-002	4.544122E-001	-9.576679E-002	-6.359818E-002	2.458748E-003
5.300000E+008	8.661486E-002	-3.172110E-002	4.536917E-001	-9.752880E-002	4.539309E-001	-9.752883E-002	-6.343267E-002	2.526695E-003
5.400000E+008	8.621414E-002	-3.230304E-002	4.531323E-001	-9.924496E-002	4.533950E-001	-9.926071E-002	-6.331463E-002	2.559249E-003
5.500000E+008	8.583365E-002	-3.274491E-002	4.526330E-001	-1.009427E-001	4.528251E-001	-1.009375E-001	-6.324332E-002	2.688663E-003
5.600000E+008	8.546423E-002	-3.325544E-002	4.520887E-001	-1.026049E-001	4.522397E-001	-1.026039E-001	-6.313567E-002	2.821273E-003
5.700000E+008	8.512318E-002	-3.373426E-002	4.515346E-001	-1.042261E-001	4.517723E-001	-1.042530E-001	-6.312359E-002	3.007618E-003
5.800000E+008	8.479861E-002	-3.417892E-002	4.510083E-001	-1.059127E-001	4.512724E-001	-1.059558E-001	-6.310346E-002	3.176852E-003
5.900000E+008	8.444957E-002	-3.469170E-002	4.504429E-001	-1.076239E-001	4.507501E-001	-1.076804E-001	-6.309320E-002	3.365929E-003
6.000000E+008	8.413973E-002	-3.519111E-002	4.498883E-001	-1.093042E-001	4.501882E-001	-1.093472E-001	-6.303638E-002	3.463099E-003
6.100000E+008	8.385279E-002	-3.566771E-002	4.493523E-001	-1.109602E-001	4.495558E-001	-1.110041E-001	-6.304204E-002	3.616413E-003
6.200000E+008	8.356395E-002	-3.613086E-002	4.487670E-001	-1.125749E-001	4.489969E-001	-1.126241E-001	-6.301693E-002	3.751533E-003
6.300000E+008	8.329762E-002	-3.656994E-002	4.481614E-001	-1.142127E-001	4.484053E-001	-1.142827E-001	-6.296773E-002	3.892132E-003
6.400000E+008	8.305023E-002	-3.700805E-002	4.475930E-001	-1.158514E-001	4.478529E-001	-1.159101E-001	-6.289201E-002	4.052858E-003
6.500000E+008	8.277162E-002	-3.740526E-002	4.470329E-001	-1.174563E-001	4.472903E-001	-1.175212E-001	-6.284881E-002	4.237548E-003
6.600000E+008	8.244050E-002	-3.783410E-002	4.464782E-001	-1.191237E-001	4.466940E-001	-1.192189E-001	-6.276896E-002	4.416657E-003
6.700000E+008	8.206432E-002	-3.818462E-002	4.458943E-001	-1.207864E-001	4.460961E-001	-1.208362E-001	-6.279964E-002	4.592874E-003
6.800000E+008	8.166463E-002	-3.855625E-002	4.452971E-001	-1.223940E-001	4.455105E-001	-1.224692E-001	-6.278048E-002	4.848926E-003
6.900000E+008	8.123589E-002	-3.889444E-002	4.446533E-001	-1.240390E-001	4.448470E-001	-1.240585E-001	-6.279514E-002	5.098389E-003
7.000000E+008	8.087604E-002	-3.926765E-002	4.440707E-001	-1.256254E-001	4.442919E-001	-1.256368E-001	-6.282597E-002	5.286587E-003
7.100000E+008	8.050843E-002	-3.967531E-002	4.434639E-001	-1.272208E-001	4.436912E-001	-1.272740E-001	-6.285046E-002	5.451441E-003
7.200000E+008	8.010688E-002	-4.009292E-002	4.428708E-001	-1.288053E-001	4.430990E-001	-1.289000E-001	-6.285274E-002	5.584944E-003
7.300000E+008	7.972386E-002	-4.052164E-002	4.422118E-001	-1.304338E-001	4.425031E-001	-1.305463E-001	-6.292816E-002	5.676052E-003
7.400000E+008	7.928928E-002	-4.088111E-002	4.415909E-001	-1.320289E-001	4.418803E-001	-1.321050E-001	-6.296313E-002	5.796249E-003
7.500000E+008	7.893003E-002	-4.128187E-002	4.409680E-001	-1.336336E-001	4.412574E-001	-1.337401E-001	-6.299742E-002	5.896542E-003
7.600000E+008	7.853157E-002	-4.169336E-002	4.403317E-001	-1.352477E-001	4.406146E-001	-1.353236E-001	-6.301977E-002	6.002802E-003
7.700000E+008	7.812309E-002	-4.212887E-002	4.396982E-001	-1.368306E-001	4.400077E-001	-1.369030E-001	-6.301580E-002	6.053268E-003
7.800000E+008	7.770292E-002	-4.252868E-002	4.390663E-001	-1.384073E-001	4.393738E-001	-1.384965E-001	-6.302447E-002	6.154328E-003
7.900000E+008	7.730564E-002	-4.299298E-002	4.384294E-001	-1.399910E-001	4.387417E-001	-1.401208E-001	-6.305508E-002	6.264047E-003
8.000000E+008	7.689912E-002	-4.339315E-002	4.377538E-001	-1.415476E-001	4.380319E-001	-1.416594E-001	-6.303101E-002	6.397055E-003
8.100000E+008	7.653437E-002	-4.382847E-002	4.370843E-001	-1.431170E-001	4.373576E-001	-1.432497E-001	-6.298686E-002	6.559805E-003
8.200000E+008	7.618541E-002	-4.421247E-002	4.364450E-001	-1.447186E-001	4.366967E-001	-1.447827E-001	-6.296618E-002	6.703358E-003
8.300000E+008	7.588228E-002	-4.464295E-002	4.357450E-001	-1.462652E-001	4.360652E-001	-1.463709E-001	-6.293021E-002	6.861759E-003
8.400000E+008	7.555775E-002	-4.499391E-002	4.350869E-001	-1.478009E-001	4.353883E-001	-1.479248E-001	-6.292853E-002	7.021845E-003
8.500000E+008	7.526974E-002	-4.535137E-002	4.344509E-001	-1.493858E-001	4.347178E-001	-1.495039E-001	-6.295912E-002	7.171604E-003
8.600000E+008	7.490881E-002	-4.571319E-002	4.337297E-001	-1.509229E-001	4.340033E-001	-1.510423E-001	-6.296664E-002	7.356127E-003
8.700000E+008	7.457476E-002	-4.600097E-002	4.330850E-001	-1.524800E-001	4.333200E-001	-1.525867E-001	-6.300299E-002	7.503094E-003
8.800000E+008	7.417199E-002	-4.629690E-002	4.323970E-001	-1.540575E-001	4.326506E-001	-1.541137E-001	-6.305595E-002	7.660223E-003
8.900000E+008	7.377233E-002	-4.662383E-002	4.316966E-001	-1.555915E-001	4.319606E-001	-1.556868E-001	-6.307935E-002	7.792380E-003
9.000000E+008	7.335600E-002	-4.693103E-002	4.309480E-001	-1.571387E-001	4.313027E-001	-1.572331E-001	-6.307412E-002	7.971145E-003
9.100000E+008	7.293619E-002	-4.726947E-002	4.302506E-001	-1.586834E-001	4.305947E-001	-1.587942E-001	-6.302123E-002	8.076996E-003
9.200000E+008	7.251159E-002	-4.760343E-002	4.295618E-001	-1.602168E-001	4.298851E-001	-1.603381E-001	-6.295513E-002	8.200456E-003
9.300000E+008	7.211739E-002	-4.793442E-002	4.288552E-001	-1.617232E-001	4.291410E-001	-1.618891E-001	-6.286089E-002	8.323446E-003
9.400000E+008	7.171591E-002	-4.827355E-002	4.281420E-001	-1.632416E-001	4.284736E-001	-1.633908E-001	-6.274157E-002	8.510481E-003
9.500000E+008	7.132042E-002	-4.861208E-002	4.274319E-001	-1.647831E-001	4.277240E-001	-1.649445E-001	-6.263059E-002	8.724932E-003
9.600000E+008	7.096245E-002	-4.888302E-002	4.266958E-001	-1.662876E-001	4.270246E-001	-1.664411E-001	-6.251057E-002	8.968992E-003
9.700000E+008	7.064157E-002	-4.917068E-002	4.259409E-001	-1.677788E-001	4.262760E-001	-1.679746E-001	-6.237721E-002	9.181611E-003
9.800000E+008	7.031469E-002	-4.944409E-002	4.252647E-001	-1.692643E-001	4.255646E-001	-1.694864E-001	-6.228300E-002	9.425434E-003
9.900000E+008	6.997249E-002	-4.973256E-002	4.245465E-001	-1.707931E-001	4.248434E-001	-1.710065E-001	-6.224271E-002	9.652468E-003
1.000000E+009	6.961718E-002	-4.997382E-002	4.238174E-001	-1.722978E-001	4.240633E-001	-1.724797E-001	-6.222752E-002	9.936736E-003
1.010000E+009	6.920217E-002	-5.018758E-002	4.230696E-001	-1.738336E-001	4.233418E-001	-1.739826E-001	-6.222300E-002	1.020320E-002
1.020000E+009	6.881361E-002	-5.041376E-002	4.223270E-001	-1.753474E-001	4.225507E-001	-1.754982E-001	-6.221613E-002	1.049152E-002
1.030000E+009	6.842040E-002	-5.059314E-002	4.215174E-001	-1.768426E-001	4.218161E-001	-1.769939E-001	-6.219805E-002	1.074881E-002
1.040000E+009	6.803449E-002	-5.083614E-002	4.207570E-001	-1.783044E-001	4.211008E-001	-1.784865E-001	-6.217821E-002	1.100530E-002
1.050000E+009	6.763461E-002	-5.111845E-002	4.200440E-001	-1.797977E-001	4.203169E-001	-1.799371E-001	-6.214694E-002	1.125657E-002
1.060000E+009	6.722813E-002	-5.137562E-002	4.192680E-001	-1.812728E-001	4.195691E-001	-1.814264E-001	-6.212831E-002	1.150451E-002
1.070000E+009	6.679648E-002	-5.160440E-002	4.184991E-001	-1.827386E-001	4.188078E-001	-1.828638E-001	-6.209341E-002	1.171273E-002
1.080000E+009	6.640942E-002	-5.187035E-002	4.176931E-001	-1.842534E-001	4.180648E-001	-1.843955E-001	-6.204409E-002	1.200934E-002
1.090000E+009	6.604739E-002	-5.211374E-002	4.169395E-001	-1.857529E-001	4.172943E-001	-1.858464E-001	-6.198151E-002	1.223410E-002
1.100000E+009	6.570258E-002	-5.235193E-002	4.160787E-001	-1.872411E-001	4.165086E-001	-1.873384E-001	-6.196330E-002	1.251903E-002
1.110000E+009	6.534852E-002	-5.256860E-002	4.153345E-001	-1.886769E-001	4.157223E-001	-1.887900E-001	-6.192176E-002	1.274593E-002
1.120000E+009	6.498317E-002	-5.280945E-002	4.145607E-001	-1.901369E-001	4.149401E-001	-1.903135E-001	-6.194415E-002	1.298345E-002
1.130000E+009	6.458205E-002	-5.304056E-002	4.137539E-001	-1.916133E-001	4.141129E-001	-1.917752E-001	-6.198152E-002	1.323002E-002
1.140000E+009	6.415495E-002	-5.323013E-002	4.129505E-001	-1.930746E-001	4.133220E-001	-1.932158E-001	-6.198639E-002	1.350623E-002
1.150000E+009	6.374374E-002	-5.344224E-002	4.121426E-001	-1.945294E-001	4.124942E-001	-1.946787E-001	-6.196072E-002	1.376495E-002
1.160000E+009	6.336518E-002	-5.364600E-002	4.113515E-001	-1.960213E-001	4.116902E-001	-1.961624E-001	-6.195447E-002	1.398397E-002
1.170000E+009	6.294810E-002	-5.387743E-002	4.104848E-001	-1.974789E-001	4.108368E-001	-1.975802E-001	-6.189562E-002	1.426851E-002
1.180000E+009	6.256935E-002	-5.415265E-002	4.096303E-001	-1.989067E-001	4.100509E-001	-1.990481E-001	-6.185310E-002	1.451473E-002
1.190000E+009	6.216892E-002	-5.436348E-002	4.088334E-001	-2.003518E-001	4.091421E-001	-2.004801E-001	-6.179132E-002	1.480245E-002
1.200000E+009	6.176977E-002	-5.457552E-002	4.080038E-001	-2.017969E-001	4.083216E-001	-2.019035E-001	-6.173763E-002	1.507739E-002
1.210000E+009	6.139583E-002	-5.483176E-002	4.071364E-001	-2.032223E-001	4.074801E-001	-2.033726E-001	-6.170924E-002	1.539362E-002
1.220000E+009	6.102107E-002	-5.505345E-002	4.062876E-001	-2.046498E-001	4.066561E-001	-2.048211E-001	-6.168747E-002	1.567691E-002
1.230000E+009	6.067119E-002	-5.525650E-002	4.054362E-001	-2.061026E-001	4.057878E-001	-2.062367E-001	-6.169527E-002	1.594623E-002
1.240000E+009	6.030261E-002	-5.550823E-002	4.045739E-001	-2.075230E-001	4.049056E-001	-2.076343E-001	-6.171171E-002	1.620467E-002
1.250000E+009	5.990478E-002	-5.572720E-002	4.036999E-001	-2.089606E-001	4.041122E-001	-2.090658E-001	-6.172941E-002	1.645587E-002
1.260000E+009	5.950737E-002	-5.594000E-002	4.028404E-001	-2.103743E-001	4.031750E-001	-2.105410E-001	-6.173353E-002	1.668260E-002
1.270000E+009	5.917503E-002	-5.613048E-002	4.019767E-001	-2.117823E-001	4.023124E-001	-2.118892E-001	-6.170846E-002	1.688456E-002
1.280000E+009	5.876627E-002	-5.633357E-002	4.011373E-001	-2.132400E-001	4.014892E-001	-2.133390E-001	-6.169197E-002	1.710408E-002
1.290000E+009	5.841846E-002	-5.647043E-002	4.002103E-001	-2.146448E-001	4.006153E-001	-2.147450E-001	-6.157531E-002	1.730799E-002
1.300000E+009	5.803374E-002	-5.661892E-002	3.993152E-001	-2.160116E-001	3.997311E-001	-2.161663E-001	-6.145719E-002	1.752344E-002
1.310000E+009	5.766880E-002	-5.678247E-002	3.983988E-001	-2.174487E-001	3.988161E-001	-2.176014E-001	-6.136791E-002	1.777922E-002
1.320000E+009	5.725819E-002	-5.690730E-002	3.975045E-001	-2.188662E-001	3.979219E-001	-2.190064E-001	-6.117637E-002	1.807312E-002
1.330000E+009	5.691794E-002	-5.698434E-002	3.966214E-001	-2.202247E-001	3.970186E-001	-2.204280E-001	-6.100050E-002	1.843415E-002
1.340000E+009	5.651534E-002	-5.707880E-002	3.956880E-001	-2.216059E-001	3.960672E-001	-2.217756E-001	-6.086656E-002	1.884312E-002
1.350000E+009	5.609288E-002	-5.718225E-002	3.947904E-001	-2.230243E-001	3.951206E-001	-2.231826E-001	-6.073291E-002	1.926746E-002
1.360000E+009	5.576329E-002	-5.728821E-002	3.938461E-001	-2.243781E-001	3.942468E-001	-2.245672E-001	-6.059769E-002	1.971737E-002
1.370000E+009	5.536735E-002	-5.740210E-002	3.929268E-001	-2.257668E-001	3.933223E-001	-2.259429E-001	-6.049210E-002	2.015463E-002
1.380000E+009	5.500558E-002	-5.754578E-002	3.919826E-001	-2.271266E-001	3.923587E-001	-2.273454E-001	-6.043918E-002	2.058396E-002
1.390000E+009	5.463731E-002	-5.769458E-002	3.910540E-001	-2.285309E-001	3.914313E-001	-2.286946E-001	-6.044212E-002	2.103236E-002
1.400000E+009	5.422796E-002	-5.781765E-002	3.901078E-001	-2.298818E-001	3.904785E-001	-2.300269E-001	-6.041077E-002	2.145443E-002
1.410000E+009	5.383135E-002	-5.790814E-002	3.891775E-001	-2.312715E-001	3.895035E-001	-2.314027E-001	-6.040369E-002	2.187849E-002
1.420000E+009	5.345228E-002	-5.800567E-002	3.881523E-001	-2.325740E-001	3.885931E-001	-2.327525E-001	-6.036873E-002	2.228103E-002
1.430000E+009	5.310881E-002	-5.811715E-002	3.872295E-001	-2.339422E-001	3.876302E-001	-2.341141E-001	-6.031999E-002	2.263880E-002
1.440000E+009	5.269585E-002	-5.822867E-002	3.862732E-001	-2.352689E-001	3.866536E-001	-2.354469E-001	-6.025020E-002	2.300315E-002
1.450000E+009	5.231682E-002	-5.832300E-002	3.852852E-001	-2.366306E-001	3.856936E-001	-2.368258E-001	-6.019062E-002	2.335966E-002
1.460000E+009	5.189452E-002	-5.837854E-002	3.843057E-001	-2.379640E-001	3.846700E-001	-2.381645E-001	-6.011323E-002	2.378273E-002
1.470000E+009	5.151127E-002	-5.848896E-002	3.833510E-001	-2.393230E-001	3.837055E-001	-2.394894E-001	-6.003257E-002	2.421864E-002
1.480000E+009	5.111907E-002	-5.851081E-002	3.823171E-001	-2.406210E-001	3.826888E-001	-2.407971E-001	-5.995873E-002	2.472327E-002
1.490000E+009	5.074659E-002	-5.862149E-002	3.813502E-001	-2.419338E-001	3.817439E-001	-2.420864E-001	-5.986233E-002	2.518681E-002
1.500000E+009	5.037785E-002	-5.872248E-002	3.803767E-001	-2.432480E-001	3.807107E-001	-2.433941E-001	-5.973289E-002	2.564340E-002
