! Device ID: PE43711P
! File Path: z:\PE43711P\CHAR_NOM_04282014\AMB\3p300\LS_ATT_22p75dB\PE43711P_AMB_3p300V_3p000V_0p000V_LS_ATT_22p75dB_S2P_SN_5_A0137A.s2p
! Serial: 5
! Lot: A0137A
! Temp: 25C
! VDD: 3.300
! VSS: 0.000
! Control_Hi: 3.000
! Control_Lo: 0.000
! Attenuation Step: 22.75dB
! Port 1: RF1
! Port 2: RF2
! ThroughPath:1-2
! IDD: 0.0001275108
! ISS: -1.569e-007
!

#  Hz  S   RI  R   50

1.000000E+007	4.246123E-002	3.087177E-004	6.316582E-002	-2.731726E-004	6.323936E-002	-2.555139E-004	-1.021714E-001	8.554023E-004
2.000000E+007	4.269343E-002	3.504379E-004	6.316381E-002	-4.042517E-004	6.322022E-002	-4.316715E-004	-1.018743E-001	1.399900E-003
3.000000E+007	4.295292E-002	3.659662E-004	6.316926E-002	-6.228179E-004	6.320463E-002	-6.438745E-004	-1.015793E-001	1.853102E-003
4.000000E+007	4.311165E-002	3.520152E-004	6.316520E-002	-8.407235E-004	6.320560E-002	-8.533683E-004	-1.014005E-001	2.375064E-003
5.000000E+007	4.320270E-002	3.282843E-004	6.316595E-002	-1.080819E-003	6.320834E-002	-1.068279E-003	-1.013693E-001	2.908372E-003
6.000000E+007	4.336892E-002	2.518601E-004	6.315132E-002	-1.275190E-003	6.320400E-002	-1.271466E-003	-1.012417E-001	3.318000E-003
7.000000E+007	4.349442E-002	1.762620E-004	6.313698E-002	-1.484593E-003	6.318868E-002	-1.475549E-003	-1.010607E-001	3.715668E-003
8.000000E+007	4.361777E-002	8.326746E-005	6.313051E-002	-1.689459E-003	6.318409E-002	-1.680271E-003	-1.009075E-001	4.108948E-003
9.000000E+007	4.374300E-002	-4.568541E-006	6.312102E-002	-1.897937E-003	6.316611E-002	-1.895563E-003	-1.007870E-001	4.431760E-003
1.000000E+008	4.386080E-002	-8.772053E-005	6.310893E-002	-2.098104E-003	6.315411E-002	-2.094927E-003	-1.007300E-001	4.793301E-003
1.100000E+008	4.397746E-002	-1.914209E-004	6.309591E-002	-2.318849E-003	6.313897E-002	-2.309209E-003	-1.006478E-001	5.117124E-003
1.200000E+008	4.410516E-002	-3.300879E-004	6.307365E-002	-2.523773E-003	6.312293E-002	-2.527676E-003	-1.005371E-001	5.402587E-003
1.300000E+008	4.420746E-002	-4.159634E-004	6.305945E-002	-2.729770E-003	6.311918E-002	-2.735579E-003	-1.004317E-001	5.690596E-003
1.400000E+008	4.428562E-002	-4.871510E-004	6.305259E-002	-2.941567E-003	6.309286E-002	-2.942441E-003	-1.003243E-001	6.003024E-003
1.500000E+008	4.431606E-002	-5.542989E-004	6.302869E-002	-3.124830E-003	6.307343E-002	-3.140390E-003	-1.002230E-001	6.278610E-003
1.600000E+008	4.434935E-002	-5.944303E-004	6.301477E-002	-3.334006E-003	6.303447E-002	-3.335446E-003	-1.001665E-001	6.576851E-003
1.700000E+008	4.443386E-002	-6.696090E-004	6.299303E-002	-3.546397E-003	6.305593E-002	-3.536447E-003	-1.000898E-001	6.874002E-003
1.800000E+008	4.445569E-002	-7.422234E-004	6.297406E-002	-3.770468E-003	6.303884E-002	-3.761263E-003	-9.999516E-002	7.152674E-003
1.900000E+008	4.442764E-002	-8.644571E-004	6.292474E-002	-3.958878E-003	6.300741E-002	-3.973397E-003	-9.993797E-002	7.374726E-003
2.000000E+008	4.436845E-002	-9.856014E-004	6.289982E-002	-4.160766E-003	6.297545E-002	-4.173386E-003	-9.988843E-002	7.576942E-003
2.100000E+008	4.432513E-002	-1.170015E-003	6.288708E-002	-4.362497E-003	6.294642E-002	-4.361989E-003	-9.981385E-002	7.754125E-003
2.200000E+008	4.430087E-002	-1.319099E-003	6.286964E-002	-4.545244E-003	6.292954E-002	-4.549873E-003	-9.969573E-002	7.900484E-003
2.300000E+008	4.429697E-002	-1.477555E-003	6.284978E-002	-4.751457E-003	6.289244E-002	-4.755599E-003	-9.956794E-002	8.072790E-003
2.400000E+008	4.432394E-002	-1.643807E-003	6.282323E-002	-4.958925E-003	6.286544E-002	-4.959607E-003	-9.940588E-002	8.278807E-003
2.500000E+008	4.432245E-002	-1.793803E-003	6.278967E-002	-5.174751E-003	6.285093E-002	-5.158684E-003	-9.921162E-002	8.467603E-003
2.600000E+008	4.437441E-002	-1.950775E-003	6.274477E-002	-5.363967E-003	6.281383E-002	-5.370445E-003	-9.899112E-002	8.725229E-003
2.700000E+008	4.444168E-002	-2.082360E-003	6.271287E-002	-5.567221E-003	6.278411E-002	-5.566874E-003	-9.876618E-002	9.017105E-003
2.800000E+008	4.449705E-002	-2.195521E-003	6.268996E-002	-5.756194E-003	6.274304E-002	-5.763630E-003	-9.854457E-002	9.278036E-003
2.900000E+008	4.451681E-002	-2.283012E-003	6.265451E-002	-5.967491E-003	6.270981E-002	-5.947357E-003	-9.842157E-002	9.584403E-003
3.000000E+008	4.452844E-002	-2.329896E-003	6.265566E-002	-6.160246E-003	6.269631E-002	-6.151095E-003	-9.828263E-002	9.906573E-003
3.100000E+008	4.452088E-002	-2.386936E-003	6.261366E-002	-6.355945E-003	6.266183E-002	-6.352615E-003	-9.815741E-002	1.024029E-002
3.200000E+008	4.451058E-002	-2.434021E-003	6.257544E-002	-6.564742E-003	6.264286E-002	-6.557513E-003	-9.807431E-002	1.055668E-002
3.300000E+008	4.444897E-002	-2.475091E-003	6.254156E-002	-6.765484E-003	6.259293E-002	-6.766875E-003	-9.798912E-002	1.083661E-002
3.400000E+008	4.435912E-002	-2.551392E-003	6.250641E-002	-6.961092E-003	6.254716E-002	-6.993681E-003	-9.784590E-002	1.110660E-002
3.500000E+008	4.424955E-002	-2.636557E-003	6.246907E-002	-7.168835E-003	6.250211E-002	-7.184254E-003	-9.770871E-002	1.130435E-002
3.600000E+008	4.416927E-002	-2.728491E-003	6.243552E-002	-7.357401E-003	6.245296E-002	-7.342957E-003	-9.754958E-002	1.153350E-002
3.700000E+008	4.407988E-002	-2.835175E-003	6.238753E-002	-7.548218E-003	6.242361E-002	-7.512503E-003	-9.736375E-002	1.173850E-002
3.800000E+008	4.401253E-002	-2.955723E-003	6.234980E-002	-7.755557E-003	6.239594E-002	-7.722540E-003	-9.716377E-002	1.197903E-002
3.900000E+008	4.393691E-002	-3.112349E-003	6.229658E-002	-7.944860E-003	6.235266E-002	-7.915850E-003	-9.689459E-002	1.225407E-002
4.000000E+008	4.390545E-002	-3.279968E-003	6.225402E-002	-8.134911E-003	6.232513E-002	-8.120307E-003	-9.660206E-002	1.254253E-002
4.100000E+008	4.384888E-002	-3.417525E-003	6.219711E-002	-8.302104E-003	6.227381E-002	-8.309354E-003	-9.631966E-002	1.283779E-002
4.200000E+008	4.378960E-002	-3.567492E-003	6.219095E-002	-8.518493E-003	6.223701E-002	-8.494261E-003	-9.610161E-002	1.316425E-002
4.300000E+008	4.377785E-002	-3.692234E-003	6.215026E-002	-8.691713E-003	6.220770E-002	-8.717967E-003	-9.587788E-002	1.353993E-002
4.400000E+008	4.375725E-002	-3.772754E-003	6.209851E-002	-8.890049E-003	6.216159E-002	-8.878908E-003	-9.568689E-002	1.395508E-002
4.500000E+008	4.372785E-002	-3.892945E-003	6.206681E-002	-9.095130E-003	6.211814E-002	-9.076662E-003	-9.550162E-002	1.436276E-002
4.600000E+008	4.371818E-002	-3.994446E-003	6.202352E-002	-9.284661E-003	6.207969E-002	-9.274993E-003	-9.532022E-002	1.479475E-002
4.700000E+008	4.367406E-002	-4.087734E-003	6.198605E-002	-9.465170E-003	6.201913E-002	-9.483923E-003	-9.516141E-002	1.514433E-002
4.800000E+008	4.361107E-002	-4.135393E-003	6.194192E-002	-9.651782E-003	6.196744E-002	-9.656855E-003	-9.501691E-002	1.550910E-002
4.900000E+008	4.354379E-002	-4.216562E-003	6.189809E-002	-9.848893E-003	6.193048E-002	-9.850657E-003	-9.488170E-002	1.586187E-002
5.000000E+008	4.348017E-002	-4.274531E-003	6.183717E-002	-1.003479E-002	6.190033E-002	-1.002978E-002	-9.472110E-002	1.620277E-002
5.100000E+008	4.342124E-002	-4.348207E-003	6.181143E-002	-1.022541E-002	6.184519E-002	-1.021485E-002	-9.454166E-002	1.654925E-002
5.200000E+008	4.332736E-002	-4.458822E-003	6.176102E-002	-1.040645E-002	6.181274E-002	-1.040451E-002	-9.437281E-002	1.690042E-002
5.300000E+008	4.323638E-002	-4.559594E-003	6.170287E-002	-1.058695E-002	6.177073E-002	-1.061209E-002	-9.412974E-002	1.722024E-002
5.400000E+008	4.312755E-002	-4.723273E-003	6.166187E-002	-1.079718E-002	6.172262E-002	-1.079234E-002	-9.392939E-002	1.754736E-002
5.500000E+008	4.303632E-002	-4.832134E-003	6.161169E-002	-1.097863E-002	6.166774E-002	-1.098527E-002	-9.371583E-002	1.791158E-002
5.600000E+008	4.295674E-002	-4.994882E-003	6.155588E-002	-1.117274E-002	6.159330E-002	-1.117436E-002	-9.350294E-002	1.828661E-002
5.700000E+008	4.290166E-002	-5.157638E-003	6.150745E-002	-1.134070E-002	6.156089E-002	-1.135984E-002	-9.333402E-002	1.869077E-002
5.800000E+008	4.284785E-002	-5.286221E-003	6.145948E-002	-1.153456E-002	6.151233E-002	-1.152507E-002	-9.316508E-002	1.911801E-002
5.900000E+008	4.281014E-002	-5.461004E-003	6.141411E-002	-1.171581E-002	6.145931E-002	-1.174359E-002	-9.298519E-002	1.955073E-002
6.000000E+008	4.281649E-002	-5.601809E-003	6.135688E-002	-1.192055E-002	6.140645E-002	-1.191819E-002	-9.277913E-002	1.994578E-002
6.100000E+008	4.282795E-002	-5.732356E-003	6.129673E-002	-1.210110E-002	6.134129E-002	-1.211641E-002	-9.264867E-002	2.035315E-002
6.200000E+008	4.283532E-002	-5.819634E-003	6.125022E-002	-1.228235E-002	6.129422E-002	-1.228995E-002	-9.245827E-002	2.072876E-002
6.300000E+008	4.286084E-002	-5.890503E-003	6.119110E-002	-1.246646E-002	6.123980E-002	-1.246000E-002	-9.228345E-002	2.110936E-002
6.400000E+008	4.287705E-002	-5.965961E-003	6.113437E-002	-1.263472E-002	6.118746E-002	-1.265419E-002	-9.210842E-002	2.149978E-002
6.500000E+008	4.286956E-002	-6.018095E-003	6.108461E-002	-1.282648E-002	6.112354E-002	-1.283084E-002	-9.193085E-002	2.189118E-002
6.600000E+008	4.284881E-002	-6.084235E-003	6.103651E-002	-1.300419E-002	6.108302E-002	-1.302518E-002	-9.175315E-002	2.227704E-002
6.700000E+008	4.278800E-002	-6.126508E-003	6.096471E-002	-1.319494E-002	6.101526E-002	-1.320606E-002	-9.157551E-002	2.270477E-002
6.800000E+008	4.272224E-002	-6.177971E-003	6.093226E-002	-1.337491E-002	6.097204E-002	-1.338358E-002	-9.139667E-002	2.311907E-002
6.900000E+008	4.265350E-002	-6.204720E-003	6.085816E-002	-1.356404E-002	6.090992E-002	-1.357305E-002	-9.121897E-002	2.355066E-002
7.000000E+008	4.258052E-002	-6.268411E-003	6.080996E-002	-1.372908E-002	6.085589E-002	-1.374915E-002	-9.109131E-002	2.397676E-002
7.100000E+008	4.250149E-002	-6.331946E-003	6.075530E-002	-1.390938E-002	6.080495E-002	-1.392358E-002	-9.096886E-002	2.439513E-002
7.200000E+008	4.243320E-002	-6.412782E-003	6.070774E-002	-1.409078E-002	6.074762E-002	-1.410624E-002	-9.083876E-002	2.479958E-002
7.300000E+008	4.234421E-002	-6.495466E-003	6.064233E-002	-1.427516E-002	6.069550E-002	-1.428848E-002	-9.073971E-002	2.516411E-002
7.400000E+008	4.226065E-002	-6.564259E-003	6.058120E-002	-1.445799E-002	6.064575E-002	-1.446761E-002	-9.064133E-002	2.552562E-002
7.500000E+008	4.218608E-002	-6.668215E-003	6.052388E-002	-1.464195E-002	6.058662E-002	-1.465322E-002	-9.053852E-002	2.586390E-002
7.600000E+008	4.211777E-002	-6.782542E-003	6.045217E-002	-1.482086E-002	6.051674E-002	-1.482288E-002	-9.040774E-002	2.620843E-002
7.700000E+008	4.205132E-002	-6.886589E-003	6.040864E-002	-1.498973E-002	6.045959E-002	-1.502142E-002	-9.026096E-002	2.649634E-002
7.800000E+008	4.199863E-002	-7.014032E-003	6.035577E-002	-1.518361E-002	6.040758E-002	-1.520224E-002	-9.007960E-002	2.682035E-002
7.900000E+008	4.192986E-002	-7.142877E-003	6.028503E-002	-1.534871E-002	6.034084E-002	-1.537597E-002	-8.991002E-002	2.715732E-002
8.000000E+008	4.188808E-002	-7.280216E-003	6.023199E-002	-1.552887E-002	6.026579E-002	-1.554763E-002	-8.969838E-002	2.749712E-002
8.100000E+008	4.187071E-002	-7.411655E-003	6.015747E-002	-1.570292E-002	6.021272E-002	-1.571890E-002	-8.944519E-002	2.788631E-002
8.200000E+008	4.186885E-002	-7.529336E-003	6.009510E-002	-1.589359E-002	6.015678E-002	-1.588585E-002	-8.921032E-002	2.823054E-002
8.300000E+008	4.187335E-002	-7.645876E-003	6.003164E-002	-1.607118E-002	6.009339E-002	-1.607407E-002	-8.901705E-002	2.860133E-002
8.400000E+008	4.187914E-002	-7.713999E-003	5.998240E-002	-1.623151E-002	6.002479E-002	-1.625067E-002	-8.881767E-002	2.898056E-002
8.500000E+008	4.189549E-002	-7.793712E-003	5.991615E-002	-1.642057E-002	5.997355E-002	-1.642189E-002	-8.865869E-002	2.935878E-002
8.600000E+008	4.188223E-002	-7.845976E-003	5.985766E-002	-1.658496E-002	5.989832E-002	-1.660866E-002	-8.851684E-002	2.973384E-002
8.700000E+008	4.186491E-002	-7.895261E-003	5.979499E-002	-1.675693E-002	5.983850E-002	-1.678728E-002	-8.835871E-002	3.010575E-002
8.800000E+008	4.185119E-002	-7.905815E-003	5.972006E-002	-1.694550E-002	5.977002E-002	-1.695289E-002	-8.821328E-002	3.045592E-002
8.900000E+008	4.180257E-002	-7.956144E-003	5.966183E-002	-1.711193E-002	5.970766E-002	-1.712296E-002	-8.807013E-002	3.076443E-002
9.000000E+008	4.175231E-002	-8.020830E-003	5.959814E-002	-1.728218E-002	5.964258E-002	-1.730986E-002	-8.786159E-002	3.109244E-002
9.100000E+008	4.166501E-002	-8.056839E-003	5.951465E-002	-1.746295E-002	5.957826E-002	-1.749508E-002	-8.764556E-002	3.141282E-002
9.200000E+008	4.160468E-002	-8.154038E-003	5.946310E-002	-1.765248E-002	5.950375E-002	-1.766656E-002	-8.739981E-002	3.173882E-002
9.300000E+008	4.157139E-002	-8.257433E-003	5.939409E-002	-1.782380E-002	5.943464E-002	-1.784083E-002	-8.711651E-002	3.209055E-002
9.400000E+008	4.155352E-002	-8.348594E-003	5.932498E-002	-1.798529E-002	5.938145E-002	-1.800078E-002	-8.679640E-002	3.245600E-002
9.500000E+008	4.153446E-002	-8.448386E-003	5.926463E-002	-1.815657E-002	5.930699E-002	-1.818777E-002	-8.648423E-002	3.287684E-002
9.600000E+008	4.150975E-002	-8.504354E-003	5.917405E-002	-1.832202E-002	5.924029E-002	-1.835551E-002	-8.615821E-002	3.327623E-002
9.700000E+008	4.151929E-002	-8.569881E-003	5.911852E-002	-1.848352E-002	5.916714E-002	-1.851145E-002	-8.588130E-002	3.372115E-002
9.800000E+008	4.151150E-002	-8.620520E-003	5.905344E-002	-1.866151E-002	5.910798E-002	-1.870399E-002	-8.558988E-002	3.416475E-002
9.900000E+008	4.152683E-002	-8.658616E-003	5.900095E-002	-1.884016E-002	5.903386E-002	-1.886134E-002	-8.534970E-002	3.460404E-002
1.000000E+009	4.150287E-002	-8.676449E-003	5.893575E-002	-1.901051E-002	5.897168E-002	-1.905188E-002	-8.515311E-002	3.503082E-002
1.010000E+009	4.146654E-002	-8.678522E-003	5.885544E-002	-1.918702E-002	5.891107E-002	-1.921016E-002	-8.492506E-002	3.546699E-002
1.020000E+009	4.144793E-002	-8.705517E-003	5.880996E-002	-1.937316E-002	5.882217E-002	-1.938617E-002	-8.473221E-002	3.589787E-002
1.030000E+009	4.140823E-002	-8.728422E-003	5.872150E-002	-1.953689E-002	5.876598E-002	-1.954850E-002	-8.451868E-002	3.631857E-002
1.040000E+009	4.134464E-002	-8.742909E-003	5.862553E-002	-1.969904E-002	5.868680E-002	-1.971916E-002	-8.431839E-002	3.675366E-002
1.050000E+009	4.130289E-002	-8.786434E-003	5.857770E-002	-1.986940E-002	5.863503E-002	-1.988497E-002	-8.406512E-002	3.716359E-002
1.060000E+009	4.125757E-002	-8.828363E-003	5.851960E-002	-2.004738E-002	5.855153E-002	-2.005615E-002	-8.383669E-002	3.758542E-002
1.070000E+009	4.119502E-002	-8.871464E-003	5.843086E-002	-2.021466E-002	5.848651E-002	-2.022442E-002	-8.357212E-002	3.801772E-002
1.080000E+009	4.115844E-002	-8.912006E-003	5.836022E-002	-2.038522E-002	5.841782E-002	-2.040820E-002	-8.331365E-002	3.847368E-002
1.090000E+009	4.112032E-002	-8.955079E-003	5.830237E-002	-2.056731E-002	5.833547E-002	-2.057246E-002	-8.307544E-002	3.887622E-002
1.100000E+009	4.108050E-002	-8.985241E-003	5.821499E-002	-2.072874E-002	5.826967E-002	-2.072678E-002	-8.285212E-002	3.933500E-002
1.110000E+009	4.104447E-002	-9.019182E-003	5.813360E-002	-2.089306E-002	5.820031E-002	-2.091382E-002	-8.263320E-002	3.974873E-002
1.120000E+009	4.097717E-002	-9.074441E-003	5.807739E-002	-2.106454E-002	5.812852E-002	-2.107287E-002	-8.245893E-002	4.012479E-002
1.130000E+009	4.094436E-002	-9.097392E-003	5.800282E-002	-2.122521E-002	5.804498E-002	-2.124271E-002	-8.225598E-002	4.053374E-002
1.140000E+009	4.087559E-002	-9.158802E-003	5.792010E-002	-2.141036E-002	5.797883E-002	-2.140148E-002	-8.202836E-002	4.096501E-002
1.150000E+009	4.083604E-002	-9.201152E-003	5.783970E-002	-2.157292E-002	5.789953E-002	-2.158684E-002	-8.178505E-002	4.135324E-002
1.160000E+009	4.079299E-002	-9.229388E-003	5.776941E-002	-2.175507E-002	5.782285E-002	-2.176482E-002	-8.155962E-002	4.174317E-002
1.170000E+009	4.074361E-002	-9.267342E-003	5.769428E-002	-2.192050E-002	5.773116E-002	-2.192851E-002	-8.130703E-002	4.219386E-002
1.180000E+009	4.069513E-002	-9.322223E-003	5.761805E-002	-2.208843E-002	5.767655E-002	-2.210116E-002	-8.102402E-002	4.262199E-002
1.190000E+009	4.063287E-002	-9.343049E-003	5.751691E-002	-2.224550E-002	5.758242E-002	-2.228066E-002	-8.075624E-002	4.307210E-002
1.200000E+009	4.058802E-002	-9.377124E-003	5.745147E-002	-2.241129E-002	5.749331E-002	-2.242692E-002	-8.047164E-002	4.351568E-002
1.210000E+009	4.053756E-002	-9.458226E-003	5.737588E-002	-2.259321E-002	5.741894E-002	-2.259095E-002	-8.023667E-002	4.398180E-002
1.220000E+009	4.050928E-002	-9.538743E-003	5.728399E-002	-2.275531E-002	5.732999E-002	-2.277185E-002	-8.003854E-002	4.440959E-002
1.230000E+009	4.045215E-002	-9.604612E-003	5.720800E-002	-2.293845E-002	5.725939E-002	-2.293250E-002	-7.981027E-002	4.483122E-002
1.240000E+009	4.042731E-002	-9.677086E-003	5.713069E-002	-2.308021E-002	5.718091E-002	-2.310839E-002	-7.961726E-002	4.519130E-002
1.250000E+009	4.042250E-002	-9.756158E-003	5.705907E-002	-2.326215E-002	5.710115E-002	-2.326198E-002	-7.940644E-002	4.560496E-002
1.260000E+009	4.038872E-002	-9.816363E-003	5.697429E-002	-2.342241E-002	5.702491E-002	-2.344717E-002	-7.916086E-002	4.595163E-002
1.270000E+009	4.043919E-002	-9.874465E-003	5.688676E-002	-2.358723E-002	5.694047E-002	-2.359320E-002	-7.890080E-002	4.630421E-002
1.280000E+009	4.042932E-002	-9.922763E-003	5.679833E-002	-2.375227E-002	5.686138E-002	-2.376324E-002	-7.860968E-002	4.664659E-002
1.290000E+009	4.042522E-002	-9.933351E-003	5.672286E-002	-2.393431E-002	5.676540E-002	-2.393114E-002	-7.829926E-002	4.698269E-002
1.300000E+009	4.043188E-002	-9.936859E-003	5.663060E-002	-2.408202E-002	5.670580E-002	-2.412253E-002	-7.795740E-002	4.736089E-002
1.310000E+009	4.041648E-002	-9.963300E-003	5.655965E-002	-2.424804E-002	5.662042E-002	-2.426485E-002	-7.761728E-002	4.776242E-002
1.320000E+009	4.040249E-002	-9.957906E-003	5.646893E-002	-2.441195E-002	5.652186E-002	-2.443975E-002	-7.722405E-002	4.821504E-002
1.330000E+009	4.039021E-002	-9.940522E-003	5.637677E-002	-2.458074E-002	5.642702E-002	-2.460675E-002	-7.683422E-002	4.866931E-002
1.340000E+009	4.031788E-002	-9.938992E-003	5.629051E-002	-2.473770E-002	5.631556E-002	-2.476266E-002	-7.646015E-002	4.920188E-002
1.350000E+009	4.028558E-002	-9.952736E-003	5.620861E-002	-2.490564E-002	5.624296E-002	-2.493649E-002	-7.610574E-002	4.970935E-002
1.360000E+009	4.026419E-002	-9.963485E-003	5.610741E-002	-2.507374E-002	5.616208E-002	-2.509182E-002	-7.575397E-002	5.024932E-002
1.370000E+009	4.022517E-002	-9.962324E-003	5.602729E-002	-2.524551E-002	5.608633E-002	-2.525492E-002	-7.545957E-002	5.081939E-002
1.380000E+009	4.022097E-002	-9.996381E-003	5.593776E-002	-2.541665E-002	5.598684E-002	-2.542551E-002	-7.513720E-002	5.133907E-002
1.390000E+009	4.019000E-002	-1.002936E-002	5.583297E-002	-2.556751E-002	5.588393E-002	-2.559180E-002	-7.487212E-002	5.189919E-002
1.400000E+009	4.014662E-002	-1.003022E-002	5.574184E-002	-2.572684E-002	5.578938E-002	-2.573460E-002	-7.460266E-002	5.241223E-002
1.410000E+009	4.009478E-002	-1.004850E-002	5.565888E-002	-2.589470E-002	5.569843E-002	-2.590837E-002	-7.432886E-002	5.292763E-002
1.420000E+009	4.005771E-002	-1.005088E-002	5.555466E-002	-2.605185E-002	5.561964E-002	-2.607380E-002	-7.407822E-002	5.341595E-002
1.430000E+009	4.003438E-002	-1.003693E-002	5.545637E-002	-2.620629E-002	5.552585E-002	-2.621862E-002	-7.378077E-002	5.387391E-002
1.440000E+009	3.997401E-002	-1.006971E-002	5.536340E-002	-2.635908E-002	5.542876E-002	-2.638202E-002	-7.353288E-002	5.434159E-002
1.450000E+009	3.991772E-002	-1.005449E-002	5.527536E-002	-2.651733E-002	5.531909E-002	-2.655814E-002	-7.321395E-002	5.482613E-002
1.460000E+009	3.986202E-002	-1.008064E-002	5.517162E-002	-2.669001E-002	5.523234E-002	-2.670190E-002	-7.288517E-002	5.530630E-002
1.470000E+009	3.981332E-002	-1.008726E-002	5.508015E-002	-2.684427E-002	5.513421E-002	-2.688015E-002	-7.255514E-002	5.580523E-002
1.480000E+009	3.973061E-002	-1.011879E-002	5.498258E-002	-2.700009E-002	5.504570E-002	-2.701666E-002	-7.223740E-002	5.632610E-002
1.490000E+009	3.971021E-002	-1.013485E-002	5.488941E-002	-2.715903E-002	5.494049E-002	-2.717977E-002	-7.187710E-002	5.686399E-002
1.500000E+009	3.966517E-002	-1.015610E-002	5.479690E-002	-2.732073E-002	5.483641E-002	-2.732931E-002	-7.152731E-002	5.740157E-002
