! Device ID: PE43711P
! File Path: z:\PE43711P\CHAR_NOM_04282014\AMB\3p300\LS_ATT_20p50dB\PE43711P_AMB_3p300V_3p000V_0p000V_LS_ATT_20p50dB_S2P_SN_5_A0137A.s2p
! Serial: 5
! Lot: A0137A
! Temp: 25C
! VDD: 3.300
! VSS: 0.000
! Control_Hi: 3.000
! Control_Lo: 0.000
! Attenuation Step: 20.50dB
! Port 1: RF1
! Port 2: RF2
! ThroughPath:1-2
! IDD: 0.0001273255
! ISS: -1.943e-007
!

#  Hz  S   RI  R   50

1.000000E+007	5.317123E-002	1.735740E-004	8.217892E-002	-3.647402E-004	8.227655E-002	-3.932536E-004	-1.185807E-001	9.609099E-004
2.000000E+007	5.340550E-002	1.491050E-004	8.218222E-002	-5.535514E-004	8.223390E-002	-5.922987E-004	-1.182854E-001	1.524854E-003
3.000000E+007	5.366840E-002	6.283789E-005	8.219271E-002	-8.375957E-004	8.223659E-002	-8.615971E-004	-1.179839E-001	2.005708E-003
4.000000E+007	5.381980E-002	-3.545606E-005	8.218644E-002	-1.138412E-003	8.223470E-002	-1.144188E-003	-1.178056E-001	2.581577E-003
5.000000E+007	5.392733E-002	-1.609972E-004	8.216888E-002	-1.440446E-003	8.225225E-002	-1.440555E-003	-1.177663E-001	3.148227E-003
6.000000E+007	5.407145E-002	-3.551581E-004	8.215355E-002	-1.724202E-003	8.223080E-002	-1.719519E-003	-1.176249E-001	3.598258E-003
7.000000E+007	5.418702E-002	-5.436345E-004	8.214170E-002	-1.991875E-003	8.221207E-002	-2.008513E-003	-1.174545E-001	4.050142E-003
8.000000E+007	5.430658E-002	-7.262193E-004	8.212784E-002	-2.263241E-003	8.218879E-002	-2.277421E-003	-1.172854E-001	4.471605E-003
9.000000E+007	5.441703E-002	-9.026391E-004	8.212677E-002	-2.548631E-003	8.218194E-002	-2.548419E-003	-1.171604E-001	4.851610E-003
1.000000E+008	5.451317E-002	-1.072576E-003	8.210806E-002	-2.830403E-003	8.216615E-002	-2.830438E-003	-1.170970E-001	5.261231E-003
1.100000E+008	5.461752E-002	-1.280390E-003	8.207797E-002	-3.130665E-003	8.215186E-002	-3.106777E-003	-1.170023E-001	5.620676E-003
1.200000E+008	5.473247E-002	-1.508874E-003	8.204063E-002	-3.398775E-003	8.211163E-002	-3.390232E-003	-1.169055E-001	5.947667E-003
1.300000E+008	5.481912E-002	-1.704190E-003	8.201809E-002	-3.670888E-003	8.209191E-002	-3.678083E-003	-1.167779E-001	6.286427E-003
1.400000E+008	5.486855E-002	-1.877183E-003	8.199811E-002	-3.951332E-003	8.206567E-002	-3.957976E-003	-1.166725E-001	6.625714E-003
1.500000E+008	5.487142E-002	-2.022861E-003	8.197270E-002	-4.195791E-003	8.202585E-002	-4.221477E-003	-1.165774E-001	6.949845E-003
1.600000E+008	5.490401E-002	-2.149814E-003	8.195947E-002	-4.483041E-003	8.200019E-002	-4.473828E-003	-1.165039E-001	7.279997E-003
1.700000E+008	5.495654E-002	-2.331525E-003	8.194169E-002	-4.767303E-003	8.200966E-002	-4.750404E-003	-1.164305E-001	7.616790E-003
1.800000E+008	5.496073E-002	-2.504422E-003	8.187307E-002	-5.063999E-003	8.197987E-002	-5.075330E-003	-1.163271E-001	7.949987E-003
1.900000E+008	5.490203E-002	-2.708979E-003	8.182794E-002	-5.336609E-003	8.193645E-002	-5.341345E-003	-1.162697E-001	8.212311E-003
2.000000E+008	5.483315E-002	-2.918175E-003	8.181074E-002	-5.605930E-003	8.189225E-002	-5.593049E-003	-1.161937E-001	8.459356E-003
2.100000E+008	5.476645E-002	-3.190460E-003	8.177042E-002	-5.863428E-003	8.184763E-002	-5.861110E-003	-1.161026E-001	8.664284E-003
2.200000E+008	5.470536E-002	-3.432730E-003	8.175410E-002	-6.107303E-003	8.182060E-002	-6.125253E-003	-1.159857E-001	8.872061E-003
2.300000E+008	5.467926E-002	-3.689434E-003	8.170589E-002	-6.388339E-003	8.177871E-002	-6.382716E-003	-1.158531E-001	9.077959E-003
2.400000E+008	5.468042E-002	-3.944415E-003	8.169049E-002	-6.654190E-003	8.174393E-002	-6.648662E-003	-1.156711E-001	9.323681E-003
2.500000E+008	5.464167E-002	-4.167937E-003	8.163300E-002	-6.942274E-003	8.169680E-002	-6.920585E-003	-1.154837E-001	9.548083E-003
2.600000E+008	5.466501E-002	-4.408066E-003	8.157425E-002	-7.203251E-003	8.165399E-002	-7.207749E-003	-1.152695E-001	9.842198E-003
2.700000E+008	5.468125E-002	-4.639771E-003	8.154528E-002	-7.475793E-003	8.161072E-002	-7.471667E-003	-1.150276E-001	1.017002E-002
2.800000E+008	5.472331E-002	-4.836140E-003	8.148926E-002	-7.722993E-003	8.156369E-002	-7.734427E-003	-1.148108E-001	1.048129E-002
2.900000E+008	5.470537E-002	-5.007596E-003	8.145861E-002	-7.985422E-003	8.151898E-002	-7.983224E-003	-1.146663E-001	1.081510E-002
3.000000E+008	5.469555E-002	-5.146598E-003	8.142593E-002	-8.259056E-003	8.148861E-002	-8.254421E-003	-1.145066E-001	1.118346E-002
3.100000E+008	5.466228E-002	-5.281443E-003	8.138021E-002	-8.512278E-003	8.143894E-002	-8.518365E-003	-1.143838E-001	1.155465E-002
3.200000E+008	5.461635E-002	-5.418070E-003	8.132913E-002	-8.810670E-003	8.141029E-002	-8.780378E-003	-1.142805E-001	1.190880E-002
3.300000E+008	5.452518E-002	-5.536475E-003	8.129551E-002	-9.063529E-003	8.135319E-002	-9.080094E-003	-1.141830E-001	1.224132E-002
3.400000E+008	5.439871E-002	-5.690188E-003	8.124205E-002	-9.326837E-003	8.128178E-002	-9.353130E-003	-1.140412E-001	1.252901E-002
3.500000E+008	5.424231E-002	-5.869335E-003	8.118348E-002	-9.604833E-003	8.120625E-002	-9.608390E-003	-1.138926E-001	1.278025E-002
3.600000E+008	5.413872E-002	-6.026078E-003	8.113478E-002	-9.872157E-003	8.115558E-002	-9.840537E-003	-1.137297E-001	1.304815E-002
3.700000E+008	5.401749E-002	-6.210936E-003	8.107183E-002	-1.011921E-002	8.110109E-002	-1.006150E-002	-1.135148E-001	1.329071E-002
3.800000E+008	5.390847E-002	-6.408692E-003	8.100981E-002	-1.037084E-002	8.107437E-002	-1.033811E-002	-1.133138E-001	1.357115E-002
3.900000E+008	5.379419E-002	-6.641066E-003	8.094472E-002	-1.063518E-002	8.102088E-002	-1.060731E-002	-1.130310E-001	1.388952E-002
4.000000E+008	5.372232E-002	-6.886487E-003	8.088037E-002	-1.088643E-002	8.096590E-002	-1.087740E-002	-1.127176E-001	1.420982E-002
4.100000E+008	5.362484E-002	-7.110819E-003	8.082245E-002	-1.112338E-002	8.089928E-002	-1.112471E-002	-1.124342E-001	1.450891E-002
4.200000E+008	5.354677E-002	-7.327931E-003	8.078358E-002	-1.137252E-002	8.085346E-002	-1.137953E-002	-1.122057E-001	1.490961E-002
4.300000E+008	5.348057E-002	-7.514728E-003	8.073060E-002	-1.164042E-002	8.079188E-002	-1.163159E-002	-1.119876E-001	1.530533E-002
4.400000E+008	5.340611E-002	-7.673171E-003	8.067878E-002	-1.189776E-002	8.073863E-002	-1.188610E-002	-1.117846E-001	1.575086E-002
4.500000E+008	5.336874E-002	-7.860671E-003	8.062263E-002	-1.215437E-002	8.068355E-002	-1.213762E-002	-1.115826E-001	1.620829E-002
4.600000E+008	5.330268E-002	-8.042698E-003	8.056994E-002	-1.241259E-002	8.062322E-002	-1.241967E-002	-1.113933E-001	1.667753E-002
4.700000E+008	5.321574E-002	-8.191703E-003	8.049845E-002	-1.266228E-002	8.053712E-002	-1.267496E-002	-1.112125E-001	1.705531E-002
4.800000E+008	5.311687E-002	-8.344961E-003	8.044234E-002	-1.290728E-002	8.048548E-002	-1.291033E-002	-1.110630E-001	1.746675E-002
4.900000E+008	5.299714E-002	-8.467422E-003	8.038961E-002	-1.316393E-002	8.041741E-002	-1.317178E-002	-1.109217E-001	1.786183E-002
5.000000E+008	5.289690E-002	-8.602668E-003	8.031663E-002	-1.340645E-002	8.036572E-002	-1.341757E-002	-1.107531E-001	1.822035E-002
5.100000E+008	5.280286E-002	-8.737565E-003	8.024833E-002	-1.365617E-002	8.032095E-002	-1.366745E-002	-1.105672E-001	1.860412E-002
5.200000E+008	5.267559E-002	-8.912425E-003	8.019912E-002	-1.392958E-002	8.025008E-002	-1.390929E-002	-1.103774E-001	1.897520E-002
5.300000E+008	5.253582E-002	-9.096109E-003	8.012866E-002	-1.417447E-002	8.019334E-002	-1.417492E-002	-1.101352E-001	1.934497E-002
5.400000E+008	5.238875E-002	-9.328632E-003	8.004920E-002	-1.442958E-002	8.011853E-002	-1.444286E-002	-1.099059E-001	1.970807E-002
5.500000E+008	5.225610E-002	-9.503676E-003	7.998722E-002	-1.467841E-002	8.004794E-002	-1.467321E-002	-1.096755E-001	2.009014E-002
5.600000E+008	5.214591E-002	-9.724049E-003	7.992582E-002	-1.491473E-002	7.995724E-002	-1.492351E-002	-1.094459E-001	2.051687E-002
5.700000E+008	5.204089E-002	-9.941151E-003	7.984764E-002	-1.516020E-002	7.990995E-002	-1.517011E-002	-1.092973E-001	2.097074E-002
5.800000E+008	5.195306E-002	-1.013926E-002	7.977886E-002	-1.540516E-002	7.984604E-002	-1.539434E-002	-1.091000E-001	2.140069E-002
5.900000E+008	5.188389E-002	-1.038916E-002	7.971576E-002	-1.565764E-002	7.977249E-002	-1.567364E-002	-1.089124E-001	2.189068E-002
6.000000E+008	5.182817E-002	-1.059846E-002	7.964787E-002	-1.592035E-002	7.969997E-002	-1.592305E-002	-1.087018E-001	2.230350E-002
6.100000E+008	5.179406E-002	-1.078867E-002	7.957798E-002	-1.614989E-002	7.961487E-002	-1.617388E-002	-1.085367E-001	2.273774E-002
6.200000E+008	5.176295E-002	-1.092289E-002	7.949894E-002	-1.640306E-002	7.955156E-002	-1.641007E-002	-1.083510E-001	2.315472E-002
6.300000E+008	5.174702E-002	-1.108149E-002	7.940508E-002	-1.663937E-002	7.946581E-002	-1.664825E-002	-1.081701E-001	2.356558E-002
6.400000E+008	5.171403E-002	-1.120764E-002	7.933806E-002	-1.686801E-002	7.939640E-002	-1.688196E-002	-1.079830E-001	2.398637E-002
6.500000E+008	5.166656E-002	-1.130623E-002	7.927527E-002	-1.712196E-002	7.932157E-002	-1.713960E-002	-1.078069E-001	2.442427E-002
6.600000E+008	5.160339E-002	-1.144080E-002	7.920303E-002	-1.736381E-002	7.926490E-002	-1.737243E-002	-1.075889E-001	2.483036E-002
6.700000E+008	5.148683E-002	-1.153757E-002	7.912595E-002	-1.761377E-002	7.916824E-002	-1.762037E-002	-1.074067E-001	2.527920E-002
6.800000E+008	5.137995E-002	-1.164419E-002	7.905659E-002	-1.785493E-002	7.909983E-002	-1.786589E-002	-1.072243E-001	2.573418E-002
6.900000E+008	5.126579E-002	-1.175461E-002	7.896200E-002	-1.808960E-002	7.901504E-002	-1.809616E-002	-1.070429E-001	2.620795E-002
7.000000E+008	5.117312E-002	-1.186340E-002	7.888946E-002	-1.833888E-002	7.893224E-002	-1.831446E-002	-1.069052E-001	2.666396E-002
7.100000E+008	5.104908E-002	-1.198793E-002	7.880701E-002	-1.855149E-002	7.887515E-002	-1.857225E-002	-1.067731E-001	2.709558E-002
7.200000E+008	5.091998E-002	-1.212334E-002	7.874352E-002	-1.879266E-002	7.879493E-002	-1.881219E-002	-1.066416E-001	2.755508E-002
7.300000E+008	5.079611E-002	-1.227008E-002	7.865466E-002	-1.902219E-002	7.872565E-002	-1.905487E-002	-1.065243E-001	2.793562E-002
7.400000E+008	5.065032E-002	-1.240262E-002	7.856585E-002	-1.928811E-002	7.864399E-002	-1.928610E-002	-1.064061E-001	2.832692E-002
7.500000E+008	5.055444E-002	-1.254987E-002	7.851157E-002	-1.951720E-002	7.854909E-002	-1.953199E-002	-1.062841E-001	2.870159E-002
7.600000E+008	5.043781E-002	-1.272215E-002	7.841120E-002	-1.976417E-002	7.848140E-002	-1.976823E-002	-1.061351E-001	2.906000E-002
7.700000E+008	5.032080E-002	-1.290023E-002	7.832525E-002	-1.997051E-002	7.839563E-002	-1.999871E-002	-1.059790E-001	2.938850E-002
7.800000E+008	5.020825E-002	-1.305001E-002	7.825338E-002	-2.023396E-002	7.831666E-002	-2.025078E-002	-1.058008E-001	2.973983E-002
7.900000E+008	5.011293E-002	-1.327318E-002	7.817331E-002	-2.045938E-002	7.823044E-002	-2.047181E-002	-1.056151E-001	3.010727E-002
8.000000E+008	5.003130E-002	-1.344988E-002	7.809501E-002	-2.069130E-002	7.813813E-002	-2.071795E-002	-1.054013E-001	3.049851E-002
8.100000E+008	4.993457E-002	-1.362627E-002	7.800495E-002	-2.093340E-002	7.805393E-002	-2.095897E-002	-1.051416E-001	3.090518E-002
8.200000E+008	4.990962E-002	-1.378797E-002	7.793074E-002	-2.116378E-002	7.798358E-002	-2.117548E-002	-1.049144E-001	3.127446E-002
8.300000E+008	4.986586E-002	-1.396542E-002	7.781648E-002	-2.139963E-002	7.788589E-002	-2.141566E-002	-1.046923E-001	3.169306E-002
8.400000E+008	4.983345E-002	-1.410538E-002	7.773966E-002	-2.163300E-002	7.781474E-002	-2.164531E-002	-1.044796E-001	3.209341E-002
8.500000E+008	4.980113E-002	-1.422008E-002	7.766577E-002	-2.185942E-002	7.772971E-002	-2.187390E-002	-1.043369E-001	3.249247E-002
8.600000E+008	4.974955E-002	-1.433867E-002	7.757474E-002	-2.208389E-002	7.762249E-002	-2.212318E-002	-1.041756E-001	3.291256E-002
8.700000E+008	4.967857E-002	-1.442525E-002	7.748612E-002	-2.233165E-002	7.753983E-002	-2.233191E-002	-1.039913E-001	3.329747E-002
8.800000E+008	4.962057E-002	-1.449795E-002	7.740828E-002	-2.256822E-002	7.746450E-002	-2.257592E-002	-1.038405E-001	3.366712E-002
8.900000E+008	4.951670E-002	-1.460026E-002	7.729123E-002	-2.278911E-002	7.735999E-002	-2.281969E-002	-1.036734E-001	3.401532E-002
9.000000E+008	4.942559E-002	-1.470767E-002	7.720835E-002	-2.302711E-002	7.729823E-002	-2.304658E-002	-1.034723E-001	3.438190E-002
9.100000E+008	4.930487E-002	-1.481291E-002	7.711966E-002	-2.325265E-002	7.718360E-002	-2.327034E-002	-1.032422E-001	3.472306E-002
9.200000E+008	4.918923E-002	-1.494920E-002	7.702562E-002	-2.348543E-002	7.711379E-002	-2.349316E-002	-1.029731E-001	3.509564E-002
9.300000E+008	4.910502E-002	-1.509634E-002	7.693844E-002	-2.370505E-002	7.700182E-002	-2.371957E-002	-1.027165E-001	3.546692E-002
9.400000E+008	4.904636E-002	-1.524203E-002	7.685259E-002	-2.392912E-002	7.692895E-002	-2.395416E-002	-1.023874E-001	3.586171E-002
9.500000E+008	4.898193E-002	-1.537385E-002	7.676449E-002	-2.416237E-002	7.680743E-002	-2.420416E-002	-1.020640E-001	3.629996E-002
9.600000E+008	4.891050E-002	-1.547870E-002	7.666590E-002	-2.439537E-002	7.674574E-002	-2.442823E-002	-1.017353E-001	3.673831E-002
9.700000E+008	4.886767E-002	-1.559668E-002	7.658728E-002	-2.460756E-002	7.664142E-002	-2.465023E-002	-1.014344E-001	3.720601E-002
9.800000E+008	4.881008E-002	-1.570826E-002	7.649694E-002	-2.483808E-002	7.655776E-002	-2.486837E-002	-1.011461E-001	3.767574E-002
9.900000E+008	4.878182E-002	-1.579052E-002	7.640743E-002	-2.506372E-002	7.647468E-002	-2.511151E-002	-1.009021E-001	3.815826E-002
1.000000E+009	4.872606E-002	-1.585933E-002	7.630962E-002	-2.529921E-002	7.637032E-002	-2.534789E-002	-1.006844E-001	3.861225E-002
1.010000E+009	4.863877E-002	-1.589572E-002	7.622227E-002	-2.553764E-002	7.626950E-002	-2.555006E-002	-1.004355E-001	3.907295E-002
1.020000E+009	4.854453E-002	-1.595650E-002	7.612956E-002	-2.575644E-002	7.617991E-002	-2.579037E-002	-1.002360E-001	3.954304E-002
1.030000E+009	4.845129E-002	-1.602852E-002	7.602297E-002	-2.597987E-002	7.607817E-002	-2.601223E-002	-1.000276E-001	3.999471E-002
1.040000E+009	4.835126E-002	-1.610392E-002	7.592801E-002	-2.619778E-002	7.599817E-002	-2.624069E-002	-9.982614E-002	4.044450E-002
1.050000E+009	4.827551E-002	-1.619934E-002	7.582166E-002	-2.642482E-002	7.591342E-002	-2.644744E-002	-9.956161E-002	4.090607E-002
1.060000E+009	4.820175E-002	-1.628689E-002	7.572043E-002	-2.665601E-002	7.579537E-002	-2.667645E-002	-9.931192E-002	4.136454E-002
1.070000E+009	4.808970E-002	-1.635721E-002	7.564230E-002	-2.687121E-002	7.569465E-002	-2.689680E-002	-9.904801E-002	4.181627E-002
1.080000E+009	4.800971E-002	-1.646090E-002	7.555311E-002	-2.710193E-002	7.559351E-002	-2.712595E-002	-9.877442E-002	4.228534E-002
1.090000E+009	4.790426E-002	-1.656587E-002	7.544005E-002	-2.732902E-002	7.549907E-002	-2.735264E-002	-9.853558E-002	4.272481E-002
1.100000E+009	4.782826E-002	-1.663254E-002	7.533283E-002	-2.754599E-002	7.540184E-002	-2.757047E-002	-9.828572E-002	4.320395E-002
1.110000E+009	4.773963E-002	-1.669564E-002	7.523532E-002	-2.776876E-002	7.530300E-002	-2.780733E-002	-9.807215E-002	4.363636E-002
1.120000E+009	4.762718E-002	-1.680872E-002	7.513192E-002	-2.797475E-002	7.520367E-002	-2.802777E-002	-9.788564E-002	4.410023E-002
1.130000E+009	4.754483E-002	-1.688630E-002	7.504815E-002	-2.822235E-002	7.511192E-002	-2.824199E-002	-9.768423E-002	4.452347E-002
1.140000E+009	4.744679E-002	-1.694190E-002	7.493376E-002	-2.845195E-002	7.499295E-002	-2.847277E-002	-9.744417E-002	4.498160E-002
1.150000E+009	4.734685E-002	-1.704190E-002	7.482797E-002	-2.866789E-002	7.489848E-002	-2.869820E-002	-9.721619E-002	4.539629E-002
1.160000E+009	4.725269E-002	-1.712063E-002	7.472406E-002	-2.889582E-002	7.479809E-002	-2.891874E-002	-9.695848E-002	4.582240E-002
1.170000E+009	4.716765E-002	-1.719410E-002	7.462128E-002	-2.911883E-002	7.468766E-002	-2.911470E-002	-9.670123E-002	4.630105E-002
1.180000E+009	4.706268E-002	-1.729723E-002	7.452034E-002	-2.934082E-002	7.459791E-002	-2.935648E-002	-9.641572E-002	4.675635E-002
1.190000E+009	4.694264E-002	-1.735884E-002	7.439769E-002	-2.955711E-002	7.446268E-002	-2.957300E-002	-9.614923E-002	4.721546E-002
1.200000E+009	4.684758E-002	-1.745551E-002	7.429618E-002	-2.977428E-002	7.435564E-002	-2.979464E-002	-9.585327E-002	4.770651E-002
1.210000E+009	4.678084E-002	-1.754240E-002	7.419715E-002	-3.000321E-002	7.425213E-002	-3.001760E-002	-9.559994E-002	4.819542E-002
1.220000E+009	4.667917E-002	-1.768981E-002	7.407477E-002	-3.020568E-002	7.414617E-002	-3.023977E-002	-9.538326E-002	4.866627E-002
1.230000E+009	4.658866E-002	-1.778182E-002	7.396849E-002	-3.044397E-002	7.404120E-002	-3.045849E-002	-9.517184E-002	4.909080E-002
1.240000E+009	4.651549E-002	-1.790333E-002	7.387181E-002	-3.064690E-002	7.393046E-002	-3.067471E-002	-9.493689E-002	4.951306E-002
1.250000E+009	4.645902E-002	-1.803342E-002	7.375016E-002	-3.087275E-002	7.382551E-002	-3.089051E-002	-9.472353E-002	4.995543E-002
1.260000E+009	4.637498E-002	-1.813066E-002	7.365433E-002	-3.110372E-002	7.368889E-002	-3.111452E-002	-9.448065E-002	5.032364E-002
1.270000E+009	4.637862E-002	-1.821949E-002	7.351803E-002	-3.131458E-002	7.359388E-002	-3.132337E-002	-9.419711E-002	5.071144E-002
1.280000E+009	4.630565E-002	-1.831697E-002	7.342974E-002	-3.152999E-002	7.348893E-002	-3.154842E-002	-9.392643E-002	5.109400E-002
1.290000E+009	4.625967E-002	-1.837053E-002	7.331326E-002	-3.175480E-002	7.337004E-002	-3.178518E-002	-9.359170E-002	5.146960E-002
1.300000E+009	4.622539E-002	-1.840485E-002	7.318851E-002	-3.196235E-002	7.327274E-002	-3.199791E-002	-9.324782E-002	5.188285E-002
1.310000E+009	4.617542E-002	-1.847427E-002	7.306399E-002	-3.218516E-002	7.314952E-002	-3.222131E-002	-9.289132E-002	5.229281E-002
1.320000E+009	4.609495E-002	-1.852005E-002	7.295387E-002	-3.241786E-002	7.303973E-002	-3.241786E-002	-9.249899E-002	5.275448E-002
1.330000E+009	4.600715E-002	-1.854262E-002	7.284684E-002	-3.262137E-002	7.290029E-002	-3.265630E-002	-9.209342E-002	5.327859E-002
1.340000E+009	4.592276E-002	-1.857582E-002	7.271897E-002	-3.282685E-002	7.277694E-002	-3.287305E-002	-9.171832E-002	5.381290E-002
1.350000E+009	4.581992E-002	-1.863871E-002	7.260273E-002	-3.304000E-002	7.266452E-002	-3.306950E-002	-9.134446E-002	5.436074E-002
1.360000E+009	4.576098E-002	-1.867210E-002	7.247674E-002	-3.327307E-002	7.255525E-002	-3.329301E-002	-9.098963E-002	5.494626E-002
1.370000E+009	4.567529E-002	-1.872023E-002	7.235579E-002	-3.347123E-002	7.243481E-002	-3.350625E-002	-9.067222E-002	5.551628E-002
1.380000E+009	4.559586E-002	-1.876896E-002	7.223510E-002	-3.369253E-002	7.230020E-002	-3.373457E-002	-9.037014E-002	5.610891E-002
1.390000E+009	4.552413E-002	-1.884694E-002	7.212053E-002	-3.389615E-002	7.217869E-002	-3.394117E-002	-9.009856E-002	5.668056E-002
1.400000E+009	4.543570E-002	-1.891408E-002	7.199730E-002	-3.412418E-002	7.204910E-002	-3.414611E-002	-8.980322E-002	5.721469E-002
1.410000E+009	4.533948E-002	-1.893608E-002	7.187626E-002	-3.434683E-002	7.192088E-002	-3.434765E-002	-8.953766E-002	5.777982E-002
1.420000E+009	4.523315E-002	-1.897146E-002	7.174075E-002	-3.452695E-002	7.180867E-002	-3.456752E-002	-8.927547E-002	5.829033E-002
1.430000E+009	4.517813E-002	-1.901508E-002	7.161076E-002	-3.476243E-002	7.168153E-002	-3.479169E-002	-8.900234E-002	5.879260E-002
1.440000E+009	4.507063E-002	-1.905870E-002	7.149010E-002	-3.495691E-002	7.154250E-002	-3.499228E-002	-8.870342E-002	5.927020E-002
1.450000E+009	4.494064E-002	-1.909737E-002	7.136073E-002	-3.518534E-002	7.143341E-002	-3.519901E-002	-8.836466E-002	5.977352E-002
1.460000E+009	4.483135E-002	-1.915225E-002	7.122893E-002	-3.540236E-002	7.129971E-002	-3.539674E-002	-8.804294E-002	6.029001E-002
1.470000E+009	4.473834E-002	-1.921574E-002	7.110346E-002	-3.558904E-002	7.116987E-002	-3.561809E-002	-8.770301E-002	6.082975E-002
1.480000E+009	4.462819E-002	-1.924506E-002	7.095535E-002	-3.579457E-002	7.102232E-002	-3.583287E-002	-8.736821E-002	6.138027E-002
1.490000E+009	4.453512E-002	-1.930622E-002	7.085182E-002	-3.601269E-002	7.090496E-002	-3.603144E-002	-8.701772E-002	6.196722E-002
1.500000E+009	4.445906E-002	-1.937141E-002	7.070716E-002	-3.622754E-002	7.077346E-002	-3.621162E-002	-8.664320E-002	6.252052E-002
