! Device ID: PE43711P
! File Path: z:\PE43711P\CHAR_NOM_04282014\AMB\3p300\LS_ATT_8p75dB\PE43711P_AMB_3p300V_3p000V_0p000V_LS_ATT_8p75dB_S2P_SN_5_A0137A.s2p
! Serial: 5
! Lot: A0137A
! Temp: 25C
! VDD: 3.300
! VSS: 0.000
! Control_Hi: 3.000
! Control_Lo: 0.000
! Attenuation Step: 8.75dB
! Port 1: RF1
! Port 2: RF2
! ThroughPath:1-2
! IDD: 0.0001273791
! ISS: -1.619e-007
!

#  Hz  S   RI  R   50

1.000000E+007	8.442559E-002	-2.169652E-004	3.205120E-001	-1.560428E-003	3.208233E-001	-1.592864E-003	-7.344455E-002	6.027159E-004
2.000000E+007	8.461555E-002	-4.610678E-004	3.205566E-001	-2.648148E-003	3.206691E-001	-2.677612E-003	-7.319004E-002	1.096068E-003
3.000000E+007	8.487758E-002	-8.907382E-004	3.205530E-001	-3.967156E-003	3.206948E-001	-3.987760E-003	-7.290217E-002	1.424520E-003
4.000000E+007	8.498518E-002	-1.307920E-003	3.205402E-001	-5.289721E-003	3.206662E-001	-5.317676E-003	-7.266812E-002	1.787990E-003
5.000000E+007	8.510870E-002	-1.793708E-003	3.205536E-001	-6.751834E-003	3.207502E-001	-6.713697E-003	-7.256983E-002	2.092612E-003
6.000000E+007	8.526707E-002	-2.308398E-003	3.204557E-001	-8.059399E-003	3.207091E-001	-8.028412E-003	-7.244882E-002	2.291714E-003
7.000000E+007	8.536175E-002	-2.837850E-003	3.203684E-001	-9.353004E-003	3.206119E-001	-9.352657E-003	-7.230205E-002	2.506178E-003
8.000000E+007	8.547926E-002	-3.361173E-003	3.203075E-001	-1.061670E-002	3.205373E-001	-1.062882E-002	-7.216795E-002	2.751212E-003
9.000000E+007	8.557219E-002	-3.884169E-003	3.202442E-001	-1.191774E-002	3.204575E-001	-1.193117E-002	-7.203401E-002	2.924620E-003
1.000000E+008	8.565097E-002	-4.386057E-003	3.201839E-001	-1.326232E-002	3.203767E-001	-1.323418E-002	-7.191832E-002	3.092360E-003
1.100000E+008	8.570991E-002	-4.909104E-003	3.200747E-001	-1.459564E-002	3.202928E-001	-1.453096E-002	-7.183234E-002	3.228747E-003
1.200000E+008	8.578187E-002	-5.446121E-003	3.198941E-001	-1.589852E-002	3.201524E-001	-1.587489E-002	-7.181539E-002	3.361931E-003
1.300000E+008	8.582624E-002	-5.997431E-003	3.198097E-001	-1.718687E-002	3.200587E-001	-1.718121E-002	-7.169738E-002	3.484874E-003
1.400000E+008	8.584735E-002	-6.542612E-003	3.197006E-001	-1.848572E-002	3.199209E-001	-1.850271E-002	-7.150950E-002	3.567436E-003
1.500000E+008	8.578706E-002	-7.069953E-003	3.195806E-001	-1.972180E-002	3.197284E-001	-1.975702E-002	-7.133374E-002	3.666400E-003
1.600000E+008	8.569896E-002	-7.491915E-003	3.194763E-001	-2.100068E-002	3.195748E-001	-2.097259E-002	-7.134414E-002	3.798174E-003
1.700000E+008	8.561588E-002	-7.954869E-003	3.193484E-001	-2.235947E-002	3.195869E-001	-2.226440E-002	-7.148413E-002	3.910997E-003
1.800000E+008	8.548213E-002	-8.456088E-003	3.190522E-001	-2.372888E-002	3.194299E-001	-2.366055E-002	-7.156053E-002	3.987337E-003
1.900000E+008	8.536002E-002	-8.998753E-003	3.188219E-001	-2.495253E-002	3.192107E-001	-2.494249E-002	-7.152455E-002	4.025116E-003
2.000000E+008	8.527001E-002	-9.572552E-003	3.186802E-001	-2.619838E-002	3.190121E-001	-2.617986E-002	-7.138666E-002	4.113891E-003
2.100000E+008	8.517322E-002	-1.020272E-002	3.185422E-001	-2.742413E-002	3.188186E-001	-2.742455E-002	-7.120039E-002	4.152956E-003
2.200000E+008	8.509182E-002	-1.076976E-002	3.183795E-001	-2.863128E-002	3.186299E-001	-2.864970E-002	-7.105614E-002	4.172218E-003
2.300000E+008	8.493837E-002	-1.134543E-002	3.182318E-001	-2.991349E-002	3.184506E-001	-2.989177E-002	-7.094547E-002	4.194187E-003
2.400000E+008	8.481755E-002	-1.190027E-002	3.180470E-001	-3.117912E-002	3.182452E-001	-3.116821E-002	-7.084398E-002	4.204652E-003
2.500000E+008	8.467022E-002	-1.245962E-002	3.178278E-001	-3.246402E-002	3.180554E-001	-3.242130E-002	-7.072934E-002	4.203101E-003
2.600000E+008	8.455959E-002	-1.302436E-002	3.175750E-001	-3.374217E-002	3.178504E-001	-3.369602E-002	-7.058818E-002	4.277071E-003
2.700000E+008	8.446738E-002	-1.356295E-002	3.173358E-001	-3.496205E-002	3.176177E-001	-3.495047E-002	-7.039485E-002	4.379408E-003
2.800000E+008	8.439489E-002	-1.407597E-002	3.170883E-001	-3.616145E-002	3.173821E-001	-3.615310E-002	-7.022107E-002	4.484112E-003
2.900000E+008	8.427345E-002	-1.454054E-002	3.168917E-001	-3.737588E-002	3.171286E-001	-3.734423E-002	-7.009700E-002	4.615521E-003
3.000000E+008	8.418148E-002	-1.498229E-002	3.167058E-001	-3.864478E-002	3.169648E-001	-3.858386E-002	-6.997866E-002	4.775071E-003
3.100000E+008	8.403661E-002	-1.540003E-002	3.164812E-001	-3.986994E-002	3.167621E-001	-3.983247E-002	-6.987333E-002	4.953854E-003
3.200000E+008	8.388494E-002	-1.581590E-002	3.162424E-001	-4.114882E-002	3.165244E-001	-4.108732E-002	-6.981003E-002	5.116777E-003
3.300000E+008	8.366879E-002	-1.622398E-002	3.160137E-001	-4.236549E-002	3.162892E-001	-4.238926E-002	-6.975113E-002	5.252192E-003
3.400000E+008	8.339995E-002	-1.664564E-002	3.157223E-001	-4.359887E-002	3.159271E-001	-4.368014E-002	-6.965957E-002	5.348382E-003
3.500000E+008	8.312273E-002	-1.710138E-002	3.154863E-001	-4.484097E-002	3.155818E-001	-4.482571E-002	-6.953900E-002	5.390854E-003
3.600000E+008	8.288448E-002	-1.751931E-002	3.152135E-001	-4.606144E-002	3.153127E-001	-4.593008E-002	-6.943083E-002	5.468714E-003
3.700000E+008	8.262478E-002	-1.797430E-002	3.148933E-001	-4.722356E-002	3.150963E-001	-4.705356E-002	-6.927456E-002	5.526595E-003
3.800000E+008	8.238307E-002	-1.845996E-002	3.146323E-001	-4.843172E-002	3.149109E-001	-4.828607E-002	-6.911821E-002	5.592761E-003
3.900000E+008	8.213060E-002	-1.896030E-002	3.143006E-001	-4.967180E-002	3.146302E-001	-4.956147E-002	-6.888281E-002	5.718176E-003
4.000000E+008	8.193318E-002	-1.947350E-002	3.139658E-001	-5.079058E-002	3.143492E-001	-5.079967E-002	-6.863188E-002	5.836204E-003
4.100000E+008	8.165492E-002	-1.997178E-002	3.137048E-001	-5.192375E-002	3.140187E-001	-5.197397E-002	-6.839312E-002	5.951653E-003
4.200000E+008	8.141776E-002	-2.044890E-002	3.134791E-001	-5.310932E-002	3.137327E-001	-5.314237E-002	-6.822727E-002	6.139992E-003
4.300000E+008	8.120453E-002	-2.088139E-002	3.132100E-001	-5.433172E-002	3.134256E-001	-5.432957E-002	-6.805597E-002	6.338868E-003
4.400000E+008	8.100574E-002	-2.130591E-002	3.129298E-001	-5.552960E-002	3.131584E-001	-5.552620E-002	-6.792055E-002	6.580663E-003
4.500000E+008	8.080607E-002	-2.172826E-002	3.126208E-001	-5.672835E-002	3.128776E-001	-5.674622E-002	-6.776921E-002	6.837119E-003
4.600000E+008	8.059267E-002	-2.215238E-002	3.123021E-001	-5.794126E-002	3.125532E-001	-5.794050E-002	-6.764291E-002	7.125600E-003
4.700000E+008	8.036803E-002	-2.255803E-002	3.119798E-001	-5.909853E-002	3.122043E-001	-5.910980E-002	-6.753203E-002	7.341371E-003
4.800000E+008	8.011188E-002	-2.291511E-002	3.116668E-001	-6.023620E-002	3.118837E-001	-6.023186E-002	-6.745441E-002	7.582473E-003
4.900000E+008	7.982109E-002	-2.327777E-002	3.113515E-001	-6.139731E-002	3.115285E-001	-6.141217E-002	-6.739847E-002	7.792989E-003
5.000000E+008	7.955696E-002	-2.364823E-002	3.110202E-001	-6.257231E-002	3.112463E-001	-6.255783E-002	-6.729539E-002	7.979976E-003
5.100000E+008	7.929207E-002	-2.404741E-002	3.107150E-001	-6.374294E-002	3.109591E-001	-6.371055E-002	-6.717268E-002	8.157897E-003
5.200000E+008	7.900740E-002	-2.446298E-002	3.103711E-001	-6.492244E-002	3.106621E-001	-6.490200E-002	-6.702655E-002	8.342409E-003
5.300000E+008	7.872890E-002	-2.489622E-002	3.100305E-001	-6.609291E-002	3.103185E-001	-6.609797E-002	-6.684348E-002	8.511673E-003
5.400000E+008	7.844595E-002	-2.537634E-002	3.096808E-001	-6.723879E-002	3.099750E-001	-6.728105E-002	-6.664213E-002	8.670796E-003
5.500000E+008	7.815332E-002	-2.576002E-002	3.093403E-001	-6.839078E-002	3.095574E-001	-6.842405E-002	-6.648432E-002	8.901316E-003
5.600000E+008	7.785039E-002	-2.618617E-002	3.089608E-001	-6.954686E-002	3.091985E-001	-6.957039E-002	-6.634353E-002	9.121448E-003
5.700000E+008	7.761126E-002	-2.660963E-002	3.086210E-001	-7.065240E-002	3.088683E-001	-7.069898E-002	-6.626816E-002	9.399355E-003
5.800000E+008	7.735237E-002	-2.699925E-002	3.082775E-001	-7.180840E-002	3.085264E-001	-7.184187E-002	-6.615023E-002	9.672726E-003
5.900000E+008	7.709321E-002	-2.745304E-002	3.078943E-001	-7.299275E-002	3.081802E-001	-7.301566E-002	-6.607515E-002	9.957719E-003
6.000000E+008	7.687652E-002	-2.787358E-002	3.075367E-001	-7.412335E-002	3.077893E-001	-7.416974E-002	-6.594609E-002	1.018078E-002
6.100000E+008	7.666296E-002	-2.826876E-002	3.071615E-001	-7.524468E-002	3.073837E-001	-7.531236E-002	-6.588183E-002	1.042426E-002
6.200000E+008	7.646882E-002	-2.865321E-002	3.067737E-001	-7.636365E-002	3.070093E-001	-7.641400E-002	-6.577826E-002	1.064577E-002
6.300000E+008	7.628694E-002	-2.901590E-002	3.063830E-001	-7.747271E-002	3.066222E-001	-7.753116E-002	-6.566917E-002	1.087987E-002
6.400000E+008	7.609497E-002	-2.935965E-002	3.060157E-001	-7.860683E-002	3.062556E-001	-7.866726E-002	-6.552942E-002	1.111621E-002
6.500000E+008	7.591614E-002	-2.968392E-002	3.056458E-001	-7.969959E-002	3.058780E-001	-7.977730E-002	-6.540825E-002	1.139992E-002
6.600000E+008	7.567160E-002	-3.002891E-002	3.052677E-001	-8.085490E-002	3.054849E-001	-8.090377E-002	-6.527502E-002	1.164161E-002
6.700000E+008	7.538917E-002	-3.031036E-002	3.048820E-001	-8.198467E-002	3.050937E-001	-8.204515E-002	-6.520845E-002	1.194482E-002
6.800000E+008	7.507920E-002	-3.060374E-002	3.044758E-001	-8.307992E-002	3.046859E-001	-8.316021E-002	-6.510341E-002	1.223910E-002
6.900000E+008	7.478106E-002	-3.088561E-002	3.040331E-001	-8.419459E-002	3.042435E-001	-8.423524E-002	-6.501426E-002	1.254948E-002
7.000000E+008	7.450318E-002	-3.120104E-002	3.036459E-001	-8.530162E-002	3.038972E-001	-8.533188E-002	-6.498024E-002	1.282288E-002
7.100000E+008	7.421773E-002	-3.153444E-002	3.032388E-001	-8.638764E-002	3.035067E-001	-8.644443E-002	-6.493791E-002	1.308832E-002
7.200000E+008	7.389236E-002	-3.187163E-002	3.028505E-001	-8.747297E-002	3.030884E-001	-8.757007E-002	-6.488340E-002	1.333357E-002
7.300000E+008	7.360630E-002	-3.222607E-002	3.024044E-001	-8.858073E-002	3.027124E-001	-8.868965E-002	-6.485585E-002	1.353327E-002
7.400000E+008	7.328613E-002	-3.255199E-002	3.019850E-001	-8.969145E-002	3.022740E-001	-8.976286E-002	-6.484363E-002	1.373361E-002
7.500000E+008	7.301141E-002	-3.288127E-002	3.015764E-001	-9.078217E-002	3.018467E-001	-9.087123E-002	-6.479101E-002	1.392289E-002
7.600000E+008	7.271754E-002	-3.324461E-002	3.011493E-001	-9.189352E-002	3.014216E-001	-9.197213E-002	-6.471642E-002	1.410901E-002
7.700000E+008	7.242078E-002	-3.360298E-002	3.007389E-001	-9.297116E-002	3.009961E-001	-9.305170E-002	-6.464196E-002	1.428844E-002
7.800000E+008	7.211648E-002	-3.392906E-002	3.003017E-001	-9.406742E-002	3.005921E-001	-9.415210E-002	-6.455876E-002	1.446134E-002
7.900000E+008	7.181470E-002	-3.432097E-002	2.998852E-001	-9.515516E-002	3.001659E-001	-9.525749E-002	-6.448339E-002	1.467524E-002
8.000000E+008	7.152186E-002	-3.468344E-002	2.994523E-001	-9.623437E-002	2.996905E-001	-9.632477E-002	-6.437442E-002	1.487526E-002
8.100000E+008	7.125684E-002	-3.506783E-002	2.989871E-001	-9.729972E-002	2.992195E-001	-9.741408E-002	-6.422892E-002	1.512056E-002
8.200000E+008	7.102299E-002	-3.538392E-002	2.985551E-001	-9.840394E-002	2.987770E-001	-9.847597E-002	-6.410903E-002	1.533775E-002
8.300000E+008	7.079202E-002	-3.574736E-002	2.981015E-001	-9.946515E-002	2.983608E-001	-9.954873E-002	-6.399335E-002	1.558170E-002
8.400000E+008	7.058243E-002	-3.607222E-002	2.976493E-001	-1.005198E-001	2.979179E-001	-1.006142E-001	-6.389944E-002	1.580589E-002
8.500000E+008	7.037041E-002	-3.637054E-002	2.972180E-001	-1.015989E-001	2.974567E-001	-1.017211E-001	-6.382013E-002	1.604935E-002
8.600000E+008	7.010756E-002	-3.665505E-002	2.967420E-001	-1.026467E-001	2.969839E-001	-1.027585E-001	-6.376495E-002	1.631010E-002
8.700000E+008	6.988254E-002	-3.689961E-002	2.963073E-001	-1.037333E-001	2.965228E-001	-1.038414E-001	-6.368703E-002	1.651189E-002
8.800000E+008	6.960966E-002	-3.714189E-002	2.958296E-001	-1.048124E-001	2.960907E-001	-1.048931E-001	-6.362649E-002	1.675528E-002
8.900000E+008	6.931386E-002	-3.741852E-002	2.953629E-001	-1.058769E-001	2.956220E-001	-1.059658E-001	-6.355756E-002	1.693896E-002
9.000000E+008	6.901068E-002	-3.767997E-002	2.948608E-001	-1.069053E-001	2.951636E-001	-1.070408E-001	-6.347019E-002	1.717523E-002
9.100000E+008	6.869119E-002	-3.795401E-002	2.943914E-001	-1.079906E-001	2.946965E-001	-1.081027E-001	-6.334674E-002	1.736150E-002
9.200000E+008	6.837326E-002	-3.823251E-002	2.939135E-001	-1.090345E-001	2.942150E-001	-1.091579E-001	-6.318073E-002	1.757544E-002
9.300000E+008	6.808773E-002	-3.852796E-002	2.934487E-001	-1.100814E-001	2.937019E-001	-1.102168E-001	-6.300377E-002	1.778786E-002
9.400000E+008	6.779827E-002	-3.884110E-002	2.929632E-001	-1.111155E-001	2.932510E-001	-1.112519E-001	-6.278659E-002	1.803682E-002
9.500000E+008	6.751889E-002	-3.912672E-002	2.924880E-001	-1.121749E-001	2.927466E-001	-1.123150E-001	-6.257441E-002	1.832403E-002
9.600000E+008	6.727736E-002	-3.938606E-002	2.919700E-001	-1.132404E-001	2.922568E-001	-1.133555E-001	-6.235298E-002	1.859762E-002
9.700000E+008	6.703945E-002	-3.965520E-002	2.914801E-001	-1.142542E-001	2.917719E-001	-1.144181E-001	-6.214904E-002	1.890542E-002
9.800000E+008	6.681329E-002	-3.988315E-002	2.910342E-001	-1.152861E-001	2.913012E-001	-1.154409E-001	-6.195273E-002	1.921840E-002
9.900000E+008	6.658509E-002	-4.013690E-002	2.905484E-001	-1.163423E-001	2.908036E-001	-1.164951E-001	-6.180656E-002	1.951077E-002
1.000000E+009	6.633404E-002	-4.034759E-002	2.900567E-001	-1.173625E-001	2.902795E-001	-1.175264E-001	-6.168695E-002	1.981808E-002
1.010000E+009	6.604227E-002	-4.051961E-002	2.895395E-001	-1.184219E-001	2.897971E-001	-1.185491E-001	-6.155848E-002	2.016961E-002
1.020000E+009	6.574356E-002	-4.070081E-002	2.890466E-001	-1.194570E-001	2.892580E-001	-1.195846E-001	-6.147847E-002	2.049228E-002
1.030000E+009	6.547296E-002	-4.088060E-002	2.885159E-001	-1.204723E-001	2.887629E-001	-1.206122E-001	-6.136636E-002	2.082319E-002
1.040000E+009	6.517055E-002	-4.110238E-002	2.879849E-001	-1.214855E-001	2.882521E-001	-1.216332E-001	-6.125824E-002	2.111790E-002
1.050000E+009	6.486974E-002	-4.134012E-002	2.875106E-001	-1.225293E-001	2.877445E-001	-1.226343E-001	-6.112554E-002	2.143478E-002
1.060000E+009	6.457678E-002	-4.156045E-002	2.869940E-001	-1.235445E-001	2.872068E-001	-1.236563E-001	-6.099391E-002	2.176000E-002
1.070000E+009	6.426502E-002	-4.178524E-002	2.864629E-001	-1.245505E-001	2.867076E-001	-1.246557E-001	-6.085630E-002	2.202839E-002
1.080000E+009	6.398557E-002	-4.202347E-002	2.859359E-001	-1.256040E-001	2.862036E-001	-1.256942E-001	-6.070058E-002	2.234104E-002
1.090000E+009	6.370071E-002	-4.224529E-002	2.854178E-001	-1.266073E-001	2.856526E-001	-1.266966E-001	-6.054747E-002	2.265146E-002
1.100000E+009	6.345657E-002	-4.244424E-002	2.848518E-001	-1.276179E-001	2.851418E-001	-1.277359E-001	-6.041366E-002	2.297594E-002
1.110000E+009	6.318450E-002	-4.265122E-002	2.843358E-001	-1.286437E-001	2.845889E-001	-1.287540E-001	-6.029184E-002	2.326372E-002
1.120000E+009	6.289903E-002	-4.285342E-002	2.837847E-001	-1.296333E-001	2.840643E-001	-1.297706E-001	-6.020347E-002	2.356475E-002
1.130000E+009	6.261360E-002	-4.305663E-002	2.832504E-001	-1.306612E-001	2.835161E-001	-1.307837E-001	-6.011965E-002	2.386995E-002
1.140000E+009	6.228525E-002	-4.324715E-002	2.827266E-001	-1.316598E-001	2.829870E-001	-1.318081E-001	-6.002914E-002	2.419067E-002
1.150000E+009	6.199993E-002	-4.342636E-002	2.821484E-001	-1.326860E-001	2.824004E-001	-1.328141E-001	-5.987624E-002	2.449590E-002
1.160000E+009	6.167304E-002	-4.365547E-002	2.816178E-001	-1.336816E-001	2.818601E-001	-1.338316E-001	-5.976816E-002	2.475852E-002
1.170000E+009	6.138346E-002	-4.384165E-002	2.810346E-001	-1.346800E-001	2.812860E-001	-1.347841E-001	-5.963282E-002	2.508960E-002
1.180000E+009	6.109418E-002	-4.407483E-002	2.804704E-001	-1.357097E-001	2.807518E-001	-1.358084E-001	-5.947651E-002	2.540382E-002
1.190000E+009	6.078651E-002	-4.427658E-002	2.798971E-001	-1.366903E-001	2.801282E-001	-1.368038E-001	-5.931125E-002	2.573682E-002
1.200000E+009	6.048782E-002	-4.447256E-002	2.793268E-001	-1.376900E-001	2.795679E-001	-1.377621E-001	-5.914789E-002	2.607783E-002
1.210000E+009	6.021494E-002	-4.472168E-002	2.787587E-001	-1.386634E-001	2.789885E-001	-1.388105E-001	-5.900810E-002	2.641135E-002
1.220000E+009	5.993377E-002	-4.494314E-002	2.781733E-001	-1.396330E-001	2.784403E-001	-1.397749E-001	-5.887785E-002	2.675539E-002
1.230000E+009	5.966941E-002	-4.514776E-002	2.776133E-001	-1.406312E-001	2.778489E-001	-1.407664E-001	-5.878332E-002	2.705486E-002
1.240000E+009	5.938941E-002	-4.536772E-002	2.770274E-001	-1.416279E-001	2.772583E-001	-1.417343E-001	-5.868025E-002	2.736972E-002
1.250000E+009	5.912199E-002	-4.557825E-002	2.764389E-001	-1.426264E-001	2.766944E-001	-1.427111E-001	-5.858985E-002	2.765626E-002
1.260000E+009	5.882254E-002	-4.578616E-002	2.758328E-001	-1.436066E-001	2.760857E-001	-1.437254E-001	-5.846440E-002	2.791112E-002
1.270000E+009	5.859453E-002	-4.597057E-002	2.752434E-001	-1.445777E-001	2.754685E-001	-1.446586E-001	-5.834228E-002	2.818507E-002
1.280000E+009	5.831387E-002	-4.615640E-002	2.746675E-001	-1.455751E-001	2.749079E-001	-1.456582E-001	-5.819627E-002	2.842102E-002
1.290000E+009	5.806175E-002	-4.630846E-002	2.740512E-001	-1.465713E-001	2.742919E-001	-1.466459E-001	-5.798289E-002	2.864857E-002
1.300000E+009	5.780093E-002	-4.646584E-002	2.734219E-001	-1.474935E-001	2.737216E-001	-1.476274E-001	-5.776663E-002	2.893046E-002
1.310000E+009	5.751887E-002	-4.662576E-002	2.727974E-001	-1.484913E-001	2.730821E-001	-1.486191E-001	-5.756469E-002	2.922476E-002
1.320000E+009	5.725151E-002	-4.677045E-002	2.721888E-001	-1.494546E-001	2.724872E-001	-1.495832E-001	-5.727136E-002	2.954458E-002
1.330000E+009	5.698179E-002	-4.687937E-002	2.715819E-001	-1.504009E-001	2.718672E-001	-1.505521E-001	-5.696670E-002	2.994827E-002
1.340000E+009	5.668714E-002	-4.698625E-002	2.709602E-001	-1.513545E-001	2.712076E-001	-1.515045E-001	-5.672162E-002	3.036657E-002
1.350000E+009	5.637184E-002	-4.710760E-002	2.703385E-001	-1.523323E-001	2.705657E-001	-1.524547E-001	-5.647903E-002	3.082012E-002
1.360000E+009	5.612497E-002	-4.720640E-002	2.696766E-001	-1.532649E-001	2.699586E-001	-1.534239E-001	-5.623080E-002	3.128812E-002
1.370000E+009	5.583842E-002	-4.733650E-002	2.690682E-001	-1.542471E-001	2.693413E-001	-1.543769E-001	-5.604887E-002	3.174420E-002
1.380000E+009	5.553888E-002	-4.747644E-002	2.684083E-001	-1.551874E-001	2.686846E-001	-1.553303E-001	-5.587360E-002	3.219032E-002
1.390000E+009	5.525578E-002	-4.762790E-002	2.677707E-001	-1.561505E-001	2.680200E-001	-1.562871E-001	-5.574111E-002	3.266007E-002
1.400000E+009	5.494754E-002	-4.775590E-002	2.671127E-001	-1.570659E-001	2.673695E-001	-1.571817E-001	-5.559388E-002	3.309847E-002
1.410000E+009	5.465258E-002	-4.789074E-002	2.664873E-001	-1.580223E-001	2.667138E-001	-1.581447E-001	-5.545273E-002	3.354396E-002
1.420000E+009	5.435368E-002	-4.800847E-002	2.657923E-001	-1.589550E-001	2.660815E-001	-1.590630E-001	-5.533274E-002	3.394488E-002
1.430000E+009	5.408041E-002	-4.813481E-002	2.651495E-001	-1.598644E-001	2.654167E-001	-1.600294E-001	-5.517575E-002	3.434619E-002
1.440000E+009	5.378780E-002	-4.825121E-002	2.644966E-001	-1.607981E-001	2.647457E-001	-1.609299E-001	-5.498989E-002	3.472095E-002
1.450000E+009	5.348854E-002	-4.835758E-002	2.638108E-001	-1.617350E-001	2.641048E-001	-1.618633E-001	-5.481719E-002	3.511318E-002
1.460000E+009	5.316233E-002	-4.846856E-002	2.631568E-001	-1.626552E-001	2.633973E-001	-1.628338E-001	-5.462189E-002	3.551984E-002
1.470000E+009	5.287490E-002	-4.858300E-002	2.624770E-001	-1.635976E-001	2.627206E-001	-1.637182E-001	-5.441273E-002	3.597743E-002
1.480000E+009	5.254551E-002	-4.866312E-002	2.617744E-001	-1.644796E-001	2.620313E-001	-1.646340E-001	-5.422399E-002	3.644365E-002
1.490000E+009	5.226039E-002	-4.876431E-002	2.611284E-001	-1.653932E-001	2.613759E-001	-1.655256E-001	-5.399818E-002	3.691099E-002
1.500000E+009	5.196215E-002	-4.889086E-002	2.604327E-001	-1.663008E-001	2.606781E-001	-1.664268E-001	-5.377755E-002	3.739259E-002
