! Device ID: PE43711P
! File Path: z:\PE43711P\CHAR_NOM_04282014\AMB\3p300\LS_ATT_25p25dB\PE43711P_AMB_3p300V_3p000V_0p000V_LS_ATT_25p25dB_S2P_SN_5_A0137A.s2p
! Serial: 5
! Lot: A0137A
! Temp: 25C
! VDD: 3.300
! VSS: 0.000
! Control_Hi: 3.000
! Control_Lo: 0.000
! Attenuation Step: 25.25dB
! Port 1: RF1
! Port 2: RF2
! ThroughPath:1-2
! IDD: 0.000127423
! ISS: -7.97e-008
!

#  Hz  S   RI  R   50

1.000000E+007	3.111490E-002	4.174176E-004	4.736178E-002	-1.957949E-004	4.742961E-002	-1.898576E-004	-1.235330E-001	9.434704E-004
2.000000E+007	3.139028E-002	5.652149E-004	4.738393E-002	-2.893787E-004	4.741849E-002	-3.045501E-004	-1.232906E-001	1.526534E-003
3.000000E+007	3.165228E-002	6.477946E-004	4.737989E-002	-4.415440E-004	4.740665E-002	-4.503735E-004	-1.229872E-001	2.044171E-003
4.000000E+007	3.180646E-002	7.458115E-004	4.737234E-002	-5.925670E-004	4.740607E-002	-5.945248E-004	-1.228016E-001	2.608287E-003
5.000000E+007	3.191458E-002	8.253816E-004	4.737437E-002	-7.515106E-004	4.741650E-002	-7.437107E-004	-1.227747E-001	3.214355E-003
6.000000E+007	3.208353E-002	8.356686E-004	4.736838E-002	-9.004625E-004	4.740782E-002	-8.955381E-004	-1.226274E-001	3.678455E-003
7.000000E+007	3.222408E-002	8.516526E-004	4.736148E-002	-1.041879E-003	4.741081E-002	-1.041773E-003	-1.224735E-001	4.142742E-003
8.000000E+007	3.235796E-002	8.772995E-004	4.736659E-002	-1.186175E-003	4.739746E-002	-1.182629E-003	-1.222913E-001	4.587221E-003
9.000000E+007	3.246892E-002	8.739386E-004	4.734198E-002	-1.333944E-003	4.739320E-002	-1.330379E-003	-1.221897E-001	4.982329E-003
1.000000E+008	3.261692E-002	9.007475E-004	4.735246E-002	-1.478416E-003	4.737177E-002	-1.473035E-003	-1.221237E-001	5.404217E-003
1.100000E+008	3.273545E-002	8.588180E-004	4.733211E-002	-1.622230E-003	4.737366E-002	-1.616775E-003	-1.220429E-001	5.785325E-003
1.200000E+008	3.288680E-002	8.466053E-004	4.731603E-002	-1.778341E-003	4.736082E-002	-1.778054E-003	-1.219351E-001	6.111377E-003
1.300000E+008	3.299849E-002	8.386862E-004	4.730402E-002	-1.920550E-003	4.734370E-002	-1.918221E-003	-1.218148E-001	6.472499E-003
1.400000E+008	3.309671E-002	8.703963E-004	4.729514E-002	-2.054852E-003	4.733854E-002	-2.068236E-003	-1.217245E-001	6.816497E-003
1.500000E+008	3.314505E-002	8.883861E-004	4.728597E-002	-2.191837E-003	4.731739E-002	-2.209110E-003	-1.216218E-001	7.171968E-003
1.600000E+008	3.322030E-002	9.665616E-004	4.727920E-002	-2.335450E-003	4.730053E-002	-2.343314E-003	-1.215513E-001	7.504458E-003
1.700000E+008	3.330997E-002	9.634512E-004	4.726148E-002	-2.493966E-003	4.731242E-002	-2.482909E-003	-1.214780E-001	7.871622E-003
1.800000E+008	3.335271E-002	9.758616E-004	4.722970E-002	-2.649952E-003	4.730498E-002	-2.635641E-003	-1.213623E-001	8.208130E-003
1.900000E+008	3.333670E-002	9.460387E-004	4.721783E-002	-2.787169E-003	4.727124E-002	-2.782399E-003	-1.213197E-001	8.487071E-003
2.000000E+008	3.330258E-002	9.194118E-004	4.720051E-002	-2.928518E-003	4.725220E-002	-2.919398E-003	-1.212619E-001	8.755155E-003
2.100000E+008	3.328389E-002	8.261239E-004	4.717779E-002	-3.060285E-003	4.724226E-002	-3.058258E-003	-1.211872E-001	8.987159E-003
2.200000E+008	3.327710E-002	7.566507E-004	4.717323E-002	-3.202226E-003	4.721994E-002	-3.194932E-003	-1.210779E-001	9.174216E-003
2.300000E+008	3.330102E-002	6.854043E-004	4.715489E-002	-3.339002E-003	4.721389E-002	-3.339569E-003	-1.209416E-001	9.410209E-003
2.400000E+008	3.334922E-002	6.039292E-004	4.713786E-002	-3.493791E-003	4.717733E-002	-3.483196E-003	-1.207903E-001	9.667358E-003
2.500000E+008	3.338269E-002	5.375999E-004	4.712040E-002	-3.638879E-003	4.717172E-002	-3.623455E-003	-1.205911E-001	9.915689E-003
2.600000E+008	3.346462E-002	4.762343E-004	4.710263E-002	-3.775383E-003	4.715244E-002	-3.773354E-003	-1.203793E-001	1.023977E-002
2.700000E+008	3.356701E-002	4.202381E-004	4.708057E-002	-3.915875E-003	4.710978E-002	-3.900720E-003	-1.201349E-001	1.058756E-002
2.800000E+008	3.364275E-002	4.035213E-004	4.705295E-002	-4.044797E-003	4.709881E-002	-4.041817E-003	-1.199328E-001	1.090562E-002
2.900000E+008	3.368569E-002	3.887423E-004	4.704245E-002	-4.186287E-003	4.706804E-002	-4.178579E-003	-1.198025E-001	1.127381E-002
3.000000E+008	3.374629E-002	4.293511E-004	4.703822E-002	-4.327222E-003	4.706161E-002	-4.314970E-003	-1.196564E-001	1.165017E-002
3.100000E+008	3.376318E-002	4.414656E-004	4.699958E-002	-4.470445E-003	4.703721E-002	-4.458709E-003	-1.195396E-001	1.202699E-002
3.200000E+008	3.376621E-002	4.962823E-004	4.698763E-002	-4.616683E-003	4.701932E-002	-4.609373E-003	-1.194545E-001	1.242353E-002
3.300000E+008	3.374508E-002	5.324252E-004	4.696313E-002	-4.757919E-003	4.700514E-002	-4.753216E-003	-1.193557E-001	1.275880E-002
3.400000E+008	3.369083E-002	5.524199E-004	4.692368E-002	-4.890555E-003	4.695935E-002	-4.910503E-003	-1.192300E-001	1.308242E-002
3.500000E+008	3.363162E-002	5.109548E-004	4.692177E-002	-5.045753E-003	4.692232E-002	-5.028316E-003	-1.190953E-001	1.333144E-002
3.600000E+008	3.357738E-002	4.992221E-004	4.689578E-002	-5.173797E-003	4.689902E-002	-5.166665E-003	-1.189311E-001	1.364112E-002
3.700000E+008	3.352381E-002	4.744549E-004	4.684561E-002	-5.310236E-003	4.687614E-002	-5.297331E-003	-1.187281E-001	1.389481E-002
3.800000E+008	3.348775E-002	4.187080E-004	4.682307E-002	-5.440630E-003	4.686295E-002	-5.417057E-003	-1.185213E-001	1.420889E-002
3.900000E+008	3.343725E-002	3.573517E-004	4.679866E-002	-5.578887E-003	4.684340E-002	-5.567446E-003	-1.182645E-001	1.455127E-002
4.000000E+008	3.343939E-002	2.735056E-004	4.676551E-002	-5.714892E-003	4.680759E-002	-5.714952E-003	-1.179314E-001	1.488802E-002
4.100000E+008	3.341845E-002	1.997054E-004	4.672475E-002	-5.835247E-003	4.677135E-002	-5.845461E-003	-1.176679E-001	1.523419E-002
4.200000E+008	3.340848E-002	1.186239E-004	4.671278E-002	-5.972701E-003	4.675326E-002	-5.965670E-003	-1.174503E-001	1.562257E-002
4.300000E+008	3.341240E-002	8.481445E-005	4.669311E-002	-6.114983E-003	4.673175E-002	-6.115738E-003	-1.172396E-001	1.606502E-002
4.400000E+008	3.341897E-002	6.290586E-005	4.667183E-002	-6.239930E-003	4.669867E-002	-6.242315E-003	-1.170462E-001	1.653161E-002
4.500000E+008	3.344270E-002	2.523855E-005	4.663834E-002	-6.387837E-003	4.667632E-002	-6.381786E-003	-1.168698E-001	1.700443E-002
4.600000E+008	3.346677E-002	-1.439236E-005	4.661054E-002	-6.517372E-003	4.663818E-002	-6.519444E-003	-1.166792E-001	1.747101E-002
4.700000E+008	3.346242E-002	-3.042794E-005	4.657674E-002	-6.661425E-003	4.661875E-002	-6.656722E-003	-1.165183E-001	1.788920E-002
4.800000E+008	3.344129E-002	-2.268689E-005	4.655158E-002	-6.769128E-003	4.658147E-002	-6.780100E-003	-1.163629E-001	1.831877E-002
4.900000E+008	3.339050E-002	-1.995419E-005	4.651691E-002	-6.917715E-003	4.653649E-002	-6.919381E-003	-1.162115E-001	1.873301E-002
5.000000E+008	3.338626E-002	-1.947967E-005	4.648929E-002	-7.044837E-003	4.651230E-002	-7.048706E-003	-1.160633E-001	1.912681E-002
5.100000E+008	3.335164E-002	-2.902331E-005	4.646057E-002	-7.191630E-003	4.648955E-002	-7.176675E-003	-1.158877E-001	1.954491E-002
5.200000E+008	3.330797E-002	-5.520932E-005	4.643179E-002	-7.324984E-003	4.646230E-002	-7.310650E-003	-1.157144E-001	1.994469E-002
5.300000E+008	3.324301E-002	-1.031135E-004	4.639764E-002	-7.451907E-003	4.643657E-002	-7.460861E-003	-1.154730E-001	2.033448E-002
5.400000E+008	3.318191E-002	-1.806509E-004	4.636270E-002	-7.594195E-003	4.638869E-002	-7.599382E-003	-1.152629E-001	2.072079E-002
5.500000E+008	3.313005E-002	-2.242347E-004	4.633817E-002	-7.707360E-003	4.636394E-002	-7.718222E-003	-1.150437E-001	2.115568E-002
5.600000E+008	3.309554E-002	-3.258725E-004	4.630553E-002	-7.848996E-003	4.633158E-002	-7.851713E-003	-1.148511E-001	2.158243E-002
5.700000E+008	3.307441E-002	-4.218422E-004	4.626769E-002	-7.982828E-003	4.629733E-002	-7.985237E-003	-1.146664E-001	2.204594E-002
5.800000E+008	3.304732E-002	-4.988066E-004	4.622974E-002	-8.122768E-003	4.625637E-002	-8.102299E-003	-1.144971E-001	2.251001E-002
5.900000E+008	3.304982E-002	-5.935739E-004	4.618651E-002	-8.251207E-003	4.623441E-002	-8.247892E-003	-1.143017E-001	2.302578E-002
6.000000E+008	3.309413E-002	-6.797998E-004	4.616086E-002	-8.373205E-003	4.619615E-002	-8.385353E-003	-1.140930E-001	2.347318E-002
6.100000E+008	3.315785E-002	-7.432102E-004	4.611762E-002	-8.509636E-003	4.615403E-002	-8.520869E-003	-1.139460E-001	2.393198E-002
6.200000E+008	3.319836E-002	-7.560138E-004	4.607806E-002	-8.645077E-003	4.611147E-002	-8.632526E-003	-1.137530E-001	2.437703E-002
6.300000E+008	3.325327E-002	-7.735759E-004	4.603140E-002	-8.761885E-003	4.608057E-002	-8.763236E-003	-1.135689E-001	2.481527E-002
6.400000E+008	3.331203E-002	-7.822840E-004	4.600454E-002	-8.900578E-003	4.604417E-002	-8.904244E-003	-1.133895E-001	2.526811E-002
6.500000E+008	3.336120E-002	-7.629205E-004	4.596897E-002	-9.014445E-003	4.601393E-002	-9.020527E-003	-1.132220E-001	2.572487E-002
6.600000E+008	3.337423E-002	-7.732718E-004	4.593447E-002	-9.155796E-003	4.596986E-002	-9.163383E-003	-1.130328E-001	2.617366E-002
6.700000E+008	3.334599E-002	-7.481025E-004	4.589966E-002	-9.276139E-003	4.592633E-002	-9.280978E-003	-1.128798E-001	2.665275E-002
6.800000E+008	3.330857E-002	-7.362934E-004	4.586450E-002	-9.417733E-003	4.589154E-002	-9.413303E-003	-1.126687E-001	2.713433E-002
6.900000E+008	3.327941E-002	-7.307442E-004	4.581587E-002	-9.530632E-003	4.584670E-002	-9.541153E-003	-1.124824E-001	2.764045E-002
7.000000E+008	3.327284E-002	-7.151164E-004	4.578109E-002	-9.656225E-003	4.582659E-002	-9.657621E-003	-1.123618E-001	2.811360E-002
7.100000E+008	3.323822E-002	-7.393757E-004	4.574988E-002	-9.785877E-003	4.578683E-002	-9.788601E-003	-1.122287E-001	2.858558E-002
7.200000E+008	3.320132E-002	-7.477790E-004	4.571844E-002	-9.903772E-003	4.575724E-002	-9.917811E-003	-1.121063E-001	2.905959E-002
7.300000E+008	3.315586E-002	-7.784256E-004	4.567468E-002	-1.003341E-002	4.571020E-002	-1.005439E-002	-1.119755E-001	2.948281E-002
7.400000E+008	3.310022E-002	-7.915643E-004	4.564132E-002	-1.018078E-002	4.568033E-002	-1.016573E-002	-1.118849E-001	2.991858E-002
7.500000E+008	3.307162E-002	-8.398863E-004	4.560410E-002	-1.029161E-002	4.562564E-002	-1.030233E-002	-1.117692E-001	3.030440E-002
7.600000E+008	3.305744E-002	-8.766729E-004	4.555581E-002	-1.041732E-002	4.559199E-002	-1.042076E-002	-1.116190E-001	3.072186E-002
7.700000E+008	3.302487E-002	-9.485361E-004	4.551223E-002	-1.055017E-002	4.556281E-002	-1.053889E-002	-1.114918E-001	3.107122E-002
7.800000E+008	3.299446E-002	-9.867570E-004	4.547635E-002	-1.068101E-002	4.552050E-002	-1.068934E-002	-1.112966E-001	3.143714E-002
7.900000E+008	3.298678E-002	-1.092451E-003	4.544191E-002	-1.080711E-002	4.547704E-002	-1.082603E-002	-1.111281E-001	3.183960E-002
8.000000E+008	3.298696E-002	-1.169892E-003	4.537816E-002	-1.092474E-002	4.542421E-002	-1.094395E-002	-1.109127E-001	3.223869E-002
8.100000E+008	3.302086E-002	-1.244068E-003	4.535124E-002	-1.106204E-002	4.538452E-002	-1.106898E-002	-1.106463E-001	3.268032E-002
8.200000E+008	3.305580E-002	-1.306717E-003	4.530899E-002	-1.118422E-002	4.535121E-002	-1.119316E-002	-1.103977E-001	3.310375E-002
8.300000E+008	3.309886E-002	-1.353887E-003	4.526262E-002	-1.131168E-002	4.529730E-002	-1.131022E-002	-1.101971E-001	3.354135E-002
8.400000E+008	3.316551E-002	-1.399493E-003	4.522129E-002	-1.142149E-002	4.525712E-002	-1.143357E-002	-1.099963E-001	3.398094E-002
8.500000E+008	3.321803E-002	-1.387387E-003	4.519413E-002	-1.155624E-002	4.520692E-002	-1.156119E-002	-1.098348E-001	3.442299E-002
8.600000E+008	3.323506E-002	-1.403328E-003	4.514070E-002	-1.168227E-002	4.518511E-002	-1.168438E-002	-1.096631E-001	3.485944E-002
8.700000E+008	3.326949E-002	-1.393753E-003	4.508873E-002	-1.179683E-002	4.512542E-002	-1.180620E-002	-1.095103E-001	3.528482E-002
8.800000E+008	3.328862E-002	-1.348043E-003	4.505805E-002	-1.193172E-002	4.510785E-002	-1.192770E-002	-1.093609E-001	3.569805E-002
8.900000E+008	3.328373E-002	-1.360366E-003	4.500927E-002	-1.203958E-002	4.506022E-002	-1.205491E-002	-1.091966E-001	3.607752E-002
9.000000E+008	3.326359E-002	-1.350710E-003	4.496702E-002	-1.216235E-002	4.500886E-002	-1.216651E-002	-1.090032E-001	3.646468E-002
9.100000E+008	3.325964E-002	-1.353108E-003	4.491792E-002	-1.230466E-002	4.495644E-002	-1.229516E-002	-1.087778E-001	3.684786E-002
9.200000E+008	3.322181E-002	-1.387719E-003	4.487476E-002	-1.240649E-002	4.491789E-002	-1.242388E-002	-1.085133E-001	3.725089E-002
9.300000E+008	3.322380E-002	-1.425805E-003	4.483096E-002	-1.253726E-002	4.486563E-002	-1.255945E-002	-1.082285E-001	3.765041E-002
9.400000E+008	3.325172E-002	-1.497780E-003	4.479352E-002	-1.264937E-002	4.483728E-002	-1.268333E-002	-1.078923E-001	3.807543E-002
9.500000E+008	3.328557E-002	-1.525967E-003	4.475355E-002	-1.277947E-002	4.477731E-002	-1.278903E-002	-1.075950E-001	3.855843E-002
9.600000E+008	3.330129E-002	-1.532774E-003	4.469984E-002	-1.289574E-002	4.474261E-002	-1.292005E-002	-1.072512E-001	3.905966E-002
9.700000E+008	3.333133E-002	-1.555646E-003	4.464424E-002	-1.302061E-002	4.467952E-002	-1.302287E-002	-1.069292E-001	3.953393E-002
9.800000E+008	3.339197E-002	-1.553658E-003	4.460059E-002	-1.314205E-002	4.465027E-002	-1.314064E-002	-1.066649E-001	4.004070E-002
9.900000E+008	3.342630E-002	-1.541030E-003	4.457803E-002	-1.327175E-002	4.460686E-002	-1.328245E-002	-1.064132E-001	4.056034E-002
1.000000E+009	3.345291E-002	-1.515226E-003	4.452233E-002	-1.338106E-002	4.456891E-002	-1.340498E-002	-1.061784E-001	4.102180E-002
1.010000E+009	3.346459E-002	-1.466831E-003	4.448267E-002	-1.350792E-002	4.450372E-002	-1.350353E-002	-1.059609E-001	4.154261E-002
1.020000E+009	3.347325E-002	-1.445670E-003	4.444705E-002	-1.363634E-002	4.446829E-002	-1.364575E-002	-1.057519E-001	4.203528E-002
1.030000E+009	3.348201E-002	-1.421986E-003	4.438171E-002	-1.375847E-002	4.441815E-002	-1.376662E-002	-1.055571E-001	4.251210E-002
1.040000E+009	3.345841E-002	-1.381439E-003	4.432908E-002	-1.388960E-002	4.437569E-002	-1.388992E-002	-1.053335E-001	4.299152E-002
1.050000E+009	3.346225E-002	-1.386453E-003	4.429680E-002	-1.398807E-002	4.432731E-002	-1.400663E-002	-1.050739E-001	4.351751E-002
1.060000E+009	3.348002E-002	-1.364304E-003	4.422911E-002	-1.412109E-002	4.427748E-002	-1.411338E-002	-1.048211E-001	4.398726E-002
1.070000E+009	3.346387E-002	-1.368150E-003	4.419841E-002	-1.423107E-002	4.424871E-002	-1.423755E-002	-1.045267E-001	4.448864E-002
1.080000E+009	3.346295E-002	-1.376654E-003	4.414364E-002	-1.435421E-002	4.417889E-002	-1.436201E-002	-1.042585E-001	4.498874E-002
1.090000E+009	3.345033E-002	-1.366193E-003	4.409155E-002	-1.447431E-002	4.413243E-002	-1.448065E-002	-1.040193E-001	4.548127E-002
1.100000E+009	3.346769E-002	-1.351515E-003	4.404626E-002	-1.460316E-002	4.409365E-002	-1.460196E-002	-1.037904E-001	4.598295E-002
1.110000E+009	3.347253E-002	-1.349486E-003	4.400481E-002	-1.472807E-002	4.405732E-002	-1.472863E-002	-1.035453E-001	4.647538E-002
1.120000E+009	3.345350E-002	-1.335035E-003	4.394912E-002	-1.483681E-002	4.399941E-002	-1.485011E-002	-1.033871E-001	4.693102E-002
1.130000E+009	3.346497E-002	-1.332568E-003	4.391555E-002	-1.495777E-002	4.395629E-002	-1.497310E-002	-1.031591E-001	4.736294E-002
1.140000E+009	3.342857E-002	-1.327787E-003	4.384985E-002	-1.508194E-002	4.390277E-002	-1.508729E-002	-1.029310E-001	4.785903E-002
1.150000E+009	3.345300E-002	-1.338173E-003	4.379624E-002	-1.520468E-002	4.383982E-002	-1.520824E-002	-1.026673E-001	4.832836E-002
1.160000E+009	3.341426E-002	-1.321903E-003	4.375305E-002	-1.533067E-002	4.378906E-002	-1.534801E-002	-1.024281E-001	4.877524E-002
1.170000E+009	3.343599E-002	-1.298391E-003	4.369504E-002	-1.544242E-002	4.373167E-002	-1.545588E-002	-1.021632E-001	4.927609E-002
1.180000E+009	3.344766E-002	-1.288846E-003	4.363366E-002	-1.557132E-002	4.369427E-002	-1.558023E-002	-1.018548E-001	4.977984E-002
1.190000E+009	3.340002E-002	-1.280647E-003	4.359410E-002	-1.568487E-002	4.361962E-002	-1.568683E-002	-1.015906E-001	5.029499E-002
1.200000E+009	3.340299E-002	-1.294132E-003	4.354669E-002	-1.579025E-002	4.357904E-002	-1.581403E-002	-1.012799E-001	5.080287E-002
1.210000E+009	3.343167E-002	-1.314820E-003	4.348666E-002	-1.591575E-002	4.351989E-002	-1.593584E-002	-1.010474E-001	5.133463E-002
1.220000E+009	3.343038E-002	-1.349073E-003	4.343522E-002	-1.602668E-002	4.347812E-002	-1.604924E-002	-1.008209E-001	5.181264E-002
1.230000E+009	3.340932E-002	-1.360372E-003	4.338542E-002	-1.616757E-002	4.342710E-002	-1.616808E-002	-1.005939E-001	5.229665E-002
1.240000E+009	3.342464E-002	-1.392960E-003	4.334476E-002	-1.626978E-002	4.337159E-002	-1.626958E-002	-1.003585E-001	5.275865E-002
1.250000E+009	3.346047E-002	-1.442427E-003	4.328182E-002	-1.640717E-002	4.330273E-002	-1.638632E-002	-1.001523E-001	5.321713E-002
1.260000E+009	3.350003E-002	-1.448467E-003	4.321691E-002	-1.649032E-002	4.325752E-002	-1.651757E-002	-9.988503E-002	5.362418E-002
1.270000E+009	3.358430E-002	-1.469024E-003	4.316448E-002	-1.661789E-002	4.320592E-002	-1.663047E-002	-9.960110E-002	5.402617E-002
1.280000E+009	3.362715E-002	-1.478189E-003	4.311432E-002	-1.674736E-002	4.314169E-002	-1.674101E-002	-9.931100E-002	5.445087E-002
1.290000E+009	3.366187E-002	-1.452227E-003	4.306004E-002	-1.687010E-002	4.310818E-002	-1.687534E-002	-9.897251E-002	5.484440E-002
1.300000E+009	3.371412E-002	-1.384453E-003	4.299614E-002	-1.696169E-002	4.305567E-002	-1.700271E-002	-9.862572E-002	5.529571E-002
1.310000E+009	3.375913E-002	-1.372963E-003	4.293497E-002	-1.709753E-002	4.298586E-002	-1.710476E-002	-9.825969E-002	5.575503E-002
1.320000E+009	3.378039E-002	-1.339636E-003	4.288307E-002	-1.722367E-002	4.291515E-002	-1.723012E-002	-9.784445E-002	5.627396E-002
1.330000E+009	3.379530E-002	-1.277846E-003	4.281362E-002	-1.734913E-002	4.285824E-002	-1.737688E-002	-9.744513E-002	5.683962E-002
1.340000E+009	3.378197E-002	-1.247172E-003	4.276756E-002	-1.745825E-002	4.280542E-002	-1.747485E-002	-9.706978E-002	5.738669E-002
1.350000E+009	3.377676E-002	-1.205895E-003	4.272264E-002	-1.757717E-002	4.274365E-002	-1.759785E-002	-9.669704E-002	5.796646E-002
1.360000E+009	3.381699E-002	-1.168033E-003	4.264663E-002	-1.769377E-002	4.268814E-002	-1.771117E-002	-9.632122E-002	5.856590E-002
1.370000E+009	3.382819E-002	-1.135141E-003	4.258424E-002	-1.783748E-002	4.263522E-002	-1.782517E-002	-9.600029E-002	5.919292E-002
1.380000E+009	3.384961E-002	-1.146920E-003	4.252434E-002	-1.792189E-002	4.257046E-002	-1.792978E-002	-9.568236E-002	5.978178E-002
1.390000E+009	3.389442E-002	-1.108522E-003	4.246844E-002	-1.805872E-002	4.251530E-002	-1.805149E-002	-9.538433E-002	6.041103E-002
1.400000E+009	3.387245E-002	-1.100288E-003	4.240091E-002	-1.814976E-002	4.244488E-002	-1.816104E-002	-9.510884E-002	6.099262E-002
1.410000E+009	3.389097E-002	-1.054409E-003	4.234364E-002	-1.827716E-002	4.236336E-002	-1.829014E-002	-9.480480E-002	6.158905E-002
1.420000E+009	3.388164E-002	-9.871768E-004	4.227293E-002	-1.838851E-002	4.231280E-002	-1.839725E-002	-9.454533E-002	6.212183E-002
1.430000E+009	3.390385E-002	-9.542452E-004	4.221465E-002	-1.850344E-002	4.226283E-002	-1.852772E-002	-9.424476E-002	6.266828E-002
1.440000E+009	3.389398E-002	-9.231825E-004	4.216599E-002	-1.861219E-002	4.218937E-002	-1.862523E-002	-9.396272E-002	6.318706E-002
1.450000E+009	3.387445E-002	-8.967366E-004	4.208594E-002	-1.872440E-002	4.211747E-002	-1.873764E-002	-9.362919E-002	6.373224E-002
1.460000E+009	3.388161E-002	-8.797060E-004	4.201534E-002	-1.885777E-002	4.205927E-002	-1.886258E-002	-9.328923E-002	6.427404E-002
1.470000E+009	3.388513E-002	-8.799750E-004	4.195533E-002	-1.897327E-002	4.198577E-002	-1.896983E-002	-9.294138E-002	6.483731E-002
1.480000E+009	3.386633E-002	-8.390308E-004	4.189278E-002	-1.907548E-002	4.192571E-002	-1.910073E-002	-9.258691E-002	6.541404E-002
1.490000E+009	3.387273E-002	-8.106179E-004	4.181575E-002	-1.916726E-002	4.186590E-002	-1.918839E-002	-9.221542E-002	6.601172E-002
1.500000E+009	3.388144E-002	-8.253228E-004	4.176837E-002	-1.930138E-002	4.178739E-002	-1.930035E-002	-9.181146E-002	6.663448E-002
1.510000E+009	3.390828E-002	-8.043038E-004	4.169102E-002	-1.940072E-002	4.173132E-002	-1.941496E-002	-9.147923E-002	6.723733E-002
