! Device ID: PE43711P
! File Path: z:\PE43711P\CHAR_NOM_04282014\AMB\3p300\LS_ATT_15p25dB\PE43711P_AMB_3p300V_3p000V_0p000V_LS_ATT_15p25dB_S2P_SN_5_A0137A.s2p
! Serial: 5
! Lot: A0137A
! Temp: 25C
! VDD: 3.300
! VSS: 0.000
! Control_Hi: 3.000
! Control_Lo: 0.000
! Attenuation Step: 15.25dB
! Port 1: RF1
! Port 2: RF2
! ThroughPath:1-2
! IDD: 0.0001281594
! ISS: -9.22e-008
!

#  Hz  S   RI  R   50

1.000000E+007	6.387750E-002	5.175574E-005	1.509045E-001	-7.142973E-004	1.510676E-001	-7.295448E-004	-1.091059E-001	8.789896E-004
2.000000E+007	6.409011E-002	-4.485632E-005	1.509172E-001	-1.117261E-003	1.510170E-001	-1.138934E-003	-1.088250E-001	1.448870E-003
3.000000E+007	6.435568E-002	-2.401464E-004	1.509129E-001	-1.684469E-003	1.510222E-001	-1.705850E-003	-1.085178E-001	1.919432E-003
4.000000E+007	6.450381E-002	-4.538675E-004	1.509123E-001	-2.269896E-003	1.510004E-001	-2.269410E-003	-1.083445E-001	2.454275E-003
5.000000E+007	6.460036E-002	-6.924728E-004	1.508965E-001	-2.867456E-003	1.510146E-001	-2.850086E-003	-1.083048E-001	2.998202E-003
6.000000E+007	6.474967E-002	-9.913266E-004	1.508504E-001	-3.412792E-003	1.510102E-001	-3.425766E-003	-1.081657E-001	3.412256E-003
7.000000E+007	6.485562E-002	-1.275874E-003	1.508236E-001	-3.965157E-003	1.509531E-001	-3.981142E-003	-1.079844E-001	3.822652E-003
8.000000E+007	6.496579E-002	-1.568527E-003	1.508062E-001	-4.495670E-003	1.509212E-001	-4.517981E-003	-1.078293E-001	4.224171E-003
9.000000E+007	6.506374E-002	-1.850333E-003	1.507813E-001	-5.057292E-003	1.508972E-001	-5.084065E-003	-1.077146E-001	4.571761E-003
1.000000E+008	6.516913E-002	-2.128418E-003	1.507583E-001	-5.629100E-003	1.508605E-001	-5.639959E-003	-1.076280E-001	4.949667E-003
1.100000E+008	6.525453E-002	-2.414557E-003	1.507134E-001	-6.209968E-003	1.508169E-001	-6.171990E-003	-1.075436E-001	5.298178E-003
1.200000E+008	6.535439E-002	-2.762917E-003	1.506410E-001	-6.755340E-003	1.507638E-001	-6.754336E-003	-1.074740E-001	5.584435E-003
1.300000E+008	6.542273E-002	-3.062050E-003	1.505905E-001	-7.285462E-003	1.507257E-001	-7.319454E-003	-1.073529E-001	5.901769E-003
1.400000E+008	6.546113E-002	-3.342716E-003	1.505530E-001	-7.843985E-003	1.506667E-001	-7.873668E-003	-1.072316E-001	6.210689E-003
1.500000E+008	6.543742E-002	-3.610209E-003	1.504978E-001	-8.371420E-003	1.505851E-001	-8.403642E-003	-1.071216E-001	6.509595E-003
1.600000E+008	6.543350E-002	-3.838830E-003	1.504603E-001	-8.908578E-003	1.505236E-001	-8.931518E-003	-1.070865E-001	6.820067E-003
1.700000E+008	6.545461E-002	-4.092227E-003	1.504187E-001	-9.498995E-003	1.505326E-001	-9.470314E-003	-1.070481E-001	7.128535E-003
1.800000E+008	6.543587E-002	-4.380695E-003	1.502899E-001	-1.007925E-002	1.504873E-001	-1.006110E-002	-1.069690E-001	7.413987E-003
1.900000E+008	6.535668E-002	-4.693527E-003	1.501980E-001	-1.060139E-002	1.504002E-001	-1.062342E-002	-1.069271E-001	7.639455E-003
2.000000E+008	6.526641E-002	-5.010724E-003	1.501331E-001	-1.112707E-002	1.503117E-001	-1.112847E-002	-1.068532E-001	7.877764E-003
2.100000E+008	6.517988E-002	-5.385162E-003	1.500904E-001	-1.165445E-002	1.502217E-001	-1.165014E-002	-1.067509E-001	8.066457E-003
2.200000E+008	6.509697E-002	-5.720538E-003	1.500307E-001	-1.216021E-002	1.501564E-001	-1.217906E-002	-1.066223E-001	8.248108E-003
2.300000E+008	6.504025E-002	-6.055677E-003	1.499606E-001	-1.270715E-002	1.500623E-001	-1.271844E-002	-1.065016E-001	8.436098E-003
2.400000E+008	6.499746E-002	-6.417201E-003	1.498993E-001	-1.324760E-002	1.499935E-001	-1.325413E-002	-1.063668E-001	8.660974E-003
2.500000E+008	6.495023E-002	-6.747438E-003	1.497947E-001	-1.379802E-002	1.499184E-001	-1.378678E-002	-1.061854E-001	8.861224E-003
2.600000E+008	6.493538E-002	-7.089343E-003	1.496942E-001	-1.434269E-002	1.498370E-001	-1.432664E-002	-1.059842E-001	9.134538E-003
2.700000E+008	6.490996E-002	-7.412323E-003	1.495969E-001	-1.486881E-002	1.497371E-001	-1.486182E-002	-1.057477E-001	9.429915E-003
2.800000E+008	6.491743E-002	-7.688125E-003	1.495076E-001	-1.537102E-002	1.496425E-001	-1.537286E-002	-1.055692E-001	9.712674E-003
2.900000E+008	6.486591E-002	-7.962797E-003	1.494385E-001	-1.589004E-002	1.495432E-001	-1.587724E-002	-1.054279E-001	1.001097E-002
3.000000E+008	6.483070E-002	-8.183769E-003	1.493699E-001	-1.642312E-002	1.494762E-001	-1.641545E-002	-1.052913E-001	1.035932E-002
3.100000E+008	6.476242E-002	-8.426457E-003	1.492683E-001	-1.694865E-002	1.493808E-001	-1.694910E-002	-1.051560E-001	1.071502E-002
3.200000E+008	6.467944E-002	-8.645453E-003	1.491656E-001	-1.750498E-002	1.492994E-001	-1.749219E-002	-1.050761E-001	1.105495E-002
3.300000E+008	6.457244E-002	-8.850732E-003	1.490960E-001	-1.802166E-002	1.491996E-001	-1.804600E-002	-1.049893E-001	1.136672E-002
3.400000E+008	6.438041E-002	-9.094362E-003	1.489729E-001	-1.855350E-002	1.490516E-001	-1.859349E-002	-1.048631E-001	1.164905E-002
3.500000E+008	6.420290E-002	-9.347400E-003	1.488656E-001	-1.908145E-002	1.489154E-001	-1.909183E-002	-1.047277E-001	1.187697E-002
3.600000E+008	6.402133E-002	-9.582024E-003	1.487683E-001	-1.961206E-002	1.488031E-001	-1.956509E-002	-1.045739E-001	1.213938E-002
3.700000E+008	6.388323E-002	-9.855889E-003	1.486371E-001	-2.009549E-002	1.487073E-001	-2.003495E-002	-1.043838E-001	1.235462E-002
3.800000E+008	6.374454E-002	-1.014246E-002	1.485169E-001	-2.062454E-002	1.486495E-001	-2.056566E-002	-1.042118E-001	1.260559E-002
3.900000E+008	6.357721E-002	-1.047163E-002	1.483885E-001	-2.114961E-002	1.485419E-001	-2.110760E-002	-1.039411E-001	1.292558E-002
4.000000E+008	6.347508E-002	-1.078417E-002	1.482646E-001	-2.161574E-002	1.484167E-001	-2.165607E-002	-1.036355E-001	1.319500E-002
4.100000E+008	6.333615E-002	-1.109502E-002	1.481604E-001	-2.209266E-002	1.482909E-001	-2.214415E-002	-1.033738E-001	1.351164E-002
4.200000E+008	6.318514E-002	-1.140289E-002	1.480670E-001	-2.261772E-002	1.481827E-001	-2.263178E-002	-1.031573E-001	1.386213E-002
4.300000E+008	6.310184E-002	-1.167104E-002	1.479632E-001	-2.312783E-002	1.480640E-001	-2.314668E-002	-1.029339E-001	1.425706E-002
4.400000E+008	6.299171E-002	-1.191818E-002	1.478531E-001	-2.365147E-002	1.479418E-001	-2.365546E-002	-1.027633E-001	1.469837E-002
4.500000E+008	6.289401E-002	-1.216663E-002	1.477363E-001	-2.416293E-002	1.478341E-001	-2.416295E-002	-1.025780E-001	1.513053E-002
4.600000E+008	6.279208E-002	-1.241809E-002	1.476047E-001	-2.467143E-002	1.476889E-001	-2.469111E-002	-1.024078E-001	1.557300E-002
4.700000E+008	6.266424E-002	-1.266397E-002	1.474640E-001	-2.518070E-002	1.475686E-001	-2.519960E-002	-1.022608E-001	1.596888E-002
4.800000E+008	6.253020E-002	-1.286487E-002	1.473545E-001	-2.565859E-002	1.474316E-001	-2.567681E-002	-1.021208E-001	1.636995E-002
4.900000E+008	6.234743E-002	-1.308037E-002	1.472179E-001	-2.616217E-002	1.472994E-001	-2.617436E-002	-1.020056E-001	1.674093E-002
5.000000E+008	6.219501E-002	-1.328194E-002	1.470816E-001	-2.666580E-002	1.471815E-001	-2.668371E-002	-1.018460E-001	1.709312E-002
5.100000E+008	6.205892E-002	-1.352280E-002	1.469655E-001	-2.716427E-002	1.470680E-001	-2.716902E-002	-1.016652E-001	1.744256E-002
5.200000E+008	6.188467E-002	-1.375300E-002	1.468283E-001	-2.765725E-002	1.469471E-001	-2.767604E-002	-1.015075E-001	1.781283E-002
5.300000E+008	6.171483E-002	-1.402163E-002	1.467142E-001	-2.817137E-002	1.468108E-001	-2.820321E-002	-1.012542E-001	1.816184E-002
5.400000E+008	6.152737E-002	-1.431864E-002	1.465533E-001	-2.866605E-002	1.466833E-001	-2.868994E-002	-1.010425E-001	1.851596E-002
5.500000E+008	6.134189E-002	-1.456866E-002	1.464207E-001	-2.916828E-002	1.465218E-001	-2.917534E-002	-1.008373E-001	1.891354E-002
5.600000E+008	6.117399E-002	-1.485464E-002	1.462703E-001	-2.965046E-002	1.463611E-001	-2.966722E-002	-1.006331E-001	1.930970E-002
5.700000E+008	6.101973E-002	-1.515026E-002	1.461312E-001	-3.013773E-002	1.462333E-001	-3.016070E-002	-1.004823E-001	1.974204E-002
5.800000E+008	6.088194E-002	-1.541028E-002	1.459890E-001	-3.062787E-002	1.460888E-001	-3.063979E-002	-1.003270E-001	2.019164E-002
5.900000E+008	6.076740E-002	-1.570981E-002	1.458409E-001	-3.114254E-002	1.459771E-001	-3.114423E-002	-1.001424E-001	2.065967E-002
6.000000E+008	6.067016E-002	-1.598760E-002	1.456966E-001	-3.161942E-002	1.457920E-001	-3.164419E-002	-9.997235E-002	2.105447E-002
6.100000E+008	6.056249E-002	-1.625611E-002	1.455487E-001	-3.210077E-002	1.456328E-001	-3.213556E-002	-9.981040E-002	2.148530E-002
6.200000E+008	6.049614E-002	-1.646956E-002	1.453802E-001	-3.258338E-002	1.454899E-001	-3.261274E-002	-9.963626E-002	2.188388E-002
6.300000E+008	6.042110E-002	-1.667874E-002	1.452343E-001	-3.306142E-002	1.453279E-001	-3.308732E-002	-9.948620E-002	2.228838E-002
6.400000E+008	6.034724E-002	-1.688274E-002	1.451026E-001	-3.354688E-002	1.451876E-001	-3.358033E-002	-9.929982E-002	2.270919E-002
6.500000E+008	6.026174E-002	-1.706269E-002	1.449361E-001	-3.401415E-002	1.450457E-001	-3.404964E-002	-9.911720E-002	2.311819E-002
6.600000E+008	6.016003E-002	-1.725605E-002	1.448014E-001	-3.451205E-002	1.448934E-001	-3.454809E-002	-9.892571E-002	2.354068E-002
6.700000E+008	5.999798E-002	-1.741851E-002	1.446260E-001	-3.500196E-002	1.447290E-001	-3.504057E-002	-9.876777E-002	2.398202E-002
6.800000E+008	5.982190E-002	-1.758189E-002	1.444670E-001	-3.548694E-002	1.445701E-001	-3.550089E-002	-9.860903E-002	2.445228E-002
6.900000E+008	5.965561E-002	-1.774124E-002	1.443054E-001	-3.596267E-002	1.443957E-001	-3.598010E-002	-9.844156E-002	2.491728E-002
7.000000E+008	5.950460E-002	-1.790747E-002	1.441408E-001	-3.643084E-002	1.442425E-001	-3.645169E-002	-9.832156E-002	2.536049E-002
7.100000E+008	5.933889E-002	-1.811728E-002	1.439915E-001	-3.688323E-002	1.440881E-001	-3.692023E-002	-9.822276E-002	2.579503E-002
7.200000E+008	5.914410E-002	-1.831585E-002	1.438321E-001	-3.735131E-002	1.439357E-001	-3.739977E-002	-9.808749E-002	2.622475E-002
7.300000E+008	5.899091E-002	-1.852853E-002	1.436622E-001	-3.784335E-002	1.437830E-001	-3.789673E-002	-9.798578E-002	2.659651E-002
7.400000E+008	5.878325E-002	-1.872247E-002	1.434833E-001	-3.831640E-002	1.436202E-001	-3.835472E-002	-9.789806E-002	2.699051E-002
7.500000E+008	5.863131E-002	-1.892529E-002	1.433258E-001	-3.877056E-002	1.434333E-001	-3.882377E-002	-9.777798E-002	2.734867E-002
7.600000E+008	5.847617E-002	-1.915045E-002	1.431430E-001	-3.925609E-002	1.432709E-001	-3.929029E-002	-9.764351E-002	2.770725E-002
7.700000E+008	5.829207E-002	-1.939437E-002	1.430087E-001	-3.973216E-002	1.430917E-001	-3.976478E-002	-9.748003E-002	2.803694E-002
7.800000E+008	5.814266E-002	-1.959836E-002	1.428324E-001	-4.019753E-002	1.429289E-001	-4.023722E-002	-9.732634E-002	2.837670E-002
7.900000E+008	5.798945E-002	-1.986436E-002	1.426652E-001	-4.066587E-002	1.427645E-001	-4.072804E-002	-9.718493E-002	2.875100E-002
8.000000E+008	5.783750E-002	-2.009878E-002	1.424735E-001	-4.114577E-002	1.425808E-001	-4.118928E-002	-9.696746E-002	2.914920E-002
8.100000E+008	5.769567E-002	-2.034684E-002	1.423086E-001	-4.159995E-002	1.423895E-001	-4.165729E-002	-9.673840E-002	2.953316E-002
8.200000E+008	5.760500E-002	-2.058221E-002	1.421269E-001	-4.205874E-002	1.422267E-001	-4.211149E-002	-9.651335E-002	2.991060E-002
8.300000E+008	5.750864E-002	-2.080330E-002	1.419479E-001	-4.251728E-002	1.420544E-001	-4.257780E-002	-9.631432E-002	3.031156E-002
8.400000E+008	5.743408E-002	-2.101583E-002	1.417624E-001	-4.298085E-002	1.418707E-001	-4.302029E-002	-9.614784E-002	3.070928E-002
8.500000E+008	5.735362E-002	-2.118585E-002	1.415985E-001	-4.345650E-002	1.417044E-001	-4.351308E-002	-9.600066E-002	3.110528E-002
8.600000E+008	5.723308E-002	-2.137658E-002	1.414018E-001	-4.390597E-002	1.415047E-001	-4.395158E-002	-9.583590E-002	3.151871E-002
8.700000E+008	5.710104E-002	-2.149654E-002	1.412243E-001	-4.437500E-002	1.413097E-001	-4.442061E-002	-9.568335E-002	3.189087E-002
8.800000E+008	5.700522E-002	-2.164914E-002	1.410471E-001	-4.483742E-002	1.411540E-001	-4.486460E-002	-9.552868E-002	3.228897E-002
8.900000E+008	5.684997E-002	-2.180812E-002	1.408527E-001	-4.529230E-002	1.409659E-001	-4.535428E-002	-9.537394E-002	3.263414E-002
9.000000E+008	5.669547E-002	-2.195092E-002	1.406517E-001	-4.574263E-002	1.407852E-001	-4.580319E-002	-9.518601E-002	3.300333E-002
9.100000E+008	5.651559E-002	-2.209477E-002	1.404775E-001	-4.621408E-002	1.406048E-001	-4.625547E-002	-9.499137E-002	3.334113E-002
9.200000E+008	5.634475E-002	-2.229784E-002	1.402858E-001	-4.665486E-002	1.404134E-001	-4.671168E-002	-9.474092E-002	3.371804E-002
9.300000E+008	5.619996E-002	-2.246436E-002	1.401033E-001	-4.709386E-002	1.401955E-001	-4.717739E-002	-9.447849E-002	3.408176E-002
9.400000E+008	5.607482E-002	-2.267102E-002	1.399166E-001	-4.756419E-002	1.400289E-001	-4.763227E-002	-9.416600E-002	3.450381E-002
9.500000E+008	5.594410E-002	-2.286715E-002	1.397277E-001	-4.802673E-002	1.398319E-001	-4.809583E-002	-9.386102E-002	3.494118E-002
9.600000E+008	5.581902E-002	-2.303191E-002	1.395297E-001	-4.845715E-002	1.396434E-001	-4.853393E-002	-9.354798E-002	3.537084E-002
9.700000E+008	5.573313E-002	-2.320663E-002	1.393310E-001	-4.890021E-002	1.394508E-001	-4.900110E-002	-9.323826E-002	3.582777E-002
9.800000E+008	5.564492E-002	-2.334416E-002	1.391559E-001	-4.935857E-002	1.392438E-001	-4.944923E-002	-9.297379E-002	3.629348E-002
9.900000E+008	5.554972E-002	-2.348260E-002	1.389634E-001	-4.982534E-002	1.390723E-001	-4.987918E-002	-9.270615E-002	3.676258E-002
1.000000E+009	5.542121E-002	-2.359560E-002	1.387702E-001	-5.026643E-002	1.388576E-001	-5.032387E-002	-9.250956E-002	3.720264E-002
1.010000E+009	5.529440E-002	-2.369453E-002	1.385908E-001	-5.071979E-002	1.386697E-001	-5.078187E-002	-9.229231E-002	3.769350E-002
1.020000E+009	5.516211E-002	-2.380177E-002	1.383672E-001	-5.118827E-002	1.384596E-001	-5.121473E-002	-9.208848E-002	3.818368E-002
1.030000E+009	5.501031E-002	-2.391414E-002	1.381546E-001	-5.163574E-002	1.382732E-001	-5.167870E-002	-9.189651E-002	3.863411E-002
1.040000E+009	5.484467E-002	-2.401784E-002	1.379592E-001	-5.205645E-002	1.380541E-001	-5.212747E-002	-9.170430E-002	3.908000E-002
1.050000E+009	5.470930E-002	-2.418399E-002	1.377532E-001	-5.251304E-002	1.378493E-001	-5.256951E-002	-9.147790E-002	3.956481E-002
1.060000E+009	5.454920E-002	-2.430570E-002	1.375518E-001	-5.294970E-002	1.376565E-001	-5.299662E-002	-9.121325E-002	3.999617E-002
1.070000E+009	5.438278E-002	-2.444995E-002	1.373440E-001	-5.338203E-002	1.374473E-001	-5.342520E-002	-9.097755E-002	4.044242E-002
1.080000E+009	5.424438E-002	-2.457769E-002	1.371273E-001	-5.383735E-002	1.372460E-001	-5.388838E-002	-9.071781E-002	4.091769E-002
1.090000E+009	5.410462E-002	-2.473585E-002	1.369233E-001	-5.428392E-002	1.370447E-001	-5.432073E-002	-9.047700E-002	4.134352E-002
1.100000E+009	5.398263E-002	-2.486372E-002	1.366818E-001	-5.472360E-002	1.368518E-001	-5.476368E-002	-9.025477E-002	4.184072E-002
1.110000E+009	5.383029E-002	-2.496618E-002	1.365084E-001	-5.518208E-002	1.366303E-001	-5.521858E-002	-9.002033E-002	4.227970E-002
1.120000E+009	5.368802E-002	-2.510396E-002	1.363075E-001	-5.558610E-002	1.364025E-001	-5.568426E-002	-8.984630E-002	4.270469E-002
1.130000E+009	5.354267E-002	-2.523112E-002	1.360949E-001	-5.605121E-002	1.361893E-001	-5.609898E-002	-8.964473E-002	4.314394E-002
1.140000E+009	5.334834E-002	-2.534044E-002	1.358887E-001	-5.650603E-002	1.359838E-001	-5.655338E-002	-8.943296E-002	4.360996E-002
1.150000E+009	5.321595E-002	-2.547694E-002	1.356342E-001	-5.693765E-002	1.357448E-001	-5.699189E-002	-8.920102E-002	4.404772E-002
1.160000E+009	5.305268E-002	-2.558969E-002	1.354165E-001	-5.738551E-002	1.355571E-001	-5.743394E-002	-8.897705E-002	4.447007E-002
1.170000E+009	5.289545E-002	-2.571489E-002	1.351985E-001	-5.781492E-002	1.353282E-001	-5.785584E-002	-8.872956E-002	4.494659E-002
1.180000E+009	5.276247E-002	-2.586326E-002	1.349576E-001	-5.824288E-002	1.350843E-001	-5.829224E-002	-8.843935E-002	4.539108E-002
1.190000E+009	5.257393E-002	-2.597863E-002	1.347531E-001	-5.868716E-002	1.348469E-001	-5.873361E-002	-8.818880E-002	4.586871E-002
1.200000E+009	5.242920E-002	-2.610528E-002	1.345336E-001	-5.912111E-002	1.346368E-001	-5.916087E-002	-8.789829E-002	4.635908E-002
1.210000E+009	5.230030E-002	-2.627447E-002	1.343017E-001	-5.956172E-002	1.344013E-001	-5.961068E-002	-8.766295E-002	4.684187E-002
1.220000E+009	5.214161E-002	-2.641691E-002	1.340805E-001	-5.999028E-002	1.341679E-001	-6.005866E-002	-8.743969E-002	4.731196E-002
1.230000E+009	5.200779E-002	-2.655340E-002	1.338440E-001	-6.041742E-002	1.339412E-001	-6.046131E-002	-8.722056E-002	4.773999E-002
1.240000E+009	5.187913E-002	-2.672008E-002	1.336245E-001	-6.083987E-002	1.337112E-001	-6.089511E-002	-8.702146E-002	4.817700E-002
1.250000E+009	5.177116E-002	-2.688665E-002	1.333640E-001	-6.128816E-002	1.334939E-001	-6.132104E-002	-8.682403E-002	4.862736E-002
1.260000E+009	5.160569E-002	-2.701517E-002	1.331512E-001	-6.170223E-002	1.332441E-001	-6.177753E-002	-8.657542E-002	4.901838E-002
1.270000E+009	5.154599E-002	-2.713873E-002	1.329314E-001	-6.214488E-002	1.330169E-001	-6.218090E-002	-8.631691E-002	4.939338E-002
1.280000E+009	5.141759E-002	-2.727789E-002	1.326763E-001	-6.258098E-002	1.327905E-001	-6.262635E-002	-8.607158E-002	4.977448E-002
1.290000E+009	5.131969E-002	-2.736603E-002	1.324421E-001	-6.301452E-002	1.325603E-001	-6.305060E-002	-8.573615E-002	5.014937E-002
1.300000E+009	5.120877E-002	-2.745008E-002	1.321741E-001	-6.343759E-002	1.322994E-001	-6.348894E-002	-8.539753E-002	5.055356E-002
1.310000E+009	5.109604E-002	-2.754172E-002	1.319446E-001	-6.387800E-002	1.320661E-001	-6.393141E-002	-8.507306E-002	5.095806E-002
1.320000E+009	5.095558E-002	-2.764037E-002	1.316946E-001	-6.429863E-002	1.318269E-001	-6.434869E-002	-8.466444E-002	5.144708E-002
1.330000E+009	5.084580E-002	-2.769751E-002	1.314570E-001	-6.471024E-002	1.315840E-001	-6.477331E-002	-8.427582E-002	5.195892E-002
1.340000E+009	5.069737E-002	-2.776497E-002	1.312084E-001	-6.513014E-002	1.313234E-001	-6.520777E-002	-8.388320E-002	5.249162E-002
1.350000E+009	5.051120E-002	-2.783941E-002	1.309701E-001	-6.555891E-002	1.310650E-001	-6.562331E-002	-8.353289E-002	5.307713E-002
1.360000E+009	5.043765E-002	-2.792825E-002	1.306920E-001	-6.597321E-002	1.308338E-001	-6.604193E-002	-8.316274E-002	5.367462E-002
1.370000E+009	5.025179E-002	-2.800541E-002	1.304630E-001	-6.640453E-002	1.305671E-001	-6.647214E-002	-8.286074E-002	5.425023E-002
1.380000E+009	5.012956E-002	-2.809540E-002	1.301875E-001	-6.682173E-002	1.303244E-001	-6.687300E-002	-8.256200E-002	5.482517E-002
1.390000E+009	4.999006E-002	-2.819256E-002	1.299253E-001	-6.725657E-002	1.300542E-001	-6.731439E-002	-8.232055E-002	5.541538E-002
1.400000E+009	4.983079E-002	-2.828897E-002	1.296757E-001	-6.766637E-002	1.297895E-001	-6.773294E-002	-8.205859E-002	5.596869E-002
1.410000E+009	4.968514E-002	-2.837129E-002	1.294156E-001	-6.807012E-002	1.295196E-001	-6.814329E-002	-8.178391E-002	5.652952E-002
1.420000E+009	4.951690E-002	-2.844382E-002	1.291397E-001	-6.849260E-002	1.292538E-001	-6.853603E-002	-8.151623E-002	5.704092E-002
1.430000E+009	4.939910E-002	-2.850024E-002	1.288713E-001	-6.889875E-002	1.290167E-001	-6.896085E-002	-8.122967E-002	5.753478E-002
1.440000E+009	4.922566E-002	-2.858909E-002	1.286203E-001	-6.931541E-002	1.287305E-001	-6.937915E-002	-8.092438E-002	5.803458E-002
1.450000E+009	4.907091E-002	-2.865933E-002	1.283634E-001	-6.972001E-002	1.284776E-001	-6.977185E-002	-8.061640E-002	5.856325E-002
1.460000E+009	4.888195E-002	-2.872820E-002	1.280977E-001	-7.013466E-002	1.282032E-001	-7.018601E-002	-8.030361E-002	5.905741E-002
1.470000E+009	4.873575E-002	-2.883912E-002	1.278114E-001	-7.055013E-002	1.279134E-001	-7.060760E-002	-7.996980E-002	5.961756E-002
1.480000E+009	4.855307E-002	-2.888547E-002	1.275403E-001	-7.095447E-002	1.276350E-001	-7.101391E-002	-7.965115E-002	6.019066E-002
1.490000E+009	4.841306E-002	-2.898185E-002	1.272790E-001	-7.135875E-002	1.273856E-001	-7.141094E-002	-7.930863E-002	6.077887E-002
1.500000E+009	4.827175E-002	-2.907700E-002	1.269919E-001	-7.175879E-002	1.270943E-001	-7.181221E-002	-7.893777E-002	6.134833E-002
