! Device ID: PE43711P
! File Path: z:\PE43711P\CHAR_NOM_04282014\AMB\3p300\LS_ATT_14p00dB\PE43711P_AMB_3p300V_3p000V_0p000V_LS_ATT_14p00dB_S2P_SN_5_A0137A.s2p
! Serial: 5
! Lot: A0137A
! Temp: 25C
! VDD: 3.300
! VSS: 0.000
! Control_Hi: 3.000
! Control_Lo: 0.000
! Attenuation Step: 14.00dB
! Port 1: RF1
! Port 2: RF2
! ThroughPath:1-2
! IDD: 0.0001279546
! ISS: -8.22e-008
!

#  Hz  S   RI  R   50

1.000000E+007	6.399584E-002	7.638363E-005	1.749773E-001	-8.424483E-004	1.752042E-001	-8.326608E-004	-1.407399E-001	1.025019E-003
2.000000E+007	6.419726E-002	-5.136609E-005	1.750162E-001	-1.296168E-003	1.751188E-001	-1.326014E-003	-1.404957E-001	1.642198E-003
3.000000E+007	6.444834E-002	-2.454764E-004	1.750116E-001	-1.954653E-003	1.751220E-001	-1.958047E-003	-1.401909E-001	2.193547E-003
4.000000E+007	6.460683E-002	-4.540950E-004	1.750027E-001	-2.603154E-003	1.751175E-001	-2.620681E-003	-1.399975E-001	2.805347E-003
5.000000E+007	6.469384E-002	-7.003350E-004	1.750008E-001	-3.306592E-003	1.751416E-001	-3.297584E-003	-1.399652E-001	3.423889E-003
6.000000E+007	6.485292E-002	-9.829637E-004	1.749435E-001	-3.957053E-003	1.751214E-001	-3.945633E-003	-1.398314E-001	3.905322E-003
7.000000E+007	6.495713E-002	-1.287805E-003	1.749073E-001	-4.580231E-003	1.750548E-001	-4.582078E-003	-1.396488E-001	4.389928E-003
8.000000E+007	6.507775E-002	-1.575690E-003	1.748734E-001	-5.175130E-003	1.750258E-001	-5.207047E-003	-1.394884E-001	4.866150E-003
9.000000E+007	6.516807E-002	-1.867268E-003	1.748437E-001	-5.830782E-003	1.749743E-001	-5.847581E-003	-1.393623E-001	5.313234E-003
1.000000E+008	6.527409E-002	-2.141585E-003	1.748129E-001	-6.469308E-003	1.749376E-001	-6.484931E-003	-1.393009E-001	5.761235E-003
1.100000E+008	6.535064E-002	-2.447639E-003	1.747609E-001	-7.148143E-003	1.748981E-001	-7.119664E-003	-1.392136E-001	6.163692E-003
1.200000E+008	6.545730E-002	-2.764463E-003	1.746798E-001	-7.788428E-003	1.748321E-001	-7.781556E-003	-1.391225E-001	6.564648E-003
1.300000E+008	6.552347E-002	-3.082215E-003	1.746198E-001	-8.401522E-003	1.747815E-001	-8.421008E-003	-1.390153E-001	6.933460E-003
1.400000E+008	6.555988E-002	-3.371024E-003	1.745600E-001	-9.034321E-003	1.747105E-001	-9.066115E-003	-1.388856E-001	7.325308E-003
1.500000E+008	6.555628E-002	-3.647777E-003	1.745109E-001	-9.641128E-003	1.746168E-001	-9.660793E-003	-1.387856E-001	7.688590E-003
1.600000E+008	6.553751E-002	-3.859612E-003	1.744721E-001	-1.025833E-002	1.745336E-001	-1.024999E-002	-1.387339E-001	8.057653E-003
1.700000E+008	6.556034E-002	-4.131508E-003	1.744175E-001	-1.091813E-002	1.745557E-001	-1.089785E-002	-1.387160E-001	8.459956E-003
1.800000E+008	6.552901E-002	-4.417972E-003	1.742619E-001	-1.159829E-002	1.745072E-001	-1.158831E-002	-1.386612E-001	8.832459E-003
1.900000E+008	6.545360E-002	-4.740243E-003	1.741453E-001	-1.220803E-002	1.743842E-001	-1.221435E-002	-1.386032E-001	9.139633E-003
2.000000E+008	6.536088E-002	-5.063844E-003	1.740795E-001	-1.278608E-002	1.742923E-001	-1.281198E-002	-1.385316E-001	9.443915E-003
2.100000E+008	6.528660E-002	-5.437851E-003	1.740238E-001	-1.340024E-002	1.741883E-001	-1.341270E-002	-1.384140E-001	9.722670E-003
2.200000E+008	6.522360E-002	-5.783945E-003	1.739553E-001	-1.397402E-002	1.740960E-001	-1.400168E-002	-1.383143E-001	9.979255E-003
2.300000E+008	6.515205E-002	-6.131722E-003	1.738641E-001	-1.460461E-002	1.740113E-001	-1.459856E-002	-1.381827E-001	1.024329E-002
2.400000E+008	6.510636E-002	-6.481425E-003	1.737925E-001	-1.523400E-002	1.739219E-001	-1.522421E-002	-1.380661E-001	1.054912E-002
2.500000E+008	6.505258E-002	-6.814241E-003	1.736969E-001	-1.585662E-002	1.738155E-001	-1.583234E-002	-1.378833E-001	1.081124E-002
2.600000E+008	6.503972E-002	-7.157771E-003	1.735638E-001	-1.647247E-002	1.737360E-001	-1.646287E-002	-1.377007E-001	1.118175E-002
2.700000E+008	6.501537E-002	-7.489626E-003	1.734399E-001	-1.706586E-002	1.736160E-001	-1.707425E-002	-1.374642E-001	1.155914E-002
2.800000E+008	6.501143E-002	-7.780339E-003	1.733498E-001	-1.766102E-002	1.734870E-001	-1.764737E-002	-1.372610E-001	1.190277E-002
2.900000E+008	6.497128E-002	-8.061349E-003	1.732638E-001	-1.823895E-002	1.733784E-001	-1.825071E-002	-1.371366E-001	1.229530E-002
3.000000E+008	6.493907E-002	-8.292151E-003	1.731733E-001	-1.887677E-002	1.732991E-001	-1.883965E-002	-1.370127E-001	1.271508E-002
3.100000E+008	6.485046E-002	-8.523896E-003	1.730675E-001	-1.947631E-002	1.732138E-001	-1.945733E-002	-1.368927E-001	1.315728E-002
3.200000E+008	6.477428E-002	-8.737440E-003	1.729559E-001	-2.008014E-002	1.731098E-001	-2.007265E-002	-1.368104E-001	1.358325E-002
3.300000E+008	6.465463E-002	-8.952906E-003	1.728489E-001	-2.069258E-002	1.730017E-001	-2.070818E-002	-1.367190E-001	1.397828E-002
3.400000E+008	6.447741E-002	-9.178171E-003	1.727197E-001	-2.130576E-002	1.728104E-001	-2.135304E-002	-1.366008E-001	1.435320E-002
3.500000E+008	6.429602E-002	-9.442725E-003	1.725974E-001	-2.191459E-002	1.726433E-001	-2.190905E-002	-1.364808E-001	1.465560E-002
3.600000E+008	6.413140E-002	-9.685395E-003	1.724699E-001	-2.250912E-002	1.725229E-001	-2.245394E-002	-1.363145E-001	1.499797E-002
3.700000E+008	6.396858E-002	-9.959194E-003	1.723079E-001	-2.307943E-002	1.724184E-001	-2.299165E-002	-1.361346E-001	1.530048E-002
3.800000E+008	6.383266E-002	-1.025272E-002	1.722047E-001	-2.366484E-002	1.723449E-001	-2.360574E-002	-1.359584E-001	1.563369E-002
3.900000E+008	6.365799E-002	-1.057693E-002	1.720344E-001	-2.426703E-002	1.722175E-001	-2.420349E-002	-1.356857E-001	1.603237E-002
4.000000E+008	6.354595E-002	-1.091426E-002	1.718889E-001	-2.481639E-002	1.720699E-001	-2.483795E-002	-1.353944E-001	1.640354E-002
4.100000E+008	6.341266E-002	-1.121763E-002	1.717752E-001	-2.536301E-002	1.719290E-001	-2.539887E-002	-1.351195E-001	1.677451E-002
4.200000E+008	6.328253E-002	-1.152024E-002	1.716695E-001	-2.594143E-002	1.717990E-001	-2.596651E-002	-1.349164E-001	1.722355E-002
4.300000E+008	6.317718E-002	-1.179575E-002	1.715513E-001	-2.653075E-002	1.716679E-001	-2.655139E-002	-1.347348E-001	1.770610E-002
4.400000E+008	6.307234E-002	-1.203120E-002	1.714191E-001	-2.712525E-002	1.715434E-001	-2.711800E-002	-1.345426E-001	1.822286E-002
4.500000E+008	6.297281E-002	-1.229507E-002	1.712944E-001	-2.772180E-002	1.714082E-001	-2.771958E-002	-1.343711E-001	1.875378E-002
4.600000E+008	6.286822E-002	-1.255185E-002	1.711346E-001	-2.831688E-002	1.712531E-001	-2.831735E-002	-1.341865E-001	1.929698E-002
4.700000E+008	6.274123E-002	-1.278235E-002	1.709903E-001	-2.887318E-002	1.710944E-001	-2.888792E-002	-1.340470E-001	1.974995E-002
4.800000E+008	6.258230E-002	-1.299611E-002	1.708582E-001	-2.942802E-002	1.709374E-001	-2.945198E-002	-1.339134E-001	2.024468E-002
4.900000E+008	6.242220E-002	-1.320397E-002	1.707054E-001	-3.000801E-002	1.707930E-001	-3.002159E-002	-1.337932E-001	2.070479E-002
5.000000E+008	6.226882E-002	-1.342452E-002	1.705445E-001	-3.056748E-002	1.706610E-001	-3.058347E-002	-1.336520E-001	2.115149E-002
5.100000E+008	6.211085E-002	-1.364424E-002	1.704049E-001	-3.115414E-002	1.705217E-001	-3.113642E-002	-1.334902E-001	2.159504E-002
5.200000E+008	6.195879E-002	-1.389438E-002	1.702626E-001	-3.173253E-002	1.703919E-001	-3.173332E-002	-1.333263E-001	2.205311E-002
5.300000E+008	6.176210E-002	-1.416348E-002	1.701030E-001	-3.230003E-002	1.702480E-001	-3.231937E-002	-1.330949E-001	2.249755E-002
5.400000E+008	6.157216E-002	-1.446269E-002	1.699351E-001	-3.287640E-002	1.700657E-001	-3.288789E-002	-1.328647E-001	2.293683E-002
5.500000E+008	6.141208E-002	-1.471680E-002	1.697922E-001	-3.344339E-002	1.698918E-001	-3.345473E-002	-1.326573E-001	2.341411E-002
5.600000E+008	6.123112E-002	-1.499264E-002	1.696181E-001	-3.400389E-002	1.697139E-001	-3.402078E-002	-1.324616E-001	2.388685E-002
5.700000E+008	6.109064E-002	-1.528300E-002	1.694505E-001	-3.453102E-002	1.695656E-001	-3.457209E-002	-1.323118E-001	2.441885E-002
5.800000E+008	6.093039E-002	-1.555533E-002	1.692933E-001	-3.512356E-002	1.694305E-001	-3.513202E-002	-1.321522E-001	2.495571E-002
5.900000E+008	6.080420E-002	-1.585607E-002	1.691236E-001	-3.568608E-002	1.692683E-001	-3.570857E-002	-1.319907E-001	2.552290E-002
6.000000E+008	6.070072E-002	-1.613175E-002	1.689747E-001	-3.624987E-002	1.690818E-001	-3.627223E-002	-1.318081E-001	2.602593E-002
6.100000E+008	6.062802E-002	-1.639369E-002	1.687957E-001	-3.680357E-002	1.688930E-001	-3.685298E-002	-1.316558E-001	2.652658E-002
6.200000E+008	6.052633E-002	-1.661768E-002	1.685998E-001	-3.735154E-002	1.687121E-001	-3.739695E-002	-1.314925E-001	2.702267E-002
6.300000E+008	6.045536E-002	-1.681603E-002	1.684301E-001	-3.790411E-002	1.685298E-001	-3.792071E-002	-1.313231E-001	2.751220E-002
6.400000E+008	6.038710E-002	-1.703420E-002	1.682574E-001	-3.843505E-002	1.683635E-001	-3.847333E-002	-1.311463E-001	2.800601E-002
6.500000E+008	6.030885E-002	-1.721470E-002	1.680978E-001	-3.898548E-002	1.681953E-001	-3.901678E-002	-1.309747E-001	2.852309E-002
6.600000E+008	6.018614E-002	-1.740789E-002	1.679376E-001	-3.954573E-002	1.680171E-001	-3.958189E-002	-1.307876E-001	2.903756E-002
6.700000E+008	6.003516E-002	-1.756670E-002	1.677473E-001	-4.009262E-002	1.678344E-001	-4.013891E-002	-1.306297E-001	2.957539E-002
6.800000E+008	5.985383E-002	-1.774470E-002	1.675594E-001	-4.063667E-002	1.676594E-001	-4.070099E-002	-1.304421E-001	3.013573E-002
6.900000E+008	5.967098E-002	-1.787622E-002	1.673559E-001	-4.120373E-002	1.674526E-001	-4.122198E-002	-1.302871E-001	3.068581E-002
7.000000E+008	5.951390E-002	-1.806447E-002	1.671857E-001	-4.173146E-002	1.672834E-001	-4.174694E-002	-1.301663E-001	3.122588E-002
7.100000E+008	5.934470E-002	-1.826874E-002	1.670055E-001	-4.226722E-002	1.671142E-001	-4.229695E-002	-1.300600E-001	3.175201E-002
7.200000E+008	5.916629E-002	-1.844991E-002	1.668269E-001	-4.279685E-002	1.669226E-001	-4.285086E-002	-1.299478E-001	3.228115E-002
7.300000E+008	5.899027E-002	-1.869222E-002	1.666322E-001	-4.334929E-002	1.667589E-001	-4.340089E-002	-1.298292E-001	3.274678E-002
7.400000E+008	5.880204E-002	-1.887278E-002	1.664298E-001	-4.389568E-002	1.665669E-001	-4.393737E-002	-1.297480E-001	3.323436E-002
7.500000E+008	5.863830E-002	-1.911191E-002	1.662547E-001	-4.442931E-002	1.663594E-001	-4.447743E-002	-1.296204E-001	3.365795E-002
7.600000E+008	5.848537E-002	-1.932594E-002	1.660668E-001	-4.495818E-002	1.661844E-001	-4.501496E-002	-1.294883E-001	3.412618E-002
7.700000E+008	5.829453E-002	-1.955137E-002	1.658644E-001	-4.550650E-002	1.660001E-001	-4.557415E-002	-1.293365E-001	3.454899E-002
7.800000E+008	5.813688E-002	-1.977826E-002	1.656798E-001	-4.602184E-002	1.658199E-001	-4.610669E-002	-1.291681E-001	3.496764E-002
7.900000E+008	5.798915E-002	-2.003863E-002	1.654833E-001	-4.657179E-002	1.656164E-001	-4.664520E-002	-1.290099E-001	3.544706E-002
8.000000E+008	5.782556E-002	-2.026207E-002	1.653034E-001	-4.711835E-002	1.653938E-001	-4.716664E-002	-1.288146E-001	3.592442E-002
8.100000E+008	5.768240E-002	-2.052232E-002	1.650688E-001	-4.763052E-002	1.651986E-001	-4.770385E-002	-1.285697E-001	3.642143E-002
8.200000E+008	5.759410E-002	-2.075691E-002	1.648974E-001	-4.817827E-002	1.649904E-001	-4.821294E-002	-1.283605E-001	3.689796E-002
8.300000E+008	5.749714E-002	-2.097339E-002	1.646809E-001	-4.870319E-002	1.647921E-001	-4.875042E-002	-1.281511E-001	3.739272E-002
8.400000E+008	5.739996E-002	-2.118870E-002	1.644705E-001	-4.922449E-002	1.645880E-001	-4.926978E-002	-1.279592E-001	3.787311E-002
8.500000E+008	5.732307E-002	-2.136795E-002	1.642814E-001	-4.973880E-002	1.644038E-001	-4.982409E-002	-1.278100E-001	3.837174E-002
8.600000E+008	5.720568E-002	-2.155438E-002	1.640773E-001	-5.027194E-002	1.641736E-001	-5.033982E-002	-1.276650E-001	3.888848E-002
8.700000E+008	5.710243E-002	-2.168445E-002	1.638657E-001	-5.080131E-002	1.639837E-001	-5.086526E-002	-1.275018E-001	3.935995E-002
8.800000E+008	5.697745E-002	-2.181891E-002	1.636793E-001	-5.135118E-002	1.637886E-001	-5.138574E-002	-1.273432E-001	3.984498E-002
8.900000E+008	5.683359E-002	-2.196814E-002	1.634497E-001	-5.186126E-002	1.635815E-001	-5.193173E-002	-1.271976E-001	4.028939E-002
9.000000E+008	5.667732E-002	-2.211013E-002	1.632338E-001	-5.238513E-002	1.633734E-001	-5.243847E-002	-1.270032E-001	4.076450E-002
9.100000E+008	5.649587E-002	-2.226378E-002	1.630160E-001	-5.289347E-002	1.631627E-001	-5.294712E-002	-1.267975E-001	4.119382E-002
9.200000E+008	5.629743E-002	-2.246172E-002	1.628117E-001	-5.341574E-002	1.629480E-001	-5.349001E-002	-1.265495E-001	4.167079E-002
9.300000E+008	5.616981E-002	-2.266475E-002	1.626120E-001	-5.392107E-002	1.626936E-001	-5.400235E-002	-1.262714E-001	4.215374E-002
9.400000E+008	5.602226E-002	-2.285743E-002	1.623795E-001	-5.445026E-002	1.625162E-001	-5.453132E-002	-1.259746E-001	4.264408E-002
9.500000E+008	5.588298E-002	-2.306011E-002	1.621790E-001	-5.496965E-002	1.622946E-001	-5.503186E-002	-1.256496E-001	4.318527E-002
9.600000E+008	5.577109E-002	-2.321585E-002	1.619510E-001	-5.549641E-002	1.620869E-001	-5.556116E-002	-1.253157E-001	4.371743E-002
9.700000E+008	5.566926E-002	-2.338312E-002	1.617235E-001	-5.598396E-002	1.618676E-001	-5.607631E-002	-1.250014E-001	4.425443E-002
9.800000E+008	5.556531E-002	-2.354103E-002	1.615294E-001	-5.649744E-002	1.616304E-001	-5.659910E-002	-1.247342E-001	4.483274E-002
9.900000E+008	5.549108E-002	-2.367273E-002	1.613126E-001	-5.702653E-002	1.614469E-001	-5.710825E-002	-1.244606E-001	4.540639E-002
1.000000E+009	5.538229E-002	-2.379159E-002	1.610870E-001	-5.753764E-002	1.612030E-001	-5.762667E-002	-1.242513E-001	4.595143E-002
1.010000E+009	5.522296E-002	-2.387503E-002	1.608742E-001	-5.807436E-002	1.609852E-001	-5.812681E-002	-1.240369E-001	4.653066E-002
1.020000E+009	5.508287E-002	-2.401819E-002	1.606415E-001	-5.857480E-002	1.607411E-001	-5.864451E-002	-1.238382E-001	4.711238E-002
1.030000E+009	5.493280E-002	-2.408752E-002	1.604098E-001	-5.908733E-002	1.605363E-001	-5.915368E-002	-1.236383E-001	4.768037E-002
1.040000E+009	5.476253E-002	-2.420283E-002	1.601687E-001	-5.960025E-002	1.602987E-001	-5.966073E-002	-1.234401E-001	4.820083E-002
1.050000E+009	5.462018E-002	-2.434726E-002	1.599564E-001	-6.010264E-002	1.600797E-001	-6.016969E-002	-1.231836E-001	4.879101E-002
1.060000E+009	5.446678E-002	-2.449823E-002	1.597263E-001	-6.060577E-002	1.598177E-001	-6.066053E-002	-1.229284E-001	4.933566E-002
1.070000E+009	5.429003E-002	-2.461585E-002	1.594876E-001	-6.110342E-002	1.596042E-001	-6.115991E-002	-1.226737E-001	4.986964E-002
1.080000E+009	5.414433E-002	-2.476487E-002	1.592644E-001	-6.161764E-002	1.593900E-001	-6.167484E-002	-1.223921E-001	5.043801E-002
1.090000E+009	5.401976E-002	-2.489625E-002	1.590273E-001	-6.212529E-002	1.591535E-001	-6.217651E-002	-1.221385E-001	5.098515E-002
1.100000E+009	5.388225E-002	-2.502422E-002	1.587629E-001	-6.263603E-002	1.589218E-001	-6.270350E-002	-1.218917E-001	5.156835E-002
1.110000E+009	5.373745E-002	-2.514799E-002	1.585407E-001	-6.315063E-002	1.586802E-001	-6.319337E-002	-1.216524E-001	5.211037E-002
1.120000E+009	5.358316E-002	-2.529044E-002	1.583168E-001	-6.365419E-002	1.584443E-001	-6.372924E-002	-1.214763E-001	5.265133E-002
1.130000E+009	5.341863E-002	-2.538606E-002	1.580582E-001	-6.414448E-002	1.581824E-001	-6.422511E-002	-1.212592E-001	5.318111E-002
1.140000E+009	5.326257E-002	-2.551629E-002	1.578229E-001	-6.466580E-002	1.579536E-001	-6.472384E-002	-1.210472E-001	5.374907E-002
1.150000E+009	5.311392E-002	-2.563214E-002	1.575939E-001	-6.517091E-002	1.576889E-001	-6.520374E-002	-1.207912E-001	5.428612E-002
1.160000E+009	5.293506E-002	-2.575380E-002	1.573382E-001	-6.567504E-002	1.574643E-001	-6.573735E-002	-1.205714E-001	5.479382E-002
1.170000E+009	5.278619E-002	-2.589282E-002	1.570687E-001	-6.618600E-002	1.572101E-001	-6.622813E-002	-1.203130E-001	5.538392E-002
1.180000E+009	5.263270E-002	-2.603328E-002	1.568165E-001	-6.667192E-002	1.569513E-001	-6.672730E-002	-1.200242E-001	5.590136E-002
1.190000E+009	5.246474E-002	-2.613978E-002	1.565689E-001	-6.717118E-002	1.566601E-001	-6.721809E-002	-1.197437E-001	5.649534E-002
1.200000E+009	5.229280E-002	-2.628304E-002	1.563165E-001	-6.767304E-002	1.564426E-001	-6.773379E-002	-1.194414E-001	5.707483E-002
1.210000E+009	5.218657E-002	-2.644530E-002	1.560479E-001	-6.815200E-002	1.561955E-001	-6.822358E-002	-1.191758E-001	5.766130E-002
1.220000E+009	5.202818E-002	-2.660962E-002	1.557894E-001	-6.866228E-002	1.559403E-001	-6.872065E-002	-1.189539E-001	5.822119E-002
1.230000E+009	5.187960E-002	-2.672823E-002	1.555313E-001	-6.914812E-002	1.556675E-001	-6.921226E-002	-1.187081E-001	5.878335E-002
1.240000E+009	5.174235E-002	-2.689325E-002	1.552863E-001	-6.964873E-002	1.554063E-001	-6.968855E-002	-1.184953E-001	5.931411E-002
1.250000E+009	5.162907E-002	-2.705003E-002	1.550322E-001	-7.013170E-002	1.551444E-001	-7.018899E-002	-1.182878E-001	5.986856E-002
1.260000E+009	5.147624E-002	-2.717870E-002	1.547588E-001	-7.062357E-002	1.548752E-001	-7.068716E-002	-1.180286E-001	6.035847E-002
1.270000E+009	5.141397E-002	-2.730864E-002	1.544907E-001	-7.113653E-002	1.546180E-001	-7.117783E-002	-1.177420E-001	6.082504E-002
1.280000E+009	5.128200E-002	-2.744660E-002	1.542348E-001	-7.162579E-002	1.543569E-001	-7.167856E-002	-1.174960E-001	6.131748E-002
1.290000E+009	5.116530E-002	-2.753701E-002	1.539559E-001	-7.213886E-002	1.541014E-001	-7.216866E-002	-1.171382E-001	6.179324E-002
1.300000E+009	5.105967E-002	-2.761696E-002	1.536926E-001	-7.259339E-002	1.538299E-001	-7.267927E-002	-1.167786E-001	6.229640E-002
1.310000E+009	5.094761E-002	-2.773199E-002	1.534220E-001	-7.310492E-002	1.535505E-001	-7.315796E-002	-1.164267E-001	6.280448E-002
1.320000E+009	5.080385E-002	-2.781118E-002	1.531380E-001	-7.356739E-002	1.532757E-001	-7.363651E-002	-1.160146E-001	6.339571E-002
1.330000E+009	5.067780E-002	-2.787579E-002	1.528607E-001	-7.406631E-002	1.529878E-001	-7.414935E-002	-1.155794E-001	6.401168E-002
1.340000E+009	5.052845E-002	-2.793729E-002	1.525700E-001	-7.454825E-002	1.527143E-001	-7.462896E-002	-1.151837E-001	6.467626E-002
1.350000E+009	5.035605E-002	-2.801723E-002	1.523070E-001	-7.505299E-002	1.524215E-001	-7.510115E-002	-1.148095E-001	6.533426E-002
1.360000E+009	5.024424E-002	-2.808355E-002	1.520189E-001	-7.552204E-002	1.521533E-001	-7.560105E-002	-1.144313E-001	6.602519E-002
1.370000E+009	5.010191E-002	-2.815016E-002	1.517365E-001	-7.600583E-002	1.518706E-001	-7.608427E-002	-1.141197E-001	6.672216E-002
1.380000E+009	4.994117E-002	-2.826123E-002	1.514480E-001	-7.648897E-002	1.515867E-001	-7.655965E-002	-1.138295E-001	6.740797E-002
1.390000E+009	4.980997E-002	-2.834328E-002	1.511584E-001	-7.697587E-002	1.512851E-001	-7.705171E-002	-1.135404E-001	6.810053E-002
1.400000E+009	4.965933E-002	-2.844696E-002	1.508584E-001	-7.744984E-002	1.509823E-001	-7.751076E-002	-1.132663E-001	6.875691E-002
1.410000E+009	4.950869E-002	-2.850660E-002	1.505762E-001	-7.792229E-002	1.506951E-001	-7.797916E-002	-1.129553E-001	6.941818E-002
1.420000E+009	4.934137E-002	-2.858126E-002	1.502541E-001	-7.839976E-002	1.504080E-001	-7.845601E-002	-1.126637E-001	7.003031E-002
1.430000E+009	4.921869E-002	-2.864930E-002	1.499542E-001	-7.887400E-002	1.501190E-001	-7.893528E-002	-1.123618E-001	7.064123E-002
1.440000E+009	4.904491E-002	-2.873376E-002	1.496850E-001	-7.934446E-002	1.498110E-001	-7.940722E-002	-1.120526E-001	7.124290E-002
1.450000E+009	4.887793E-002	-2.880532E-002	1.493556E-001	-7.982820E-002	1.495104E-001	-7.988343E-002	-1.117037E-001	7.187562E-002
1.460000E+009	4.869828E-002	-2.888033E-002	1.490653E-001	-8.028489E-002	1.491939E-001	-8.036389E-002	-1.113674E-001	7.247967E-002
1.470000E+009	4.854633E-002	-2.897273E-002	1.487855E-001	-8.076711E-002	1.489074E-001	-8.082553E-002	-1.110027E-001	7.315478E-002
1.480000E+009	4.835636E-002	-2.902752E-002	1.484593E-001	-8.122319E-002	1.485797E-001	-8.128268E-002	-1.106609E-001	7.383685E-002
1.490000E+009	4.821986E-002	-2.911288E-002	1.481546E-001	-8.169029E-002	1.482865E-001	-8.173130E-002	-1.102938E-001	7.451616E-002
1.500000E+009	4.806214E-002	-2.920110E-002	1.478523E-001	-8.215366E-002	1.479636E-001	-8.220504E-002	-1.099202E-001	7.520474E-002
