! Device ID: PE43711P
! File Path: z:\PE43711P\CHAR_NOM_04282014\AMB\3p300\LS_ATT_31p00dB\PE43711P_AMB_3p300V_3p000V_0p000V_LS_ATT_31p00dB_S2P_SN_5_A0137A.s2p
! Serial: 5
! Lot: A0137A
! Temp: 25C
! VDD: 3.300
! VSS: 0.000
! Control_Hi: 3.000
! Control_Lo: 0.000
! Attenuation Step: 31.00dB
! Port 1: RF1
! Port 2: RF2
! ThroughPath:1-2
! IDD: 0.000128296
! ISS: -8.97e-008
!

#  Hz  S   RI  R   50

1.000000E+007	1.960181E-002	5.514181E-004	2.437118E-002	-7.673173E-005	2.439781E-002	-1.139870E-004	-1.200654E-001	9.448589E-004
2.000000E+007	1.986555E-002	7.484708E-004	2.437071E-002	-1.235977E-004	2.438162E-002	-1.346940E-004	-1.197399E-001	1.537543E-003
3.000000E+007	2.011436E-002	9.293941E-004	2.436631E-002	-2.000088E-004	2.437996E-002	-2.022175E-004	-1.194434E-001	2.027393E-003
4.000000E+007	2.029514E-002	1.120270E-003	2.437677E-002	-2.627804E-004	2.439056E-002	-2.761652E-004	-1.192707E-001	2.596605E-003
5.000000E+007	2.040244E-002	1.290607E-003	2.435880E-002	-3.399309E-004	2.438409E-002	-3.362142E-004	-1.192296E-001	3.182139E-003
6.000000E+007	2.057340E-002	1.405268E-003	2.435680E-002	-3.972601E-004	2.438544E-002	-4.097195E-004	-1.190998E-001	3.645042E-003
7.000000E+007	2.071910E-002	1.503350E-003	2.435616E-002	-4.691522E-004	2.437923E-002	-4.814738E-004	-1.189137E-001	4.091315E-003
8.000000E+007	2.086553E-002	1.614908E-003	2.436104E-002	-5.301480E-004	2.437450E-002	-5.426710E-004	-1.187475E-001	4.544369E-003
9.000000E+007	2.099478E-002	1.700667E-003	2.435344E-002	-6.081245E-004	2.437710E-002	-5.930148E-004	-1.186304E-001	4.911653E-003
1.000000E+008	2.114035E-002	1.812499E-003	2.434594E-002	-6.664869E-004	2.435754E-002	-6.767938E-004	-1.185815E-001	5.336846E-003
1.100000E+008	2.129408E-002	1.888804E-003	2.434594E-002	-7.348489E-004	2.436610E-002	-7.383135E-004	-1.184734E-001	5.713318E-003
1.200000E+008	2.145120E-002	1.941215E-003	2.434036E-002	-8.090861E-004	2.435162E-002	-8.049078E-004	-1.183677E-001	6.032825E-003
1.300000E+008	2.158348E-002	2.028632E-003	2.433532E-002	-8.712923E-004	2.435604E-002	-8.704211E-004	-1.182600E-001	6.381320E-003
1.400000E+008	2.167971E-002	2.149387E-003	2.434063E-002	-9.459176E-004	2.435439E-002	-9.377511E-004	-1.181468E-001	6.739645E-003
1.500000E+008	2.175372E-002	2.256270E-003	2.432956E-002	-1.005605E-003	2.434283E-002	-1.005379E-003	-1.180506E-001	7.075097E-003
1.600000E+008	2.185049E-002	2.399089E-003	2.431289E-002	-1.066898E-003	2.432673E-002	-1.064042E-003	-1.179745E-001	7.410339E-003
1.700000E+008	2.194641E-002	2.508886E-003	2.431637E-002	-1.121590E-003	2.434040E-002	-1.128458E-003	-1.178866E-001	7.775486E-003
1.800000E+008	2.201126E-002	2.597709E-003	2.430581E-002	-1.206838E-003	2.433739E-002	-1.198404E-003	-1.177861E-001	8.099060E-003
1.900000E+008	2.202748E-002	2.659978E-003	2.429362E-002	-1.268268E-003	2.432873E-002	-1.261424E-003	-1.177231E-001	8.374847E-003
2.000000E+008	2.202492E-002	2.702993E-003	2.428986E-002	-1.342258E-003	2.431021E-002	-1.328105E-003	-1.176705E-001	8.631706E-003
2.100000E+008	2.202266E-002	2.704339E-003	2.428409E-002	-1.398136E-003	2.430096E-002	-1.394508E-003	-1.175937E-001	8.838099E-003
2.200000E+008	2.203986E-002	2.727320E-003	2.427785E-002	-1.457981E-003	2.429701E-002	-1.446568E-003	-1.174837E-001	9.039447E-003
2.300000E+008	2.208918E-002	2.731322E-003	2.427336E-002	-1.513702E-003	2.429283E-002	-1.511392E-003	-1.173290E-001	9.253360E-003
2.400000E+008	2.215879E-002	2.727521E-003	2.426098E-002	-1.579267E-003	2.428424E-002	-1.578784E-003	-1.171608E-001	9.499534E-003
2.500000E+008	2.221119E-002	2.757118E-003	2.425591E-002	-1.638785E-003	2.426656E-002	-1.627927E-003	-1.169658E-001	9.745644E-003
2.600000E+008	2.232825E-002	2.776548E-003	2.425359E-002	-1.716310E-003	2.426911E-002	-1.716408E-003	-1.167252E-001	1.006295E-002
2.700000E+008	2.244180E-002	2.807443E-003	2.423884E-002	-1.783464E-003	2.425321E-002	-1.764214E-003	-1.164973E-001	1.039998E-002
2.800000E+008	2.255615E-002	2.853132E-003	2.422385E-002	-1.826728E-003	2.424513E-002	-1.837146E-003	-1.162684E-001	1.072670E-002
2.900000E+008	2.262916E-002	2.915114E-003	2.422068E-002	-1.903457E-003	2.424072E-002	-1.900975E-003	-1.161327E-001	1.107429E-002
3.000000E+008	2.270446E-002	3.018859E-003	2.420966E-002	-1.969290E-003	2.423508E-002	-1.956911E-003	-1.159883E-001	1.144958E-002
3.100000E+008	2.274199E-002	3.133589E-003	2.419507E-002	-2.032431E-003	2.422392E-002	-2.018250E-003	-1.158653E-001	1.182035E-002
3.200000E+008	2.277435E-002	3.253035E-003	2.418919E-002	-2.106696E-003	2.421119E-002	-2.089577E-003	-1.157576E-001	1.217711E-002
3.300000E+008	2.279399E-002	3.353944E-003	2.417687E-002	-2.171293E-003	2.421660E-002	-2.152779E-003	-1.156626E-001	1.250736E-002
3.400000E+008	2.276098E-002	3.458200E-003	2.417031E-002	-2.214593E-003	2.419165E-002	-2.232268E-003	-1.155222E-001	1.280845E-002
3.500000E+008	2.273202E-002	3.503704E-003	2.416530E-002	-2.287697E-003	2.416809E-002	-2.278863E-003	-1.153902E-001	1.305823E-002
3.600000E+008	2.271002E-002	3.562309E-003	2.414479E-002	-2.346568E-003	2.415928E-002	-2.342468E-003	-1.152119E-001	1.334738E-002
3.700000E+008	2.269686E-002	3.595159E-003	2.413428E-002	-2.412499E-003	2.414697E-002	-2.400675E-003	-1.149728E-001	1.359895E-002
3.800000E+008	2.268288E-002	3.634505E-003	2.411335E-002	-2.476523E-003	2.413732E-002	-2.469334E-003	-1.147856E-001	1.388461E-002
3.900000E+008	2.267402E-002	3.634112E-003	2.410578E-002	-2.538056E-003	2.412489E-002	-2.536935E-003	-1.144955E-001	1.424518E-002
4.000000E+008	2.270249E-002	3.623488E-003	2.407851E-002	-2.592574E-003	2.411907E-002	-2.596149E-003	-1.141883E-001	1.454487E-002
4.100000E+008	2.271708E-002	3.622511E-003	2.408430E-002	-2.650239E-003	2.411114E-002	-2.645834E-003	-1.139011E-001	1.488480E-002
4.200000E+008	2.273853E-002	3.633656E-003	2.406411E-002	-2.714487E-003	2.408076E-002	-2.720413E-003	-1.136609E-001	1.526492E-002
4.300000E+008	2.278008E-002	3.642420E-003	2.406569E-002	-2.775467E-003	2.408969E-002	-2.771714E-003	-1.134709E-001	1.567936E-002
4.400000E+008	2.281225E-002	3.684245E-003	2.406936E-002	-2.842986E-003	2.406822E-002	-2.830075E-003	-1.132600E-001	1.612711E-002
4.500000E+008	2.286480E-002	3.729567E-003	2.403209E-002	-2.889827E-003	2.405277E-002	-2.901871E-003	-1.130612E-001	1.657906E-002
4.600000E+008	2.291164E-002	3.755999E-003	2.402004E-002	-2.964394E-003	2.404688E-002	-2.961643E-003	-1.128688E-001	1.703181E-002
4.700000E+008	2.295116E-002	3.806680E-003	2.400959E-002	-3.023564E-003	2.403346E-002	-3.027691E-003	-1.126852E-001	1.742833E-002
4.800000E+008	2.297484E-002	3.864352E-003	2.399515E-002	-3.082593E-003	2.401607E-002	-3.079443E-003	-1.125255E-001	1.785718E-002
4.900000E+008	2.297763E-002	3.948312E-003	2.397643E-002	-3.136030E-003	2.400519E-002	-3.141480E-003	-1.123613E-001	1.825224E-002
5.000000E+008	2.297759E-002	4.028719E-003	2.395928E-002	-3.211646E-003	2.399803E-002	-3.197319E-003	-1.121971E-001	1.863594E-002
5.100000E+008	2.299160E-002	4.081431E-003	2.396656E-002	-3.256820E-003	2.397784E-002	-3.259401E-003	-1.120119E-001	1.901493E-002
5.200000E+008	2.297055E-002	4.114743E-003	2.394949E-002	-3.326858E-003	2.396273E-002	-3.324775E-003	-1.118388E-001	1.938746E-002
5.300000E+008	2.294065E-002	4.145563E-003	2.394178E-002	-3.384606E-003	2.395193E-002	-3.385841E-003	-1.115984E-001	1.978917E-002
5.400000E+008	2.292914E-002	4.111025E-003	2.392224E-002	-3.453414E-003	2.393657E-002	-3.449454E-003	-1.113664E-001	2.015960E-002
5.500000E+008	2.290212E-002	4.131543E-003	2.390923E-002	-3.504819E-003	2.392410E-002	-3.507849E-003	-1.111601E-001	2.056067E-002
5.600000E+008	2.290106E-002	4.104134E-003	2.388447E-002	-3.571451E-003	2.389528E-002	-3.562186E-003	-1.109128E-001	2.095741E-002
5.700000E+008	2.291575E-002	4.058792E-003	2.386677E-002	-3.628328E-003	2.389383E-002	-3.619561E-003	-1.107479E-001	2.141505E-002
5.800000E+008	2.292505E-002	4.054741E-003	2.385116E-002	-3.687645E-003	2.388216E-002	-3.678163E-003	-1.105685E-001	2.185854E-002
5.900000E+008	2.297482E-002	4.015368E-003	2.383343E-002	-3.756699E-003	2.385983E-002	-3.752030E-003	-1.103699E-001	2.233818E-002
6.000000E+008	2.304914E-002	3.989804E-003	2.382662E-002	-3.800899E-003	2.384742E-002	-3.811764E-003	-1.101508E-001	2.278540E-002
6.100000E+008	2.314403E-002	3.979075E-003	2.381761E-002	-3.875467E-003	2.382836E-002	-3.873411E-003	-1.099831E-001	2.322735E-002
6.200000E+008	2.322057E-002	4.031644E-003	2.379367E-002	-3.926883E-003	2.381493E-002	-3.929799E-003	-1.097902E-001	2.365329E-002
6.300000E+008	2.332548E-002	4.071326E-003	2.379139E-002	-3.976101E-003	2.379281E-002	-3.970355E-003	-1.096085E-001	2.408043E-002
6.400000E+008	2.341751E-002	4.121731E-003	2.376045E-002	-4.050715E-003	2.377047E-002	-4.038326E-003	-1.094205E-001	2.450316E-002
6.500000E+008	2.347789E-002	4.202142E-003	2.375282E-002	-4.107150E-003	2.376509E-002	-4.102782E-003	-1.092395E-001	2.494234E-002
6.600000E+008	2.354107E-002	4.240225E-003	2.373308E-002	-4.154879E-003	2.375682E-002	-4.159578E-003	-1.090519E-001	2.537042E-002
6.700000E+008	2.353460E-002	4.318490E-003	2.372672E-002	-4.224334E-003	2.373551E-002	-4.223135E-003	-1.088594E-001	2.582004E-002
6.800000E+008	2.356999E-002	4.402004E-003	2.370519E-002	-4.276698E-003	2.372096E-002	-4.269881E-003	-1.086637E-001	2.626100E-002
6.900000E+008	2.356792E-002	4.462672E-003	2.368090E-002	-4.340859E-003	2.370154E-002	-4.330358E-003	-1.084634E-001	2.674736E-002
7.000000E+008	2.358834E-002	4.522139E-003	2.366710E-002	-4.378475E-003	2.367723E-002	-4.387179E-003	-1.083327E-001	2.721058E-002
7.100000E+008	2.359272E-002	4.580201E-003	2.365450E-002	-4.450462E-003	2.365391E-002	-4.455596E-003	-1.081996E-001	2.767181E-002
7.200000E+008	2.358065E-002	4.632431E-003	2.363397E-002	-4.510273E-003	2.365824E-002	-4.494993E-003	-1.080676E-001	2.811162E-002
7.300000E+008	2.359781E-002	4.636247E-003	2.362014E-002	-4.568362E-003	2.363406E-002	-4.558791E-003	-1.079248E-001	2.852093E-002
7.400000E+008	2.356718E-002	4.680663E-003	2.360236E-002	-4.618614E-003	2.361762E-002	-4.628662E-003	-1.078075E-001	2.892518E-002
7.500000E+008	2.357265E-002	4.687468E-003	2.358148E-002	-4.678071E-003	2.359361E-002	-4.675738E-003	-1.076959E-001	2.930452E-002
7.600000E+008	2.359760E-002	4.706914E-003	2.356458E-002	-4.737073E-003	2.357169E-002	-4.732926E-003	-1.075631E-001	2.967264E-002
7.700000E+008	2.359161E-002	4.694491E-003	2.355061E-002	-4.805587E-003	2.356660E-002	-4.791321E-003	-1.073936E-001	3.002136E-002
7.800000E+008	2.362331E-002	4.703760E-003	2.351906E-002	-4.848016E-003	2.355347E-002	-4.867258E-003	-1.072144E-001	3.037059E-002
7.900000E+008	2.364399E-002	4.660378E-003	2.349158E-002	-4.898777E-003	2.353616E-002	-4.914306E-003	-1.070562E-001	3.073581E-002
8.000000E+008	2.369612E-002	4.635098E-003	2.350393E-002	-4.963591E-003	2.350986E-002	-4.963034E-003	-1.067992E-001	3.111646E-002
8.100000E+008	2.373394E-002	4.608029E-003	2.347599E-002	-5.009448E-003	2.349642E-002	-5.032920E-003	-1.065440E-001	3.152803E-002
8.200000E+008	2.382680E-002	4.612859E-003	2.345879E-002	-5.063558E-003	2.348789E-002	-5.067830E-003	-1.063000E-001	3.190705E-002
8.300000E+008	2.389515E-002	4.592706E-003	2.344305E-002	-5.131456E-003	2.346139E-002	-5.144822E-003	-1.060801E-001	3.233725E-002
8.400000E+008	2.399728E-002	4.609565E-003	2.342266E-002	-5.207065E-003	2.344024E-002	-5.206272E-003	-1.058679E-001	3.274886E-002
8.500000E+008	2.409697E-002	4.661398E-003	2.340843E-002	-5.242425E-003	2.342472E-002	-5.249508E-003	-1.057157E-001	3.317558E-002
8.600000E+008	2.416599E-002	4.721484E-003	2.337903E-002	-5.294955E-003	2.340533E-002	-5.300591E-003	-1.055432E-001	3.359377E-002
8.700000E+008	2.425295E-002	4.784048E-003	2.336746E-002	-5.347263E-003	2.338052E-002	-5.356702E-003	-1.053808E-001	3.398932E-002
8.800000E+008	2.428705E-002	4.840254E-003	2.334261E-002	-5.425094E-003	2.336176E-002	-5.416258E-003	-1.052310E-001	3.437187E-002
8.900000E+008	2.431777E-002	4.921881E-003	2.333847E-002	-5.472231E-003	2.333995E-002	-5.475337E-003	-1.050529E-001	3.471709E-002
9.000000E+008	2.435235E-002	4.952448E-003	2.331609E-002	-5.533316E-003	2.332996E-002	-5.528872E-003	-1.048518E-001	3.508350E-002
9.100000E+008	2.434872E-002	5.007252E-003	2.329498E-002	-5.582091E-003	2.332587E-002	-5.571641E-003	-1.046214E-001	3.541893E-002
9.200000E+008	2.436144E-002	5.007706E-003	2.326136E-002	-5.632406E-003	2.329489E-002	-5.638796E-003	-1.043457E-001	3.580687E-002
9.300000E+008	2.443382E-002	5.029468E-003	2.326717E-002	-5.693301E-003	2.328291E-002	-5.694699E-003	-1.040540E-001	3.617912E-002
9.400000E+008	2.449145E-002	5.054655E-003	2.321667E-002	-5.727832E-003	2.325666E-002	-5.750470E-003	-1.037325E-001	3.658886E-002
9.500000E+008	2.455511E-002	5.035544E-003	2.323124E-002	-5.807318E-003	2.323983E-002	-5.805065E-003	-1.034099E-001	3.704590E-002
9.600000E+008	2.459751E-002	5.066308E-003	2.318764E-002	-5.836235E-003	2.321316E-002	-5.863663E-003	-1.030734E-001	3.749278E-002
9.700000E+008	2.469977E-002	5.106095E-003	2.318265E-002	-5.910028E-003	2.320544E-002	-5.918390E-003	-1.027708E-001	3.795771E-002
9.800000E+008	2.476247E-002	5.168450E-003	2.316076E-002	-5.968346E-003	2.318720E-002	-5.974530E-003	-1.025005E-001	3.844642E-002
9.900000E+008	2.484936E-002	5.231459E-003	2.314441E-002	-6.028366E-003	2.317012E-002	-6.043743E-003	-1.022390E-001	3.892802E-002
1.000000E+009	2.492264E-002	5.301763E-003	2.310992E-002	-6.074329E-003	2.314983E-002	-6.076225E-003	-1.020125E-001	3.936985E-002
1.010000E+009	2.496424E-002	5.379435E-003	2.310676E-002	-6.136274E-003	2.312103E-002	-6.139761E-003	-1.017782E-001	3.984137E-002
1.020000E+009	2.502229E-002	5.445988E-003	2.307828E-002	-6.189117E-003	2.311192E-002	-6.190313E-003	-1.015783E-001	4.032223E-002
1.030000E+009	2.505845E-002	5.518909E-003	2.306378E-002	-6.219891E-003	2.308871E-002	-6.243777E-003	-1.013540E-001	4.075646E-002
1.040000E+009	2.508533E-002	5.596246E-003	2.303878E-002	-6.297295E-003	2.305505E-002	-6.288078E-003	-1.011419E-001	4.121783E-002
1.050000E+009	2.513430E-002	5.655434E-003	2.302962E-002	-6.341900E-003	2.302786E-002	-6.339082E-003	-1.008960E-001	4.169308E-002
1.060000E+009	2.519595E-002	5.707253E-003	2.299182E-002	-6.391236E-003	2.302838E-002	-6.391487E-003	-1.006145E-001	4.215484E-002
1.070000E+009	2.520983E-002	5.757440E-003	2.299426E-002	-6.463913E-003	2.299504E-002	-6.454954E-003	-1.003437E-001	4.262272E-002
1.080000E+009	2.523876E-002	5.833259E-003	2.297035E-002	-6.513119E-003	2.297712E-002	-6.500008E-003	-1.000717E-001	4.310302E-002
1.090000E+009	2.527143E-002	5.869038E-003	2.295550E-002	-6.561618E-003	2.297001E-002	-6.554797E-003	-9.983913E-002	4.356893E-002
1.100000E+009	2.531603E-002	5.918954E-003	2.291870E-002	-6.622163E-003	2.293246E-002	-6.634944E-003	-9.962674E-002	4.404575E-002
1.110000E+009	2.535425E-002	5.971838E-003	2.291222E-002	-6.671013E-003	2.293743E-002	-6.685694E-003	-9.937843E-002	4.449919E-002
1.120000E+009	2.537062E-002	6.009288E-003	2.289144E-002	-6.737709E-003	2.290514E-002	-6.728492E-003	-9.921111E-002	4.491643E-002
1.130000E+009	2.542114E-002	6.076195E-003	2.286079E-002	-6.777619E-003	2.288113E-002	-6.796555E-003	-9.898831E-002	4.536808E-002
1.140000E+009	2.544329E-002	6.129250E-003	2.285537E-002	-6.839639E-003	2.286779E-002	-6.855314E-003	-9.875677E-002	4.580974E-002
1.150000E+009	2.550049E-002	6.167946E-003	2.280339E-002	-6.906599E-003	2.284328E-002	-6.898924E-003	-9.849706E-002	4.623143E-002
1.160000E+009	2.552153E-002	6.229361E-003	2.280498E-002	-6.943423E-003	2.282195E-002	-6.947982E-003	-9.824914E-002	4.666568E-002
1.170000E+009	2.558096E-002	6.284896E-003	2.278249E-002	-7.020300E-003	2.279223E-002	-7.008889E-003	-9.796125E-002	4.714352E-002
1.180000E+009	2.560951E-002	6.327847E-003	2.274217E-002	-7.076518E-003	2.277751E-002	-7.057876E-003	-9.766337E-002	4.761165E-002
1.190000E+009	2.562034E-002	6.396894E-003	2.272255E-002	-7.128916E-003	2.276031E-002	-7.130774E-003	-9.740954E-002	4.811492E-002
1.200000E+009	2.566464E-002	6.443322E-003	2.270729E-002	-7.169910E-003	2.271632E-002	-7.172631E-003	-9.710820E-002	4.860279E-002
1.210000E+009	2.572122E-002	6.452708E-003	2.269206E-002	-7.213081E-003	2.270376E-002	-7.217762E-003	-9.685069E-002	4.909508E-002
1.220000E+009	2.573726E-002	6.452625E-003	2.266453E-002	-7.293937E-003	2.270116E-002	-7.276224E-003	-9.663831E-002	4.954939E-002
1.230000E+009	2.578584E-002	6.466766E-003	2.263511E-002	-7.336254E-003	2.266494E-002	-7.327566E-003	-9.642306E-002	5.000067E-002
1.240000E+009	2.583506E-002	6.507680E-003	2.261688E-002	-7.383555E-003	2.264496E-002	-7.388218E-003	-9.619035E-002	5.041654E-002
1.250000E+009	2.592491E-002	6.486159E-003	2.260355E-002	-7.453270E-003	2.264071E-002	-7.442836E-003	-9.596634E-002	5.085952E-002
1.260000E+009	2.598903E-002	6.513191E-003	2.257994E-002	-7.500885E-003	2.258807E-002	-7.494263E-003	-9.570164E-002	5.121689E-002
1.270000E+009	2.611965E-002	6.548446E-003	2.256916E-002	-7.552541E-003	2.256813E-002	-7.544796E-003	-9.543367E-002	5.160874E-002
1.280000E+009	2.619354E-002	6.600508E-003	2.253287E-002	-7.601671E-003	2.255552E-002	-7.605894E-003	-9.512901E-002	5.199901E-002
1.290000E+009	2.628764E-002	6.660877E-003	2.250646E-002	-7.661866E-003	2.253621E-002	-7.662781E-003	-9.479967E-002	5.238897E-002
1.300000E+009	2.637363E-002	6.752611E-003	2.249254E-002	-7.704998E-003	2.250698E-002	-7.712578E-003	-9.444521E-002	5.280097E-002
1.310000E+009	2.645191E-002	6.821970E-003	2.246332E-002	-7.769313E-003	2.246570E-002	-7.774527E-003	-9.409206E-002	5.322295E-002
1.320000E+009	2.649544E-002	6.898188E-003	2.243583E-002	-7.820842E-003	2.245258E-002	-7.835999E-003	-9.370606E-002	5.373071E-002
1.330000E+009	2.655980E-002	7.000642E-003	2.240869E-002	-7.875082E-003	2.241763E-002	-7.882710E-003	-9.329208E-002	5.423159E-002
1.340000E+009	2.661426E-002	7.073997E-003	2.238596E-002	-7.920427E-003	2.239864E-002	-7.913830E-003	-9.290682E-002	5.475306E-002
1.350000E+009	2.663261E-002	7.144207E-003	2.237278E-002	-7.977416E-003	2.237042E-002	-7.995503E-003	-9.255392E-002	5.531614E-002
1.360000E+009	2.671386E-002	7.212755E-003	2.233687E-002	-8.019537E-003	2.235221E-002	-8.030240E-003	-9.217299E-002	5.589671E-002
1.370000E+009	2.677906E-002	7.275108E-003	2.230834E-002	-8.088061E-003	2.234826E-002	-8.100062E-003	-9.184561E-002	5.645787E-002
1.380000E+009	2.683828E-002	7.351891E-003	2.228172E-002	-8.160036E-003	2.230360E-002	-8.146601E-003	-9.153083E-002	5.702908E-002
1.390000E+009	2.690035E-002	7.419594E-003	2.226855E-002	-8.202544E-003	2.228272E-002	-8.219513E-003	-9.122440E-002	5.763248E-002
1.400000E+009	2.695908E-002	7.474743E-003	2.224281E-002	-8.250205E-003	2.223585E-002	-8.245062E-003	-9.096255E-002	5.817695E-002
1.410000E+009	2.699970E-002	7.558623E-003	2.219389E-002	-8.308201E-003	2.222164E-002	-8.309968E-003	-9.067653E-002	5.874204E-002
1.420000E+009	2.705107E-002	7.655446E-003	2.218670E-002	-8.347166E-003	2.218715E-002	-8.357594E-003	-9.041536E-002	5.926790E-002
1.430000E+009	2.713469E-002	7.725833E-003	2.215465E-002	-8.398290E-003	2.216583E-002	-8.413501E-003	-9.012639E-002	5.975784E-002
1.440000E+009	2.714884E-002	7.793164E-003	2.213445E-002	-8.466184E-003	2.213198E-002	-8.462494E-003	-8.985832E-002	6.026705E-002
1.450000E+009	2.715975E-002	7.862630E-003	2.210175E-002	-8.514354E-003	2.212226E-002	-8.518576E-003	-8.952361E-002	6.075415E-002
1.460000E+009	2.719003E-002	7.925531E-003	2.205592E-002	-8.554351E-003	2.208891E-002	-8.572826E-003	-8.918919E-002	6.127782E-002
1.470000E+009	2.723675E-002	7.948743E-003	2.203330E-002	-8.620565E-003	2.203457E-002	-8.612501E-003	-8.884828E-002	6.181226E-002
1.480000E+009	2.728624E-002	8.041542E-003	2.201910E-002	-8.667208E-003	2.202856E-002	-8.674704E-003	-8.849824E-002	6.236677E-002
1.490000E+009	2.732837E-002	8.079003E-003	2.198218E-002	-8.715345E-003	2.199911E-002	-8.713973E-003	-8.811611E-002	6.294593E-002
1.500000E+009	2.740491E-002	8.146796E-003	2.195535E-002	-8.780669E-003	2.200006E-002	-8.776244E-003	-8.774226E-002	6.349367E-002
1.510000E+009	2.747005E-002	8.191891E-003	2.192015E-002	-8.823311E-003	2.193876E-002	-8.819859E-003	-8.737560E-002	6.407791E-002
