! Device ID: PE43711P
! File Path: z:\PE43711P\CHAR_NOM_04282014\AMB\3p300\LS_ATT_30p75dB\PE43711P_AMB_3p300V_3p000V_0p000V_LS_ATT_30p75dB_S2P_SN_5_A0137A.s2p
! Serial: 5
! Lot: A0137A
! Temp: 25C
! VDD: 3.300
! VSS: 0.000
! Control_Hi: 3.000
! Control_Lo: 0.000
! Attenuation Step: 30.75dB
! Port 1: RF1
! Port 2: RF2
! ThroughPath:1-2
! IDD: 0.0001277888
! ISS: -1.295e-007
!

#  Hz  S   RI  R   50

1.000000E+007	1.959792E-002	5.501960E-004	2.506915E-002	-9.410682E-005	2.510488E-002	-9.901260E-005	-1.204083E-001	9.637401E-004
2.000000E+007	1.986591E-002	7.401324E-004	2.506162E-002	-1.435811E-004	2.507925E-002	-1.476970E-004	-1.200930E-001	1.499522E-003
3.000000E+007	2.011913E-002	9.471249E-004	2.505821E-002	-2.034689E-004	2.508081E-002	-2.000295E-004	-1.197732E-001	1.988242E-003
4.000000E+007	2.030222E-002	1.118616E-003	2.506464E-002	-2.737373E-004	2.507194E-002	-2.835856E-004	-1.196030E-001	2.553088E-003
5.000000E+007	2.040328E-002	1.292377E-003	2.506675E-002	-3.648894E-004	2.508964E-002	-3.551716E-004	-1.195745E-001	3.127648E-003
6.000000E+007	2.057604E-002	1.395869E-003	2.505867E-002	-4.348874E-004	2.508012E-002	-4.414725E-004	-1.194403E-001	3.581806E-003
7.000000E+007	2.071821E-002	1.511006E-003	2.504639E-002	-4.988437E-004	2.507090E-002	-4.924312E-004	-1.192528E-001	4.020049E-003
8.000000E+007	2.086367E-002	1.615232E-003	2.505460E-002	-5.635278E-004	2.506762E-002	-5.609509E-004	-1.190807E-001	4.460546E-003
9.000000E+007	2.099595E-002	1.700073E-003	2.505785E-002	-6.363394E-004	2.507247E-002	-6.276685E-004	-1.189692E-001	4.833335E-003
1.000000E+008	2.114669E-002	1.805740E-003	2.505614E-002	-7.074178E-004	2.506456E-002	-7.000597E-004	-1.189060E-001	5.232300E-003
1.100000E+008	2.129882E-002	1.889458E-003	2.504725E-002	-7.776897E-004	2.505497E-002	-7.724319E-004	-1.188171E-001	5.596042E-003
1.200000E+008	2.145519E-002	1.930371E-003	2.504038E-002	-8.566381E-004	2.506729E-002	-8.398589E-004	-1.186977E-001	5.908625E-003
1.300000E+008	2.158621E-002	2.026831E-003	2.503113E-002	-9.074166E-004	2.503997E-002	-9.162485E-004	-1.185775E-001	6.239266E-003
1.400000E+008	2.169709E-002	2.143210E-003	2.502299E-002	-9.800415E-004	2.504820E-002	-9.723379E-004	-1.184544E-001	6.584427E-003
1.500000E+008	2.175017E-002	2.262170E-003	2.501511E-002	-1.053067E-003	2.503516E-002	-1.052322E-003	-1.183534E-001	6.920156E-003
1.600000E+008	2.184827E-002	2.399575E-003	2.502584E-002	-1.118993E-003	2.502765E-002	-1.112544E-003	-1.182891E-001	7.234249E-003
1.700000E+008	2.194761E-002	2.497444E-003	2.501641E-002	-1.197078E-003	2.503971E-002	-1.181053E-003	-1.182012E-001	7.576217E-003
1.800000E+008	2.200950E-002	2.598448E-003	2.499716E-002	-1.265816E-003	2.503629E-002	-1.254997E-003	-1.180890E-001	7.892752E-003
1.900000E+008	2.203019E-002	2.668408E-003	2.500080E-002	-1.330272E-003	2.501984E-002	-1.322510E-003	-1.180296E-001	8.153827E-003
2.000000E+008	2.201785E-002	2.713563E-003	2.498318E-002	-1.395386E-003	2.501185E-002	-1.395170E-003	-1.179708E-001	8.396048E-003
2.100000E+008	2.201754E-002	2.708765E-003	2.497863E-002	-1.461653E-003	2.499913E-002	-1.454557E-003	-1.178820E-001	8.595794E-003
2.200000E+008	2.204232E-002	2.713677E-003	2.496857E-002	-1.530459E-003	2.498951E-002	-1.531506E-003	-1.177700E-001	8.771439E-003
2.300000E+008	2.208967E-002	2.734670E-003	2.496178E-002	-1.608029E-003	2.498675E-002	-1.591491E-003	-1.176222E-001	8.988382E-003
2.400000E+008	2.215486E-002	2.734972E-003	2.494958E-002	-1.670017E-003	2.498616E-002	-1.663885E-003	-1.174525E-001	9.215600E-003
2.500000E+008	2.222110E-002	2.753646E-003	2.495183E-002	-1.734492E-003	2.496748E-002	-1.733294E-003	-1.172463E-001	9.432201E-003
2.600000E+008	2.232149E-002	2.774710E-003	2.493052E-002	-1.799148E-003	2.495892E-002	-1.806037E-003	-1.170238E-001	9.746386E-003
2.700000E+008	2.244870E-002	2.802448E-003	2.492358E-002	-1.871748E-003	2.496055E-002	-1.866660E-003	-1.167607E-001	1.006022E-002
2.800000E+008	2.255863E-002	2.839346E-003	2.492219E-002	-1.937078E-003	2.494893E-002	-1.925261E-003	-1.165495E-001	1.037609E-002
2.900000E+008	2.263547E-002	2.921823E-003	2.490849E-002	-1.996306E-003	2.493819E-002	-1.986123E-003	-1.163996E-001	1.068617E-002
3.000000E+008	2.269910E-002	3.036078E-003	2.490693E-002	-2.060139E-003	2.491799E-002	-2.059052E-003	-1.162519E-001	1.106927E-002
3.100000E+008	2.274883E-002	3.135640E-003	2.488427E-002	-2.126698E-003	2.492429E-002	-2.125679E-003	-1.161322E-001	1.142482E-002
3.200000E+008	2.278110E-002	3.258751E-003	2.487663E-002	-2.204255E-003	2.491040E-002	-2.201157E-003	-1.160240E-001	1.176491E-002
3.300000E+008	2.279355E-002	3.373102E-003	2.487139E-002	-2.257299E-003	2.490151E-002	-2.274629E-003	-1.159287E-001	1.209028E-002
3.400000E+008	2.276582E-002	3.448693E-003	2.486859E-002	-2.329117E-003	2.488105E-002	-2.338322E-003	-1.157888E-001	1.236074E-002
3.500000E+008	2.273215E-002	3.491575E-003	2.485016E-002	-2.400494E-003	2.486493E-002	-2.405951E-003	-1.156372E-001	1.260175E-002
3.600000E+008	2.270748E-002	3.558535E-003	2.484121E-002	-2.472818E-003	2.483575E-002	-2.465537E-003	-1.154628E-001	1.287696E-002
3.700000E+008	2.269437E-002	3.589441E-003	2.482428E-002	-2.530174E-003	2.482894E-002	-2.505619E-003	-1.152494E-001	1.311122E-002
3.800000E+008	2.268932E-002	3.645499E-003	2.481298E-002	-2.599933E-003	2.483349E-002	-2.579153E-003	-1.150289E-001	1.337066E-002
3.900000E+008	2.267389E-002	3.637447E-003	2.479491E-002	-2.671974E-003	2.481510E-002	-2.648623E-003	-1.147451E-001	1.369394E-002
4.000000E+008	2.269444E-002	3.618365E-003	2.478709E-002	-2.734257E-003	2.480798E-002	-2.717429E-003	-1.144362E-001	1.399936E-002
4.100000E+008	2.270937E-002	3.609936E-003	2.476607E-002	-2.781497E-003	2.479699E-002	-2.784790E-003	-1.141379E-001	1.431843E-002
4.200000E+008	2.273519E-002	3.619577E-003	2.475804E-002	-2.834760E-003	2.478381E-002	-2.849885E-003	-1.139330E-001	1.467880E-002
4.300000E+008	2.276989E-002	3.637674E-003	2.475662E-002	-2.910154E-003	2.477144E-002	-2.926566E-003	-1.137031E-001	1.507265E-002
4.400000E+008	2.280659E-002	3.695545E-003	2.473755E-002	-2.979945E-003	2.475733E-002	-2.973757E-003	-1.135090E-001	1.552050E-002
4.500000E+008	2.286383E-002	3.722792E-003	2.471736E-002	-3.053010E-003	2.475281E-002	-3.049209E-003	-1.133198E-001	1.594800E-002
4.600000E+008	2.291749E-002	3.753552E-003	2.471470E-002	-3.109656E-003	2.472528E-002	-3.119632E-003	-1.131093E-001	1.639189E-002
4.700000E+008	2.295231E-002	3.805933E-003	2.469394E-002	-3.181394E-003	2.470433E-002	-3.180844E-003	-1.129275E-001	1.677846E-002
4.800000E+008	2.296444E-002	3.876856E-003	2.468273E-002	-3.249074E-003	2.470923E-002	-3.240897E-003	-1.127722E-001	1.716298E-002
4.900000E+008	2.295053E-002	3.938904E-003	2.466903E-002	-3.313377E-003	2.468778E-002	-3.316730E-003	-1.126092E-001	1.755233E-002
5.000000E+008	2.296876E-002	4.017325E-003	2.465725E-002	-3.371657E-003	2.467985E-002	-3.367775E-003	-1.124478E-001	1.791024E-002
5.100000E+008	2.298617E-002	4.079694E-003	2.464370E-002	-3.436327E-003	2.466545E-002	-3.425747E-003	-1.122609E-001	1.827716E-002
5.200000E+008	2.297581E-002	4.117099E-003	2.462713E-002	-3.506323E-003	2.465074E-002	-3.515800E-003	-1.120826E-001	1.864881E-002
5.300000E+008	2.294251E-002	4.135892E-003	2.461355E-002	-3.554274E-003	2.463501E-002	-3.561283E-003	-1.118431E-001	1.900930E-002
5.400000E+008	2.292453E-002	4.111355E-003	2.459889E-002	-3.626968E-003	2.463025E-002	-3.630380E-003	-1.116072E-001	1.937360E-002
5.500000E+008	2.289413E-002	4.114741E-003	2.458836E-002	-3.695383E-003	2.461028E-002	-3.692822E-003	-1.114018E-001	1.975092E-002
5.600000E+008	2.288600E-002	4.100594E-003	2.456926E-002	-3.755961E-003	2.458224E-002	-3.755565E-003	-1.111732E-001	2.013767E-002
5.700000E+008	2.291613E-002	4.074888E-003	2.456190E-002	-3.810764E-003	2.457522E-002	-3.808135E-003	-1.110060E-001	2.057270E-002
5.800000E+008	2.293771E-002	4.057521E-003	2.455054E-002	-3.887177E-003	2.456099E-002	-3.881199E-003	-1.108048E-001	2.099916E-002
5.900000E+008	2.296244E-002	4.019151E-003	2.453195E-002	-3.945236E-003	2.453858E-002	-3.934955E-003	-1.106173E-001	2.146546E-002
6.000000E+008	2.305744E-002	4.002280E-003	2.449298E-002	-4.001386E-003	2.452673E-002	-4.006362E-003	-1.103917E-001	2.188050E-002
6.100000E+008	2.312690E-002	3.986795E-003	2.449713E-002	-4.067664E-003	2.451398E-002	-4.077334E-003	-1.102232E-001	2.229975E-002
6.200000E+008	2.321653E-002	4.029096E-003	2.446601E-002	-4.133833E-003	2.449408E-002	-4.140679E-003	-1.100296E-001	2.270678E-002
6.300000E+008	2.332182E-002	4.068355E-003	2.445165E-002	-4.199817E-003	2.447375E-002	-4.199884E-003	-1.098671E-001	2.310665E-002
6.400000E+008	2.340923E-002	4.128792E-003	2.443956E-002	-4.253224E-003	2.444972E-002	-4.249621E-003	-1.096760E-001	2.351837E-002
6.500000E+008	2.347815E-002	4.196471E-003	2.441411E-002	-4.311440E-003	2.445538E-002	-4.315335E-003	-1.094908E-001	2.393311E-002
6.600000E+008	2.354256E-002	4.248100E-003	2.441065E-002	-4.380061E-003	2.442624E-002	-4.375269E-003	-1.092949E-001	2.435884E-002
6.700000E+008	2.356517E-002	4.319394E-003	2.439328E-002	-4.435807E-003	2.440078E-002	-4.435966E-003	-1.091280E-001	2.476863E-002
6.800000E+008	2.356500E-002	4.374973E-003	2.437947E-002	-4.499929E-003	2.438719E-002	-4.496617E-003	-1.089439E-001	2.522466E-002
6.900000E+008	2.357988E-002	4.461262E-003	2.435919E-002	-4.555266E-003	2.436995E-002	-4.564429E-003	-1.087475E-001	2.566597E-002
7.000000E+008	2.358263E-002	4.508622E-003	2.434422E-002	-4.621279E-003	2.436991E-002	-4.613090E-003	-1.085982E-001	2.611126E-002
7.100000E+008	2.358041E-002	4.572195E-003	2.433460E-002	-4.677499E-003	2.434054E-002	-4.688792E-003	-1.084625E-001	2.654382E-002
7.200000E+008	2.359463E-002	4.608858E-003	2.432030E-002	-4.735053E-003	2.432295E-002	-4.744874E-003	-1.083418E-001	2.697112E-002
7.300000E+008	2.358871E-002	4.627122E-003	2.428220E-002	-4.796317E-003	2.429880E-002	-4.796495E-003	-1.082222E-001	2.734522E-002
7.400000E+008	2.357792E-002	4.680542E-003	2.427068E-002	-4.863920E-003	2.429562E-002	-4.863308E-003	-1.081183E-001	2.774775E-002
7.500000E+008	2.358207E-002	4.697714E-003	2.427147E-002	-4.921064E-003	2.428165E-002	-4.929562E-003	-1.080126E-001	2.809835E-002
7.600000E+008	2.358821E-002	4.708106E-003	2.422901E-002	-4.983886E-003	2.425306E-002	-4.985833E-003	-1.078536E-001	2.846421E-002
7.700000E+008	2.358507E-002	4.678397E-003	2.422101E-002	-5.045704E-003	2.424244E-002	-5.056447E-003	-1.077109E-001	2.877614E-002
7.800000E+008	2.360329E-002	4.669527E-003	2.419273E-002	-5.111699E-003	2.422125E-002	-5.115530E-003	-1.075344E-001	2.911230E-002
7.900000E+008	2.364040E-002	4.656940E-003	2.417416E-002	-5.166505E-003	2.419570E-002	-5.171656E-003	-1.073634E-001	2.944917E-002
8.000000E+008	2.368902E-002	4.637112E-003	2.415480E-002	-5.217316E-003	2.417775E-002	-5.230183E-003	-1.071250E-001	2.980555E-002
8.100000E+008	2.372625E-002	4.598011E-003	2.413880E-002	-5.288307E-003	2.416079E-002	-5.309456E-003	-1.068671E-001	3.020284E-002
8.200000E+008	2.381750E-002	4.603706E-003	2.410407E-002	-5.357074E-003	2.413633E-002	-5.357100E-003	-1.066175E-001	3.056668E-002
8.300000E+008	2.390863E-002	4.591198E-003	2.410420E-002	-5.412820E-003	2.412720E-002	-5.409837E-003	-1.064126E-001	3.097867E-002
8.400000E+008	2.399144E-002	4.613739E-003	2.409177E-002	-5.466591E-003	2.408898E-002	-5.468703E-003	-1.062189E-001	3.137822E-002
8.500000E+008	2.409932E-002	4.663812E-003	2.406453E-002	-5.518373E-003	2.409666E-002	-5.521482E-003	-1.060566E-001	3.176816E-002
8.600000E+008	2.414247E-002	4.698811E-003	2.404044E-002	-5.586614E-003	2.405879E-002	-5.579881E-003	-1.059024E-001	3.219278E-002
8.700000E+008	2.421012E-002	4.772233E-003	2.402862E-002	-5.657229E-003	2.404731E-002	-5.655346E-003	-1.057378E-001	3.256638E-002
8.800000E+008	2.427718E-002	4.844881E-003	2.399898E-002	-5.701224E-003	2.402882E-002	-5.708480E-003	-1.055915E-001	3.291973E-002
8.900000E+008	2.432743E-002	4.906234E-003	2.398563E-002	-5.783067E-003	2.400828E-002	-5.765929E-003	-1.054375E-001	3.324937E-002
9.000000E+008	2.433989E-002	4.961303E-003	2.396336E-002	-5.830926E-003	2.398713E-002	-5.817825E-003	-1.052363E-001	3.358599E-002
9.100000E+008	2.436699E-002	4.987311E-003	2.395701E-002	-5.874827E-003	2.396530E-002	-5.884672E-003	-1.050018E-001	3.391194E-002
9.200000E+008	2.436500E-002	5.012727E-003	2.392031E-002	-5.943909E-003	2.394774E-002	-5.943752E-003	-1.047545E-001	3.425770E-002
9.300000E+008	2.442726E-002	5.017319E-003	2.390394E-002	-6.006021E-003	2.393219E-002	-6.003261E-003	-1.044616E-001	3.461504E-002
9.400000E+008	2.448525E-002	5.034523E-003	2.389474E-002	-6.048251E-003	2.389947E-002	-6.067453E-003	-1.041326E-001	3.500839E-002
9.500000E+008	2.455789E-002	5.024990E-003	2.385918E-002	-6.113036E-003	2.388327E-002	-6.138799E-003	-1.038039E-001	3.544401E-002
9.600000E+008	2.459175E-002	5.067640E-003	2.384960E-002	-6.185764E-003	2.387134E-002	-6.189290E-003	-1.035033E-001	3.586615E-002
9.700000E+008	2.466682E-002	5.103834E-003	2.381704E-002	-6.229476E-003	2.383657E-002	-6.237659E-003	-1.031982E-001	3.631341E-002
9.800000E+008	2.477197E-002	5.161296E-003	2.381116E-002	-6.293621E-003	2.383287E-002	-6.290789E-003	-1.029432E-001	3.680214E-002
9.900000E+008	2.484411E-002	5.230285E-003	2.378850E-002	-6.354268E-003	2.381058E-002	-6.360298E-003	-1.026807E-001	3.727091E-002
1.000000E+009	2.491646E-002	5.290380E-003	2.378164E-002	-6.405382E-003	2.378787E-002	-6.423538E-003	-1.024797E-001	3.768623E-002
1.010000E+009	2.496109E-002	5.388069E-003	2.375191E-002	-6.459393E-003	2.376588E-002	-6.473619E-003	-1.022538E-001	3.814380E-002
1.020000E+009	2.500273E-002	5.440670E-003	2.373679E-002	-6.538023E-003	2.374123E-002	-6.534253E-003	-1.020461E-001	3.858876E-002
1.030000E+009	2.505482E-002	5.505326E-003	2.371223E-002	-6.566982E-003	2.372232E-002	-6.590778E-003	-1.018520E-001	3.902353E-002
1.040000E+009	2.508965E-002	5.573025E-003	2.369363E-002	-6.646817E-003	2.370599E-002	-6.636096E-003	-1.016337E-001	3.943888E-002
1.050000E+009	2.513168E-002	5.647084E-003	2.365251E-002	-6.689908E-003	2.368846E-002	-6.699140E-003	-1.013803E-001	3.990712E-002
1.060000E+009	2.516654E-002	5.715193E-003	2.364385E-002	-6.752264E-003	2.363758E-002	-6.757925E-003	-1.011030E-001	4.034896E-002
1.070000E+009	2.520712E-002	5.763552E-003	2.361132E-002	-6.802381E-003	2.364018E-002	-6.812975E-003	-1.008542E-001	4.079731E-002
1.080000E+009	2.523315E-002	5.819821E-003	2.359332E-002	-6.868650E-003	2.362254E-002	-6.868660E-003	-1.006063E-001	4.126644E-002
1.090000E+009	2.526512E-002	5.846672E-003	2.357784E-002	-6.932675E-003	2.360865E-002	-6.937749E-003	-1.003646E-001	4.170355E-002
1.100000E+009	2.530946E-002	5.909735E-003	2.354436E-002	-6.989357E-003	2.357375E-002	-6.995485E-003	-1.001617E-001	4.217411E-002
1.110000E+009	2.535054E-002	5.968110E-003	2.352121E-002	-7.039879E-003	2.355213E-002	-7.047835E-003	-9.993607E-002	4.259763E-002
1.120000E+009	2.538300E-002	6.022678E-003	2.352631E-002	-7.116008E-003	2.352628E-002	-7.102777E-003	-9.976482E-002	4.299289E-002
1.130000E+009	2.543122E-002	6.060542E-003	2.350420E-002	-7.156539E-003	2.351046E-002	-7.176203E-003	-9.956747E-002	4.342204E-002
1.140000E+009	2.544611E-002	6.104890E-003	2.348628E-002	-7.219849E-003	2.348976E-002	-7.230029E-003	-9.933704E-002	4.385724E-002
1.150000E+009	2.550564E-002	6.151006E-003	2.344807E-002	-7.289705E-003	2.346532E-002	-7.288781E-003	-9.909517E-002	4.427182E-002
1.160000E+009	2.552212E-002	6.217235E-003	2.341954E-002	-7.345165E-003	2.345787E-002	-7.336775E-003	-9.883611E-002	4.468924E-002
1.170000E+009	2.556413E-002	6.287574E-003	2.340399E-002	-7.393310E-003	2.342602E-002	-7.399234E-003	-9.858521E-002	4.513150E-002
1.180000E+009	2.560766E-002	6.324071E-003	2.337519E-002	-7.474363E-003	2.340265E-002	-7.452538E-003	-9.830699E-002	4.558607E-002
1.190000E+009	2.561376E-002	6.394157E-003	2.335076E-002	-7.509562E-003	2.336357E-002	-7.515619E-003	-9.805968E-002	4.605280E-002
1.200000E+009	2.564351E-002	6.419939E-003	2.333817E-002	-7.563267E-003	2.335267E-002	-7.573958E-003	-9.775548E-002	4.652362E-002
1.210000E+009	2.569966E-002	6.448871E-003	2.330694E-002	-7.613155E-003	2.331658E-002	-7.634504E-003	-9.753285E-002	4.701174E-002
1.220000E+009	2.574376E-002	6.437876E-003	2.328476E-002	-7.688122E-003	2.331161E-002	-7.701229E-003	-9.732321E-002	4.744966E-002
1.230000E+009	2.578168E-002	6.459217E-003	2.325664E-002	-7.745473E-003	2.327906E-002	-7.745584E-003	-9.710480E-002	4.788093E-002
1.240000E+009	2.583199E-002	6.478101E-003	2.323790E-002	-7.808995E-003	2.325213E-002	-7.796933E-003	-9.690340E-002	4.828452E-002
1.250000E+009	2.591420E-002	6.487517E-003	2.321296E-002	-7.862166E-003	2.321021E-002	-7.846110E-003	-9.668468E-002	4.867749E-002
1.260000E+009	2.595921E-002	6.517902E-003	2.317004E-002	-7.922352E-003	2.321444E-002	-7.915548E-003	-9.645521E-002	4.904377E-002
1.270000E+009	2.612082E-002	6.541715E-003	2.315513E-002	-7.974398E-003	2.318219E-002	-7.971000E-003	-9.618118E-002	4.941520E-002
1.280000E+009	2.618048E-002	6.600911E-003	2.313402E-002	-8.041136E-003	2.314710E-002	-8.035271E-003	-9.591128E-002	4.978604E-002
1.290000E+009	2.627528E-002	6.655402E-003	2.310696E-002	-8.081348E-003	2.312929E-002	-8.081502E-003	-9.556458E-002	5.014991E-002
1.300000E+009	2.635727E-002	6.755090E-003	2.307516E-002	-8.139994E-003	2.311078E-002	-8.158499E-003	-9.522479E-002	5.057148E-002
1.310000E+009	2.644433E-002	6.807661E-003	2.305054E-002	-8.210059E-003	2.307482E-002	-8.203235E-003	-9.489588E-002	5.096586E-002
1.320000E+009	2.650279E-002	6.902767E-003	2.301122E-002	-8.262869E-003	2.304944E-002	-8.274323E-003	-9.450513E-002	5.144142E-002
1.330000E+009	2.654192E-002	6.981019E-003	2.300911E-002	-8.308158E-003	2.302415E-002	-8.318178E-003	-9.410586E-002	5.192304E-002
1.340000E+009	2.660585E-002	7.064157E-003	2.298511E-002	-8.368304E-003	2.299481E-002	-8.392022E-003	-9.375290E-002	5.244344E-002
1.350000E+009	2.662631E-002	7.135695E-003	2.295847E-002	-8.426287E-003	2.296474E-002	-8.443282E-003	-9.339699E-002	5.297159E-002
1.360000E+009	2.670868E-002	7.207255E-003	2.291774E-002	-8.489581E-003	2.293299E-002	-8.480668E-003	-9.304659E-002	5.353593E-002
1.370000E+009	2.677295E-002	7.300248E-003	2.289810E-002	-8.554373E-003	2.292509E-002	-8.554560E-003	-9.272460E-002	5.409070E-002
1.380000E+009	2.683194E-002	7.350556E-003	2.287009E-002	-8.594982E-003	2.288553E-002	-8.606890E-003	-9.242167E-002	5.465459E-002
1.390000E+009	2.691342E-002	7.402631E-003	2.284396E-002	-8.656214E-003	2.287266E-002	-8.678323E-003	-9.213989E-002	5.524385E-002
1.400000E+009	2.694870E-002	7.459610E-003	2.280749E-002	-8.719780E-003	2.284713E-002	-8.723970E-003	-9.188701E-002	5.575823E-002
1.410000E+009	2.701086E-002	7.558543E-003	2.280266E-002	-8.772305E-003	2.280084E-002	-8.789471E-003	-9.160478E-002	5.630619E-002
1.420000E+009	2.703804E-002	7.624803E-003	2.276335E-002	-8.823198E-003	2.275327E-002	-8.826918E-003	-9.135725E-002	5.680732E-002
1.430000E+009	2.709182E-002	7.717564E-003	2.273512E-002	-8.885223E-003	2.274819E-002	-8.888273E-003	-9.107485E-002	5.730138E-002
1.440000E+009	2.712129E-002	7.800424E-003	2.269573E-002	-8.924118E-003	2.273209E-002	-8.939150E-003	-9.082251E-002	5.778635E-002
1.450000E+009	2.716679E-002	7.857525E-003	2.266943E-002	-8.997299E-003	2.269208E-002	-8.990708E-003	-9.051287E-002	5.827827E-002
1.460000E+009	2.717985E-002	7.925602E-003	2.263029E-002	-9.063521E-003	2.267256E-002	-9.055895E-003	-9.019595E-002	5.876406E-002
1.470000E+009	2.723140E-002	7.962502E-003	2.259788E-002	-9.113669E-003	2.264673E-002	-9.108657E-003	-8.986817E-002	5.926091E-002
1.480000E+009	2.726489E-002	8.041715E-003	2.258014E-002	-9.156040E-003	2.260763E-002	-9.163371E-003	-8.953286E-002	5.981255E-002
1.490000E+009	2.733136E-002	8.078488E-003	2.254595E-002	-9.218923E-003	2.256944E-002	-9.217173E-003	-8.915434E-002	6.037342E-002
1.500000E+009	2.737558E-002	8.131734E-003	2.253170E-002	-9.264775E-003	2.254823E-002	-9.253540E-003	-8.880679E-002	6.093065E-002
1.510000E+009	2.746102E-002	8.175057E-003	2.248692E-002	-9.334166E-003	2.252122E-002	-9.320950E-003	-8.847580E-002	6.148028E-002
