! Device ID: PE43711P
! File Path: z:\PE43711P\CHAR_NOM_04282014\AMB\3p300\LS_ATT_26p50dB\PE43711P_AMB_3p300V_3p000V_0p000V_LS_ATT_26p50dB_S2P_SN_5_A0137A.s2p
! Serial: 5
! Lot: A0137A
! Temp: 25C
! VDD: 3.300
! VSS: 0.000
! Control_Hi: 3.000
! Control_Lo: 0.000
! Attenuation Step: 26.50dB
! Port 1: RF1
! Port 2: RF2
! ThroughPath:1-2
! IDD: 0.0001274328
! ISS: -1.868e-007
!

#  Hz  S   RI  R   50

1.000000E+007	3.110300E-002	4.390922E-004	4.109575E-002	-1.319455E-004	4.115285E-002	-1.780682E-004	-1.356473E-001	9.673310E-004
2.000000E+007	3.136317E-002	5.495527E-004	4.108537E-002	-2.485197E-004	4.111479E-002	-2.427465E-004	-1.353380E-001	1.618293E-003
3.000000E+007	3.162191E-002	6.679678E-004	4.110022E-002	-3.764115E-004	4.112608E-002	-3.644530E-004	-1.350431E-001	2.136105E-003
4.000000E+007	3.178956E-002	7.367625E-004	4.110489E-002	-4.978147E-004	4.111894E-002	-5.085246E-004	-1.348778E-001	2.749151E-003
5.000000E+007	3.188823E-002	8.226494E-004	4.108818E-002	-6.340109E-004	4.112473E-002	-6.295285E-004	-1.348376E-001	3.383697E-003
6.000000E+007	3.205718E-002	8.485926E-004	4.108117E-002	-7.463783E-004	4.111122E-002	-7.540689E-004	-1.346909E-001	3.880330E-003
7.000000E+007	3.219019E-002	8.492070E-004	4.107056E-002	-8.669161E-004	4.110637E-002	-8.688923E-004	-1.345109E-001	4.373412E-003
8.000000E+007	3.233548E-002	8.721932E-004	4.107876E-002	-9.873366E-004	4.110437E-002	-9.832613E-004	-1.343429E-001	4.837603E-003
9.000000E+007	3.245188E-002	8.748187E-004	4.106152E-002	-1.108606E-003	4.109200E-002	-1.109644E-003	-1.342340E-001	5.261544E-003
1.000000E+008	3.257563E-002	8.889242E-004	4.105810E-002	-1.237992E-003	4.108817E-002	-1.224084E-003	-1.341807E-001	5.707593E-003
1.100000E+008	3.271573E-002	8.817091E-004	4.104987E-002	-1.356400E-003	4.107042E-002	-1.348912E-003	-1.340796E-001	6.125146E-003
1.200000E+008	3.285767E-002	8.411784E-004	4.103783E-002	-1.488437E-003	4.106568E-002	-1.484258E-003	-1.339697E-001	6.478993E-003
1.300000E+008	3.297183E-002	8.320487E-004	4.103132E-002	-1.593420E-003	4.105915E-002	-1.604649E-003	-1.338426E-001	6.875473E-003
1.400000E+008	3.306781E-002	8.651199E-004	4.101680E-002	-1.728343E-003	4.105263E-002	-1.727061E-003	-1.337380E-001	7.244348E-003
1.500000E+008	3.311902E-002	8.897766E-004	4.100907E-002	-1.831120E-003	4.101806E-002	-1.837942E-003	-1.336416E-001	7.617477E-003
1.600000E+008	3.319043E-002	9.434704E-004	4.099611E-002	-1.960794E-003	4.101329E-002	-1.950746E-003	-1.335541E-001	7.997499E-003
1.700000E+008	3.327695E-002	9.776327E-004	4.098983E-002	-2.088512E-003	4.103233E-002	-2.083491E-003	-1.334867E-001	8.380751E-003
1.800000E+008	3.332572E-002	9.764226E-004	4.096537E-002	-2.218347E-003	4.102173E-002	-2.211964E-003	-1.333614E-001	8.758057E-003
1.900000E+008	3.330870E-002	9.492992E-004	4.095136E-002	-2.337720E-003	4.099660E-002	-2.338903E-003	-1.333051E-001	9.074229E-003
2.000000E+008	3.328089E-002	9.161678E-004	4.093326E-002	-2.449392E-003	4.097454E-002	-2.448151E-003	-1.332454E-001	9.348532E-003
2.100000E+008	3.325488E-002	8.336450E-004	4.094105E-002	-2.566840E-003	4.095811E-002	-2.549717E-003	-1.331670E-001	9.591439E-003
2.200000E+008	3.325810E-002	7.582512E-004	4.090865E-002	-2.672504E-003	4.094827E-002	-2.663996E-003	-1.330541E-001	9.837632E-003
2.300000E+008	3.327856E-002	6.833440E-004	4.089786E-002	-2.779595E-003	4.092057E-002	-2.781233E-003	-1.329114E-001	1.008255E-002
2.400000E+008	3.332811E-002	6.139916E-004	4.087857E-002	-2.900919E-003	4.091402E-002	-2.913899E-003	-1.327475E-001	1.036440E-002
2.500000E+008	3.335928E-002	5.523124E-004	4.086418E-002	-3.037335E-003	4.090959E-002	-3.030732E-003	-1.325355E-001	1.065287E-002
2.600000E+008	3.343336E-002	4.724743E-004	4.083655E-002	-3.151142E-003	4.087706E-002	-3.142663E-003	-1.323179E-001	1.100714E-002
2.700000E+008	3.353139E-002	4.205472E-004	4.082727E-002	-3.269845E-003	4.086023E-002	-3.255885E-003	-1.320835E-001	1.137859E-002
2.800000E+008	3.361882E-002	4.127471E-004	4.081097E-002	-3.379741E-003	4.085138E-002	-3.377761E-003	-1.318469E-001	1.172406E-002
2.900000E+008	3.365786E-002	3.982621E-004	4.079917E-002	-3.511359E-003	4.083320E-002	-3.479965E-003	-1.317121E-001	1.208083E-002
3.000000E+008	3.370954E-002	4.327026E-004	4.079041E-002	-3.612792E-003	4.081684E-002	-3.597436E-003	-1.315696E-001	1.250670E-002
3.100000E+008	3.371906E-002	4.522548E-004	4.077050E-002	-3.727138E-003	4.079896E-002	-3.720083E-003	-1.314598E-001	1.291164E-002
3.200000E+008	3.374405E-002	5.068781E-004	4.074261E-002	-3.850535E-003	4.078037E-002	-3.838091E-003	-1.313398E-001	1.331354E-002
3.300000E+008	3.371004E-002	5.326845E-004	4.073308E-002	-3.962011E-003	4.076299E-002	-3.968519E-003	-1.312399E-001	1.369936E-002
3.400000E+008	3.366995E-002	5.388461E-004	4.072041E-002	-4.080351E-003	4.073995E-002	-4.095703E-003	-1.311187E-001	1.401831E-002
3.500000E+008	3.359248E-002	5.213148E-004	4.068219E-002	-4.192664E-003	4.069580E-002	-4.198776E-003	-1.309676E-001	1.430919E-002
3.600000E+008	3.354470E-002	5.110748E-004	4.065752E-002	-4.317047E-003	4.067418E-002	-4.297783E-003	-1.307817E-001	1.463924E-002
3.700000E+008	3.349266E-002	4.755283E-004	4.062849E-002	-4.417168E-003	4.065704E-002	-4.404110E-003	-1.305702E-001	1.492759E-002
3.800000E+008	3.345468E-002	4.371515E-004	4.061826E-002	-4.544856E-003	4.065075E-002	-4.528594E-003	-1.303634E-001	1.523451E-002
3.900000E+008	3.341646E-002	3.686379E-004	4.058958E-002	-4.665005E-003	4.062033E-002	-4.631980E-003	-1.300835E-001	1.562441E-002
4.000000E+008	3.341808E-002	2.857264E-004	4.056220E-002	-4.762430E-003	4.060385E-002	-4.763067E-003	-1.297552E-001	1.597752E-002
4.100000E+008	3.338762E-002	2.041890E-004	4.053578E-002	-4.867377E-003	4.057875E-002	-4.858994E-003	-1.294604E-001	1.634184E-002
4.200000E+008	3.338225E-002	1.489096E-004	4.051915E-002	-4.967697E-003	4.055761E-002	-4.979309E-003	-1.292470E-001	1.675043E-002
4.300000E+008	3.338756E-002	8.407544E-005	4.050337E-002	-5.096642E-003	4.053375E-002	-5.095183E-003	-1.290339E-001	1.721609E-002
4.400000E+008	3.339695E-002	7.125802E-005	4.048297E-002	-5.203103E-003	4.050192E-002	-5.191900E-003	-1.288304E-001	1.768785E-002
4.500000E+008	3.341410E-002	2.886772E-005	4.046028E-002	-5.321381E-003	4.049529E-002	-5.309650E-003	-1.286550E-001	1.818613E-002
4.600000E+008	3.342873E-002	-7.275514E-006	4.043416E-002	-5.442346E-003	4.045628E-002	-5.440507E-003	-1.284390E-001	1.870985E-002
4.700000E+008	3.343890E-002	-1.746771E-005	4.040669E-002	-5.536961E-003	4.043425E-002	-5.550076E-003	-1.282624E-001	1.913056E-002
4.800000E+008	3.340401E-002	-8.937542E-006	4.037134E-002	-5.661765E-003	4.039666E-002	-5.644828E-003	-1.281097E-001	1.957706E-002
4.900000E+008	3.337221E-002	-1.196945E-005	4.036117E-002	-5.754373E-003	4.037707E-002	-5.773588E-003	-1.279469E-001	2.000569E-002
5.000000E+008	3.335538E-002	-3.539540E-006	4.033075E-002	-5.870099E-003	4.035735E-002	-5.864253E-003	-1.277738E-001	2.042975E-002
5.100000E+008	3.333534E-002	-1.000134E-005	4.029776E-002	-5.985572E-003	4.033445E-002	-5.975417E-003	-1.275962E-001	2.084499E-002
5.200000E+008	3.328029E-002	-3.080252E-005	4.028541E-002	-6.104541E-003	4.030787E-002	-6.101145E-003	-1.274237E-001	2.126533E-002
5.300000E+008	3.322845E-002	-8.205092E-005	4.025995E-002	-6.202966E-003	4.028400E-002	-6.209370E-003	-1.271788E-001	2.168845E-002
5.400000E+008	3.315032E-002	-1.684788E-004	4.023199E-002	-6.327602E-003	4.026819E-002	-6.316149E-003	-1.269287E-001	2.210900E-002
5.500000E+008	3.310310E-002	-2.173904E-004	4.020065E-002	-6.420910E-003	4.022723E-002	-6.431873E-003	-1.267230E-001	2.253870E-002
5.600000E+008	3.307379E-002	-2.973592E-004	4.016930E-002	-6.530457E-003	4.019749E-002	-6.532073E-003	-1.265016E-001	2.298561E-002
5.700000E+008	3.305370E-002	-4.005988E-004	4.013947E-002	-6.638381E-003	4.017034E-002	-6.640317E-003	-1.263224E-001	2.347766E-002
5.800000E+008	3.303019E-002	-4.686969E-004	4.011732E-002	-6.756107E-003	4.013364E-002	-6.753915E-003	-1.261231E-001	2.394783E-002
5.900000E+008	3.303586E-002	-5.739612E-004	4.008370E-002	-6.860366E-003	4.011992E-002	-6.868865E-003	-1.259385E-001	2.449673E-002
6.000000E+008	3.309193E-002	-6.585955E-004	4.005228E-002	-6.976016E-003	4.008634E-002	-6.970588E-003	-1.257345E-001	2.497014E-002
6.100000E+008	3.312014E-002	-7.294159E-004	4.003561E-002	-7.087143E-003	4.004278E-002	-7.086294E-003	-1.255535E-001	2.545216E-002
6.200000E+008	3.318268E-002	-7.374739E-004	3.999479E-002	-7.191666E-003	4.002065E-002	-7.201847E-003	-1.253585E-001	2.590671E-002
6.300000E+008	3.324454E-002	-7.618782E-004	3.995935E-002	-7.287460E-003	4.000229E-002	-7.290508E-003	-1.251808E-001	2.637160E-002
6.400000E+008	3.330236E-002	-7.690594E-004	3.994162E-002	-7.403391E-003	3.995991E-002	-7.397352E-003	-1.249789E-001	2.682722E-002
6.500000E+008	3.335001E-002	-7.482219E-004	3.990184E-002	-7.495865E-003	3.992035E-002	-7.507595E-003	-1.248055E-001	2.730465E-002
6.600000E+008	3.334488E-002	-7.580171E-004	3.987599E-002	-7.614953E-003	3.990671E-002	-7.624278E-003	-1.246128E-001	2.777871E-002
6.700000E+008	3.332566E-002	-7.504572E-004	3.984426E-002	-7.734325E-003	3.986706E-002	-7.735255E-003	-1.244163E-001	2.825797E-002
6.800000E+008	3.328316E-002	-7.320122E-004	3.981434E-002	-7.836286E-003	3.984063E-002	-7.842802E-003	-1.242301E-001	2.875401E-002
6.900000E+008	3.325406E-002	-7.102302E-004	3.978358E-002	-7.935356E-003	3.980857E-002	-7.937602E-003	-1.240350E-001	2.926353E-002
7.000000E+008	3.325056E-002	-7.070608E-004	3.976151E-002	-8.044072E-003	3.978213E-002	-8.026586E-003	-1.239038E-001	2.975837E-002
7.100000E+008	3.321917E-002	-7.123853E-004	3.972381E-002	-8.138269E-003	3.973601E-002	-8.143674E-003	-1.237659E-001	3.025345E-002
7.200000E+008	3.317381E-002	-7.437011E-004	3.968480E-002	-8.252932E-003	3.972396E-002	-8.247118E-003	-1.236083E-001	3.072715E-002
7.300000E+008	3.314162E-002	-7.552079E-004	3.965260E-002	-8.348727E-003	3.969603E-002	-8.354905E-003	-1.234835E-001	3.119088E-002
7.400000E+008	3.309170E-002	-7.921408E-004	3.962322E-002	-8.453290E-003	3.965189E-002	-8.465252E-003	-1.233733E-001	3.162695E-002
7.500000E+008	3.306675E-002	-8.104901E-004	3.959130E-002	-8.555327E-003	3.963459E-002	-8.560889E-003	-1.232685E-001	3.204054E-002
7.600000E+008	3.303410E-002	-8.651380E-004	3.956396E-002	-8.653316E-003	3.959450E-002	-8.681635E-003	-1.231235E-001	3.245851E-002
7.700000E+008	3.298531E-002	-9.286342E-004	3.953288E-002	-8.760139E-003	3.954968E-002	-8.772769E-003	-1.229640E-001	3.284568E-002
7.800000E+008	3.297262E-002	-9.682656E-004	3.949355E-002	-8.874561E-003	3.952316E-002	-8.874910E-003	-1.227781E-001	3.322074E-002
7.900000E+008	3.296311E-002	-1.065532E-003	3.946279E-002	-8.978735E-003	3.949844E-002	-8.992785E-003	-1.225901E-001	3.362614E-002
8.000000E+008	3.296401E-002	-1.134672E-003	3.943060E-002	-9.085890E-003	3.944791E-002	-9.092409E-003	-1.223535E-001	3.406430E-002
8.100000E+008	3.298789E-002	-1.224261E-003	3.938826E-002	-9.189316E-003	3.942078E-002	-9.188284E-003	-1.220786E-001	3.450603E-002
8.200000E+008	3.301892E-002	-1.271645E-003	3.935715E-002	-9.293380E-003	3.939032E-002	-9.290958E-003	-1.218510E-001	3.492881E-002
8.300000E+008	3.307604E-002	-1.328523E-003	3.932285E-002	-9.401719E-003	3.934654E-002	-9.398069E-003	-1.216085E-001	3.539929E-002
8.400000E+008	3.313147E-002	-1.373154E-003	3.928662E-002	-9.493054E-003	3.932090E-002	-9.506922E-003	-1.214071E-001	3.584510E-002
8.500000E+008	3.318984E-002	-1.362482E-003	3.924654E-002	-9.604875E-003	3.927343E-002	-9.616874E-003	-1.212550E-001	3.632147E-002
8.600000E+008	3.320788E-002	-1.395463E-003	3.921208E-002	-9.697494E-003	3.925429E-002	-9.709059E-003	-1.210822E-001	3.677422E-002
8.700000E+008	3.326271E-002	-1.351890E-003	3.918672E-002	-9.804699E-003	3.922515E-002	-9.812002E-003	-1.209229E-001	3.719884E-002
8.800000E+008	3.326488E-002	-1.335352E-003	3.915419E-002	-9.913007E-003	3.918521E-002	-9.908041E-003	-1.207567E-001	3.762009E-002
8.900000E+008	3.326229E-002	-1.334359E-003	3.911032E-002	-1.001208E-002	3.913854E-002	-1.001073E-002	-1.205958E-001	3.801995E-002
9.000000E+008	3.325156E-002	-1.341008E-003	3.906359E-002	-1.011899E-002	3.910187E-002	-1.012279E-002	-1.203815E-001	3.841933E-002
9.100000E+008	3.323095E-002	-1.348705E-003	3.903273E-002	-1.021951E-002	3.906874E-002	-1.022064E-002	-1.201440E-001	3.879457E-002
9.200000E+008	3.319424E-002	-1.379342E-003	3.901004E-002	-1.031701E-002	3.903183E-002	-1.032509E-002	-1.198738E-001	3.921587E-002
9.300000E+008	3.320516E-002	-1.415680E-003	3.896788E-002	-1.040897E-002	3.899868E-002	-1.042981E-002	-1.195903E-001	3.962190E-002
9.400000E+008	3.323729E-002	-1.463667E-003	3.892598E-002	-1.051295E-002	3.896970E-002	-1.053181E-002	-1.192670E-001	4.009046E-002
9.500000E+008	3.326385E-002	-1.516571E-003	3.888808E-002	-1.061086E-002	3.892507E-002	-1.063394E-002	-1.189066E-001	4.057811E-002
9.600000E+008	3.326705E-002	-1.521726E-003	3.885652E-002	-1.072137E-002	3.889354E-002	-1.073287E-002	-1.185816E-001	4.106423E-002
9.700000E+008	3.333619E-002	-1.538788E-003	3.881285E-002	-1.080722E-002	3.885693E-002	-1.082389E-002	-1.182833E-001	4.157623E-002
9.800000E+008	3.337056E-002	-1.511572E-003	3.878841E-002	-1.090745E-002	3.882503E-002	-1.091858E-002	-1.180254E-001	4.209818E-002
9.900000E+008	3.340508E-002	-1.508503E-003	3.875831E-002	-1.102750E-002	3.878597E-002	-1.102469E-002	-1.177433E-001	4.263230E-002
1.000000E+009	3.343603E-002	-1.482886E-003	3.871418E-002	-1.111998E-002	3.875155E-002	-1.113386E-002	-1.175277E-001	4.310833E-002
1.010000E+009	3.344584E-002	-1.446533E-003	3.867080E-002	-1.122429E-002	3.871696E-002	-1.122407E-002	-1.172908E-001	4.363233E-002
1.020000E+009	3.345672E-002	-1.425183E-003	3.863757E-002	-1.131870E-002	3.867354E-002	-1.133327E-002	-1.170874E-001	4.415203E-002
1.030000E+009	3.345142E-002	-1.396708E-003	3.860627E-002	-1.142185E-002	3.862999E-002	-1.143854E-002	-1.168541E-001	4.462345E-002
1.040000E+009	3.344728E-002	-1.373378E-003	3.855506E-002	-1.152594E-002	3.859901E-002	-1.153012E-002	-1.166261E-001	4.511757E-002
1.050000E+009	3.345683E-002	-1.355755E-003	3.852403E-002	-1.161943E-002	3.855909E-002	-1.161877E-002	-1.163788E-001	4.566168E-002
1.060000E+009	3.346689E-002	-1.349201E-003	3.850020E-002	-1.172126E-002	3.850379E-002	-1.171868E-002	-1.160931E-001	4.613399E-002
1.070000E+009	3.344163E-002	-1.350638E-003	3.844050E-002	-1.182489E-002	3.848212E-002	-1.180050E-002	-1.158407E-001	4.665791E-002
1.080000E+009	3.346217E-002	-1.321342E-003	3.840892E-002	-1.192776E-002	3.845829E-002	-1.193440E-002	-1.155464E-001	4.717802E-002
1.090000E+009	3.344760E-002	-1.334507E-003	3.837912E-002	-1.202118E-002	3.839397E-002	-1.203459E-002	-1.153112E-001	4.766789E-002
1.100000E+009	3.345669E-002	-1.311768E-003	3.832903E-002	-1.212490E-002	3.836645E-002	-1.212259E-002	-1.150792E-001	4.819728E-002
1.110000E+009	3.345558E-002	-1.309970E-003	3.829578E-002	-1.221622E-002	3.831774E-002	-1.221622E-002	-1.148441E-001	4.868638E-002
1.120000E+009	3.342569E-002	-1.309092E-003	3.824923E-002	-1.231319E-002	3.828159E-002	-1.232677E-002	-1.146553E-001	4.915469E-002
1.130000E+009	3.344663E-002	-1.302604E-003	3.823290E-002	-1.241783E-002	3.824493E-002	-1.242727E-002	-1.144402E-001	4.964263E-002
1.140000E+009	3.342468E-002	-1.300289E-003	3.818791E-002	-1.253162E-002	3.820753E-002	-1.252565E-002	-1.142119E-001	5.013336E-002
1.150000E+009	3.343030E-002	-1.309623E-003	3.812631E-002	-1.262642E-002	3.815980E-002	-1.261985E-002	-1.139470E-001	5.058419E-002
1.160000E+009	3.341582E-002	-1.286860E-003	3.808702E-002	-1.272364E-002	3.812668E-002	-1.272764E-002	-1.136736E-001	5.106699E-002
1.170000E+009	3.341489E-002	-1.285832E-003	3.805011E-002	-1.282199E-002	3.808646E-002	-1.283897E-002	-1.134021E-001	5.158428E-002
1.180000E+009	3.344224E-002	-1.267069E-003	3.800002E-002	-1.291081E-002	3.802937E-002	-1.291634E-002	-1.130999E-001	5.206973E-002
1.190000E+009	3.339237E-002	-1.254965E-003	3.795256E-002	-1.301220E-002	3.799237E-002	-1.301488E-002	-1.128313E-001	5.263110E-002
1.200000E+009	3.338622E-002	-1.243064E-003	3.792769E-002	-1.311993E-002	3.794683E-002	-1.311632E-002	-1.125434E-001	5.317397E-002
1.210000E+009	3.340203E-002	-1.279498E-003	3.787818E-002	-1.321638E-002	3.790427E-002	-1.322051E-002	-1.122835E-001	5.369601E-002
1.220000E+009	3.340662E-002	-1.317572E-003	3.782777E-002	-1.330026E-002	3.787222E-002	-1.332064E-002	-1.120693E-001	5.419818E-002
1.230000E+009	3.338474E-002	-1.350266E-003	3.779074E-002	-1.341477E-002	3.783504E-002	-1.342968E-002	-1.118127E-001	5.468262E-002
1.240000E+009	3.342956E-002	-1.383054E-003	3.774697E-002	-1.351559E-002	3.778288E-002	-1.350949E-002	-1.115946E-001	5.514251E-002
1.250000E+009	3.346313E-002	-1.410770E-003	3.769508E-002	-1.360534E-002	3.774853E-002	-1.362306E-002	-1.113675E-001	5.563285E-002
1.260000E+009	3.349889E-002	-1.431782E-003	3.765435E-002	-1.371362E-002	3.770579E-002	-1.371462E-002	-1.111049E-001	5.604740E-002
1.270000E+009	3.357661E-002	-1.445554E-003	3.760651E-002	-1.381474E-002	3.766208E-002	-1.381144E-002	-1.108232E-001	5.647772E-002
1.280000E+009	3.360690E-002	-1.438044E-003	3.757479E-002	-1.390030E-002	3.759984E-002	-1.392129E-002	-1.105315E-001	5.691267E-002
1.290000E+009	3.366349E-002	-1.407622E-003	3.751443E-002	-1.400883E-002	3.757345E-002	-1.400682E-002	-1.101799E-001	5.734444E-002
1.300000E+009	3.370063E-002	-1.367284E-003	3.747856E-002	-1.410429E-002	3.751233E-002	-1.411139E-002	-1.098187E-001	5.778389E-002
1.310000E+009	3.373269E-002	-1.346294E-003	3.743621E-002	-1.420072E-002	3.746560E-002	-1.421224E-002	-1.094493E-001	5.825887E-002
1.320000E+009	3.376301E-002	-1.295155E-003	3.739130E-002	-1.428807E-002	3.743720E-002	-1.429550E-002	-1.090572E-001	5.877904E-002
1.330000E+009	3.378497E-002	-1.240374E-003	3.734574E-002	-1.439540E-002	3.738222E-002	-1.441433E-002	-1.086611E-001	5.934981E-002
1.340000E+009	3.378736E-002	-1.199660E-003	3.728868E-002	-1.449021E-002	3.733354E-002	-1.449714E-002	-1.082468E-001	5.990702E-002
1.350000E+009	3.376282E-002	-1.181856E-003	3.724273E-002	-1.458739E-002	3.727370E-002	-1.460230E-002	-1.078891E-001	6.050822E-002
1.360000E+009	3.380803E-002	-1.156558E-003	3.719751E-002	-1.468767E-002	3.723358E-002	-1.469230E-002	-1.075122E-001	6.114374E-002
1.370000E+009	3.380001E-002	-1.128172E-003	3.715391E-002	-1.477707E-002	3.718433E-002	-1.479804E-002	-1.071933E-001	6.177261E-002
1.380000E+009	3.383649E-002	-1.105091E-003	3.710132E-002	-1.487403E-002	3.713419E-002	-1.488240E-002	-1.068563E-001	6.238270E-002
1.390000E+009	3.387155E-002	-1.097359E-003	3.705431E-002	-1.498257E-002	3.708752E-002	-1.499660E-002	-1.065645E-001	6.301946E-002
1.400000E+009	3.388257E-002	-1.064743E-003	3.698753E-002	-1.507017E-002	3.703904E-002	-1.507977E-002	-1.062714E-001	6.361166E-002
1.410000E+009	3.389974E-002	-1.007246E-003	3.694048E-002	-1.516900E-002	3.698655E-002	-1.516756E-002	-1.059909E-001	6.421601E-002
1.420000E+009	3.387970E-002	-9.839246E-004	3.691476E-002	-1.525687E-002	3.694670E-002	-1.526720E-002	-1.057085E-001	6.476265E-002
1.430000E+009	3.389610E-002	-9.282134E-004	3.685025E-002	-1.536290E-002	3.690237E-002	-1.535387E-002	-1.054105E-001	6.532582E-002
1.440000E+009	3.389989E-002	-9.040411E-004	3.679078E-002	-1.545854E-002	3.683410E-002	-1.546427E-002	-1.051210E-001	6.584142E-002
1.450000E+009	3.388866E-002	-8.593515E-004	3.672811E-002	-1.553972E-002	3.678992E-002	-1.553538E-002	-1.047856E-001	6.643437E-002
1.460000E+009	3.385383E-002	-8.443970E-004	3.670223E-002	-1.563916E-002	3.674401E-002	-1.563908E-002	-1.044569E-001	6.697016E-002
1.470000E+009	3.385610E-002	-8.368263E-004	3.665214E-002	-1.574465E-002	3.668550E-002	-1.574374E-002	-1.041000E-001	6.753073E-002
1.480000E+009	3.385614E-002	-8.106347E-004	3.659031E-002	-1.583647E-002	3.660437E-002	-1.584786E-002	-1.037344E-001	6.815660E-002
1.490000E+009	3.386009E-002	-7.940547E-004	3.654396E-002	-1.591541E-002	3.656955E-002	-1.594751E-002	-1.033511E-001	6.875150E-002
1.500000E+009	3.388966E-002	-7.882383E-004	3.649012E-002	-1.601873E-002	3.652446E-002	-1.601548E-002	-1.029774E-001	6.938017E-002
1.510000E+009	3.392546E-002	-7.483129E-004	3.640829E-002	-1.610559E-002	3.647885E-002	-1.611199E-002	-1.026187E-001	6.998376E-002
