! Device ID: PE43711P
! File Path: z:\PE43711P\CHAR_NOM_04282014\AMB\3p300\LS_ATT_17p25dB\PE43711P_AMB_3p300V_3p000V_0p000V_LS_ATT_17p25dB_S2P_SN_5_A0137A.s2p
! Serial: 5
! Lot: A0137A
! Temp: 25C
! VDD: 3.300
! VSS: 0.000
! Control_Hi: 3.000
! Control_Lo: 0.000
! Attenuation Step: 17.25dB
! Port 1: RF1
! Port 2: RF2
! ThroughPath:1-2
! IDD: 0.0001273353
! ISS: -6.97e-008
!

#  Hz  S   RI  R   50

1.000000E+007	6.388345E-002	5.578675E-005	1.196737E-001	-5.170441E-004	1.198273E-001	-5.832637E-004	-1.111643E-001	8.856775E-004
2.000000E+007	6.409232E-002	-4.850011E-005	1.196794E-001	-8.676772E-004	1.197450E-001	-9.116810E-004	-1.108561E-001	1.469912E-003
3.000000E+007	6.433362E-002	-2.562959E-004	1.196695E-001	-1.328428E-003	1.197411E-001	-1.327941E-003	-1.105754E-001	1.931117E-003
4.000000E+007	6.448437E-002	-4.733462E-004	1.196639E-001	-1.761961E-003	1.197438E-001	-1.780132E-003	-1.104007E-001	2.458825E-003
5.000000E+007	6.458363E-002	-7.059555E-004	1.196484E-001	-2.249152E-003	1.197424E-001	-2.230135E-003	-1.103350E-001	2.993121E-003
6.000000E+007	6.472340E-002	-9.927504E-004	1.196226E-001	-2.673181E-003	1.197406E-001	-2.664415E-003	-1.102024E-001	3.414899E-003
7.000000E+007	6.482518E-002	-1.282078E-003	1.195871E-001	-3.100600E-003	1.196925E-001	-3.112457E-003	-1.100170E-001	3.831547E-003
8.000000E+007	6.495317E-002	-1.564123E-003	1.195724E-001	-3.517471E-003	1.196708E-001	-3.520941E-003	-1.098590E-001	4.240312E-003
9.000000E+007	6.502572E-002	-1.848673E-003	1.195610E-001	-3.953927E-003	1.196476E-001	-3.963397E-003	-1.097313E-001	4.594236E-003
1.000000E+008	6.512472E-002	-2.122689E-003	1.195340E-001	-4.394018E-003	1.196287E-001	-4.389511E-003	-1.096769E-001	4.962750E-003
1.100000E+008	6.521495E-002	-2.425254E-003	1.195038E-001	-4.850723E-003	1.195957E-001	-4.821732E-003	-1.095574E-001	5.296574E-003
1.200000E+008	6.531865E-002	-2.763393E-003	1.194413E-001	-5.282259E-003	1.195558E-001	-5.284897E-003	-1.094752E-001	5.610448E-003
1.300000E+008	6.538221E-002	-3.060325E-003	1.194050E-001	-5.695957E-003	1.195267E-001	-5.703872E-003	-1.093500E-001	5.913937E-003
1.400000E+008	6.542296E-002	-3.329891E-003	1.193829E-001	-6.142163E-003	1.194824E-001	-6.149711E-003	-1.092299E-001	6.220461E-003
1.500000E+008	6.539077E-002	-3.588965E-003	1.193400E-001	-6.537805E-003	1.194019E-001	-6.562388E-003	-1.091217E-001	6.513584E-003
1.600000E+008	6.539807E-002	-3.808897E-003	1.193129E-001	-6.953652E-003	1.193668E-001	-6.959339E-003	-1.090472E-001	6.818822E-003
1.700000E+008	6.542303E-002	-4.074743E-003	1.192801E-001	-7.425129E-003	1.193788E-001	-7.390803E-003	-1.089880E-001	7.117487E-003
1.800000E+008	6.539671E-002	-4.365599E-003	1.191783E-001	-7.880925E-003	1.193355E-001	-7.859355E-003	-1.088927E-001	7.418613E-003
1.900000E+008	6.531582E-002	-4.681220E-003	1.190960E-001	-8.295630E-003	1.192675E-001	-8.290779E-003	-1.088453E-001	7.662142E-003
2.000000E+008	6.522107E-002	-4.992129E-003	1.190593E-001	-8.695204E-003	1.191929E-001	-8.704915E-003	-1.087649E-001	7.881109E-003
2.100000E+008	6.513375E-002	-5.354797E-003	1.190114E-001	-9.108849E-003	1.191345E-001	-9.106625E-003	-1.086615E-001	8.062074E-003
2.200000E+008	6.505269E-002	-5.688307E-003	1.189816E-001	-9.511106E-003	1.190733E-001	-9.513794E-003	-1.085457E-001	8.221970E-003
2.300000E+008	6.498077E-002	-6.040152E-003	1.189263E-001	-9.920867E-003	1.190129E-001	-9.919686E-003	-1.084002E-001	8.407172E-003
2.400000E+008	6.494987E-002	-6.370485E-003	1.188726E-001	-1.035917E-002	1.189446E-001	-1.034035E-002	-1.082450E-001	8.626041E-003
2.500000E+008	6.489522E-002	-6.714042E-003	1.187875E-001	-1.078726E-002	1.188861E-001	-1.076342E-002	-1.080463E-001	8.810147E-003
2.600000E+008	6.489373E-002	-7.046793E-003	1.187172E-001	-1.121340E-002	1.188260E-001	-1.119483E-002	-1.078218E-001	9.083273E-003
2.700000E+008	6.486847E-002	-7.363396E-003	1.186274E-001	-1.160349E-002	1.187452E-001	-1.161024E-002	-1.075949E-001	9.383056E-003
2.800000E+008	6.487836E-002	-7.665461E-003	1.185590E-001	-1.200507E-002	1.186734E-001	-1.200537E-002	-1.073733E-001	9.652292E-003
2.900000E+008	6.481798E-002	-7.918528E-003	1.185092E-001	-1.241776E-002	1.186023E-001	-1.240548E-002	-1.072237E-001	9.949847E-003
3.000000E+008	6.478697E-002	-8.142845E-003	1.184603E-001	-1.282947E-002	1.185578E-001	-1.282017E-002	-1.070676E-001	1.028245E-002
3.100000E+008	6.471130E-002	-8.380677E-003	1.183916E-001	-1.324367E-002	1.184803E-001	-1.323760E-002	-1.069405E-001	1.063252E-002
3.200000E+008	6.461677E-002	-8.582510E-003	1.183140E-001	-1.368448E-002	1.184191E-001	-1.366168E-002	-1.068189E-001	1.096582E-002
3.300000E+008	6.451068E-002	-8.800895E-003	1.182418E-001	-1.408896E-002	1.183380E-001	-1.410231E-002	-1.067306E-001	1.125172E-002
3.400000E+008	6.433932E-002	-9.042782E-003	1.181531E-001	-1.450009E-002	1.182299E-001	-1.453694E-002	-1.065747E-001	1.151993E-002
3.500000E+008	6.414606E-002	-9.303480E-003	1.180685E-001	-1.491714E-002	1.181133E-001	-1.491867E-002	-1.064395E-001	1.172501E-002
3.600000E+008	6.399884E-002	-9.548008E-003	1.179922E-001	-1.532807E-002	1.180138E-001	-1.529241E-002	-1.062724E-001	1.196619E-002
3.700000E+008	6.383491E-002	-9.801148E-003	1.178884E-001	-1.572195E-002	1.179508E-001	-1.564608E-002	-1.060763E-001	1.218206E-002
3.800000E+008	6.369068E-002	-1.009042E-002	1.178038E-001	-1.611751E-002	1.178994E-001	-1.606800E-002	-1.058748E-001	1.241937E-002
3.900000E+008	6.354034E-002	-1.041430E-002	1.177093E-001	-1.653848E-002	1.178223E-001	-1.648083E-002	-1.055853E-001	1.272024E-002
4.000000E+008	6.342695E-002	-1.073210E-002	1.175740E-001	-1.690662E-002	1.177245E-001	-1.690761E-002	-1.052762E-001	1.299182E-002
4.100000E+008	6.328170E-002	-1.104469E-002	1.175066E-001	-1.726097E-002	1.176179E-001	-1.729520E-002	-1.049958E-001	1.327489E-002
4.200000E+008	6.317176E-002	-1.133875E-002	1.174538E-001	-1.766537E-002	1.175366E-001	-1.766956E-002	-1.047521E-001	1.362775E-002
4.300000E+008	6.307438E-002	-1.160370E-002	1.173664E-001	-1.807067E-002	1.174474E-001	-1.808326E-002	-1.045349E-001	1.400679E-002
4.400000E+008	6.294385E-002	-1.185234E-002	1.172844E-001	-1.848973E-002	1.173621E-001	-1.850065E-002	-1.043284E-001	1.441733E-002
4.500000E+008	6.286287E-002	-1.210701E-002	1.171904E-001	-1.888473E-002	1.172731E-001	-1.888431E-002	-1.041408E-001	1.484587E-002
4.600000E+008	6.275464E-002	-1.236394E-002	1.170903E-001	-1.928974E-002	1.171766E-001	-1.929493E-002	-1.039498E-001	1.527256E-002
4.700000E+008	6.263243E-002	-1.258677E-002	1.169889E-001	-1.967717E-002	1.170609E-001	-1.968328E-002	-1.037949E-001	1.564400E-002
4.800000E+008	6.249124E-002	-1.280766E-002	1.168857E-001	-2.006105E-002	1.169548E-001	-2.006015E-002	-1.036388E-001	1.600159E-002
4.900000E+008	6.231642E-002	-1.300696E-002	1.167886E-001	-2.044696E-002	1.168533E-001	-2.046595E-002	-1.034874E-001	1.635557E-002
5.000000E+008	6.215931E-002	-1.321279E-002	1.166855E-001	-2.083315E-002	1.167628E-001	-2.084063E-002	-1.033249E-001	1.669895E-002
5.100000E+008	6.202902E-002	-1.343735E-002	1.165903E-001	-2.122598E-002	1.166803E-001	-2.122771E-002	-1.031342E-001	1.703987E-002
5.200000E+008	6.186344E-002	-1.368933E-002	1.165021E-001	-2.162207E-002	1.165922E-001	-2.163271E-002	-1.029605E-001	1.736491E-002
5.300000E+008	6.167398E-002	-1.395941E-002	1.163845E-001	-2.201317E-002	1.164746E-001	-2.201294E-002	-1.027035E-001	1.769519E-002
5.400000E+008	6.150360E-002	-1.424386E-002	1.162697E-001	-2.239600E-002	1.163800E-001	-2.241384E-002	-1.024736E-001	1.805485E-002
5.500000E+008	6.131201E-002	-1.449620E-002	1.161689E-001	-2.279675E-002	1.162487E-001	-2.281302E-002	-1.022626E-001	1.840722E-002
5.600000E+008	6.115393E-002	-1.478666E-002	1.160396E-001	-2.317662E-002	1.161331E-001	-2.318320E-002	-1.020344E-001	1.878335E-002
5.700000E+008	6.100462E-002	-1.506196E-002	1.159468E-001	-2.355136E-002	1.160190E-001	-2.356862E-002	-1.018688E-001	1.920758E-002
5.800000E+008	6.086394E-002	-1.532003E-002	1.158373E-001	-2.394224E-002	1.159154E-001	-2.395620E-002	-1.016988E-001	1.961731E-002
5.900000E+008	6.074767E-002	-1.563186E-002	1.157057E-001	-2.434902E-002	1.158101E-001	-2.433936E-002	-1.015117E-001	2.005926E-002
6.000000E+008	6.062956E-002	-1.592285E-002	1.155965E-001	-2.471817E-002	1.156972E-001	-2.473333E-002	-1.013181E-001	2.045647E-002
6.100000E+008	6.056153E-002	-1.618102E-002	1.154853E-001	-2.509271E-002	1.155505E-001	-2.512804E-002	-1.011474E-001	2.083503E-002
6.200000E+008	6.047594E-002	-1.639088E-002	1.153678E-001	-2.547060E-002	1.154478E-001	-2.548566E-002	-1.009858E-001	2.122090E-002
6.300000E+008	6.041245E-002	-1.660526E-002	1.152447E-001	-2.583623E-002	1.153343E-001	-2.586752E-002	-1.008001E-001	2.159759E-002
6.400000E+008	6.035260E-002	-1.679481E-002	1.151283E-001	-2.622554E-002	1.152130E-001	-2.623099E-002	-1.005979E-001	2.197405E-002
6.500000E+008	6.023964E-002	-1.697441E-002	1.150205E-001	-2.658394E-002	1.150904E-001	-2.660929E-002	-1.004087E-001	2.237483E-002
6.600000E+008	6.013888E-002	-1.717708E-002	1.149155E-001	-2.697331E-002	1.149849E-001	-2.699642E-002	-1.002034E-001	2.276089E-002
6.700000E+008	5.998263E-002	-1.732419E-002	1.147911E-001	-2.734365E-002	1.148499E-001	-2.737063E-002	-1.000470E-001	2.317469E-002
6.800000E+008	5.982064E-002	-1.750076E-002	1.146581E-001	-2.771400E-002	1.147329E-001	-2.774626E-002	-9.987134E-002	2.360647E-002
6.900000E+008	5.964729E-002	-1.765521E-002	1.145335E-001	-2.810125E-002	1.145999E-001	-2.811806E-002	-9.968117E-002	2.404804E-002
7.000000E+008	5.948536E-002	-1.782059E-002	1.143980E-001	-2.846190E-002	1.144861E-001	-2.847042E-002	-9.956700E-002	2.446704E-002
7.100000E+008	5.932191E-002	-1.802232E-002	1.142865E-001	-2.884077E-002	1.143561E-001	-2.885667E-002	-9.943596E-002	2.487021E-002
7.200000E+008	5.915051E-002	-1.820523E-002	1.141495E-001	-2.919605E-002	1.142344E-001	-2.921870E-002	-9.929705E-002	2.526604E-002
7.300000E+008	5.897536E-002	-1.842081E-002	1.140326E-001	-2.957331E-002	1.141217E-001	-2.960124E-002	-9.920343E-002	2.562982E-002
7.400000E+008	5.879422E-002	-1.861919E-002	1.138915E-001	-2.995121E-002	1.140014E-001	-2.997735E-002	-9.909598E-002	2.599411E-002
7.500000E+008	5.862868E-002	-1.883977E-002	1.137719E-001	-3.031619E-002	1.138631E-001	-3.034735E-002	-9.897058E-002	2.632162E-002
7.600000E+008	5.844549E-002	-1.905489E-002	1.136367E-001	-3.069007E-002	1.137297E-001	-3.071277E-002	-9.884259E-002	2.665845E-002
7.700000E+008	5.830555E-002	-1.929200E-002	1.135051E-001	-3.104959E-002	1.136001E-001	-3.108223E-002	-9.867586E-002	2.696754E-002
7.800000E+008	5.814210E-002	-1.951006E-002	1.133757E-001	-3.141260E-002	1.134656E-001	-3.144966E-002	-9.850268E-002	2.728235E-002
7.900000E+008	5.798619E-002	-1.976829E-002	1.132507E-001	-3.178504E-002	1.133454E-001	-3.182455E-002	-9.833914E-002	2.759961E-002
8.000000E+008	5.783633E-002	-2.000859E-002	1.131154E-001	-3.216262E-002	1.131798E-001	-3.217916E-002	-9.812531E-002	2.793905E-002
8.100000E+008	5.771436E-002	-2.027294E-002	1.129739E-001	-3.250107E-002	1.130432E-001	-3.255773E-002	-9.788199E-002	2.832762E-002
8.200000E+008	5.761954E-002	-2.047679E-002	1.128362E-001	-3.286639E-002	1.129146E-001	-3.289372E-002	-9.766054E-002	2.866471E-002
8.300000E+008	5.752869E-002	-2.071624E-002	1.126766E-001	-3.323926E-002	1.127675E-001	-3.327141E-002	-9.745195E-002	2.904502E-002
8.400000E+008	5.744278E-002	-2.090450E-002	1.125534E-001	-3.358497E-002	1.126458E-001	-3.364580E-002	-9.726447E-002	2.940574E-002
8.500000E+008	5.735599E-002	-2.109292E-002	1.124159E-001	-3.395218E-002	1.125134E-001	-3.399170E-002	-9.710995E-002	2.979540E-002
8.600000E+008	5.724720E-002	-2.124897E-002	1.122731E-001	-3.431811E-002	1.123678E-001	-3.435830E-002	-9.694438E-002	3.015554E-002
8.700000E+008	5.715463E-002	-2.139358E-002	1.121408E-001	-3.468095E-002	1.122121E-001	-3.472236E-002	-9.677617E-002	3.051326E-002
8.800000E+008	5.703204E-002	-2.152696E-002	1.120066E-001	-3.503599E-002	1.121037E-001	-3.508134E-002	-9.664145E-002	3.085218E-002
8.900000E+008	5.688731E-002	-2.168793E-002	1.118476E-001	-3.540476E-002	1.119367E-001	-3.543733E-002	-9.647274E-002	3.119683E-002
9.000000E+008	5.672659E-002	-2.183203E-002	1.117070E-001	-3.576032E-002	1.117979E-001	-3.578255E-002	-9.629535E-002	3.152699E-002
9.100000E+008	5.655948E-002	-2.197831E-002	1.115471E-001	-3.610676E-002	1.116646E-001	-3.615391E-002	-9.606376E-002	3.181604E-002
9.200000E+008	5.638958E-002	-2.217069E-002	1.114031E-001	-3.646440E-002	1.115184E-001	-3.650469E-002	-9.582401E-002	3.214785E-002
9.300000E+008	5.622878E-002	-2.236385E-002	1.112707E-001	-3.682831E-002	1.113564E-001	-3.688170E-002	-9.554331E-002	3.249674E-002
9.400000E+008	5.611203E-002	-2.256197E-002	1.111016E-001	-3.717816E-002	1.112191E-001	-3.721374E-002	-9.523604E-002	3.286865E-002
9.500000E+008	5.600648E-002	-2.276259E-002	1.109772E-001	-3.753672E-002	1.110527E-001	-3.758429E-002	-9.491862E-002	3.327559E-002
9.600000E+008	5.587206E-002	-2.292108E-002	1.108057E-001	-3.787864E-002	1.108904E-001	-3.793342E-002	-9.461824E-002	3.366370E-002
9.700000E+008	5.578540E-002	-2.309359E-002	1.106619E-001	-3.822944E-002	1.107576E-001	-3.828136E-002	-9.430904E-002	3.409437E-002
9.800000E+008	5.570535E-002	-2.322559E-002	1.105215E-001	-3.857332E-002	1.105941E-001	-3.863857E-002	-9.404789E-002	3.453294E-002
9.900000E+008	5.560057E-002	-2.337450E-002	1.103709E-001	-3.893312E-002	1.104699E-001	-3.899644E-002	-9.378983E-002	3.498837E-002
1.000000E+009	5.550094E-002	-2.348197E-002	1.102294E-001	-3.928106E-002	1.102998E-001	-3.934911E-002	-9.357948E-002	3.538990E-002
1.010000E+009	5.537019E-002	-2.359067E-002	1.100776E-001	-3.964578E-002	1.101575E-001	-3.969716E-002	-9.336545E-002	3.584201E-002
1.020000E+009	5.522145E-002	-2.367958E-002	1.099282E-001	-3.999320E-002	1.100088E-001	-4.005210E-002	-9.316937E-002	3.627828E-002
1.030000E+009	5.507376E-002	-2.379603E-002	1.097416E-001	-4.033857E-002	1.098510E-001	-4.038858E-002	-9.298049E-002	3.670319E-002
1.040000E+009	5.491169E-002	-2.392918E-002	1.095934E-001	-4.070279E-002	1.096791E-001	-4.074331E-002	-9.276198E-002	3.712431E-002
1.050000E+009	5.476136E-002	-2.405372E-002	1.094426E-001	-4.104175E-002	1.095376E-001	-4.107956E-002	-9.256459E-002	3.754859E-002
1.060000E+009	5.462985E-002	-2.418102E-002	1.092877E-001	-4.137137E-002	1.093758E-001	-4.142677E-002	-9.228995E-002	3.796472E-002
1.070000E+009	5.448137E-002	-2.432883E-002	1.091223E-001	-4.173020E-002	1.092184E-001	-4.176369E-002	-9.205775E-002	3.838407E-002
1.080000E+009	5.433263E-002	-2.446411E-002	1.089859E-001	-4.208233E-002	1.090638E-001	-4.211573E-002	-9.178536E-002	3.881939E-002
1.090000E+009	5.419963E-002	-2.460795E-002	1.088049E-001	-4.242804E-002	1.089168E-001	-4.245110E-002	-9.155534E-002	3.922837E-002
1.100000E+009	5.406512E-002	-2.473571E-002	1.086223E-001	-4.277453E-002	1.087442E-001	-4.280566E-002	-9.132896E-002	3.966815E-002
1.110000E+009	5.394329E-002	-2.485107E-002	1.084811E-001	-4.311921E-002	1.085841E-001	-4.314984E-002	-9.112836E-002	4.008552E-002
1.120000E+009	5.376008E-002	-2.499578E-002	1.083204E-001	-4.347273E-002	1.084159E-001	-4.351831E-002	-9.095290E-002	4.047793E-002
1.130000E+009	5.363039E-002	-2.510496E-002	1.081279E-001	-4.379609E-002	1.082432E-001	-4.385974E-002	-9.075638E-002	4.087206E-002
1.140000E+009	5.345084E-002	-2.522616E-002	1.079919E-001	-4.415952E-002	1.080778E-001	-4.419336E-002	-9.054027E-002	4.131186E-002
1.150000E+009	5.330614E-002	-2.536226E-002	1.078206E-001	-4.450648E-002	1.079005E-001	-4.454235E-002	-9.030058E-002	4.171690E-002
1.160000E+009	5.314676E-002	-2.546412E-002	1.076419E-001	-4.485019E-002	1.077367E-001	-4.489456E-002	-9.006769E-002	4.211349E-002
1.170000E+009	5.300932E-002	-2.561167E-002	1.074577E-001	-4.519731E-002	1.075626E-001	-4.521716E-002	-8.982037E-002	4.254594E-002
1.180000E+009	5.285382E-002	-2.572420E-002	1.072836E-001	-4.553189E-002	1.074054E-001	-4.556767E-002	-8.954442E-002	4.295958E-002
1.190000E+009	5.268637E-002	-2.586622E-002	1.071197E-001	-4.586931E-002	1.072003E-001	-4.590293E-002	-8.930936E-002	4.342124E-002
1.200000E+009	5.253026E-002	-2.600520E-002	1.069386E-001	-4.622109E-002	1.070334E-001	-4.624455E-002	-8.904274E-002	4.383338E-002
1.210000E+009	5.242088E-002	-2.615848E-002	1.067612E-001	-4.654679E-002	1.068448E-001	-4.658922E-002	-8.878564E-002	4.431188E-002
1.220000E+009	5.225474E-002	-2.630894E-002	1.065821E-001	-4.688370E-002	1.066813E-001	-4.694092E-002	-8.858381E-002	4.475305E-002
1.230000E+009	5.210499E-002	-2.645988E-002	1.064007E-001	-4.722296E-002	1.064968E-001	-4.725808E-002	-8.837184E-002	4.516114E-002
1.240000E+009	5.197517E-002	-2.660837E-002	1.062169E-001	-4.758231E-002	1.063143E-001	-4.759988E-002	-8.817463E-002	4.554030E-002
1.250000E+009	5.189109E-002	-2.677072E-002	1.060481E-001	-4.790974E-002	1.061560E-001	-4.794087E-002	-8.797003E-002	4.595475E-002
1.260000E+009	5.173339E-002	-2.692829E-002	1.058544E-001	-4.826203E-002	1.059542E-001	-4.829525E-002	-8.773796E-002	4.629965E-002
1.270000E+009	5.168862E-002	-2.703997E-002	1.056760E-001	-4.858565E-002	1.057703E-001	-4.860662E-002	-8.749035E-002	4.665945E-002
1.280000E+009	5.155311E-002	-2.716661E-002	1.054920E-001	-4.892366E-002	1.056063E-001	-4.894131E-002	-8.722927E-002	4.699299E-002
1.290000E+009	5.146546E-002	-2.728027E-002	1.053278E-001	-4.927036E-002	1.054221E-001	-4.928733E-002	-8.691401E-002	4.732589E-002
1.300000E+009	5.136038E-002	-2.735170E-002	1.051218E-001	-4.959347E-002	1.052171E-001	-4.962474E-002	-8.657705E-002	4.771114E-002
1.310000E+009	5.124689E-002	-2.745555E-002	1.049360E-001	-4.994090E-002	1.050451E-001	-4.996943E-002	-8.625286E-002	4.810822E-002
1.320000E+009	5.109738E-002	-2.754578E-002	1.047395E-001	-5.025716E-002	1.048505E-001	-5.030235E-002	-8.586115E-002	4.854600E-002
1.330000E+009	5.096676E-002	-2.761375E-002	1.045656E-001	-5.059851E-002	1.046559E-001	-5.065012E-002	-8.546416E-002	4.902075E-002
1.340000E+009	5.082664E-002	-2.768777E-002	1.043692E-001	-5.092051E-002	1.044441E-001	-5.098365E-002	-8.510405E-002	4.952657E-002
1.350000E+009	5.067345E-002	-2.776843E-002	1.041574E-001	-5.125246E-002	1.042653E-001	-5.127844E-002	-8.475154E-002	5.005197E-002
1.360000E+009	5.057268E-002	-2.784488E-002	1.039708E-001	-5.157829E-002	1.040706E-001	-5.161628E-002	-8.439950E-002	5.062554E-002
1.370000E+009	5.041445E-002	-2.790667E-002	1.037863E-001	-5.191343E-002	1.038913E-001	-5.196093E-002	-8.412290E-002	5.116739E-002
1.380000E+009	5.027803E-002	-2.802233E-002	1.035912E-001	-5.223988E-002	1.036738E-001	-5.230902E-002	-8.380706E-002	5.169847E-002
1.390000E+009	5.013869E-002	-2.810914E-002	1.033714E-001	-5.258246E-002	1.034837E-001	-5.262276E-002	-8.355987E-002	5.225682E-002
1.400000E+009	4.999771E-002	-2.821067E-002	1.031759E-001	-5.289143E-002	1.032733E-001	-5.294111E-002	-8.329858E-002	5.276489E-002
1.410000E+009	4.983599E-002	-2.828433E-002	1.029778E-001	-5.321752E-002	1.030649E-001	-5.324840E-002	-8.305457E-002	5.328634E-002
1.420000E+009	4.967753E-002	-2.836407E-002	1.027463E-001	-5.353582E-002	1.028627E-001	-5.358959E-002	-8.281151E-002	5.375745E-002
1.430000E+009	4.955081E-002	-2.842869E-002	1.025664E-001	-5.387142E-002	1.026517E-001	-5.390933E-002	-8.252764E-002	5.424468E-002
1.440000E+009	4.938722E-002	-2.851442E-002	1.023414E-001	-5.419797E-002	1.024496E-001	-5.422115E-002	-8.225217E-002	5.469428E-002
1.450000E+009	4.925162E-002	-2.860348E-002	1.021448E-001	-5.450495E-002	1.022529E-001	-5.454913E-002	-8.194667E-002	5.516916E-002
1.460000E+009	4.905873E-002	-2.865669E-002	1.019433E-001	-5.483550E-002	1.020330E-001	-5.489571E-002	-8.164974E-002	5.565546E-002
1.470000E+009	4.889779E-002	-2.876714E-002	1.017427E-001	-5.514457E-002	1.018257E-001	-5.518998E-002	-8.132341E-002	5.617441E-002
1.480000E+009	4.871015E-002	-2.883304E-002	1.015194E-001	-5.545804E-002	1.016125E-001	-5.552733E-002	-8.099345E-002	5.669622E-002
1.490000E+009	4.859526E-002	-2.893894E-002	1.013152E-001	-5.578878E-002	1.014082E-001	-5.582065E-002	-8.066236E-002	5.722619E-002
1.500000E+009	4.842848E-002	-2.902255E-002	1.011058E-001	-5.610754E-002	1.011864E-001	-5.612086E-002	-8.032319E-002	5.777897E-002
