! Device ID: PE43711P
! File Path: z:\PE43711P\CHAR_NOM_04282014\AMB\3p300\LS_ATT_4p00dB\PE43711P_AMB_3p300V_3p000V_0p000V_LS_ATT_4p00dB_S2P_SN_5_A0137A.s2p
! Serial: 5
! Lot: A0137A
! Temp: 25C
! VDD: 3.300
! VSS: 0.000
! Control_Hi: 3.000
! Control_Lo: 0.000
! Attenuation Step: 4.00dB
! Port 1: RF1
! Port 2: RF2
! ThroughPath:1-2
! IDD: 0.0001276083
! ISS: -3.99e-008
!

#  Hz  S   RI  R   50

1.000000E+007	9.507735E-002	-3.802382E-004	5.584659E-001	-2.735205E-003	5.587538E-001	-2.822572E-003	-3.806039E-002	2.504913E-004
2.000000E+007	9.517526E-002	-6.319182E-004	5.585209E-001	-4.696009E-003	5.585214E-001	-4.759078E-003	-3.792454E-002	5.629128E-004
3.000000E+007	9.547133E-002	-1.193887E-003	5.585334E-001	-7.095535E-003	5.585580E-001	-7.117874E-003	-3.763607E-002	6.883000E-004
4.000000E+007	9.553814E-002	-1.707401E-003	5.585163E-001	-9.477192E-003	5.584691E-001	-9.511734E-003	-3.726111E-002	7.919410E-004
5.000000E+007	9.578951E-002	-2.311819E-003	5.584747E-001	-1.206045E-002	5.584597E-001	-1.199245E-002	-3.707414E-002	7.674093E-004
6.000000E+007	9.602768E-002	-3.018756E-003	5.583423E-001	-1.440596E-002	5.583919E-001	-1.438512E-002	-3.693263E-002	6.123489E-004
7.000000E+007	9.613183E-002	-3.751597E-003	5.581743E-001	-1.676224E-002	5.582138E-001	-1.676360E-002	-3.687287E-002	4.805856E-004
8.000000E+007	9.629526E-002	-4.452870E-003	5.580600E-001	-1.905319E-002	5.580891E-001	-1.907167E-002	-3.680195E-002	4.137923E-004
9.000000E+007	9.639895E-002	-5.139203E-003	5.579334E-001	-2.140041E-002	5.579251E-001	-2.141034E-002	-3.669236E-002	3.108351E-004
1.000000E+008	9.646929E-002	-5.780958E-003	5.578358E-001	-2.379789E-002	5.577487E-001	-2.375497E-002	-3.647311E-002	1.625189E-004
1.100000E+008	9.653415E-002	-6.409811E-003	5.575956E-001	-2.619684E-002	5.575833E-001	-2.608810E-002	-3.641537E-002	3.826120E-006
1.200000E+008	9.664280E-002	-7.071516E-003	5.573092E-001	-2.851019E-002	5.573588E-001	-2.846631E-002	-3.652733E-002	-1.348620E-004
1.300000E+008	9.674821E-002	-7.837543E-003	5.571254E-001	-3.084295E-002	5.571588E-001	-3.083017E-002	-3.640422E-002	-3.867092E-004
1.400000E+008	9.676545E-002	-8.706057E-003	5.569365E-001	-3.318499E-002	5.569265E-001	-3.318351E-002	-3.600696E-002	-6.803170E-004
1.500000E+008	9.666712E-002	-9.477477E-003	5.567183E-001	-3.543479E-002	5.565707E-001	-3.545778E-002	-3.568671E-002	-9.060123E-004
1.600000E+008	9.643335E-002	-9.982445E-003	5.565007E-001	-3.770140E-002	5.562864E-001	-3.767147E-002	-3.590101E-002	-1.000799E-003
1.700000E+008	9.616778E-002	-1.046495E-002	5.562762E-001	-4.015699E-002	5.562693E-001	-3.997703E-002	-3.646406E-002	-1.174527E-003
1.800000E+008	9.591394E-002	-1.105871E-002	5.556926E-001	-4.256915E-002	5.559844E-001	-4.243885E-002	-3.686611E-002	-1.435192E-003
1.900000E+008	9.578556E-002	-1.183032E-002	5.553104E-001	-4.479598E-002	5.555551E-001	-4.472105E-002	-3.687572E-002	-1.708777E-003
2.000000E+008	9.578329E-002	-1.269111E-002	5.550609E-001	-4.703447E-002	5.552306E-001	-4.697272E-002	-3.660747E-002	-1.888720E-003
2.100000E+008	9.578392E-002	-1.358817E-002	5.547871E-001	-4.924592E-002	5.548645E-001	-4.922048E-002	-3.625210E-002	-2.058004E-003
2.200000E+008	9.570687E-002	-1.438449E-002	5.545154E-001	-5.142473E-002	5.545369E-001	-5.143180E-002	-3.606319E-002	-2.218045E-003
2.300000E+008	9.552978E-002	-1.512212E-002	5.541640E-001	-5.370443E-002	5.541758E-001	-5.368117E-002	-3.602272E-002	-2.468542E-003
2.400000E+008	9.533949E-002	-1.585858E-002	5.538183E-001	-5.597924E-002	5.537675E-001	-5.595633E-002	-3.603387E-002	-2.739716E-003
2.500000E+008	9.512208E-002	-1.658112E-002	5.534207E-001	-5.828278E-002	5.534282E-001	-5.819373E-002	-3.609286E-002	-3.111504E-003
2.600000E+008	9.494820E-002	-1.735968E-002	5.529802E-001	-6.056675E-002	5.530485E-001	-6.046355E-002	-3.604382E-002	-3.367276E-003
2.700000E+008	9.477640E-002	-1.808728E-002	5.525184E-001	-6.276876E-002	5.526048E-001	-6.271957E-002	-3.595075E-002	-3.576702E-003
2.800000E+008	9.464272E-002	-1.875770E-002	5.520647E-001	-6.494696E-002	5.521920E-001	-6.486423E-002	-3.586431E-002	-3.733560E-003
2.900000E+008	9.445758E-002	-1.935496E-002	5.516898E-001	-6.709840E-002	5.517331E-001	-6.701552E-002	-3.580555E-002	-3.840168E-003
3.000000E+008	9.432343E-002	-1.990167E-002	5.513343E-001	-6.933446E-002	5.514035E-001	-6.922283E-002	-3.574215E-002	-3.925520E-003
3.100000E+008	9.415086E-002	-2.045470E-002	5.508746E-001	-7.153273E-002	5.510162E-001	-7.143582E-002	-3.571093E-002	-3.999343E-003
3.200000E+008	9.396535E-002	-2.102985E-002	5.504229E-001	-7.376459E-002	5.505904E-001	-7.368960E-002	-3.571276E-002	-4.082885E-003
3.300000E+008	9.370385E-002	-2.157311E-002	5.500190E-001	-7.595945E-002	5.501178E-001	-7.600988E-002	-3.572393E-002	-4.223913E-003
3.400000E+008	9.332987E-002	-2.215289E-002	5.494851E-001	-7.817934E-002	5.494375E-001	-7.830534E-002	-3.570125E-002	-4.406593E-003
3.500000E+008	9.294217E-002	-2.270925E-002	5.490052E-001	-8.042179E-002	5.487859E-001	-8.032509E-002	-3.569969E-002	-4.653143E-003
3.600000E+008	9.263560E-002	-2.327057E-002	5.484966E-001	-8.260737E-002	5.483050E-001	-8.234707E-002	-3.569127E-002	-4.790323E-003
3.700000E+008	9.234022E-002	-2.384841E-002	5.479249E-001	-8.466943E-002	5.478976E-001	-8.434419E-002	-3.555694E-002	-4.944250E-003
3.800000E+008	9.203940E-002	-2.446660E-002	5.474490E-001	-8.678860E-002	5.475136E-001	-8.653603E-002	-3.545418E-002	-5.131034E-003
3.900000E+008	9.167940E-002	-2.507996E-002	5.468505E-001	-8.901764E-002	5.470292E-001	-8.878792E-002	-3.530754E-002	-5.307735E-003
4.000000E+008	9.140583E-002	-2.571664E-002	5.462613E-001	-9.104029E-002	5.465381E-001	-9.101545E-002	-3.519588E-002	-5.460355E-003
4.100000E+008	9.099116E-002	-2.638367E-002	5.457780E-001	-9.303980E-002	5.459392E-001	-9.311346E-002	-3.510084E-002	-5.587112E-003
4.200000E+008	9.057577E-002	-2.696381E-002	5.453412E-001	-9.518365E-002	5.454179E-001	-9.519625E-002	-3.504683E-002	-5.651442E-003
4.300000E+008	9.029829E-002	-2.750037E-002	5.447886E-001	-9.733409E-002	5.448748E-001	-9.733723E-002	-3.499249E-002	-5.728114E-003
4.400000E+008	9.001295E-002	-2.801577E-002	5.442488E-001	-9.949142E-002	5.443648E-001	-9.945067E-002	-3.497871E-002	-5.747369E-003
4.500000E+008	8.974817E-002	-2.857617E-002	5.437106E-001	-1.016001E-001	5.438489E-001	-1.015722E-001	-3.492037E-002	-5.717065E-003
4.600000E+008	8.947322E-002	-2.912563E-002	5.431163E-001	-1.037408E-001	5.432358E-001	-1.037344E-001	-3.490604E-002	-5.677030E-003
4.700000E+008	8.914179E-002	-2.962621E-002	5.425369E-001	-1.057968E-001	5.426019E-001	-1.058003E-001	-3.494073E-002	-5.666092E-003
4.800000E+008	8.876161E-002	-3.008202E-002	5.419157E-001	-1.078524E-001	5.419870E-001	-1.077995E-001	-3.500751E-002	-5.641246E-003
4.900000E+008	8.836287E-002	-3.054075E-002	5.413175E-001	-1.099259E-001	5.413465E-001	-1.099045E-001	-3.507257E-002	-5.593880E-003
5.000000E+008	8.800787E-002	-3.096275E-002	5.407250E-001	-1.120095E-001	5.407850E-001	-1.119422E-001	-3.508547E-002	-5.626924E-003
5.100000E+008	8.769629E-002	-3.148781E-002	5.401386E-001	-1.140676E-001	5.402413E-001	-1.139751E-001	-3.506223E-002	-5.637859E-003
5.200000E+008	8.731414E-002	-3.205536E-002	5.395263E-001	-1.161733E-001	5.396610E-001	-1.160955E-001	-3.502012E-002	-5.725420E-003
5.300000E+008	8.692624E-002	-3.261872E-002	5.389193E-001	-1.182474E-001	5.390413E-001	-1.182124E-001	-3.492539E-002	-5.827312E-003
5.400000E+008	8.649540E-002	-3.321827E-002	5.382507E-001	-1.203145E-001	5.384236E-001	-1.203017E-001	-3.487394E-002	-5.927351E-003
5.500000E+008	8.610004E-002	-3.369608E-002	5.376367E-001	-1.223697E-001	5.376919E-001	-1.223514E-001	-3.486432E-002	-5.929567E-003
5.600000E+008	8.571019E-002	-3.416492E-002	5.369218E-001	-1.244014E-001	5.370061E-001	-1.243865E-001	-3.484478E-002	-5.916633E-003
5.700000E+008	8.539360E-002	-3.464739E-002	5.362753E-001	-1.263991E-001	5.364375E-001	-1.264161E-001	-3.491801E-002	-5.843660E-003
5.800000E+008	8.503140E-002	-3.510960E-002	5.356176E-001	-1.284234E-001	5.357870E-001	-1.284321E-001	-3.495146E-002	-5.807024E-003
5.900000E+008	8.467617E-002	-3.563847E-002	5.349553E-001	-1.305058E-001	5.351720E-001	-1.305063E-001	-3.504864E-002	-5.791173E-003
6.000000E+008	8.438245E-002	-3.612954E-002	5.342824E-001	-1.325206E-001	5.344989E-001	-1.325738E-001	-3.506860E-002	-5.795345E-003
6.100000E+008	8.406800E-002	-3.660331E-002	5.335959E-001	-1.345107E-001	5.337426E-001	-1.345637E-001	-3.517970E-002	-5.786320E-003
6.200000E+008	8.375663E-002	-3.708839E-002	5.328609E-001	-1.364822E-001	5.330434E-001	-1.365678E-001	-3.522468E-002	-5.765725E-003
6.300000E+008	8.349343E-002	-3.753764E-002	5.321341E-001	-1.384972E-001	5.323433E-001	-1.385557E-001	-3.525926E-002	-5.751280E-003
6.400000E+008	8.323521E-002	-3.799344E-002	5.314606E-001	-1.404735E-001	5.316601E-001	-1.405320E-001	-3.525156E-002	-5.688211E-003
6.500000E+008	8.297140E-002	-3.840221E-002	5.307638E-001	-1.424400E-001	5.309468E-001	-1.424865E-001	-3.528671E-002	-5.633256E-003
6.600000E+008	8.263370E-002	-3.886703E-002	5.300940E-001	-1.444494E-001	5.302184E-001	-1.445082E-001	-3.529590E-002	-5.563986E-003
6.700000E+008	8.220205E-002	-3.923901E-002	5.293661E-001	-1.464691E-001	5.295134E-001	-1.464880E-001	-3.540583E-002	-5.485225E-003
6.800000E+008	8.177478E-002	-3.960588E-002	5.286349E-001	-1.484271E-001	5.287884E-001	-1.484813E-001	-3.548610E-002	-5.355276E-003
6.900000E+008	8.134258E-002	-3.995849E-002	5.278406E-001	-1.503936E-001	5.279853E-001	-1.504071E-001	-3.559137E-002	-5.222097E-003
7.000000E+008	8.094889E-002	-4.032504E-002	5.271112E-001	-1.523382E-001	5.272715E-001	-1.523329E-001	-3.571603E-002	-5.133454E-003
7.100000E+008	8.058165E-002	-4.076599E-002	5.263748E-001	-1.542607E-001	5.265691E-001	-1.543128E-001	-3.583440E-002	-5.081845E-003
7.200000E+008	8.017916E-002	-4.120244E-002	5.256335E-001	-1.562181E-001	5.258243E-001	-1.562546E-001	-3.589900E-002	-5.089158E-003
7.300000E+008	7.975200E-002	-4.163556E-002	5.248544E-001	-1.581461E-001	5.251321E-001	-1.582671E-001	-3.604535E-002	-5.128749E-003
7.400000E+008	7.929649E-002	-4.202358E-002	5.240663E-001	-1.601303E-001	5.243387E-001	-1.601532E-001	-3.618736E-002	-5.122383E-003
7.500000E+008	7.893333E-002	-4.242857E-002	5.233510E-001	-1.620626E-001	5.235897E-001	-1.621562E-001	-3.632451E-002	-5.141002E-003
7.600000E+008	7.849961E-002	-4.285568E-002	5.225314E-001	-1.640036E-001	5.228178E-001	-1.640918E-001	-3.640127E-002	-5.154283E-003
7.700000E+008	7.807986E-002	-4.330680E-002	5.217698E-001	-1.659222E-001	5.219991E-001	-1.660107E-001	-3.650520E-002	-5.201368E-003
7.800000E+008	7.759907E-002	-4.370743E-002	5.209827E-001	-1.678386E-001	5.212687E-001	-1.679017E-001	-3.662269E-002	-5.241602E-003
7.900000E+008	7.718247E-002	-4.417421E-002	5.201954E-001	-1.697780E-001	5.204815E-001	-1.698917E-001	-3.673992E-002	-5.234250E-003
8.000000E+008	7.674202E-002	-4.461627E-002	5.193769E-001	-1.716847E-001	5.196095E-001	-1.717773E-001	-3.683482E-002	-5.231412E-003
8.100000E+008	7.633484E-002	-4.507511E-002	5.185396E-001	-1.735452E-001	5.187855E-001	-1.736820E-001	-3.687202E-002	-5.182877E-003
8.200000E+008	7.597535E-002	-4.546303E-002	5.177684E-001	-1.755113E-001	5.179886E-001	-1.755659E-001	-3.695180E-002	-5.139418E-003
8.300000E+008	7.565230E-002	-4.586069E-002	5.169304E-001	-1.773770E-001	5.172039E-001	-1.774789E-001	-3.701442E-002	-5.074360E-003
8.400000E+008	7.534610E-002	-4.624415E-002	5.160915E-001	-1.792662E-001	5.163633E-001	-1.793630E-001	-3.707774E-002	-5.017687E-003
8.500000E+008	7.502967E-002	-4.661382E-002	5.152871E-001	-1.811542E-001	5.155520E-001	-1.812655E-001	-3.720837E-002	-4.956183E-003
8.600000E+008	7.463485E-002	-4.697821E-002	5.144436E-001	-1.830185E-001	5.146474E-001	-1.831330E-001	-3.734468E-002	-4.893494E-003
8.700000E+008	7.424824E-002	-4.728568E-002	5.136254E-001	-1.849143E-001	5.138085E-001	-1.850027E-001	-3.744699E-002	-4.836083E-003
8.800000E+008	7.379846E-002	-4.759434E-002	5.127787E-001	-1.868311E-001	5.130171E-001	-1.868894E-001	-3.763493E-002	-4.766977E-003
8.900000E+008	7.337637E-002	-4.790873E-002	5.119160E-001	-1.887047E-001	5.121394E-001	-1.887791E-001	-3.775470E-002	-4.714588E-003
9.000000E+008	7.294293E-002	-4.823326E-002	5.110026E-001	-1.905644E-001	5.113272E-001	-1.906520E-001	-3.784788E-002	-4.656563E-003
9.100000E+008	7.248928E-002	-4.860160E-002	5.101643E-001	-1.924372E-001	5.104712E-001	-1.925318E-001	-3.788836E-002	-4.646064E-003
9.200000E+008	7.202967E-002	-4.896355E-002	5.092944E-001	-1.942900E-001	5.095983E-001	-1.944006E-001	-3.791059E-002	-4.645285E-003
9.300000E+008	7.160096E-002	-4.928173E-002	5.084106E-001	-1.961465E-001	5.086739E-001	-1.962654E-001	-3.791910E-002	-4.603523E-003
9.400000E+008	7.116404E-002	-4.960995E-002	5.075391E-001	-1.979629E-001	5.078624E-001	-1.981192E-001	-3.791521E-002	-4.515579E-003
9.500000E+008	7.073432E-002	-4.993935E-002	5.066729E-001	-1.998239E-001	5.069663E-001	-1.999834E-001	-3.787260E-002	-4.384260E-003
9.600000E+008	7.035321E-002	-5.019934E-002	5.057909E-001	-2.016761E-001	5.060571E-001	-2.017797E-001	-3.782286E-002	-4.227515E-003
9.700000E+008	6.998973E-002	-5.048390E-002	5.048303E-001	-2.034602E-001	5.051679E-001	-2.036354E-001	-3.777840E-002	-4.101466E-003
9.800000E+008	6.966217E-002	-5.079635E-002	5.040055E-001	-2.052612E-001	5.042775E-001	-2.054935E-001	-3.778420E-002	-3.977627E-003
9.900000E+008	6.927366E-002	-5.108339E-002	5.031074E-001	-2.071286E-001	5.033680E-001	-2.073202E-001	-3.786668E-002	-3.841730E-003
1.000000E+009	6.889574E-002	-5.132843E-002	5.022092E-001	-2.089261E-001	5.024446E-001	-2.091393E-001	-3.795171E-002	-3.649487E-003
1.010000E+009	6.843018E-002	-5.153364E-002	5.012971E-001	-2.107856E-001	5.015304E-001	-2.109383E-001	-3.805458E-002	-3.454633E-003
1.020000E+009	6.797116E-002	-5.174379E-002	5.003591E-001	-2.126207E-001	5.005707E-001	-2.127488E-001	-3.815490E-002	-3.233842E-003
1.030000E+009	6.760029E-002	-5.192047E-002	4.993916E-001	-2.144245E-001	4.996640E-001	-2.145580E-001	-3.821510E-002	-3.054079E-003
1.040000E+009	6.718299E-002	-5.215305E-002	4.984632E-001	-2.162044E-001	4.987538E-001	-2.163666E-001	-3.827758E-002	-2.901413E-003
1.050000E+009	6.673676E-002	-5.246254E-002	4.975630E-001	-2.180162E-001	4.978084E-001	-2.181497E-001	-3.836974E-002	-2.761686E-003
1.060000E+009	6.628546E-002	-5.271035E-002	4.966046E-001	-2.198264E-001	4.968979E-001	-2.199210E-001	-3.844865E-002	-2.571807E-003
1.070000E+009	6.581297E-002	-5.293257E-002	4.956569E-001	-2.215852E-001	4.959543E-001	-2.216838E-001	-3.852324E-002	-2.425897E-003
1.080000E+009	6.542532E-002	-5.319873E-002	4.946814E-001	-2.234227E-001	4.950428E-001	-2.235152E-001	-3.857402E-002	-2.231426E-003
1.090000E+009	6.504708E-002	-5.342457E-002	4.937434E-001	-2.251929E-001	4.941134E-001	-2.252909E-001	-3.861068E-002	-2.093844E-003
1.100000E+009	6.468279E-002	-5.367380E-002	4.926915E-001	-2.269911E-001	4.931145E-001	-2.270931E-001	-3.866020E-002	-1.881526E-003
1.110000E+009	6.431114E-002	-5.389501E-002	4.917508E-001	-2.287766E-001	4.921608E-001	-2.288608E-001	-3.874362E-002	-1.756702E-003
1.120000E+009	6.389849E-002	-5.409119E-002	4.908175E-001	-2.305166E-001	4.911912E-001	-2.307079E-001	-3.887450E-002	-1.605455E-003
1.130000E+009	6.346756E-002	-5.434584E-002	4.898083E-001	-2.323005E-001	4.901715E-001	-2.324623E-001	-3.901474E-002	-1.434124E-003
1.140000E+009	6.299224E-002	-5.452769E-002	4.888352E-001	-2.340942E-001	4.891631E-001	-2.342176E-001	-3.913449E-002	-1.242404E-003
1.150000E+009	6.257066E-002	-5.473501E-002	4.877918E-001	-2.358403E-001	4.881406E-001	-2.359669E-001	-3.921001E-002	-1.075723E-003
1.160000E+009	6.214876E-002	-5.491423E-002	4.868408E-001	-2.376238E-001	4.871834E-001	-2.377668E-001	-3.931231E-002	-9.180432E-004
1.170000E+009	6.172607E-002	-5.514626E-002	4.857905E-001	-2.393809E-001	4.861380E-001	-2.394783E-001	-3.933545E-002	-7.099661E-004
1.180000E+009	6.131685E-002	-5.542639E-002	4.847459E-001	-2.411110E-001	4.851643E-001	-2.412536E-001	-3.940180E-002	-5.514749E-004
1.190000E+009	6.087737E-002	-5.562376E-002	4.837430E-001	-2.428849E-001	4.840389E-001	-2.430145E-001	-3.945764E-002	-3.472618E-004
1.200000E+009	6.042508E-002	-5.582723E-002	4.827100E-001	-2.446259E-001	4.830592E-001	-2.447276E-001	-3.951647E-002	-1.436360E-004
1.210000E+009	6.006344E-002	-5.606496E-002	4.816611E-001	-2.463554E-001	4.819958E-001	-2.465043E-001	-3.958219E-002	9.206835E-005
1.220000E+009	5.965917E-002	-5.626460E-002	4.806386E-001	-2.480792E-001	4.810014E-001	-2.482038E-001	-3.964512E-002	3.320965E-004
1.230000E+009	5.927732E-002	-5.646501E-002	4.795768E-001	-2.498264E-001	4.799402E-001	-2.499614E-001	-3.977250E-002	5.165334E-004
1.240000E+009	5.889851E-002	-5.673020E-002	4.785272E-001	-2.515543E-001	4.788420E-001	-2.516739E-001	-3.989959E-002	7.147844E-004
1.250000E+009	5.844951E-002	-5.693521E-002	4.774237E-001	-2.532589E-001	4.778449E-001	-2.533680E-001	-4.003106E-002	8.844414E-004
1.260000E+009	5.803001E-002	-5.711539E-002	4.763518E-001	-2.549950E-001	4.767107E-001	-2.551646E-001	-4.015484E-002	9.998064E-004
1.270000E+009	5.766286E-002	-5.730908E-002	4.752872E-001	-2.567060E-001	4.756363E-001	-2.567970E-001	-4.025673E-002	1.175657E-003
1.280000E+009	5.719943E-002	-5.745838E-002	4.742318E-001	-2.584179E-001	4.745952E-001	-2.585160E-001	-4.034642E-002	1.290931E-003
1.290000E+009	5.681695E-002	-5.760901E-002	4.731094E-001	-2.601640E-001	4.734825E-001	-2.602454E-001	-4.034160E-002	1.420702E-003
1.300000E+009	5.642663E-002	-5.773657E-002	4.719976E-001	-2.617790E-001	4.724342E-001	-2.619403E-001	-4.029823E-002	1.599580E-003
1.310000E+009	5.600051E-002	-5.787267E-002	4.708851E-001	-2.635280E-001	4.713154E-001	-2.636749E-001	-4.032750E-002	1.792528E-003
1.320000E+009	5.556891E-002	-5.796900E-002	4.697862E-001	-2.652340E-001	4.702302E-001	-2.653635E-001	-4.026958E-002	2.012447E-003
1.330000E+009	5.519022E-002	-5.802718E-002	4.686929E-001	-2.668587E-001	4.691114E-001	-2.670732E-001	-4.017033E-002	2.308694E-003
1.340000E+009	5.474366E-002	-5.809561E-002	4.675500E-001	-2.685253E-001	4.679470E-001	-2.687197E-001	-4.015720E-002	2.664634E-003
1.350000E+009	5.431512E-002	-5.815338E-002	4.664192E-001	-2.702302E-001	4.667829E-001	-2.703833E-001	-4.012680E-002	3.014550E-003
1.360000E+009	5.396953E-002	-5.820879E-002	4.652680E-001	-2.718763E-001	4.657248E-001	-2.720789E-001	-4.008905E-002	3.430600E-003
1.370000E+009	5.356351E-002	-5.831256E-002	4.641699E-001	-2.735676E-001	4.645564E-001	-2.737462E-001	-4.012533E-002	3.815374E-003
1.380000E+009	5.316161E-002	-5.842774E-002	4.629952E-001	-2.752104E-001	4.633861E-001	-2.754055E-001	-4.016796E-002	4.147646E-003
1.390000E+009	5.276067E-002	-5.857075E-002	4.618067E-001	-2.768938E-001	4.622103E-001	-2.770590E-001	-4.027704E-002	4.549294E-003
1.400000E+009	5.233001E-002	-5.866729E-002	4.606511E-001	-2.785068E-001	4.610461E-001	-2.786479E-001	-4.035226E-002	4.937113E-003
1.410000E+009	5.190700E-002	-5.871829E-002	4.595132E-001	-2.801799E-001	4.598606E-001	-2.803015E-001	-4.046410E-002	5.315920E-003
1.420000E+009	5.150250E-002	-5.879149E-002	4.582662E-001	-2.817531E-001	4.587184E-001	-2.819285E-001	-4.054223E-002	5.651088E-003
1.430000E+009	5.115934E-002	-5.887969E-002	4.571247E-001	-2.833928E-001	4.575590E-001	-2.836113E-001	-4.060080E-002	5.991821E-003
1.440000E+009	5.072547E-002	-5.894903E-002	4.559531E-001	-2.850041E-001	4.563663E-001	-2.851926E-001	-4.062618E-002	6.295066E-003
1.450000E+009	5.031801E-002	-5.902133E-002	4.547447E-001	-2.866463E-001	4.551550E-001	-2.868372E-001	-4.070051E-002	6.629673E-003
1.460000E+009	4.988963E-002	-5.906003E-002	4.535396E-001	-2.882782E-001	4.539242E-001	-2.884760E-001	-4.075201E-002	6.972531E-003
1.470000E+009	4.948510E-002	-5.910172E-002	4.523389E-001	-2.898816E-001	4.527278E-001	-2.900550E-001	-4.079926E-002	7.384497E-003
1.480000E+009	4.906958E-002	-5.913000E-002	4.510950E-001	-2.914346E-001	4.514923E-001	-2.916622E-001	-4.081492E-002	7.840641E-003
1.490000E+009	4.868724E-002	-5.917757E-002	4.499096E-001	-2.930474E-001	4.503139E-001	-2.932011E-001	-4.086055E-002	8.293517E-003
