! Device ID: PE43711P
! File Path: z:\PE43711P\CHAR_NOM_04282014\AMB\3p300\LS_ATT_18p25dB\PE43711P_AMB_3p300V_3p000V_0p000V_LS_ATT_18p25dB_S2P_SN_5_A0137A.s2p
! Serial: 5
! Lot: A0137A
! Temp: 25C
! VDD: 3.300
! VSS: 0.000
! Control_Hi: 3.000
! Control_Lo: 0.000
! Attenuation Step: 18.25dB
! Port 1: RF1
! Port 2: RF2
! ThroughPath:1-2
! IDD: 0.0001271256
! ISS: -1.171e-007
!

#  Hz  S   RI  R   50

1.000000E+007	5.323674E-002	1.841134E-004	1.066416E-001	-4.927350E-004	1.067576E-001	-5.248636E-004	-1.213861E-001	9.145730E-004
2.000000E+007	5.345341E-002	1.495942E-004	1.066184E-001	-7.404616E-004	1.066727E-001	-7.725669E-004	-1.210564E-001	1.502675E-003
3.000000E+007	5.369182E-002	6.281096E-005	1.066050E-001	-1.129219E-003	1.066660E-001	-1.149991E-003	-1.207381E-001	2.008475E-003
4.000000E+007	5.384730E-002	-4.881671E-005	1.066138E-001	-1.504106E-003	1.066557E-001	-1.535667E-003	-1.205599E-001	2.579621E-003
5.000000E+007	5.396046E-002	-1.733526E-004	1.065943E-001	-1.922764E-003	1.066802E-001	-1.924351E-003	-1.205434E-001	3.159938E-003
6.000000E+007	5.410576E-002	-3.563778E-004	1.065691E-001	-2.304316E-003	1.066565E-001	-2.307599E-003	-1.203920E-001	3.603195E-003
7.000000E+007	5.421968E-002	-5.487831E-004	1.065419E-001	-2.668857E-003	1.066289E-001	-2.674245E-003	-1.202185E-001	4.055334E-003
8.000000E+007	5.434560E-002	-7.173626E-004	1.065271E-001	-3.037059E-003	1.066121E-001	-3.043904E-003	-1.200548E-001	4.488640E-003
9.000000E+007	5.445958E-002	-9.113408E-004	1.065110E-001	-3.403745E-003	1.065851E-001	-3.413300E-003	-1.199354E-001	4.875103E-003
1.000000E+008	5.456464E-002	-1.093453E-003	1.065076E-001	-3.788620E-003	1.065726E-001	-3.782738E-003	-1.198775E-001	5.265617E-003
1.100000E+008	5.466837E-002	-1.296465E-003	1.064709E-001	-4.170374E-003	1.065419E-001	-4.160118E-003	-1.197667E-001	5.644324E-003
1.200000E+008	5.477526E-002	-1.515335E-003	1.064184E-001	-4.550774E-003	1.065152E-001	-4.553275E-003	-1.196799E-001	5.972593E-003
1.300000E+008	5.487158E-002	-1.706262E-003	1.063962E-001	-4.910101E-003	1.064837E-001	-4.930622E-003	-1.195651E-001	6.311530E-003
1.400000E+008	5.490999E-002	-1.888282E-003	1.063628E-001	-5.291722E-003	1.064421E-001	-5.299003E-003	-1.194598E-001	6.651401E-003
1.500000E+008	5.491263E-002	-2.044707E-003	1.063420E-001	-5.644786E-003	1.063877E-001	-5.649838E-003	-1.193539E-001	6.976983E-003
1.600000E+008	5.494560E-002	-2.180900E-003	1.063104E-001	-5.997542E-003	1.063552E-001	-5.997667E-003	-1.192931E-001	7.312373E-003
1.700000E+008	5.500307E-002	-2.343905E-003	1.062851E-001	-6.398741E-003	1.063654E-001	-6.371809E-003	-1.192328E-001	7.656128E-003
1.800000E+008	5.499328E-002	-2.540022E-003	1.062125E-001	-6.790087E-003	1.063358E-001	-6.776538E-003	-1.191461E-001	7.985551E-003
1.900000E+008	5.493063E-002	-2.752149E-003	1.061374E-001	-7.149018E-003	1.062680E-001	-7.152636E-003	-1.190868E-001	8.252338E-003
2.000000E+008	5.486591E-002	-2.960387E-003	1.060920E-001	-7.494262E-003	1.062139E-001	-7.499817E-003	-1.190212E-001	8.490019E-003
2.100000E+008	5.480656E-002	-3.228599E-003	1.060556E-001	-7.840573E-003	1.061527E-001	-7.863358E-003	-1.189366E-001	8.715063E-003
2.200000E+008	5.475114E-002	-3.484197E-003	1.060224E-001	-8.185525E-003	1.061060E-001	-8.195600E-003	-1.188131E-001	8.915021E-003
2.300000E+008	5.471113E-002	-3.722357E-003	1.059749E-001	-8.559429E-003	1.060599E-001	-8.546323E-003	-1.186824E-001	9.119820E-003
2.400000E+008	5.471170E-002	-3.974019E-003	1.059490E-001	-8.924364E-003	1.060134E-001	-8.906401E-003	-1.185253E-001	9.379285E-003
2.500000E+008	5.469169E-002	-4.218196E-003	1.058798E-001	-9.288925E-003	1.059619E-001	-9.267256E-003	-1.183391E-001	9.608464E-003
2.600000E+008	5.471372E-002	-4.470850E-003	1.058164E-001	-9.654684E-003	1.058980E-001	-9.638519E-003	-1.181553E-001	9.917871E-003
2.700000E+008	5.471707E-002	-4.688387E-003	1.057408E-001	-1.000396E-002	1.058452E-001	-1.000877E-002	-1.179110E-001	1.023811E-002
2.800000E+008	5.476711E-002	-4.885156E-003	1.056958E-001	-1.035867E-002	1.057773E-001	-1.034919E-002	-1.176932E-001	1.054749E-002
2.900000E+008	5.475350E-002	-5.061883E-003	1.056443E-001	-1.070297E-002	1.057208E-001	-1.069755E-002	-1.175656E-001	1.088220E-002
3.000000E+008	5.474105E-002	-5.205150E-003	1.055985E-001	-1.106906E-002	1.056822E-001	-1.105027E-002	-1.174195E-001	1.126999E-002
3.100000E+008	5.470565E-002	-5.343982E-003	1.055433E-001	-1.142093E-002	1.056189E-001	-1.142646E-002	-1.172912E-001	1.164427E-002
3.200000E+008	5.465716E-002	-5.471302E-003	1.054713E-001	-1.178288E-002	1.055687E-001	-1.177788E-002	-1.172040E-001	1.200052E-002
3.300000E+008	5.456400E-002	-5.604889E-003	1.054014E-001	-1.214372E-002	1.054994E-001	-1.216249E-002	-1.170974E-001	1.234295E-002
3.400000E+008	5.443901E-002	-5.742512E-003	1.053525E-001	-1.249960E-002	1.053932E-001	-1.252779E-002	-1.169958E-001	1.264781E-002
3.500000E+008	5.429013E-002	-5.922071E-003	1.052775E-001	-1.286250E-002	1.053061E-001	-1.285747E-002	-1.168538E-001	1.289120E-002
3.600000E+008	5.417793E-002	-6.081979E-003	1.052137E-001	-1.321296E-002	1.052416E-001	-1.317305E-002	-1.166811E-001	1.318007E-002
3.700000E+008	5.405030E-002	-6.261500E-003	1.051149E-001	-1.355493E-002	1.051780E-001	-1.349299E-002	-1.164997E-001	1.342980E-002
3.800000E+008	5.394774E-002	-6.477479E-003	1.050481E-001	-1.388961E-002	1.051314E-001	-1.385427E-002	-1.163124E-001	1.371226E-002
3.900000E+008	5.383773E-002	-6.717543E-003	1.049673E-001	-1.425352E-002	1.050675E-001	-1.421795E-002	-1.160316E-001	1.405579E-002
4.000000E+008	5.376247E-002	-6.952806E-003	1.048665E-001	-1.458327E-002	1.049867E-001	-1.458253E-002	-1.157172E-001	1.435557E-002
4.100000E+008	5.366453E-002	-7.190808E-003	1.048065E-001	-1.489158E-002	1.048908E-001	-1.492094E-002	-1.154548E-001	1.468262E-002
4.200000E+008	5.358898E-002	-7.399358E-003	1.047654E-001	-1.523322E-002	1.048366E-001	-1.525037E-002	-1.152211E-001	1.508094E-002
4.300000E+008	5.351600E-002	-7.601875E-003	1.046866E-001	-1.559864E-002	1.047532E-001	-1.560826E-002	-1.150299E-001	1.550848E-002
4.400000E+008	5.344405E-002	-7.753067E-003	1.046147E-001	-1.593780E-002	1.046918E-001	-1.593540E-002	-1.148202E-001	1.595382E-002
4.500000E+008	5.340090E-002	-7.934907E-003	1.045387E-001	-1.628718E-002	1.046170E-001	-1.629057E-002	-1.146417E-001	1.641980E-002
4.600000E+008	5.332219E-002	-8.123557E-003	1.044520E-001	-1.664875E-002	1.045168E-001	-1.663903E-002	-1.144607E-001	1.689932E-002
4.700000E+008	5.325902E-002	-8.269339E-003	1.043606E-001	-1.697164E-002	1.044336E-001	-1.698477E-002	-1.142988E-001	1.730307E-002
4.800000E+008	5.315716E-002	-8.408340E-003	1.042861E-001	-1.730962E-002	1.043488E-001	-1.729197E-002	-1.141696E-001	1.770628E-002
4.900000E+008	5.302419E-002	-8.548494E-003	1.042019E-001	-1.765440E-002	1.042587E-001	-1.765064E-002	-1.140276E-001	1.812441E-002
5.000000E+008	5.294347E-002	-8.682948E-003	1.041210E-001	-1.797549E-002	1.041828E-001	-1.798848E-002	-1.138730E-001	1.850017E-002
5.100000E+008	5.283184E-002	-8.825587E-003	1.040388E-001	-1.832977E-002	1.041106E-001	-1.831928E-002	-1.137083E-001	1.888886E-002
5.200000E+008	5.269390E-002	-9.002571E-003	1.039555E-001	-1.867061E-002	1.040264E-001	-1.866263E-002	-1.135423E-001	1.926945E-002
5.300000E+008	5.256385E-002	-9.184382E-003	1.038644E-001	-1.901494E-002	1.039555E-001	-1.900757E-002	-1.132776E-001	1.965001E-002
5.400000E+008	5.242221E-002	-9.432160E-003	1.037729E-001	-1.934068E-002	1.038547E-001	-1.934435E-002	-1.130555E-001	2.003913E-002
5.500000E+008	5.229482E-002	-9.606282E-003	1.036965E-001	-1.968117E-002	1.037375E-001	-1.967942E-002	-1.128613E-001	2.044780E-002
5.600000E+008	5.217038E-002	-9.825004E-003	1.035862E-001	-2.001902E-002	1.036414E-001	-2.001196E-002	-1.126389E-001	2.086991E-002
5.700000E+008	5.205743E-002	-1.002659E-002	1.034967E-001	-2.032886E-002	1.035622E-001	-2.034570E-002	-1.124869E-001	2.132982E-002
5.800000E+008	5.197302E-002	-1.024778E-002	1.034170E-001	-2.066761E-002	1.034847E-001	-2.067075E-002	-1.122941E-001	2.178228E-002
5.900000E+008	5.189016E-002	-1.046746E-002	1.033073E-001	-2.100965E-002	1.033893E-001	-2.102720E-002	-1.121362E-001	2.227731E-002
6.000000E+008	5.184508E-002	-1.069476E-002	1.032073E-001	-2.133703E-002	1.032841E-001	-2.135410E-002	-1.119395E-001	2.271935E-002
6.100000E+008	5.181227E-002	-1.088668E-002	1.031137E-001	-2.167594E-002	1.031739E-001	-2.168841E-002	-1.117762E-001	2.316296E-002
6.200000E+008	5.178268E-002	-1.103225E-002	1.030128E-001	-2.199377E-002	1.030734E-001	-2.201703E-002	-1.116058E-001	2.360210E-002
6.300000E+008	5.174060E-002	-1.117796E-002	1.029114E-001	-2.231254E-002	1.029885E-001	-2.234299E-002	-1.114451E-001	2.401515E-002
6.400000E+008	5.173013E-002	-1.130446E-002	1.028056E-001	-2.264221E-002	1.028807E-001	-2.266285E-002	-1.112558E-001	2.444455E-002
6.500000E+008	5.168999E-002	-1.142657E-002	1.027218E-001	-2.298108E-002	1.027775E-001	-2.298659E-002	-1.110664E-001	2.489834E-002
6.600000E+008	5.163393E-002	-1.156046E-002	1.026338E-001	-2.329905E-002	1.026721E-001	-2.331868E-002	-1.108851E-001	2.533317E-002
6.700000E+008	5.151568E-002	-1.166172E-002	1.025156E-001	-2.361516E-002	1.025822E-001	-2.363748E-002	-1.107184E-001	2.580667E-002
6.800000E+008	5.140561E-002	-1.176080E-002	1.024101E-001	-2.394644E-002	1.024873E-001	-2.397730E-002	-1.105220E-001	2.629719E-002
6.900000E+008	5.128013E-002	-1.186751E-002	1.022966E-001	-2.428208E-002	1.023677E-001	-2.428329E-002	-1.103563E-001	2.676754E-002
7.000000E+008	5.116342E-002	-1.197094E-002	1.022089E-001	-2.459674E-002	1.022661E-001	-2.459749E-002	-1.102387E-001	2.725377E-002
7.100000E+008	5.104945E-002	-1.209209E-002	1.021120E-001	-2.490354E-002	1.021700E-001	-2.492738E-002	-1.101151E-001	2.771008E-002
7.200000E+008	5.094128E-002	-1.223205E-002	1.020040E-001	-2.522616E-002	1.020665E-001	-2.524859E-002	-1.099881E-001	2.816601E-002
7.300000E+008	5.079461E-002	-1.240248E-002	1.018874E-001	-2.556312E-002	1.019783E-001	-2.557932E-002	-1.098743E-001	2.857576E-002
7.400000E+008	5.065397E-002	-1.252830E-002	1.017714E-001	-2.588016E-002	1.018577E-001	-2.590710E-002	-1.097848E-001	2.898514E-002
7.500000E+008	5.055018E-002	-1.268610E-002	1.016665E-001	-2.618895E-002	1.017491E-001	-2.622583E-002	-1.096691E-001	2.934660E-002
7.600000E+008	5.043224E-002	-1.284116E-002	1.015594E-001	-2.651111E-002	1.016366E-001	-2.655532E-002	-1.095422E-001	2.974283E-002
7.700000E+008	5.032094E-002	-1.301699E-002	1.014493E-001	-2.682772E-002	1.015353E-001	-2.686478E-002	-1.093807E-001	3.009979E-002
7.800000E+008	5.021278E-002	-1.318558E-002	1.013386E-001	-2.716270E-002	1.014246E-001	-2.718037E-002	-1.092056E-001	3.046360E-002
7.900000E+008	5.009888E-002	-1.338012E-002	1.012273E-001	-2.747977E-002	1.013065E-001	-2.750171E-002	-1.090436E-001	3.084993E-002
8.000000E+008	5.001047E-002	-1.355999E-002	1.011149E-001	-2.778963E-002	1.011796E-001	-2.782420E-002	-1.088368E-001	3.127162E-002
8.100000E+008	4.992490E-002	-1.377370E-002	1.009881E-001	-2.811542E-002	1.010698E-001	-2.813739E-002	-1.085815E-001	3.171227E-002
8.200000E+008	4.989140E-002	-1.390026E-002	1.008807E-001	-2.842831E-002	1.009566E-001	-2.844220E-002	-1.083502E-001	3.210101E-002
8.300000E+008	4.984091E-002	-1.409173E-002	1.007688E-001	-2.873007E-002	1.008278E-001	-2.876390E-002	-1.081505E-001	3.252177E-002
8.400000E+008	4.982075E-002	-1.424202E-002	1.006454E-001	-2.904494E-002	1.007254E-001	-2.906773E-002	-1.079539E-001	3.293982E-002
8.500000E+008	4.978129E-002	-1.436658E-002	1.005501E-001	-2.937037E-002	1.006228E-001	-2.940953E-002	-1.078019E-001	3.337571E-002
8.600000E+008	4.971660E-002	-1.450178E-002	1.004109E-001	-2.966097E-002	1.004841E-001	-2.971377E-002	-1.076525E-001	3.379386E-002
8.700000E+008	4.965769E-002	-1.455574E-002	1.002924E-001	-2.998898E-002	1.003672E-001	-3.001519E-002	-1.074668E-001	3.419878E-002
8.800000E+008	4.959834E-002	-1.464398E-002	1.001979E-001	-3.030960E-002	1.002813E-001	-3.033517E-002	-1.073290E-001	3.459497E-002
8.900000E+008	4.949623E-002	-1.475108E-002	1.000630E-001	-3.062005E-002	1.001290E-001	-3.064658E-002	-1.071716E-001	3.498603E-002
9.000000E+008	4.940769E-002	-1.485106E-002	9.995038E-002	-3.094176E-002	1.000381E-001	-3.095018E-002	-1.069690E-001	3.536570E-002
9.100000E+008	4.927957E-002	-1.494392E-002	9.981686E-002	-3.124893E-002	9.990214E-002	-3.126437E-002	-1.067517E-001	3.573713E-002
9.200000E+008	4.914871E-002	-1.508713E-002	9.969024E-002	-3.154450E-002	9.979226E-002	-3.157923E-002	-1.065001E-001	3.613581E-002
9.300000E+008	4.909565E-002	-1.522834E-002	9.957673E-002	-3.185250E-002	9.964574E-002	-3.189931E-002	-1.062356E-001	3.651189E-002
9.400000E+008	4.900005E-002	-1.536795E-002	9.944547E-002	-3.215778E-002	9.953840E-002	-3.220406E-002	-1.059156E-001	3.694419E-002
9.500000E+008	4.893465E-002	-1.552504E-002	9.931957E-002	-3.248490E-002	9.940839E-002	-3.251585E-002	-1.056063E-001	3.743306E-002
9.600000E+008	4.885474E-002	-1.565282E-002	9.918927E-002	-3.277579E-002	9.928429E-002	-3.282132E-002	-1.052691E-001	3.788907E-002
9.700000E+008	4.880707E-002	-1.574571E-002	9.906170E-002	-3.306920E-002	9.914216E-002	-3.312418E-002	-1.049674E-001	3.836408E-002
9.800000E+008	4.876631E-002	-1.584441E-002	9.896858E-002	-3.337275E-002	9.903073E-002	-3.341785E-002	-1.046985E-001	3.885566E-002
9.900000E+008	4.873039E-002	-1.593866E-002	9.882210E-002	-3.369318E-002	9.890967E-002	-3.375079E-002	-1.044311E-001	3.935841E-002
1.000000E+009	4.866431E-002	-1.601404E-002	9.869877E-002	-3.400090E-002	9.877099E-002	-3.404950E-002	-1.042295E-001	3.982278E-002
1.010000E+009	4.858977E-002	-1.605429E-002	9.856722E-002	-3.431104E-002	9.865172E-002	-3.436536E-002	-1.039993E-001	4.034039E-002
1.020000E+009	4.849705E-002	-1.613809E-002	9.843962E-002	-3.462802E-002	9.851649E-002	-3.466473E-002	-1.038060E-001	4.082394E-002
1.030000E+009	4.840699E-002	-1.618445E-002	9.831854E-002	-3.493755E-002	9.837738E-002	-3.497316E-002	-1.036007E-001	4.131238E-002
1.040000E+009	4.830658E-002	-1.625236E-002	9.816690E-002	-3.522405E-002	9.825488E-002	-3.526665E-002	-1.033952E-001	4.176570E-002
1.050000E+009	4.821508E-002	-1.635846E-002	9.805919E-002	-3.552907E-002	9.811711E-002	-3.555548E-002	-1.031481E-001	4.227433E-002
1.060000E+009	4.811710E-002	-1.642670E-002	9.791180E-002	-3.582482E-002	9.798793E-002	-3.585190E-002	-1.029092E-001	4.273695E-002
1.070000E+009	4.801054E-002	-1.651477E-002	9.777810E-002	-3.612906E-002	9.786619E-002	-3.614744E-002	-1.026429E-001	4.320645E-002
1.080000E+009	4.791200E-002	-1.660526E-002	9.765129E-002	-3.642215E-002	9.773275E-002	-3.646556E-002	-1.023771E-001	4.371523E-002
1.090000E+009	4.783805E-002	-1.671123E-002	9.751236E-002	-3.672087E-002	9.759579E-002	-3.676649E-002	-1.021232E-001	4.418354E-002
1.100000E+009	4.776034E-002	-1.679762E-002	9.735702E-002	-3.703692E-002	9.745333E-002	-3.706771E-002	-1.018953E-001	4.465649E-002
1.110000E+009	4.766878E-002	-1.686739E-002	9.722545E-002	-3.734608E-002	9.732881E-002	-3.736941E-002	-1.016665E-001	4.514145E-002
1.120000E+009	4.755440E-002	-1.695927E-002	9.710182E-002	-3.764031E-002	9.717317E-002	-3.766446E-002	-1.014902E-001	4.560700E-002
1.130000E+009	4.748251E-002	-1.704254E-002	9.696530E-002	-3.794856E-002	9.704019E-002	-3.797475E-002	-1.012778E-001	4.606471E-002
1.140000E+009	4.736562E-002	-1.712648E-002	9.683250E-002	-3.826853E-002	9.690058E-002	-3.827158E-002	-1.010600E-001	4.655157E-002
1.150000E+009	4.726736E-002	-1.720550E-002	9.667691E-002	-3.855512E-002	9.676434E-002	-3.858568E-002	-1.008134E-001	4.699692E-002
1.160000E+009	4.716192E-002	-1.727263E-002	9.654884E-002	-3.884723E-002	9.663185E-002	-3.889102E-002	-1.005965E-001	4.743568E-002
1.170000E+009	4.707017E-002	-1.736613E-002	9.636627E-002	-3.913930E-002	9.645310E-002	-3.918849E-002	-1.003394E-001	4.793825E-002
1.180000E+009	4.697846E-002	-1.745685E-002	9.623704E-002	-3.944948E-002	9.633989E-002	-3.948084E-002	-1.000377E-001	4.840103E-002
1.190000E+009	4.685877E-002	-1.752108E-002	9.608457E-002	-3.974983E-002	9.615829E-002	-3.978800E-002	-9.976902E-002	4.891437E-002
1.200000E+009	4.676547E-002	-1.761758E-002	9.596443E-002	-4.004718E-002	9.603788E-002	-4.006268E-002	-9.949206E-002	4.940634E-002
1.210000E+009	4.668241E-002	-1.772525E-002	9.579588E-002	-4.034051E-002	9.587589E-002	-4.037401E-002	-9.925365E-002	4.991969E-002
1.220000E+009	4.658282E-002	-1.784025E-002	9.564369E-002	-4.062789E-002	9.574107E-002	-4.065585E-002	-9.902763E-002	5.040776E-002
1.230000E+009	4.649381E-002	-1.796938E-002	9.551283E-002	-4.093547E-002	9.558836E-002	-4.096488E-002	-9.877788E-002	5.089653E-002
1.240000E+009	4.641863E-002	-1.808247E-002	9.535615E-002	-4.121036E-002	9.542811E-002	-4.124857E-002	-9.857756E-002	5.134143E-002
1.250000E+009	4.635759E-002	-1.820095E-002	9.521467E-002	-4.153317E-002	9.529800E-002	-4.154359E-002	-9.837349E-002	5.179429E-002
1.260000E+009	4.627156E-002	-1.830236E-002	9.505433E-002	-4.183263E-002	9.514830E-002	-4.186189E-002	-9.812458E-002	5.221281E-002
1.270000E+009	4.626302E-002	-1.837682E-002	9.490002E-002	-4.211058E-002	9.494995E-002	-4.212620E-002	-9.785779E-002	5.260748E-002
1.280000E+009	4.619111E-002	-1.847700E-002	9.476556E-002	-4.242820E-002	9.482220E-002	-4.242515E-002	-9.755988E-002	5.301354E-002
1.290000E+009	4.617011E-002	-1.853949E-002	9.458748E-002	-4.271643E-002	9.466546E-002	-4.273235E-002	-9.724448E-002	5.340938E-002
1.300000E+009	4.610493E-002	-1.857090E-002	9.443935E-002	-4.300147E-002	9.451525E-002	-4.302388E-002	-9.690665E-002	5.383459E-002
1.310000E+009	4.604318E-002	-1.863398E-002	9.425186E-002	-4.329143E-002	9.435877E-002	-4.332100E-002	-9.656071E-002	5.428990E-002
1.320000E+009	4.596888E-002	-1.868117E-002	9.410317E-002	-4.358805E-002	9.419605E-002	-4.361869E-002	-9.617127E-002	5.478178E-002
1.330000E+009	4.589137E-002	-1.870307E-002	9.395445E-002	-4.385960E-002	9.404206E-002	-4.391190E-002	-9.573781E-002	5.532905E-002
1.340000E+009	4.579349E-002	-1.874422E-002	9.379521E-002	-4.414807E-002	9.387118E-002	-4.421426E-002	-9.536396E-002	5.587427E-002
1.350000E+009	4.569401E-002	-1.879827E-002	9.363632E-002	-4.446720E-002	9.370292E-002	-4.450344E-002	-9.501812E-002	5.646820E-002
1.360000E+009	4.562876E-002	-1.884531E-002	9.347195E-002	-4.473412E-002	9.354579E-002	-4.478812E-002	-9.463858E-002	5.707054E-002
1.370000E+009	4.553575E-002	-1.887829E-002	9.330091E-002	-4.503735E-002	9.338888E-002	-4.506072E-002	-9.434141E-002	5.768836E-002
1.380000E+009	4.547344E-002	-1.895019E-002	9.312897E-002	-4.532952E-002	9.321355E-002	-4.537934E-002	-9.403272E-002	5.828116E-002
1.390000E+009	4.539381E-002	-1.900391E-002	9.295119E-002	-4.561701E-002	9.304500E-002	-4.565056E-002	-9.375738E-002	5.890727E-002
1.400000E+009	4.529754E-002	-1.905547E-002	9.279742E-002	-4.590002E-002	9.286421E-002	-4.593024E-002	-9.348111E-002	5.946694E-002
1.410000E+009	4.520796E-002	-1.909157E-002	9.261823E-002	-4.619289E-002	9.268946E-002	-4.621427E-002	-9.321546E-002	6.006801E-002
1.420000E+009	4.509614E-002	-1.912425E-002	9.243572E-002	-4.645758E-002	9.253530E-002	-4.649489E-002	-9.293396E-002	6.057837E-002
1.430000E+009	4.503523E-002	-1.917340E-002	9.226957E-002	-4.674989E-002	9.236654E-002	-4.680307E-002	-9.264433E-002	6.113163E-002
1.440000E+009	4.491979E-002	-1.922231E-002	9.209604E-002	-4.701906E-002	9.218352E-002	-4.706960E-002	-9.235436E-002	6.161898E-002
1.450000E+009	4.480531E-002	-1.926332E-002	9.192046E-002	-4.729831E-002	9.200440E-002	-4.735023E-002	-9.202968E-002	6.217172E-002
1.460000E+009	4.468367E-002	-1.930589E-002	9.174358E-002	-4.757994E-002	9.182784E-002	-4.765862E-002	-9.171099E-002	6.271352E-002
1.470000E+009	4.457548E-002	-1.936985E-002	9.156695E-002	-4.789813E-002	9.165653E-002	-4.791851E-002	-9.136961E-002	6.327971E-002
1.480000E+009	4.448071E-002	-1.939867E-002	9.139579E-002	-4.815614E-002	9.146618E-002	-4.818324E-002	-9.103234E-002	6.386367E-002
1.490000E+009	4.439350E-002	-1.946253E-002	9.121163E-002	-4.842154E-002	9.128226E-002	-4.845576E-002	-9.066109E-002	6.446155E-002
1.500000E+009	4.429737E-002	-1.952177E-002	9.104076E-002	-4.870603E-002	9.111582E-002	-4.875273E-002	-9.028316E-002	6.505952E-002
