! Device ID: PE43711P
! File Path: z:\PE43711P\CHAR_NOM_04282014\AMB\3p300\LS_ATT_25p00dB\PE43711P_AMB_3p300V_3p000V_0p000V_LS_ATT_25p00dB_S2P_SN_5_A0137A.s2p
! Serial: 5
! Lot: A0137A
! Temp: 25C
! VDD: 3.300
! VSS: 0.000
! Control_Hi: 3.000
! Control_Lo: 0.000
! Attenuation Step: 25.00dB
! Port 1: RF1
! Port 2: RF2
! ThroughPath:1-2
! IDD: 0.0001274962
! ISS: -1.794e-007
!

#  Hz  S   RI  R   50

1.000000E+007	3.113949E-002	4.229739E-004	4.881997E-002	-2.000431E-004	4.891391E-002	-2.009736E-004	-1.324530E-001	1.000268E-003
2.000000E+007	3.137843E-002	5.528090E-004	4.883896E-002	-2.928815E-004	4.887988E-002	-2.962606E-004	-1.321920E-001	1.592674E-003
3.000000E+007	3.163488E-002	6.606495E-004	4.884413E-002	-4.502380E-004	4.887267E-002	-4.548150E-004	-1.318774E-001	2.124248E-003
4.000000E+007	3.180467E-002	7.407682E-004	4.884405E-002	-6.124648E-004	4.886364E-002	-6.143302E-004	-1.317173E-001	2.719459E-003
5.000000E+007	3.190751E-002	8.216411E-004	4.884785E-002	-7.747816E-004	4.886768E-002	-7.751559E-004	-1.316879E-001	3.359854E-003
6.000000E+007	3.208457E-002	8.411598E-004	4.883035E-002	-9.265942E-004	4.886800E-002	-9.164235E-004	-1.315594E-001	3.850784E-003
7.000000E+007	3.220774E-002	8.519532E-004	4.882326E-002	-1.071315E-003	4.886056E-002	-1.070736E-003	-1.313704E-001	4.343377E-003
8.000000E+007	3.235481E-002	8.670725E-004	4.881848E-002	-1.205767E-003	4.885777E-002	-1.214504E-003	-1.312161E-001	4.814899E-003
9.000000E+007	3.247749E-002	8.710006E-004	4.880082E-002	-1.356211E-003	4.884410E-002	-1.360639E-003	-1.311002E-001	5.233589E-003
1.000000E+008	3.259993E-002	8.857246E-004	4.881065E-002	-1.511424E-003	4.883114E-002	-1.501105E-003	-1.310468E-001	5.668233E-003
1.100000E+008	3.274188E-002	8.809551E-004	4.879950E-002	-1.662597E-003	4.883565E-002	-1.659929E-003	-1.309643E-001	6.090951E-003
1.200000E+008	3.287782E-002	8.393975E-004	4.877306E-002	-1.811485E-003	4.881831E-002	-1.808549E-003	-1.308668E-001	6.452338E-003
1.300000E+008	3.300040E-002	8.369711E-004	4.877668E-002	-1.956209E-003	4.879870E-002	-1.960223E-003	-1.307405E-001	6.827545E-003
1.400000E+008	3.308923E-002	8.651773E-004	4.874739E-002	-2.111812E-003	4.879482E-002	-2.119370E-003	-1.306292E-001	7.214297E-003
1.500000E+008	3.315078E-002	8.984233E-004	4.873729E-002	-2.256527E-003	4.876169E-002	-2.254868E-003	-1.305358E-001	7.571654E-003
1.600000E+008	3.321123E-002	9.451870E-004	4.873610E-002	-2.385426E-003	4.875326E-002	-2.394377E-003	-1.304747E-001	7.954801E-003
1.700000E+008	3.329826E-002	9.571272E-004	4.872555E-002	-2.548865E-003	4.876363E-002	-2.543296E-003	-1.303980E-001	8.342903E-003
1.800000E+008	3.335211E-002	9.752848E-004	4.869927E-002	-2.719872E-003	4.875973E-002	-2.717905E-003	-1.302989E-001	8.706321E-003
1.900000E+008	3.333020E-002	9.355204E-004	4.867017E-002	-2.842494E-003	4.872050E-002	-2.860467E-003	-1.302503E-001	9.025249E-003
2.000000E+008	3.330585E-002	9.177452E-004	4.864809E-002	-3.004584E-003	4.869249E-002	-2.994778E-003	-1.302017E-001	9.310381E-003
2.100000E+008	3.329076E-002	8.272655E-004	4.862874E-002	-3.136234E-003	4.868837E-002	-3.136973E-003	-1.301137E-001	9.564885E-003
2.200000E+008	3.327875E-002	7.601516E-004	4.863278E-002	-3.268015E-003	4.867514E-002	-3.271169E-003	-1.300219E-001	9.795089E-003
2.300000E+008	3.330674E-002	6.796658E-004	4.860812E-002	-3.415465E-003	4.865341E-002	-3.421412E-003	-1.298884E-001	1.003929E-002
2.400000E+008	3.334827E-002	5.883259E-004	4.859473E-002	-3.550173E-003	4.862663E-002	-3.549031E-003	-1.297370E-001	1.034443E-002
2.500000E+008	3.338576E-002	5.477965E-004	4.858164E-002	-3.708916E-003	4.859921E-002	-3.691864E-003	-1.295430E-001	1.062649E-002
2.600000E+008	3.347870E-002	4.807010E-004	4.854544E-002	-3.858174E-003	4.858163E-002	-3.853259E-003	-1.293208E-001	1.097148E-002
2.700000E+008	3.354995E-002	4.254007E-004	4.852436E-002	-3.991586E-003	4.856551E-002	-3.989271E-003	-1.290988E-001	1.134509E-002
2.800000E+008	3.363778E-002	3.949888E-004	4.849641E-002	-4.136354E-003	4.855305E-002	-4.132862E-003	-1.288911E-001	1.170366E-002
2.900000E+008	3.369952E-002	3.938432E-004	4.848121E-002	-4.271809E-003	4.851726E-002	-4.256017E-003	-1.287497E-001	1.209832E-002
3.000000E+008	3.375502E-002	4.175422E-004	4.846355E-002	-4.427270E-003	4.851315E-002	-4.412678E-003	-1.286164E-001	1.250283E-002
3.100000E+008	3.374841E-002	4.419499E-004	4.844642E-002	-4.563812E-003	4.847787E-002	-4.566749E-003	-1.284967E-001	1.291957E-002
3.200000E+008	3.375846E-002	5.020028E-004	4.842141E-002	-4.716278E-003	4.846170E-002	-4.701350E-003	-1.284112E-001	1.332492E-002
3.300000E+008	3.373725E-002	5.184904E-004	4.839525E-002	-4.856978E-003	4.843821E-002	-4.847951E-003	-1.283279E-001	1.370567E-002
3.400000E+008	3.368746E-002	5.375678E-004	4.837314E-002	-5.005064E-003	4.839746E-002	-5.010560E-003	-1.282106E-001	1.404200E-002
3.500000E+008	3.361288E-002	5.163560E-004	4.835435E-002	-5.140711E-003	4.836156E-002	-5.143697E-003	-1.280637E-001	1.434577E-002
3.600000E+008	3.357051E-002	5.013996E-004	4.832298E-002	-5.284682E-003	4.833695E-002	-5.254599E-003	-1.279006E-001	1.466900E-002
3.700000E+008	3.351853E-002	4.737190E-004	4.829782E-002	-5.420806E-003	4.832068E-002	-5.391153E-003	-1.276999E-001	1.495766E-002
3.800000E+008	3.348868E-002	4.182169E-004	4.825113E-002	-5.564208E-003	4.828497E-002	-5.545406E-003	-1.275102E-001	1.529352E-002
3.900000E+008	3.343510E-002	3.461932E-004	4.821904E-002	-5.713056E-003	4.827441E-002	-5.676945E-003	-1.272336E-001	1.568526E-002
4.000000E+008	3.343120E-002	2.673408E-004	4.819419E-002	-5.837148E-003	4.824555E-002	-5.820370E-003	-1.269182E-001	1.604257E-002
4.100000E+008	3.342880E-002	1.936876E-004	4.816464E-002	-5.960411E-003	4.821054E-002	-5.970020E-003	-1.266487E-001	1.641895E-002
4.200000E+008	3.339472E-002	1.274927E-004	4.815121E-002	-6.104036E-003	4.818776E-002	-6.091606E-003	-1.264345E-001	1.685779E-002
4.300000E+008	3.342019E-002	9.195628E-005	4.813012E-002	-6.239019E-003	4.817546E-002	-6.243332E-003	-1.262389E-001	1.730871E-002
4.400000E+008	3.342186E-002	6.170965E-005	4.809266E-002	-6.384717E-003	4.813392E-002	-6.369961E-003	-1.260522E-001	1.781394E-002
4.500000E+008	3.343434E-002	2.847673E-005	4.806477E-002	-6.520533E-003	4.810800E-002	-6.508133E-003	-1.258514E-001	1.832537E-002
4.600000E+008	3.344921E-002	-1.378349E-005	4.803598E-002	-6.663227E-003	4.808132E-002	-6.670303E-003	-1.256766E-001	1.884157E-002
4.700000E+008	3.345714E-002	-2.764360E-005	4.800307E-002	-6.789756E-003	4.804217E-002	-6.794071E-003	-1.255189E-001	1.928878E-002
4.800000E+008	3.343705E-002	-1.798031E-005	4.797550E-002	-6.932513E-003	4.801993E-002	-6.917058E-003	-1.253662E-001	1.974646E-002
4.900000E+008	3.340253E-002	-2.631008E-005	4.794232E-002	-7.047148E-003	4.797397E-002	-7.073956E-003	-1.252281E-001	2.019611E-002
5.000000E+008	3.337136E-002	-4.368301E-007	4.793335E-002	-7.197124E-003	4.793518E-002	-7.182299E-003	-1.250532E-001	2.061819E-002
5.100000E+008	3.335292E-002	-1.461117E-005	4.788004E-002	-7.331157E-003	4.791880E-002	-7.319682E-003	-1.248978E-001	2.105374E-002
5.200000E+008	3.330250E-002	-5.129431E-005	4.784874E-002	-7.470754E-003	4.788939E-002	-7.465132E-003	-1.247270E-001	2.148221E-002
5.300000E+008	3.323606E-002	-8.585763E-005	4.781790E-002	-7.605046E-003	4.786379E-002	-7.610281E-003	-1.244779E-001	2.191777E-002
5.400000E+008	3.318180E-002	-1.798453E-004	4.777965E-002	-7.744716E-003	4.783535E-002	-7.751457E-003	-1.242555E-001	2.234567E-002
5.500000E+008	3.311661E-002	-2.208374E-004	4.775433E-002	-7.882696E-003	4.778427E-002	-7.876057E-003	-1.240693E-001	2.278765E-002
5.600000E+008	3.308874E-002	-3.201108E-004	4.770725E-002	-8.010267E-003	4.774379E-002	-8.007338E-003	-1.238368E-001	2.325375E-002
5.700000E+008	3.306483E-002	-4.267530E-004	4.767721E-002	-8.150325E-003	4.771116E-002	-8.135750E-003	-1.236810E-001	2.378492E-002
5.800000E+008	3.305902E-002	-4.932119E-004	4.764571E-002	-8.273243E-003	4.769307E-002	-8.270371E-003	-1.234883E-001	2.428394E-002
5.900000E+008	3.305948E-002	-6.008005E-004	4.761341E-002	-8.404098E-003	4.766400E-002	-8.418646E-003	-1.233141E-001	2.481914E-002
6.000000E+008	3.310901E-002	-6.772843E-004	4.757225E-002	-8.555158E-003	4.762000E-002	-8.552231E-003	-1.231167E-001	2.530731E-002
6.100000E+008	3.315449E-002	-7.364712E-004	4.754359E-002	-8.680206E-003	4.757274E-002	-8.680362E-003	-1.229310E-001	2.580432E-002
6.200000E+008	3.318695E-002	-7.411329E-004	4.750229E-002	-8.799434E-003	4.753593E-002	-8.815911E-003	-1.227576E-001	2.629975E-002
6.300000E+008	3.325565E-002	-7.785616E-004	4.746054E-002	-8.931374E-003	4.748964E-002	-8.935100E-003	-1.225844E-001	2.677555E-002
6.400000E+008	3.331582E-002	-7.725235E-004	4.742136E-002	-9.066465E-003	4.746528E-002	-9.080418E-003	-1.223935E-001	2.723830E-002
6.500000E+008	3.334610E-002	-7.649101E-004	4.738965E-002	-9.192698E-003	4.742714E-002	-9.209771E-003	-1.222364E-001	2.774810E-002
6.600000E+008	3.336394E-002	-7.697589E-004	4.734978E-002	-9.339469E-003	4.738938E-002	-9.346051E-003	-1.220358E-001	2.823118E-002
6.700000E+008	3.334508E-002	-7.490953E-004	4.731728E-002	-9.470892E-003	4.734864E-002	-9.466667E-003	-1.218676E-001	2.873598E-002
6.800000E+008	3.330988E-002	-7.412432E-004	4.726349E-002	-9.608684E-003	4.730455E-002	-9.598696E-003	-1.216704E-001	2.924835E-002
6.900000E+008	3.328035E-002	-7.139064E-004	4.724197E-002	-9.720053E-003	4.726669E-002	-9.723343E-003	-1.214679E-001	2.978701E-002
7.000000E+008	3.327036E-002	-7.215118E-004	4.719452E-002	-9.846194E-003	4.723303E-002	-9.852645E-003	-1.213451E-001	3.030187E-002
7.100000E+008	3.323155E-002	-7.275115E-004	4.715493E-002	-9.976675E-003	4.719286E-002	-9.984157E-003	-1.212030E-001	3.080085E-002
7.200000E+008	3.319333E-002	-7.375541E-004	4.711365E-002	-1.010922E-002	4.715476E-002	-1.011019E-002	-1.210787E-001	3.132051E-002
7.300000E+008	3.316325E-002	-7.825198E-004	4.707832E-002	-1.023679E-002	4.712617E-002	-1.024704E-002	-1.209518E-001	3.176603E-002
7.400000E+008	3.309638E-002	-7.989168E-004	4.703078E-002	-1.036025E-002	4.707994E-002	-1.036435E-002	-1.208432E-001	3.223141E-002
7.500000E+008	3.308479E-002	-8.285202E-004	4.701243E-002	-1.049679E-002	4.703020E-002	-1.051194E-002	-1.207528E-001	3.266301E-002
7.600000E+008	3.305406E-002	-8.834648E-004	4.695664E-002	-1.063159E-002	4.700452E-002	-1.062765E-002	-1.205978E-001	3.311736E-002
7.700000E+008	3.302663E-002	-9.401352E-004	4.690572E-002	-1.075716E-002	4.697241E-002	-1.076311E-002	-1.204570E-001	3.349238E-002
7.800000E+008	3.300793E-002	-9.877135E-004	4.688713E-002	-1.086985E-002	4.692596E-002	-1.088287E-002	-1.202703E-001	3.390912E-002
7.900000E+008	3.298569E-002	-1.073454E-003	4.683634E-002	-1.101360E-002	4.689145E-002	-1.100408E-002	-1.201216E-001	3.435468E-002
8.000000E+008	3.298056E-002	-1.160507E-003	4.680308E-002	-1.113495E-002	4.683071E-002	-1.115891E-002	-1.198724E-001	3.480010E-002
8.100000E+008	3.300719E-002	-1.246402E-003	4.676067E-002	-1.126594E-002	4.679258E-002	-1.127200E-002	-1.195972E-001	3.525751E-002
8.200000E+008	3.304090E-002	-1.289275E-003	4.670344E-002	-1.138788E-002	4.673927E-002	-1.139783E-002	-1.193633E-001	3.571244E-002
8.300000E+008	3.310031E-002	-1.337830E-003	4.665800E-002	-1.152041E-002	4.670259E-002	-1.152723E-002	-1.191555E-001	3.620025E-002
8.400000E+008	3.316414E-002	-1.380109E-003	4.662971E-002	-1.164094E-002	4.665919E-002	-1.164390E-002	-1.189269E-001	3.666504E-002
8.500000E+008	3.320690E-002	-1.398662E-003	4.658565E-002	-1.175625E-002	4.662155E-002	-1.178280E-002	-1.187792E-001	3.714489E-002
8.600000E+008	3.323551E-002	-1.426964E-003	4.654083E-002	-1.189947E-002	4.657199E-002	-1.189848E-002	-1.186099E-001	3.762390E-002
8.700000E+008	3.327343E-002	-1.380474E-003	4.650730E-002	-1.201642E-002	4.652533E-002	-1.202967E-002	-1.184374E-001	3.808813E-002
8.800000E+008	3.329649E-002	-1.347919E-003	4.646094E-002	-1.214559E-002	4.650228E-002	-1.215707E-002	-1.182838E-001	3.852889E-002
8.900000E+008	3.326496E-002	-1.354761E-003	4.641484E-002	-1.227556E-002	4.644915E-002	-1.228075E-002	-1.181107E-001	3.894002E-002
9.000000E+008	3.326924E-002	-1.356168E-003	4.635958E-002	-1.239732E-002	4.639143E-002	-1.241105E-002	-1.179220E-001	3.936066E-002
9.100000E+008	3.323730E-002	-1.358370E-003	4.633382E-002	-1.251561E-002	4.636495E-002	-1.253793E-002	-1.176953E-001	3.977070E-002
9.200000E+008	3.320518E-002	-1.406229E-003	4.628992E-002	-1.265626E-002	4.631456E-002	-1.264926E-002	-1.174233E-001	4.021714E-002
9.300000E+008	3.323393E-002	-1.432655E-003	4.622971E-002	-1.276763E-002	4.627333E-002	-1.279445E-002	-1.171235E-001	4.067406E-002
9.400000E+008	3.324266E-002	-1.481751E-003	4.617394E-002	-1.288913E-002	4.623109E-002	-1.290331E-002	-1.167949E-001	4.112967E-002
9.500000E+008	3.327091E-002	-1.532493E-003	4.613626E-002	-1.301846E-002	4.618057E-002	-1.303044E-002	-1.164635E-001	4.166469E-002
9.600000E+008	3.330764E-002	-1.532583E-003	4.608063E-002	-1.313455E-002	4.613437E-002	-1.315453E-002	-1.161226E-001	4.216224E-002
9.700000E+008	3.333456E-002	-1.548275E-003	4.604087E-002	-1.324781E-002	4.608913E-002	-1.327470E-002	-1.158124E-001	4.268461E-002
9.800000E+008	3.338123E-002	-1.535117E-003	4.600227E-002	-1.338021E-002	4.604923E-002	-1.341465E-002	-1.155308E-001	4.326995E-002
9.900000E+008	3.343520E-002	-1.524423E-003	4.596523E-002	-1.350590E-002	4.599993E-002	-1.352360E-002	-1.152621E-001	4.378960E-002
1.000000E+009	3.344767E-002	-1.500540E-003	4.591611E-002	-1.362870E-002	4.596151E-002	-1.365212E-002	-1.150398E-001	4.431164E-002
1.010000E+009	3.346960E-002	-1.471498E-003	4.587167E-002	-1.375396E-002	4.591027E-002	-1.377261E-002	-1.148074E-001	4.485687E-002
1.020000E+009	3.346481E-002	-1.446944E-003	4.583214E-002	-1.388512E-002	4.586076E-002	-1.389178E-002	-1.146032E-001	4.537951E-002
1.030000E+009	3.347217E-002	-1.424495E-003	4.576890E-002	-1.400099E-002	4.582051E-002	-1.401503E-002	-1.143786E-001	4.589703E-002
1.040000E+009	3.347172E-002	-1.380584E-003	4.572388E-002	-1.413502E-002	4.575994E-002	-1.414197E-002	-1.141669E-001	4.639505E-002
1.050000E+009	3.346975E-002	-1.385009E-003	4.568755E-002	-1.424995E-002	4.572961E-002	-1.426009E-002	-1.138926E-001	4.696942E-002
1.060000E+009	3.347495E-002	-1.366497E-003	4.562752E-002	-1.437720E-002	4.567840E-002	-1.437614E-002	-1.136192E-001	4.747545E-002
1.070000E+009	3.345604E-002	-1.373796E-003	4.558127E-002	-1.448743E-002	4.564201E-002	-1.448884E-002	-1.133471E-001	4.800031E-002
1.080000E+009	3.345654E-002	-1.348315E-003	4.553434E-002	-1.461615E-002	4.557375E-002	-1.462695E-002	-1.130505E-001	4.856009E-002
1.090000E+009	3.345178E-002	-1.364732E-003	4.549095E-002	-1.474484E-002	4.552903E-002	-1.474445E-002	-1.128051E-001	4.907374E-002
1.100000E+009	3.346913E-002	-1.350402E-003	4.543673E-002	-1.486874E-002	4.548063E-002	-1.486659E-002	-1.125517E-001	4.962498E-002
1.110000E+009	3.346019E-002	-1.347176E-003	4.539698E-002	-1.498453E-002	4.544561E-002	-1.497930E-002	-1.123165E-001	5.013958E-002
1.120000E+009	3.345713E-002	-1.331144E-003	4.534851E-002	-1.510628E-002	4.537239E-002	-1.511898E-002	-1.121322E-001	5.063451E-002
1.130000E+009	3.345161E-002	-1.322211E-003	4.528367E-002	-1.523260E-002	4.533379E-002	-1.523863E-002	-1.119138E-001	5.112089E-002
1.140000E+009	3.344072E-002	-1.337447E-003	4.524140E-002	-1.535510E-002	4.527670E-002	-1.536655E-002	-1.116678E-001	5.166005E-002
1.150000E+009	3.343967E-002	-1.317414E-003	4.519902E-002	-1.545984E-002	4.522064E-002	-1.547411E-002	-1.114116E-001	5.213543E-002
1.160000E+009	3.342544E-002	-1.304992E-003	4.514350E-002	-1.560208E-002	4.516551E-002	-1.561348E-002	-1.111313E-001	5.262854E-002
1.170000E+009	3.343945E-002	-1.297707E-003	4.508327E-002	-1.572374E-002	4.513045E-002	-1.572757E-002	-1.108646E-001	5.319143E-002
1.180000E+009	3.344296E-002	-1.301643E-003	4.503112E-002	-1.583712E-002	4.506950E-002	-1.585353E-002	-1.105604E-001	5.369396E-002
1.190000E+009	3.341689E-002	-1.277673E-003	4.498477E-002	-1.598351E-002	4.502252E-002	-1.596816E-002	-1.102772E-001	5.426446E-002
1.200000E+009	3.340728E-002	-1.280809E-003	4.492289E-002	-1.608101E-002	4.497671E-002	-1.608442E-002	-1.099755E-001	5.480761E-002
1.210000E+009	3.343180E-002	-1.315409E-003	4.486973E-002	-1.621029E-002	4.492058E-002	-1.621714E-002	-1.096990E-001	5.538086E-002
1.220000E+009	3.340956E-002	-1.346305E-003	4.481680E-002	-1.632819E-002	4.485340E-002	-1.633976E-002	-1.094814E-001	5.590387E-002
1.230000E+009	3.342106E-002	-1.359798E-003	4.475155E-002	-1.643575E-002	4.480225E-002	-1.644248E-002	-1.092309E-001	5.640737E-002
1.240000E+009	3.342835E-002	-1.382419E-003	4.471123E-002	-1.655941E-002	4.475928E-002	-1.656975E-002	-1.090057E-001	5.688893E-002
1.250000E+009	3.346778E-002	-1.436773E-003	4.463930E-002	-1.669350E-002	4.469711E-002	-1.668863E-002	-1.087662E-001	5.739833E-002
1.260000E+009	3.349154E-002	-1.453605E-003	4.459987E-002	-1.681038E-002	4.464572E-002	-1.681396E-002	-1.084974E-001	5.784908E-002
1.270000E+009	3.358896E-002	-1.474220E-003	4.455315E-002	-1.693074E-002	4.459215E-002	-1.691875E-002	-1.081979E-001	5.830294E-002
1.280000E+009	3.360535E-002	-1.457957E-003	4.447591E-002	-1.703584E-002	4.453704E-002	-1.705079E-002	-1.078989E-001	5.874730E-002
1.290000E+009	3.367339E-002	-1.437121E-003	4.443706E-002	-1.717910E-002	4.447476E-002	-1.716745E-002	-1.075480E-001	5.919429E-002
1.300000E+009	3.371895E-002	-1.399271E-003	4.437823E-002	-1.728932E-002	4.442709E-002	-1.729353E-002	-1.071700E-001	5.966074E-002
1.310000E+009	3.375375E-002	-1.372154E-003	4.431688E-002	-1.744375E-002	4.436652E-002	-1.741171E-002	-1.068250E-001	6.015475E-002
1.320000E+009	3.376660E-002	-1.338911E-003	4.426545E-002	-1.752844E-002	4.431091E-002	-1.753060E-002	-1.064064E-001	6.072534E-002
1.330000E+009	3.379892E-002	-1.286018E-003	4.421357E-002	-1.765159E-002	4.425862E-002	-1.766000E-002	-1.059832E-001	6.131794E-002
1.340000E+009	3.377694E-002	-1.229512E-003	4.414170E-002	-1.776427E-002	4.418807E-002	-1.778042E-002	-1.055718E-001	6.190720E-002
1.350000E+009	3.377920E-002	-1.209524E-003	4.409126E-002	-1.788523E-002	4.411904E-002	-1.790161E-002	-1.051959E-001	6.252651E-002
1.360000E+009	3.382359E-002	-1.159750E-003	4.402338E-002	-1.801035E-002	4.407949E-002	-1.801346E-002	-1.047938E-001	6.317254E-002
1.370000E+009	3.381427E-002	-1.143359E-003	4.397063E-002	-1.811145E-002	4.401339E-002	-1.812888E-002	-1.044724E-001	6.382486E-002
1.380000E+009	3.384782E-002	-1.108240E-003	4.389561E-002	-1.823999E-002	4.394708E-002	-1.826542E-002	-1.041341E-001	6.444638E-002
1.390000E+009	3.388459E-002	-1.096242E-003	4.383412E-002	-1.836435E-002	4.386032E-002	-1.836741E-002	-1.038497E-001	6.513518E-002
1.400000E+009	3.388582E-002	-1.081481E-003	4.378241E-002	-1.848154E-002	4.381820E-002	-1.849268E-002	-1.035596E-001	6.574709E-002
1.410000E+009	3.388800E-002	-1.054317E-003	4.371400E-002	-1.860657E-002	4.374686E-002	-1.860477E-002	-1.032518E-001	6.637340E-002
1.420000E+009	3.389241E-002	-9.969039E-004	4.364723E-002	-1.870912E-002	4.369901E-002	-1.871832E-002	-1.029588E-001	6.694632E-002
1.430000E+009	3.390835E-002	-9.554971E-004	4.358378E-002	-1.884287E-002	4.364066E-002	-1.883899E-002	-1.026378E-001	6.752837E-002
1.440000E+009	3.390712E-002	-9.297589E-004	4.352517E-002	-1.893251E-002	4.356998E-002	-1.894739E-002	-1.023323E-001	6.811117E-002
1.450000E+009	3.388351E-002	-8.833652E-004	4.346271E-002	-1.906342E-002	4.349698E-002	-1.907311E-002	-1.019883E-001	6.864893E-002
1.460000E+009	3.386713E-002	-8.509981E-004	4.340491E-002	-1.916566E-002	4.342936E-002	-1.918560E-002	-1.016451E-001	6.923187E-002
1.470000E+009	3.387475E-002	-8.845567E-004	4.332907E-002	-1.929651E-002	4.336954E-002	-1.929376E-002	-1.012780E-001	6.984117E-002
1.480000E+009	3.386130E-002	-8.166125E-004	4.325184E-002	-1.941057E-002	4.330135E-002	-1.942543E-002	-1.009046E-001	7.047187E-002
1.490000E+009	3.387689E-002	-8.127290E-004	4.319978E-002	-1.952397E-002	4.323818E-002	-1.953106E-002	-1.005098E-001	7.111180E-002
1.500000E+009	3.389791E-002	-8.026963E-004	4.314335E-002	-1.964283E-002	4.317289E-002	-1.965036E-002	-1.001241E-001	7.173106E-002
1.510000E+009	3.391454E-002	-8.088350E-004	4.306654E-002	-1.974241E-002	4.310088E-002	-1.975815E-002	-9.975790E-002	7.238084E-002
