! Device ID: PE43711P
! File Path: z:\PE43711P\CHAR_NOM_04282014\AMB\3p300\LS_ATT_28p00dB\PE43711P_AMB_3p300V_3p000V_0p000V_LS_ATT_28p00dB_S2P_SN_5_A0137A.s2p
! Serial: 5
! Lot: A0137A
! Temp: 25C
! VDD: 3.300
! VSS: 0.000
! Control_Hi: 3.000
! Control_Lo: 0.000
! Attenuation Step: 28.00dB
! Port 1: RF1
! Port 2: RF2
! ThroughPath:1-2
! IDD: 0.000127545
! ISS: -1.42e-007
!

#  Hz  S   RI  R   50

1.000000E+007	1.956857E-002	5.385005E-004	3.455494E-002	-1.305990E-004	3.460216E-002	-1.141476E-004	-1.483181E-001	1.027401E-003
2.000000E+007	1.982174E-002	7.472585E-004	3.457400E-002	-2.100729E-004	3.459135E-002	-2.052861E-004	-1.480390E-001	1.693933E-003
3.000000E+007	2.008761E-002	9.376053E-004	3.456688E-002	-2.979935E-004	3.458856E-002	-2.962641E-004	-1.477501E-001	2.276231E-003
4.000000E+007	2.026116E-002	1.111388E-003	3.456490E-002	-4.026120E-004	3.459547E-002	-3.957087E-004	-1.475924E-001	2.934861E-003
5.000000E+007	2.036523E-002	1.280281E-003	3.456626E-002	-5.012286E-004	3.458886E-002	-4.933492E-004	-1.475587E-001	3.628455E-003
6.000000E+007	2.053271E-002	1.387010E-003	3.456424E-002	-6.001765E-004	3.459392E-002	-5.899861E-004	-1.474139E-001	4.167818E-003
7.000000E+007	2.067923E-002	1.510333E-003	3.454835E-002	-7.036378E-004	3.458802E-002	-6.943844E-004	-1.472414E-001	4.703203E-003
8.000000E+007	2.082796E-002	1.611823E-003	3.455115E-002	-7.821283E-004	3.457878E-002	-7.821536E-004	-1.470685E-001	5.227475E-003
9.000000E+007	2.095732E-002	1.718260E-003	3.455169E-002	-8.864974E-004	3.456775E-002	-8.856053E-004	-1.469626E-001	5.692133E-003
1.000000E+008	2.110885E-002	1.812409E-003	3.454253E-002	-9.835765E-004	3.456949E-002	-9.771888E-004	-1.469173E-001	6.170247E-003
1.100000E+008	2.125342E-002	1.881411E-003	3.454399E-002	-1.080175E-003	3.456646E-002	-1.077502E-003	-1.468242E-001	6.640848E-003
1.200000E+008	2.140622E-002	1.931081E-003	3.452631E-002	-1.192189E-003	3.455941E-002	-1.192009E-003	-1.467158E-001	7.055374E-003
1.300000E+008	2.153764E-002	2.022397E-003	3.452027E-002	-1.270585E-003	3.454588E-002	-1.278109E-003	-1.466086E-001	7.492006E-003
1.400000E+008	2.164859E-002	2.155122E-003	3.451218E-002	-1.384373E-003	3.453466E-002	-1.367676E-003	-1.464929E-001	7.911923E-003
1.500000E+008	2.172089E-002	2.257473E-003	3.450169E-002	-1.472152E-003	3.452807E-002	-1.467409E-003	-1.464150E-001	8.324020E-003
1.600000E+008	2.180599E-002	2.392800E-003	3.449773E-002	-1.557796E-003	3.450732E-002	-1.544410E-003	-1.463332E-001	8.746339E-003
1.700000E+008	2.191117E-002	2.499384E-003	3.449769E-002	-1.657369E-003	3.451317E-002	-1.652950E-003	-1.462796E-001	9.200851E-003
1.800000E+008	2.198366E-002	2.595674E-003	3.446451E-002	-1.763103E-003	3.451555E-002	-1.758085E-003	-1.461710E-001	9.627722E-003
1.900000E+008	2.198937E-002	2.661115E-003	3.445050E-002	-1.860333E-003	3.450931E-002	-1.861105E-003	-1.461236E-001	9.999065E-003
2.000000E+008	2.198042E-002	2.722450E-003	3.444966E-002	-1.947773E-003	3.448660E-002	-1.937707E-003	-1.460844E-001	1.031825E-002
2.100000E+008	2.198209E-002	2.706364E-003	3.443793E-002	-2.045604E-003	3.446660E-002	-2.028503E-003	-1.460071E-001	1.061154E-002
2.200000E+008	2.199062E-002	2.712826E-003	3.443750E-002	-2.116671E-003	3.445682E-002	-2.124667E-003	-1.459080E-001	1.089915E-002
2.300000E+008	2.204693E-002	2.732509E-003	3.442003E-002	-2.212078E-003	3.444750E-002	-2.220411E-003	-1.457836E-001	1.120490E-002
2.400000E+008	2.211005E-002	2.726058E-003	3.441043E-002	-2.311906E-003	3.443399E-002	-2.309940E-003	-1.456306E-001	1.154008E-002
2.500000E+008	2.218426E-002	2.745319E-003	3.440112E-002	-2.409277E-003	3.442695E-002	-2.383192E-003	-1.454286E-001	1.186802E-002
2.600000E+008	2.230124E-002	2.773474E-003	3.437534E-002	-2.511230E-003	3.442021E-002	-2.498607E-003	-1.452215E-001	1.228807E-002
2.700000E+008	2.241051E-002	2.785899E-003	3.435591E-002	-2.592297E-003	3.439210E-002	-2.591008E-003	-1.449942E-001	1.271544E-002
2.800000E+008	2.250856E-002	2.848900E-003	3.434898E-002	-2.690047E-003	3.438262E-002	-2.678886E-003	-1.447900E-001	1.313279E-002
2.900000E+008	2.258177E-002	2.920005E-003	3.433474E-002	-2.771718E-003	3.437155E-002	-2.772998E-003	-1.446553E-001	1.354454E-002
3.000000E+008	2.267366E-002	3.027717E-003	3.434189E-002	-2.875059E-003	3.435291E-002	-2.874092E-003	-1.445179E-001	1.402214E-002
3.100000E+008	2.271786E-002	3.127597E-003	3.431285E-002	-2.965980E-003	3.434329E-002	-2.951607E-003	-1.444328E-001	1.448951E-002
3.200000E+008	2.274644E-002	3.253133E-003	3.429711E-002	-3.062721E-003	3.433572E-002	-3.038656E-003	-1.443364E-001	1.495376E-002
3.300000E+008	2.275179E-002	3.370493E-003	3.428130E-002	-3.159072E-003	3.432003E-002	-3.158364E-003	-1.442509E-001	1.539049E-002
3.400000E+008	2.273580E-002	3.441372E-003	3.427151E-002	-3.250252E-003	3.428624E-002	-3.261623E-003	-1.441227E-001	1.578449E-002
3.500000E+008	2.269072E-002	3.498830E-003	3.425875E-002	-3.355737E-003	3.427129E-002	-3.334020E-003	-1.439756E-001	1.613052E-002
3.600000E+008	2.266224E-002	3.563192E-003	3.424505E-002	-3.438316E-003	3.424463E-002	-3.435303E-003	-1.438214E-001	1.652142E-002
3.700000E+008	2.265604E-002	3.585287E-003	3.421473E-002	-3.529291E-003	3.423007E-002	-3.502021E-003	-1.436162E-001	1.687227E-002
3.800000E+008	2.265196E-002	3.621367E-003	3.419282E-002	-3.625478E-003	3.421526E-002	-3.594260E-003	-1.434279E-001	1.724535E-002
3.900000E+008	2.263111E-002	3.629629E-003	3.417779E-002	-3.711376E-003	3.421224E-002	-3.682537E-003	-1.431535E-001	1.769224E-002
4.000000E+008	2.267314E-002	3.622095E-003	3.415231E-002	-3.803643E-003	3.418972E-002	-3.789125E-003	-1.428454E-001	1.812138E-002
4.100000E+008	2.268322E-002	3.611644E-003	3.413773E-002	-3.875658E-003	3.416837E-002	-3.873369E-003	-1.425748E-001	1.854815E-002
4.200000E+008	2.270272E-002	3.616821E-003	3.412441E-002	-3.961137E-003	3.415658E-002	-3.963917E-003	-1.423635E-001	1.902918E-002
4.300000E+008	2.274139E-002	3.639014E-003	3.411916E-002	-4.063958E-003	3.413288E-002	-4.056887E-003	-1.421649E-001	1.955479E-002
4.400000E+008	2.278022E-002	3.696711E-003	3.410372E-002	-4.139826E-003	3.413230E-002	-4.142563E-003	-1.419911E-001	2.009426E-002
4.500000E+008	2.283048E-002	3.718479E-003	3.407800E-002	-4.224014E-003	3.409933E-002	-4.233891E-003	-1.417909E-001	2.066251E-002
4.600000E+008	2.287713E-002	3.763557E-003	3.405752E-002	-4.335467E-003	3.409158E-002	-4.328883E-003	-1.416099E-001	2.123662E-002
4.700000E+008	2.292124E-002	3.799910E-003	3.405226E-002	-4.414470E-003	3.405248E-002	-4.406962E-003	-1.414583E-001	2.174428E-002
4.800000E+008	2.292807E-002	3.877605E-003	3.403872E-002	-4.501156E-003	3.404832E-002	-4.499457E-003	-1.412874E-001	2.224562E-002
4.900000E+008	2.293385E-002	3.931835E-003	3.400910E-002	-4.591454E-003	3.402512E-002	-4.582963E-003	-1.411332E-001	2.275741E-002
5.000000E+008	2.294331E-002	4.012745E-003	3.397186E-002	-4.668227E-003	3.401318E-002	-4.672507E-003	-1.409784E-001	2.324259E-002
5.100000E+008	2.294369E-002	4.074888E-003	3.396966E-002	-4.765951E-003	3.399567E-002	-4.756750E-003	-1.408230E-001	2.374656E-002
5.200000E+008	2.292581E-002	4.116552E-003	3.394933E-002	-4.857588E-003	3.397448E-002	-4.842066E-003	-1.406619E-001	2.422597E-002
5.300000E+008	2.290266E-002	4.138319E-003	3.392547E-002	-4.948676E-003	3.394673E-002	-4.941171E-003	-1.404259E-001	2.472283E-002
5.400000E+008	2.287364E-002	4.112588E-003	3.390269E-002	-5.036337E-003	3.393640E-002	-5.029062E-003	-1.401870E-001	2.521124E-002
5.500000E+008	2.286664E-002	4.126296E-003	3.388330E-002	-5.114786E-003	3.390845E-002	-5.130496E-003	-1.400032E-001	2.571774E-002
5.600000E+008	2.285421E-002	4.085517E-003	3.386306E-002	-5.205072E-003	3.387674E-002	-5.204130E-003	-1.397751E-001	2.622691E-002
5.700000E+008	2.286349E-002	4.055392E-003	3.384252E-002	-5.293618E-003	3.385888E-002	-5.296620E-003	-1.396135E-001	2.678547E-002
5.800000E+008	2.289375E-002	4.039818E-003	3.381569E-002	-5.389806E-003	3.384472E-002	-5.382786E-003	-1.394267E-001	2.734493E-002
5.900000E+008	2.293972E-002	4.011894E-003	3.379115E-002	-5.464748E-003	3.383190E-002	-5.474112E-003	-1.392532E-001	2.796597E-002
6.000000E+008	2.301676E-002	3.981357E-003	3.378162E-002	-5.556965E-003	3.379399E-002	-5.570831E-003	-1.390410E-001	2.850298E-002
6.100000E+008	2.310560E-002	3.988094E-003	3.374224E-002	-5.648379E-003	3.376734E-002	-5.648249E-003	-1.388526E-001	2.907228E-002
6.200000E+008	2.318884E-002	4.031618E-003	3.371388E-002	-5.730956E-003	3.374780E-002	-5.740007E-003	-1.386721E-001	2.959970E-002
6.300000E+008	2.328300E-002	4.059845E-003	3.370030E-002	-5.818661E-003	3.372374E-002	-5.816610E-003	-1.384842E-001	3.013352E-002
6.400000E+008	2.337004E-002	4.130291E-003	3.367270E-002	-5.902102E-003	3.369525E-002	-5.893805E-003	-1.383106E-001	3.067674E-002
6.500000E+008	2.344942E-002	4.185347E-003	3.365647E-002	-5.986616E-003	3.368187E-002	-5.988909E-003	-1.381432E-001	3.122845E-002
6.600000E+008	2.350568E-002	4.238187E-003	3.363413E-002	-6.064698E-003	3.364864E-002	-6.075992E-003	-1.379327E-001	3.178445E-002
6.700000E+008	2.351385E-002	4.320639E-003	3.360448E-002	-6.154197E-003	3.364320E-002	-6.156554E-003	-1.377729E-001	3.233932E-002
6.800000E+008	2.351050E-002	4.384460E-003	3.359798E-002	-6.234417E-003	3.361611E-002	-6.253291E-003	-1.375698E-001	3.292305E-002
6.900000E+008	2.352516E-002	4.464388E-003	3.355089E-002	-6.326656E-003	3.358318E-002	-6.328982E-003	-1.373757E-001	3.350601E-002
7.000000E+008	2.354298E-002	4.523254E-003	3.353111E-002	-6.406203E-003	3.356524E-002	-6.426975E-003	-1.372313E-001	3.408113E-002
7.100000E+008	2.355207E-002	4.558677E-003	3.353034E-002	-6.492469E-003	3.353478E-002	-6.490528E-003	-1.371129E-001	3.464512E-002
7.200000E+008	2.355468E-002	4.604482E-003	3.348925E-002	-6.575878E-003	3.351346E-002	-6.583736E-003	-1.369626E-001	3.521639E-002
7.300000E+008	2.355809E-002	4.645680E-003	3.346239E-002	-6.661966E-003	3.350429E-002	-6.661396E-003	-1.368473E-001	3.575023E-002
7.400000E+008	2.354101E-002	4.673173E-003	3.342307E-002	-6.755847E-003	3.345235E-002	-6.736276E-003	-1.367264E-001	3.626115E-002
7.500000E+008	2.354144E-002	4.688297E-003	3.342330E-002	-6.821592E-003	3.343232E-002	-6.836715E-003	-1.366116E-001	3.675075E-002
7.600000E+008	2.355010E-002	4.700398E-003	3.338949E-002	-6.913050E-003	3.341166E-002	-6.901910E-003	-1.364493E-001	3.726458E-002
7.700000E+008	2.354886E-002	4.682933E-003	3.337076E-002	-6.985989E-003	3.340248E-002	-7.006432E-003	-1.363066E-001	3.769893E-002
7.800000E+008	2.357271E-002	4.699679E-003	3.335198E-002	-7.081169E-003	3.336044E-002	-7.090872E-003	-1.361344E-001	3.816430E-002
7.900000E+008	2.360513E-002	4.658831E-003	3.332388E-002	-7.153974E-003	3.334118E-002	-7.169443E-003	-1.359602E-001	3.866853E-002
8.000000E+008	2.365213E-002	4.632695E-003	3.328419E-002	-7.242882E-003	3.330898E-002	-7.240459E-003	-1.357079E-001	3.917344E-002
8.100000E+008	2.369020E-002	4.604852E-003	3.325350E-002	-7.326937E-003	3.328373E-002	-7.351562E-003	-1.354333E-001	3.969737E-002
8.200000E+008	2.377285E-002	4.612790E-003	3.323361E-002	-7.415408E-003	3.324858E-002	-7.415720E-003	-1.351854E-001	4.021135E-002
8.300000E+008	2.386630E-002	4.607038E-003	3.321325E-002	-7.489747E-003	3.323869E-002	-7.496655E-003	-1.349544E-001	4.075743E-002
8.400000E+008	2.394547E-002	4.617789E-003	3.317492E-002	-7.567997E-003	3.319264E-002	-7.570961E-003	-1.347402E-001	4.128579E-002
8.500000E+008	2.405527E-002	4.657218E-003	3.316364E-002	-7.656516E-003	3.317829E-002	-7.666851E-003	-1.345912E-001	4.183349E-002
8.600000E+008	2.411883E-002	4.702902E-003	3.312472E-002	-7.750140E-003	3.315246E-002	-7.740613E-003	-1.344084E-001	4.236164E-002
8.700000E+008	2.418145E-002	4.789000E-003	3.311548E-002	-7.806800E-003	3.313175E-002	-7.832259E-003	-1.342351E-001	4.290248E-002
8.800000E+008	2.425086E-002	4.861107E-003	3.307656E-002	-7.912917E-003	3.310232E-002	-7.899891E-003	-1.340728E-001	4.337620E-002
8.900000E+008	2.427946E-002	4.908886E-003	3.305207E-002	-7.983505E-003	3.307802E-002	-7.985996E-003	-1.339125E-001	4.386503E-002
9.000000E+008	2.430387E-002	4.965457E-003	3.302270E-002	-8.069071E-003	3.305556E-002	-8.066042E-003	-1.336897E-001	4.434810E-002
9.100000E+008	2.430830E-002	5.008319E-003	3.299747E-002	-8.139277E-003	3.302199E-002	-8.157871E-003	-1.334613E-001	4.481191E-002
9.200000E+008	2.432630E-002	5.017344E-003	3.295123E-002	-8.230865E-003	3.299098E-002	-8.231177E-003	-1.331804E-001	4.531810E-002
9.300000E+008	2.438652E-002	5.027408E-003	3.293794E-002	-8.318665E-003	3.296771E-002	-8.301767E-003	-1.328831E-001	4.582685E-002
9.400000E+008	2.444022E-002	5.023535E-003	3.291010E-002	-8.392473E-003	3.294672E-002	-8.402889E-003	-1.325344E-001	4.637002E-002
9.500000E+008	2.450363E-002	5.026794E-003	3.288122E-002	-8.470178E-003	3.290964E-002	-8.478413E-003	-1.321982E-001	4.693647E-002
9.600000E+008	2.455506E-002	5.057731E-003	3.284474E-002	-8.552269E-003	3.288647E-002	-8.556422E-003	-1.318553E-001	4.752074E-002
9.700000E+008	2.464564E-002	5.114572E-003	3.281029E-002	-8.622591E-003	3.285092E-002	-8.640084E-003	-1.315165E-001	4.810178E-002
9.800000E+008	2.472600E-002	5.172936E-003	3.278297E-002	-8.715210E-003	3.283033E-002	-8.725922E-003	-1.312297E-001	4.871736E-002
9.900000E+008	2.480529E-002	5.223126E-003	3.277817E-002	-8.786196E-003	3.281881E-002	-8.801263E-003	-1.309585E-001	4.932299E-002
1.000000E+009	2.486564E-002	5.311370E-003	3.274667E-002	-8.866088E-003	3.276808E-002	-8.878884E-003	-1.307327E-001	4.989692E-002
1.010000E+009	2.491794E-002	5.382500E-003	3.271575E-002	-8.956032E-003	3.274094E-002	-8.961577E-003	-1.304888E-001	5.050651E-002
1.020000E+009	2.497283E-002	5.429919E-003	3.268404E-002	-9.036264E-003	3.272203E-002	-9.048613E-003	-1.302611E-001	5.108903E-002
1.030000E+009	2.501417E-002	5.516719E-003	3.265439E-002	-9.113769E-003	3.268195E-002	-9.109963E-003	-1.300350E-001	5.166252E-002
1.040000E+009	2.505208E-002	5.585329E-003	3.263696E-002	-9.217919E-003	3.266726E-002	-9.201733E-003	-1.297980E-001	5.222975E-002
1.050000E+009	2.508583E-002	5.652728E-003	3.260207E-002	-9.274271E-003	3.263725E-002	-9.283480E-003	-1.295249E-001	5.288755E-002
1.060000E+009	2.514222E-002	5.703857E-003	3.257955E-002	-9.358468E-003	3.260281E-002	-9.353387E-003	-1.292277E-001	5.343999E-002
1.070000E+009	2.515009E-002	5.761876E-003	3.255474E-002	-9.437450E-003	3.256698E-002	-9.424119E-003	-1.289423E-001	5.404686E-002
1.080000E+009	2.518147E-002	5.830860E-003	3.251827E-002	-9.513627E-003	3.254815E-002	-9.516697E-003	-1.286338E-001	5.465067E-002
1.090000E+009	2.522921E-002	5.850556E-003	3.248173E-002	-9.596619E-003	3.253382E-002	-9.598180E-003	-1.283730E-001	5.520525E-002
1.100000E+009	2.528357E-002	5.915350E-003	3.246603E-002	-9.668118E-003	3.248968E-002	-9.685410E-003	-1.281472E-001	5.581876E-002
1.110000E+009	2.530423E-002	5.980435E-003	3.242425E-002	-9.752606E-003	3.245569E-002	-9.762619E-003	-1.278790E-001	5.639971E-002
1.120000E+009	2.533796E-002	6.031268E-003	3.239085E-002	-9.847638E-003	3.241865E-002	-9.845522E-003	-1.276910E-001	5.696652E-002
1.130000E+009	2.536565E-002	6.063491E-003	3.237478E-002	-9.908344E-003	3.239719E-002	-9.902405E-003	-1.274443E-001	5.751836E-002
1.140000E+009	2.539848E-002	6.123710E-003	3.232528E-002	-9.997011E-003	3.237762E-002	-1.001413E-002	-1.271770E-001	5.810356E-002
1.150000E+009	2.546470E-002	6.175805E-003	3.230133E-002	-1.007645E-002	3.232997E-002	-1.008316E-002	-1.269184E-001	5.866410E-002
1.160000E+009	2.546864E-002	6.233221E-003	3.227174E-002	-1.015568E-002	3.230667E-002	-1.016060E-002	-1.266307E-001	5.921067E-002
1.170000E+009	2.551797E-002	6.283920E-003	3.223450E-002	-1.023715E-002	3.228003E-002	-1.023357E-002	-1.263315E-001	5.981586E-002
1.180000E+009	2.556920E-002	6.337731E-003	3.219227E-002	-1.031437E-002	3.222929E-002	-1.031786E-002	-1.260122E-001	6.040085E-002
1.190000E+009	2.556969E-002	6.386855E-003	3.217400E-002	-1.039124E-002	3.220748E-002	-1.040726E-002	-1.257019E-001	6.101327E-002
1.200000E+009	2.560096E-002	6.429425E-003	3.215410E-002	-1.046903E-002	3.217234E-002	-1.047702E-002	-1.253862E-001	6.163627E-002
1.210000E+009	2.566792E-002	6.442335E-003	3.211552E-002	-1.055029E-002	3.213625E-002	-1.055710E-002	-1.251225E-001	6.225397E-002
1.220000E+009	2.568936E-002	6.457536E-003	3.206815E-002	-1.064335E-002	3.211113E-002	-1.064375E-002	-1.248827E-001	6.285575E-002
1.230000E+009	2.572969E-002	6.483575E-003	3.204310E-002	-1.071830E-002	3.208615E-002	-1.072405E-002	-1.246112E-001	6.340796E-002
1.240000E+009	2.579604E-002	6.488803E-003	3.201091E-002	-1.078586E-002	3.203806E-002	-1.077689E-002	-1.243831E-001	6.397338E-002
1.250000E+009	2.587256E-002	6.502962E-003	3.197314E-002	-1.087222E-002	3.201459E-002	-1.087540E-002	-1.241428E-001	6.451285E-002
1.260000E+009	2.593212E-002	6.513987E-003	3.194938E-002	-1.094663E-002	3.197950E-002	-1.095371E-002	-1.238448E-001	6.502393E-002
1.270000E+009	2.605731E-002	6.549785E-003	3.191460E-002	-1.103608E-002	3.196021E-002	-1.102781E-002	-1.235136E-001	6.552868E-002
1.280000E+009	2.614436E-002	6.589038E-003	3.187854E-002	-1.111189E-002	3.192217E-002	-1.111716E-002	-1.231786E-001	6.604911E-002
1.290000E+009	2.624280E-002	6.670672E-003	3.184129E-002	-1.118786E-002	3.188187E-002	-1.119087E-002	-1.228379E-001	6.656415E-002
1.300000E+009	2.631692E-002	6.745728E-003	3.181450E-002	-1.126817E-002	3.184828E-002	-1.128138E-002	-1.224494E-001	6.709201E-002
1.310000E+009	2.639408E-002	6.824892E-003	3.178278E-002	-1.134879E-002	3.179385E-002	-1.135274E-002	-1.220808E-001	6.765539E-002
1.320000E+009	2.645026E-002	6.914183E-003	3.172692E-002	-1.142490E-002	3.176893E-002	-1.142718E-002	-1.216342E-001	6.828064E-002
1.330000E+009	2.652618E-002	6.992772E-003	3.170727E-002	-1.151300E-002	3.172507E-002	-1.150731E-002	-1.212126E-001	6.892510E-002
1.340000E+009	2.657356E-002	7.093974E-003	3.166551E-002	-1.158580E-002	3.170711E-002	-1.158954E-002	-1.207836E-001	6.957478E-002
1.350000E+009	2.658496E-002	7.133812E-003	3.164184E-002	-1.166965E-002	3.166106E-002	-1.167266E-002	-1.203787E-001	7.025183E-002
1.360000E+009	2.667312E-002	7.214643E-003	3.160077E-002	-1.174393E-002	3.163500E-002	-1.175251E-002	-1.199720E-001	7.097445E-002
1.370000E+009	2.671687E-002	7.311614E-003	3.156200E-002	-1.181122E-002	3.160107E-002	-1.182591E-002	-1.196304E-001	7.168394E-002
1.380000E+009	2.679149E-002	7.351138E-003	3.151891E-002	-1.189756E-002	3.155929E-002	-1.190556E-002	-1.192805E-001	7.239557E-002
1.390000E+009	2.684477E-002	7.402752E-003	3.148196E-002	-1.197617E-002	3.149990E-002	-1.199948E-002	-1.189523E-001	7.310089E-002
1.400000E+009	2.690847E-002	7.464453E-003	3.143542E-002	-1.207133E-002	3.145807E-002	-1.205238E-002	-1.186166E-001	7.377250E-002
1.410000E+009	2.694601E-002	7.565453E-003	3.140480E-002	-1.212503E-002	3.143271E-002	-1.216292E-002	-1.182961E-001	7.447336E-002
1.420000E+009	2.699024E-002	7.644898E-003	3.136396E-002	-1.219438E-002	3.140582E-002	-1.221501E-002	-1.179965E-001	7.512304E-002
1.430000E+009	2.705644E-002	7.727451E-003	3.131736E-002	-1.229515E-002	3.136312E-002	-1.228362E-002	-1.176726E-001	7.576542E-002
1.440000E+009	2.708948E-002	7.793425E-003	3.129635E-002	-1.235579E-002	3.132389E-002	-1.235050E-002	-1.173451E-001	7.637955E-002
1.450000E+009	2.711217E-002	7.873941E-003	3.124187E-002	-1.243840E-002	3.128526E-002	-1.243929E-002	-1.169807E-001	7.699874E-002
1.460000E+009	2.714604E-002	7.938985E-003	3.120399E-002	-1.251167E-002	3.123784E-002	-1.252379E-002	-1.166055E-001	7.764112E-002
1.470000E+009	2.719541E-002	7.985584E-003	3.117451E-002	-1.260279E-002	3.118496E-002	-1.259049E-002	-1.162115E-001	7.832991E-002
1.480000E+009	2.722214E-002	8.040418E-003	3.111990E-002	-1.267389E-002	3.115905E-002	-1.266308E-002	-1.158244E-001	7.897981E-002
1.490000E+009	2.727821E-002	8.094366E-003	3.108925E-002	-1.273700E-002	3.111997E-002	-1.274566E-002	-1.153962E-001	7.970117E-002
1.500000E+009	2.733416E-002	8.142486E-003	3.104838E-002	-1.283400E-002	3.108402E-002	-1.282289E-002	-1.149870E-001	8.038351E-002
1.510000E+009	2.741559E-002	8.210364E-003	3.100639E-002	-1.288773E-002	3.105124E-002	-1.288293E-002	-1.145984E-001	8.111983E-002
