! Device ID: PE43711P
! File Path: z:\PE43711P\CHAR_NOM_04282014\AMB\3p300\LS_ATT_3p75dB\PE43711P_AMB_3p300V_3p000V_0p000V_LS_ATT_3p75dB_S2P_SN_5_A0137A.s2p
! Serial: 5
! Lot: A0137A
! Temp: 25C
! VDD: 3.300
! VSS: 0.000
! Control_Hi: 3.000
! Control_Lo: 0.000
! Attenuation Step: 3.75dB
! Port 1: RF1
! Port 2: RF2
! ThroughPath:1-2
! IDD: 0.0001278522
! ISS: -1.445e-007
!

#  Hz  S   RI  R   50

1.000000E+007	9.505211E-002	-3.959144E-004	5.747896E-001	-2.812064E-003	5.751006E-001	-2.877767E-003	-3.804330E-002	2.166473E-004
2.000000E+007	9.515580E-002	-6.253084E-004	5.748516E-001	-4.859515E-003	5.748243E-001	-4.890809E-003	-3.789200E-002	5.341846E-004
3.000000E+007	9.545438E-002	-1.177387E-003	5.748361E-001	-7.303597E-003	5.748424E-001	-7.344798E-003	-3.762079E-002	6.632585E-004
4.000000E+007	9.553296E-002	-1.683382E-003	5.748304E-001	-9.750998E-003	5.747920E-001	-9.803732E-003	-3.720850E-002	7.726964E-004
5.000000E+007	9.578129E-002	-2.295884E-003	5.748127E-001	-1.240039E-002	5.747512E-001	-1.235714E-002	-3.701906E-002	7.248370E-004
6.000000E+007	9.603924E-002	-2.999485E-003	5.746714E-001	-1.482995E-002	5.746836E-001	-1.484007E-002	-3.687390E-002	5.674079E-004
7.000000E+007	9.615236E-002	-3.742309E-003	5.744898E-001	-1.725423E-002	5.745116E-001	-1.727155E-002	-3.681314E-002	3.948552E-004
8.000000E+007	9.631047E-002	-4.436408E-003	5.743835E-001	-1.960047E-002	5.743800E-001	-1.963139E-002	-3.675778E-002	3.342493E-004
9.000000E+007	9.641762E-002	-5.110362E-003	5.742410E-001	-2.201397E-002	5.742078E-001	-2.205877E-002	-3.663185E-002	2.142238E-004
1.000000E+008	9.648852E-002	-5.753903E-003	5.741279E-001	-2.449112E-002	5.740226E-001	-2.446947E-002	-3.641344E-002	5.039792E-005
1.100000E+008	9.657942E-002	-6.403929E-003	5.739187E-001	-2.697537E-002	5.738832E-001	-2.688285E-002	-3.635409E-002	-1.240957E-004
1.200000E+008	9.669252E-002	-7.054166E-003	5.735873E-001	-2.935859E-002	5.736422E-001	-2.931301E-002	-3.646885E-002	-2.793278E-004
1.300000E+008	9.680181E-002	-7.822329E-003	5.734192E-001	-3.171959E-002	5.734455E-001	-3.174092E-002	-3.635665E-002	-5.450564E-004
1.400000E+008	9.683269E-002	-8.702991E-003	5.732247E-001	-3.416717E-002	5.731964E-001	-3.419118E-002	-3.593631E-002	-8.537390E-004
1.500000E+008	9.671883E-002	-9.482052E-003	5.729701E-001	-3.648618E-002	5.728643E-001	-3.651679E-002	-3.559344E-002	-1.093764E-003
1.600000E+008	9.648724E-002	-1.000081E-002	5.727566E-001	-3.882719E-002	5.725466E-001	-3.880191E-002	-3.583850E-002	-1.197903E-003
1.700000E+008	9.619933E-002	-1.045710E-002	5.725306E-001	-4.134726E-002	5.725210E-001	-4.118918E-002	-3.640863E-002	-1.395617E-003
1.800000E+008	9.594459E-002	-1.104622E-002	5.719368E-001	-4.384647E-002	5.722100E-001	-4.371051E-002	-3.685776E-002	-1.669956E-003
1.900000E+008	9.583418E-002	-1.183379E-002	5.715510E-001	-4.613842E-002	5.717934E-001	-4.606436E-002	-3.687423E-002	-1.949869E-003
2.000000E+008	9.583265E-002	-1.270745E-002	5.712807E-001	-4.844937E-002	5.714487E-001	-4.839621E-002	-3.655983E-002	-2.130108E-003
2.100000E+008	9.584013E-002	-1.360916E-002	5.710201E-001	-5.074179E-002	5.710798E-001	-5.071134E-002	-3.621221E-002	-2.316512E-003
2.200000E+008	9.578358E-002	-1.441709E-002	5.707314E-001	-5.297519E-002	5.707558E-001	-5.298399E-002	-3.602177E-002	-2.496972E-003
2.300000E+008	9.560530E-002	-1.516584E-002	5.703943E-001	-5.531270E-002	5.703655E-001	-5.530920E-002	-3.597793E-002	-2.739802E-003
2.400000E+008	9.541535E-002	-1.590252E-002	5.700371E-001	-5.767611E-002	5.699636E-001	-5.763299E-002	-3.599544E-002	-3.034219E-003
2.500000E+008	9.520751E-002	-1.662014E-002	5.696116E-001	-6.000499E-002	5.695860E-001	-5.995757E-002	-3.605651E-002	-3.421291E-003
2.600000E+008	9.502583E-002	-1.741284E-002	5.691583E-001	-6.239490E-002	5.692017E-001	-6.229439E-002	-3.602648E-002	-3.703644E-003
2.700000E+008	9.485807E-002	-1.814311E-002	5.686777E-001	-6.467702E-002	5.687776E-001	-6.460985E-002	-3.591849E-002	-3.928449E-003
2.800000E+008	9.472399E-002	-1.883114E-002	5.682203E-001	-6.691322E-002	5.683335E-001	-6.684590E-002	-3.582802E-002	-4.097493E-003
2.900000E+008	9.452527E-002	-1.941567E-002	5.678507E-001	-6.912187E-002	5.678528E-001	-6.902498E-002	-3.578709E-002	-4.197438E-003
3.000000E+008	9.440792E-002	-1.996964E-002	5.674855E-001	-7.141882E-002	5.675251E-001	-7.132339E-002	-3.575867E-002	-4.297205E-003
3.100000E+008	9.422620E-002	-2.051611E-002	5.670258E-001	-7.368073E-002	5.671414E-001	-7.362368E-002	-3.570193E-002	-4.372862E-003
3.200000E+008	9.404762E-002	-2.110451E-002	5.665629E-001	-7.601596E-002	5.667095E-001	-7.591400E-002	-3.571667E-002	-4.476008E-003
3.300000E+008	9.380304E-002	-2.165564E-002	5.661231E-001	-7.825930E-002	5.662154E-001	-7.831759E-002	-3.572911E-002	-4.618786E-003
3.400000E+008	9.342643E-002	-2.223933E-002	5.655838E-001	-8.054958E-002	5.655149E-001	-8.065871E-002	-3.572924E-002	-4.825645E-003
3.500000E+008	9.304242E-002	-2.280176E-002	5.651005E-001	-8.285630E-002	5.648816E-001	-8.277637E-002	-3.574325E-002	-5.094745E-003
3.600000E+008	9.274419E-002	-2.335082E-002	5.645494E-001	-8.510333E-002	5.643691E-001	-8.482855E-002	-3.571770E-002	-5.230196E-003
3.700000E+008	9.244540E-002	-2.394810E-002	5.639554E-001	-8.724273E-002	5.639384E-001	-8.691731E-002	-3.558255E-002	-5.388666E-003
3.800000E+008	9.213596E-002	-2.456703E-002	5.635048E-001	-8.944841E-002	5.635512E-001	-8.919553E-002	-3.548442E-002	-5.580026E-003
3.900000E+008	9.177711E-002	-2.519240E-002	5.628791E-001	-9.173211E-002	5.630550E-001	-9.148497E-002	-3.535595E-002	-5.776377E-003
4.000000E+008	9.148480E-002	-2.584370E-002	5.622671E-001	-9.380869E-002	5.625493E-001	-9.377343E-002	-3.522158E-002	-5.943608E-003
4.100000E+008	9.108491E-002	-2.649915E-002	5.617683E-001	-9.588768E-002	5.619282E-001	-9.596494E-002	-3.514912E-002	-6.065104E-003
4.200000E+008	9.066430E-002	-2.710043E-002	5.613324E-001	-9.810892E-002	5.613556E-001	-9.809451E-002	-3.510418E-002	-6.168350E-003
4.300000E+008	9.037420E-002	-2.762268E-002	5.607890E-001	-1.003231E-001	5.608068E-001	-1.003212E-001	-3.506439E-002	-6.255145E-003
4.400000E+008	9.011269E-002	-2.813813E-002	5.602116E-001	-1.025252E-001	5.602862E-001	-1.024664E-001	-3.503887E-002	-6.260569E-003
4.500000E+008	8.984719E-002	-2.870998E-002	5.596486E-001	-1.047251E-001	5.597610E-001	-1.046652E-001	-3.499719E-002	-6.273230E-003
4.600000E+008	8.957097E-002	-2.926158E-002	5.590557E-001	-1.069126E-001	5.591315E-001	-1.068951E-001	-3.498787E-002	-6.233336E-003
4.700000E+008	8.924330E-002	-2.978003E-002	5.584213E-001	-1.090610E-001	5.584716E-001	-1.090361E-001	-3.503863E-002	-6.244844E-003
4.800000E+008	8.886187E-002	-3.020621E-002	5.578226E-001	-1.111624E-001	5.578473E-001	-1.111029E-001	-3.512311E-002	-6.197873E-003
4.900000E+008	8.846876E-002	-3.067051E-002	5.572217E-001	-1.133049E-001	5.571749E-001	-1.132815E-001	-3.518998E-002	-6.184255E-003
5.000000E+008	8.810814E-002	-3.111481E-002	5.565933E-001	-1.154676E-001	5.566063E-001	-1.153686E-001	-3.522022E-002	-6.194285E-003
5.100000E+008	8.778254E-002	-3.164003E-002	5.559852E-001	-1.175837E-001	5.560527E-001	-1.174731E-001	-3.518711E-002	-6.228521E-003
5.200000E+008	8.739676E-002	-3.221844E-002	5.553751E-001	-1.197612E-001	5.554440E-001	-1.196720E-001	-3.514313E-002	-6.323444E-003
5.300000E+008	8.700513E-002	-3.279519E-002	5.547411E-001	-1.218979E-001	5.548351E-001	-1.218431E-001	-3.505056E-002	-6.425116E-003
5.400000E+008	8.657735E-002	-3.340239E-002	5.540373E-001	-1.240553E-001	5.541761E-001	-1.240017E-001	-3.504710E-002	-6.550594E-003
5.500000E+008	8.616537E-002	-3.387402E-002	5.534131E-001	-1.261508E-001	5.534369E-001	-1.261167E-001	-3.502003E-002	-6.566822E-003
5.600000E+008	8.578423E-002	-3.434350E-002	5.527019E-001	-1.282543E-001	5.527540E-001	-1.282338E-001	-3.501165E-002	-6.565781E-003
5.700000E+008	8.546335E-002	-3.482311E-002	5.520296E-001	-1.302739E-001	5.521534E-001	-1.303054E-001	-3.509810E-002	-6.496508E-003
5.800000E+008	8.512548E-002	-3.527705E-002	5.513436E-001	-1.324109E-001	5.514820E-001	-1.323780E-001	-3.513323E-002	-6.487499E-003
5.900000E+008	8.476053E-002	-3.581162E-002	5.506342E-001	-1.345363E-001	5.508562E-001	-1.345409E-001	-3.524750E-002	-6.461274E-003
6.000000E+008	8.445084E-002	-3.630381E-002	5.499608E-001	-1.365966E-001	5.501551E-001	-1.366453E-001	-3.528763E-002	-6.491161E-003
6.100000E+008	8.414587E-002	-3.680285E-002	5.492525E-001	-1.386799E-001	5.493723E-001	-1.387164E-001	-3.540406E-002	-6.476224E-003
6.200000E+008	8.384863E-002	-3.725269E-002	5.485046E-001	-1.407143E-001	5.486627E-001	-1.407602E-001	-3.548118E-002	-6.461125E-003
6.300000E+008	8.358136E-002	-3.774052E-002	5.477563E-001	-1.427855E-001	5.479444E-001	-1.428216E-001	-3.550627E-002	-6.451853E-003
6.400000E+008	8.331087E-002	-3.818388E-002	5.470430E-001	-1.448313E-001	5.472290E-001	-1.448805E-001	-3.549232E-002	-6.402623E-003
6.500000E+008	8.304282E-002	-3.861150E-002	5.463515E-001	-1.468761E-001	5.464862E-001	-1.468859E-001	-3.554344E-002	-6.355703E-003
6.600000E+008	8.270664E-002	-3.908515E-002	5.456568E-001	-1.489403E-001	5.457328E-001	-1.489791E-001	-3.556838E-002	-6.305717E-003
6.700000E+008	8.226484E-002	-3.944944E-002	5.449052E-001	-1.510025E-001	5.450070E-001	-1.510374E-001	-3.569383E-002	-6.237017E-003
6.800000E+008	8.181986E-002	-3.982079E-002	5.441639E-001	-1.530401E-001	5.442820E-001	-1.530732E-001	-3.579038E-002	-6.111628E-003
6.900000E+008	8.138905E-002	-4.017942E-002	5.433421E-001	-1.550495E-001	5.434376E-001	-1.550772E-001	-3.592279E-002	-5.962628E-003
7.000000E+008	8.100305E-002	-4.056198E-002	5.425713E-001	-1.570668E-001	5.427236E-001	-1.570354E-001	-3.604338E-002	-5.898384E-003
7.100000E+008	8.063358E-002	-4.100176E-002	5.418263E-001	-1.590658E-001	5.419867E-001	-1.591205E-001	-3.614681E-002	-5.855386E-003
7.200000E+008	8.022489E-002	-4.143572E-002	5.410639E-001	-1.610655E-001	5.412144E-001	-1.611281E-001	-3.624397E-002	-5.873339E-003
7.300000E+008	7.981516E-002	-4.189606E-002	5.402506E-001	-1.630942E-001	5.404854E-001	-1.631992E-001	-3.640458E-002	-5.924707E-003
7.400000E+008	7.937603E-002	-4.227090E-002	5.394583E-001	-1.651317E-001	5.396939E-001	-1.651429E-001	-3.656203E-002	-5.926923E-003
7.500000E+008	7.897332E-002	-4.267845E-002	5.386797E-001	-1.671170E-001	5.388858E-001	-1.671873E-001	-3.668585E-002	-5.961827E-003
7.600000E+008	7.853548E-002	-4.309365E-002	5.378896E-001	-1.691372E-001	5.381081E-001	-1.691912E-001	-3.681108E-002	-5.967032E-003
7.700000E+008	7.810728E-002	-4.356780E-002	5.370741E-001	-1.711314E-001	5.373138E-001	-1.711679E-001	-3.688591E-002	-6.037715E-003
7.800000E+008	7.764717E-002	-4.397852E-002	5.362658E-001	-1.731046E-001	5.365276E-001	-1.731491E-001	-3.702653E-002	-6.079128E-003
7.900000E+008	7.721345E-002	-4.444815E-002	5.354501E-001	-1.750857E-001	5.357287E-001	-1.751790E-001	-3.718592E-002	-6.077453E-003
8.000000E+008	7.676383E-002	-4.490761E-002	5.346131E-001	-1.770555E-001	5.348279E-001	-1.771426E-001	-3.727981E-002	-6.085357E-003
8.100000E+008	7.634508E-002	-4.534248E-002	5.337642E-001	-1.790126E-001	5.339942E-001	-1.791116E-001	-3.735153E-002	-6.027352E-003
8.200000E+008	7.598454E-002	-4.574688E-002	5.329243E-001	-1.810212E-001	5.331397E-001	-1.810374E-001	-3.742018E-002	-6.008580E-003
8.300000E+008	7.566476E-002	-4.615804E-002	5.320777E-001	-1.829505E-001	5.323575E-001	-1.830195E-001	-3.750072E-002	-5.951003E-003
8.400000E+008	7.535408E-002	-4.652598E-002	5.312119E-001	-1.848831E-001	5.314747E-001	-1.849604E-001	-3.757786E-002	-5.881344E-003
8.500000E+008	7.503063E-002	-4.690132E-002	5.304120E-001	-1.868554E-001	5.306372E-001	-1.869347E-001	-3.773304E-002	-5.844270E-003
8.600000E+008	7.464331E-002	-4.727945E-002	5.295154E-001	-1.887783E-001	5.296974E-001	-1.888572E-001	-3.787416E-002	-5.760503E-003
8.700000E+008	7.423306E-002	-4.759258E-002	5.286810E-001	-1.907318E-001	5.288547E-001	-1.908291E-001	-3.801653E-002	-5.723075E-003
8.800000E+008	7.378764E-002	-4.788917E-002	5.278183E-001	-1.927116E-001	5.280241E-001	-1.927260E-001	-3.820502E-002	-5.663056E-003
8.900000E+008	7.333325E-002	-4.822195E-002	5.269271E-001	-1.946425E-001	5.271116E-001	-1.946972E-001	-3.834548E-002	-5.621391E-003
9.000000E+008	7.291912E-002	-4.854928E-002	5.259839E-001	-1.965550E-001	5.262767E-001	-1.966248E-001	-3.845751E-002	-5.565109E-003
9.100000E+008	7.244456E-002	-4.892044E-002	5.251139E-001	-1.984941E-001	5.253778E-001	-1.985458E-001	-3.847489E-002	-5.573341E-003
9.200000E+008	7.199999E-002	-4.927868E-002	5.242124E-001	-2.004067E-001	5.245156E-001	-2.005003E-001	-3.852601E-002	-5.558012E-003
9.300000E+008	7.153923E-002	-4.962091E-002	5.233192E-001	-2.023129E-001	5.235482E-001	-2.024350E-001	-3.855321E-002	-5.518140E-003
9.400000E+008	7.110232E-002	-4.994589E-002	5.224161E-001	-2.041974E-001	5.226815E-001	-2.043144E-001	-3.855637E-002	-5.440643E-003
9.500000E+008	7.065733E-002	-5.026348E-002	5.215167E-001	-2.061273E-001	5.217659E-001	-2.062646E-001	-3.854511E-002	-5.311999E-003
9.600000E+008	7.029699E-002	-5.053251E-002	5.205321E-001	-2.080005E-001	5.208588E-001	-2.081400E-001	-3.851458E-002	-5.147570E-003
9.700000E+008	6.991111E-002	-5.081779E-002	5.196131E-001	-2.098641E-001	5.199056E-001	-2.100310E-001	-3.848538E-002	-5.026699E-003
9.800000E+008	6.956682E-002	-5.112889E-002	5.187433E-001	-2.117321E-001	5.190146E-001	-2.119225E-001	-3.848918E-002	-4.910669E-003
9.900000E+008	6.918983E-002	-5.142313E-002	5.178182E-001	-2.136397E-001	5.180758E-001	-2.138401E-001	-3.860121E-002	-4.787669E-003
1.000000E+009	6.878487E-002	-5.167556E-002	5.168944E-001	-2.155202E-001	5.170926E-001	-2.156929E-001	-3.871362E-002	-4.598839E-003
1.010000E+009	6.831724E-002	-5.188832E-002	5.159639E-001	-2.174276E-001	5.161466E-001	-2.175608E-001	-3.883079E-002	-4.405290E-003
1.020000E+009	6.788556E-002	-5.207141E-002	5.150179E-001	-2.193360E-001	5.151767E-001	-2.194535E-001	-3.893226E-002	-4.207948E-003
1.030000E+009	6.748750E-002	-5.226835E-002	5.139728E-001	-2.211837E-001	5.142387E-001	-2.213066E-001	-3.900437E-002	-4.014486E-003
1.040000E+009	6.707187E-002	-5.248037E-002	5.130277E-001	-2.230484E-001	5.132924E-001	-2.231646E-001	-3.908951E-002	-3.850924E-003
1.050000E+009	6.660664E-002	-5.280351E-002	5.121139E-001	-2.249046E-001	5.123139E-001	-2.250298E-001	-3.919398E-002	-3.706158E-003
1.060000E+009	6.615370E-002	-5.305904E-002	5.111092E-001	-2.267689E-001	5.113693E-001	-2.268469E-001	-3.928382E-002	-3.525906E-003
1.070000E+009	6.568085E-002	-5.328551E-002	5.101097E-001	-2.285860E-001	5.104204E-001	-2.286868E-001	-3.937664E-002	-3.385786E-003
1.080000E+009	6.526871E-002	-5.354082E-002	5.091450E-001	-2.304732E-001	5.094911E-001	-2.305495E-001	-3.944691E-002	-3.196670E-003
1.090000E+009	6.487523E-002	-5.377864E-002	5.081351E-001	-2.323560E-001	5.084705E-001	-2.324064E-001	-3.950179E-002	-3.029913E-003
1.100000E+009	6.452733E-002	-5.402349E-002	5.070559E-001	-2.341918E-001	5.074950E-001	-2.342613E-001	-3.956432E-002	-2.848354E-003
1.110000E+009	6.414168E-002	-5.424174E-002	5.061072E-001	-2.360156E-001	5.064858E-001	-2.361104E-001	-3.964428E-002	-2.743198E-003
1.120000E+009	6.371469E-002	-5.446251E-002	5.051337E-001	-2.378196E-001	5.054606E-001	-2.379853E-001	-3.981668E-002	-2.579994E-003
1.130000E+009	6.329298E-002	-5.469919E-002	5.040967E-001	-2.396755E-001	5.044336E-001	-2.398194E-001	-3.996379E-002	-2.433663E-003
1.140000E+009	6.280756E-002	-5.489138E-002	5.030675E-001	-2.415047E-001	5.034307E-001	-2.415926E-001	-4.010933E-002	-2.216387E-003
1.150000E+009	6.238338E-002	-5.508316E-002	5.020361E-001	-2.433221E-001	5.023530E-001	-2.434172E-001	-4.018572E-002	-2.060312E-003
1.160000E+009	6.194919E-002	-5.527740E-002	5.010324E-001	-2.451573E-001	5.013246E-001	-2.452634E-001	-4.028651E-002	-1.901724E-003
1.170000E+009	6.151550E-002	-5.551919E-002	4.999674E-001	-2.469527E-001	5.002898E-001	-2.470381E-001	-4.034503E-002	-1.691360E-003
1.180000E+009	6.109178E-002	-5.577918E-002	4.988567E-001	-2.487697E-001	4.992286E-001	-2.488714E-001	-4.042419E-002	-1.555266E-003
1.190000E+009	6.064916E-002	-5.599719E-002	4.978164E-001	-2.505988E-001	4.981276E-001	-2.506988E-001	-4.048459E-002	-1.332628E-003
1.200000E+009	6.021650E-002	-5.618365E-002	4.967701E-001	-2.523770E-001	4.971088E-001	-2.524792E-001	-4.057172E-002	-1.124150E-003
1.210000E+009	5.981521E-002	-5.641788E-002	4.956652E-001	-2.541864E-001	4.959987E-001	-2.542995E-001	-4.064779E-002	-8.788750E-004
1.220000E+009	5.942367E-002	-5.664340E-002	4.945783E-001	-2.559600E-001	4.949547E-001	-2.560551E-001	-4.073664E-002	-6.645488E-004
1.230000E+009	5.903065E-002	-5.681996E-002	4.934871E-001	-2.577618E-001	4.938561E-001	-2.578657E-001	-4.090421E-002	-4.728243E-004
1.240000E+009	5.863738E-002	-5.709867E-002	4.924038E-001	-2.595118E-001	4.927216E-001	-2.596255E-001	-4.101630E-002	-2.588690E-004
1.250000E+009	5.820534E-002	-5.730236E-002	4.912983E-001	-2.613060E-001	4.917018E-001	-2.613974E-001	-4.117675E-002	-1.096980E-004
1.260000E+009	5.775330E-002	-5.749623E-002	4.901989E-001	-2.630991E-001	4.905176E-001	-2.632326E-001	-4.131035E-002	3.225041E-005
1.270000E+009	5.737836E-002	-5.766871E-002	4.890589E-001	-2.648392E-001	4.893985E-001	-2.649447E-001	-4.141392E-002	1.829370E-004
1.280000E+009	5.693232E-002	-5.780040E-002	4.879778E-001	-2.666201E-001	4.883450E-001	-2.666946E-001	-4.153589E-002	3.109463E-004
1.290000E+009	5.649915E-002	-5.797876E-002	4.868175E-001	-2.684307E-001	4.871953E-001	-2.684761E-001	-4.155479E-002	4.248332E-004
1.300000E+009	5.612450E-002	-5.807763E-002	4.856723E-001	-2.701164E-001	4.860944E-001	-2.702478E-001	-4.152410E-002	6.244040E-004
1.310000E+009	5.568147E-002	-5.822500E-002	4.845072E-001	-2.718905E-001	4.849274E-001	-2.720229E-001	-4.156731E-002	8.102896E-004
1.320000E+009	5.522579E-002	-5.830273E-002	4.833784E-001	-2.736506E-001	4.838077E-001	-2.737776E-001	-4.154301E-002	1.027499E-003
1.330000E+009	5.485106E-002	-5.837205E-002	4.822400E-001	-2.753538E-001	4.826478E-001	-2.755621E-001	-4.145813E-002	1.343023E-003
1.340000E+009	5.442152E-002	-5.841469E-002	4.810706E-001	-2.770738E-001	4.814593E-001	-2.772507E-001	-4.145632E-002	1.701918E-003
1.350000E+009	5.396714E-002	-5.847769E-002	4.799250E-001	-2.788455E-001	4.802366E-001	-2.789705E-001	-4.144533E-002	2.073815E-003
1.360000E+009	5.361032E-002	-5.853472E-002	4.787170E-001	-2.805090E-001	4.791254E-001	-2.806877E-001	-4.143183E-002	2.479879E-003
1.370000E+009	5.320481E-002	-5.864114E-002	4.775664E-001	-2.822610E-001	4.779480E-001	-2.824224E-001	-4.148080E-002	2.866502E-003
1.380000E+009	5.277434E-002	-5.875810E-002	4.763389E-001	-2.839651E-001	4.767548E-001	-2.841375E-001	-4.153949E-002	3.200351E-003
1.390000E+009	5.239253E-002	-5.887915E-002	4.751460E-001	-2.856749E-001	4.755593E-001	-2.858680E-001	-4.165883E-002	3.614148E-003
1.400000E+009	5.195944E-002	-5.896981E-002	4.739400E-001	-2.873710E-001	4.743246E-001	-2.874977E-001	-4.175069E-002	3.975218E-003
1.410000E+009	5.151240E-002	-5.903854E-002	4.727464E-001	-2.890800E-001	4.730843E-001	-2.892038E-001	-4.188320E-002	4.379428E-003
1.420000E+009	5.110871E-002	-5.910524E-002	4.714651E-001	-2.907374E-001	4.719203E-001	-2.908624E-001	-4.196298E-002	4.741435E-003
1.430000E+009	5.074280E-002	-5.917567E-002	4.703140E-001	-2.924020E-001	4.707270E-001	-2.926064E-001	-4.205259E-002	5.075556E-003
1.440000E+009	5.033434E-002	-5.924272E-002	4.690651E-001	-2.940855E-001	4.694844E-001	-2.942627E-001	-4.209760E-002	5.386017E-003
1.450000E+009	4.992557E-002	-5.928832E-002	4.678004E-001	-2.957632E-001	4.682514E-001	-2.959259E-001	-4.219481E-002	5.722504E-003
1.460000E+009	4.948438E-002	-5.933906E-002	4.665686E-001	-2.974362E-001	4.669746E-001	-2.976343E-001	-4.224547E-002	6.072116E-003
1.470000E+009	4.907073E-002	-5.938235E-002	4.653595E-001	-2.991146E-001	4.657303E-001	-2.992611E-001	-4.230704E-002	6.506256E-003
1.480000E+009	4.865441E-002	-5.938273E-002	4.640851E-001	-3.007117E-001	4.644478E-001	-3.009053E-001	-4.236593E-002	6.977000E-003
1.490000E+009	4.825674E-002	-5.941400E-002	4.628090E-001	-3.023510E-001	4.631959E-001	-3.025045E-001	-4.241095E-002	7.418404E-003
