! Device ID: PE43711P
! File Path: z:\PE43711P\CHAR_NOM_04282014\AMB\3p300\LS_ATT_11p25dB\PE43711P_AMB_3p300V_3p000V_0p000V_LS_ATT_11p25dB_S2P_SN_5_A0137A.s2p
! Serial: 5
! Lot: A0137A
! Temp: 25C
! VDD: 3.300
! VSS: 0.000
! Control_Hi: 3.000
! Control_Lo: 0.000
! Attenuation Step: 11.25dB
! Port 1: RF1
! Port 2: RF2
! ThroughPath:1-2
! IDD: 0.0001277985
! ISS: -1.27e-007
!

#  Hz  S   RI  R   50

1.000000E+007	7.441026E-002	-7.735993E-005	2.402708E-001	-1.222618E-003	2.404741E-001	-1.284746E-003	-1.083841E-001	8.595539E-004
2.000000E+007	7.460654E-002	-2.658283E-004	2.402056E-001	-1.895946E-003	2.403647E-001	-1.925014E-003	-1.080760E-001	1.383431E-003
3.000000E+007	7.487125E-002	-5.755706E-004	2.402082E-001	-2.849120E-003	2.403759E-001	-2.872131E-003	-1.077823E-001	1.822686E-003
4.000000E+007	7.498542E-002	-8.861947E-004	2.402034E-001	-3.809832E-003	2.403580E-001	-3.826517E-003	-1.075802E-001	2.315982E-003
5.000000E+007	7.511165E-002	-1.260098E-003	2.401924E-001	-4.845183E-003	2.404155E-001	-4.826855E-003	-1.075189E-001	2.792973E-003
6.000000E+007	7.526199E-002	-1.660977E-003	2.401275E-001	-5.774987E-003	2.403624E-001	-5.777593E-003	-1.073995E-001	3.158062E-003
7.000000E+007	7.536276E-002	-2.073716E-003	2.400647E-001	-6.708587E-003	2.402953E-001	-6.724163E-003	-1.072369E-001	3.512873E-003
8.000000E+007	7.547679E-002	-2.485434E-003	2.400255E-001	-7.620320E-003	2.402405E-001	-7.615572E-003	-1.070793E-001	3.886171E-003
9.000000E+007	7.557597E-002	-2.874424E-003	2.399781E-001	-8.535901E-003	2.401747E-001	-8.555022E-003	-1.069470E-001	4.188055E-003
1.000000E+008	7.565903E-002	-3.277731E-003	2.399299E-001	-9.508112E-003	2.401094E-001	-9.480807E-003	-1.068531E-001	4.506870E-003
1.100000E+008	7.572966E-002	-3.685674E-003	2.398603E-001	-1.046464E-002	2.400526E-001	-1.043357E-002	-1.067661E-001	4.791680E-003
1.200000E+008	7.581560E-002	-4.130193E-003	2.397278E-001	-1.139334E-002	2.399661E-001	-1.139035E-002	-1.067055E-001	5.059280E-003
1.300000E+008	7.586999E-002	-4.560983E-003	2.396617E-001	-1.229796E-002	2.398760E-001	-1.231379E-002	-1.065920E-001	5.311296E-003
1.400000E+008	7.589668E-002	-4.974238E-003	2.395848E-001	-1.324089E-002	2.397926E-001	-1.327656E-002	-1.064225E-001	5.577515E-003
1.500000E+008	7.585035E-002	-5.358492E-003	2.394950E-001	-1.412808E-002	2.396449E-001	-1.415585E-002	-1.062943E-001	5.808216E-003
1.600000E+008	7.580531E-002	-5.678661E-003	2.394198E-001	-1.502224E-002	2.395347E-001	-1.502659E-002	-1.062728E-001	6.070333E-003
1.700000E+008	7.578961E-002	-6.058534E-003	2.393340E-001	-1.602078E-002	2.395614E-001	-1.595839E-002	-1.063199E-001	6.331109E-003
1.800000E+008	7.570478E-002	-6.453228E-003	2.391325E-001	-1.699114E-002	2.394661E-001	-1.696733E-002	-1.062872E-001	6.567859E-003
1.900000E+008	7.560942E-002	-6.894449E-003	2.389676E-001	-1.786858E-002	2.393031E-001	-1.790105E-002	-1.062512E-001	6.745047E-003
2.000000E+008	7.552178E-002	-7.328489E-003	2.388614E-001	-1.875061E-002	2.391688E-001	-1.876335E-002	-1.061387E-001	6.926021E-003
2.100000E+008	7.542960E-002	-7.820930E-003	2.387571E-001	-1.964745E-002	2.390105E-001	-1.965003E-002	-1.059983E-001	7.097541E-003
2.200000E+008	7.533889E-002	-8.277405E-003	2.386801E-001	-2.050805E-002	2.388797E-001	-2.052033E-002	-1.058823E-001	7.241147E-003
2.300000E+008	7.523865E-002	-8.738399E-003	2.385490E-001	-2.140669E-002	2.387460E-001	-2.142609E-002	-1.057443E-001	7.398810E-003
2.400000E+008	7.515144E-002	-9.191198E-003	2.384221E-001	-2.232414E-002	2.386173E-001	-2.232091E-002	-1.056259E-001	7.557218E-003
2.500000E+008	7.505957E-002	-9.649016E-003	2.382744E-001	-2.323886E-002	2.384651E-001	-2.322381E-002	-1.054662E-001	7.700930E-003
2.600000E+008	7.500440E-002	-1.008540E-002	2.381021E-001	-2.415547E-002	2.383120E-001	-2.413810E-002	-1.052982E-001	7.936672E-003
2.700000E+008	7.494136E-002	-1.052533E-002	2.379206E-001	-2.502539E-002	2.381650E-001	-2.504081E-002	-1.050792E-001	8.170457E-003
2.800000E+008	7.489656E-002	-1.093888E-002	2.377682E-001	-2.590409E-002	2.379892E-001	-2.589387E-002	-1.048791E-001	8.400384E-003
2.900000E+008	7.481019E-002	-1.129117E-002	2.376216E-001	-2.676411E-002	2.378333E-001	-2.674727E-002	-1.047561E-001	8.658155E-003
3.000000E+008	7.474744E-002	-1.162108E-002	2.375057E-001	-2.766481E-002	2.377036E-001	-2.762358E-002	-1.046163E-001	8.955338E-003
3.100000E+008	7.464459E-002	-1.195705E-002	2.373389E-001	-2.856164E-002	2.375552E-001	-2.854745E-002	-1.045080E-001	9.273318E-003
3.200000E+008	7.451959E-002	-1.225983E-002	2.371616E-001	-2.945884E-002	2.374001E-001	-2.944154E-002	-1.044255E-001	9.553338E-003
3.300000E+008	7.436001E-002	-1.258661E-002	2.370132E-001	-3.034204E-002	2.372346E-001	-3.038557E-002	-1.043386E-001	9.838261E-003
3.400000E+008	7.413987E-002	-1.292909E-002	2.368154E-001	-3.123120E-002	2.369669E-001	-3.131052E-002	-1.042277E-001	1.007893E-002
3.500000E+008	7.390815E-002	-1.327080E-002	2.366421E-001	-3.213616E-002	2.367259E-001	-3.213963E-002	-1.041055E-001	1.024681E-002
3.600000E+008	7.370746E-002	-1.359825E-002	2.364459E-001	-3.300611E-002	2.365408E-001	-3.292829E-002	-1.039570E-001	1.046646E-002
3.700000E+008	7.349560E-002	-1.396390E-002	2.362433E-001	-3.384424E-002	2.363898E-001	-3.371802E-002	-1.037881E-001	1.063885E-002
3.800000E+008	7.328276E-002	-1.435486E-002	2.360527E-001	-3.469323E-002	2.362716E-001	-3.462439E-002	-1.036075E-001	1.085423E-002
3.900000E+008	7.309647E-002	-1.477109E-002	2.358170E-001	-3.558996E-002	2.360812E-001	-3.553503E-002	-1.033589E-001	1.111160E-002
4.000000E+008	7.293487E-002	-1.519661E-002	2.355970E-001	-3.639887E-002	2.358718E-001	-3.640786E-002	-1.030641E-001	1.134858E-002
4.100000E+008	7.273262E-002	-1.560795E-002	2.353937E-001	-3.717233E-002	2.356387E-001	-3.725961E-002	-1.028181E-001	1.161253E-002
4.200000E+008	7.255092E-002	-1.598746E-002	2.352579E-001	-3.805143E-002	2.354304E-001	-3.809041E-002	-1.026030E-001	1.192580E-002
4.300000E+008	7.239445E-002	-1.632877E-002	2.350660E-001	-3.891673E-002	2.352385E-001	-3.896188E-002	-1.024073E-001	1.224992E-002
4.400000E+008	7.224857E-002	-1.666699E-002	2.348691E-001	-3.978388E-002	2.350510E-001	-3.980679E-002	-1.022637E-001	1.265802E-002
4.500000E+008	7.210019E-002	-1.701906E-002	2.346766E-001	-4.064410E-002	2.348454E-001	-4.066286E-002	-1.020791E-001	1.303948E-002
4.600000E+008	7.195008E-002	-1.735060E-002	2.344453E-001	-4.151127E-002	2.346308E-001	-4.154121E-002	-1.019373E-001	1.345060E-002
4.700000E+008	7.176315E-002	-1.767538E-002	2.342231E-001	-4.235533E-002	2.343970E-001	-4.239662E-002	-1.018047E-001	1.379607E-002
4.800000E+008	7.155328E-002	-1.795234E-002	2.340058E-001	-4.315019E-002	2.341512E-001	-4.318438E-002	-1.016880E-001	1.414878E-002
4.900000E+008	7.132671E-002	-1.825053E-002	2.337785E-001	-4.401264E-002	2.339140E-001	-4.403341E-002	-1.015786E-001	1.448404E-002
5.000000E+008	7.112451E-002	-1.854700E-002	2.335532E-001	-4.484299E-002	2.337227E-001	-4.486644E-002	-1.014558E-001	1.481116E-002
5.100000E+008	7.092107E-002	-1.886163E-002	2.333472E-001	-4.567576E-002	2.335245E-001	-4.567755E-002	-1.013039E-001	1.513124E-002
5.200000E+008	7.069955E-002	-1.919700E-002	2.331021E-001	-4.653271E-002	2.333259E-001	-4.654525E-002	-1.011381E-001	1.543166E-002
5.300000E+008	7.047686E-002	-1.954368E-002	2.328850E-001	-4.736165E-002	2.330938E-001	-4.741229E-002	-1.009085E-001	1.574238E-002
5.400000E+008	7.022796E-002	-1.992784E-002	2.326227E-001	-4.820620E-002	2.328382E-001	-4.825362E-002	-1.007002E-001	1.603620E-002
5.500000E+008	7.000117E-002	-2.025155E-002	2.323839E-001	-4.904523E-002	2.325489E-001	-4.907653E-002	-1.005172E-001	1.639467E-002
5.600000E+008	6.976277E-002	-2.061612E-002	2.321383E-001	-4.985014E-002	2.322968E-001	-4.990259E-002	-1.003290E-001	1.674847E-002
5.700000E+008	6.956991E-002	-2.096672E-002	2.318826E-001	-5.066039E-002	2.320739E-001	-5.070310E-002	-1.002012E-001	1.714711E-002
5.800000E+008	6.937774E-002	-2.129700E-002	2.316411E-001	-5.149902E-002	2.318202E-001	-5.153097E-002	-1.000642E-001	1.753787E-002
5.900000E+008	6.917712E-002	-2.167627E-002	2.313884E-001	-5.234457E-002	2.315788E-001	-5.237226E-002	-9.994113E-002	1.797549E-002
6.000000E+008	6.901499E-002	-2.202454E-002	2.311308E-001	-5.316587E-002	2.313233E-001	-5.321076E-002	-9.976319E-002	1.832970E-002
6.100000E+008	6.886276E-002	-2.236211E-002	2.308848E-001	-5.397263E-002	2.310342E-001	-5.402176E-002	-9.966159E-002	1.868893E-002
6.200000E+008	6.873274E-002	-2.265962E-002	2.306069E-001	-5.476013E-002	2.307728E-001	-5.482399E-002	-9.950850E-002	1.905467E-002
6.300000E+008	6.861782E-002	-2.295293E-002	2.303266E-001	-5.559507E-002	2.305203E-001	-5.563384E-002	-9.936298E-002	1.941724E-002
6.400000E+008	6.848688E-002	-2.323149E-002	2.300793E-001	-5.638706E-002	2.302394E-001	-5.643967E-002	-9.919993E-002	1.976599E-002
6.500000E+008	6.834884E-002	-2.347151E-002	2.298211E-001	-5.717250E-002	2.299928E-001	-5.722772E-002	-9.904675E-002	2.017577E-002
6.600000E+008	6.818100E-002	-2.374670E-002	2.295801E-001	-5.799153E-002	2.297209E-001	-5.806539E-002	-9.887966E-002	2.054163E-002
6.700000E+008	6.794615E-002	-2.396515E-002	2.292919E-001	-5.878620E-002	2.294401E-001	-5.887281E-002	-9.875725E-002	2.097078E-002
6.800000E+008	6.772157E-002	-2.421133E-002	2.290095E-001	-5.961375E-002	2.291747E-001	-5.966996E-002	-9.859393E-002	2.138414E-002
6.900000E+008	6.747815E-002	-2.443645E-002	2.287133E-001	-6.041261E-002	2.288570E-001	-6.045724E-002	-9.846310E-002	2.183174E-002
7.000000E+008	6.725636E-002	-2.468109E-002	2.284567E-001	-6.120272E-002	2.286066E-001	-6.123401E-002	-9.839463E-002	2.224019E-002
7.100000E+008	6.702255E-002	-2.494905E-002	2.281736E-001	-6.196816E-002	2.283298E-001	-6.204778E-002	-9.831401E-002	2.263245E-002
7.200000E+008	6.678784E-002	-2.520067E-002	2.278875E-001	-6.276353E-002	2.280598E-001	-6.283402E-002	-9.821671E-002	2.298945E-002
7.300000E+008	6.655967E-002	-2.550402E-002	2.275854E-001	-6.355657E-002	2.277944E-001	-6.364776E-002	-9.814878E-002	2.333915E-002
7.400000E+008	6.630142E-002	-2.574850E-002	2.272948E-001	-6.437131E-002	2.274820E-001	-6.443284E-002	-9.806897E-002	2.368489E-002
7.500000E+008	6.608668E-002	-2.603957E-002	2.270211E-001	-6.514709E-002	2.271911E-001	-6.523745E-002	-9.798986E-002	2.398427E-002
7.600000E+008	6.585003E-002	-2.633821E-002	2.267286E-001	-6.595028E-002	2.269185E-001	-6.604099E-002	-9.787923E-002	2.429748E-002
7.700000E+008	6.562738E-002	-2.663828E-002	2.264429E-001	-6.671706E-002	2.266193E-001	-6.680269E-002	-9.776374E-002	2.459187E-002
7.800000E+008	6.539406E-002	-2.691217E-002	2.261311E-001	-6.751696E-002	2.263351E-001	-6.759319E-002	-9.761883E-002	2.489701E-002
7.900000E+008	6.516524E-002	-2.723758E-002	2.258539E-001	-6.829802E-002	2.260325E-001	-6.840832E-002	-9.749854E-002	2.521859E-002
8.000000E+008	6.493809E-002	-2.753497E-002	2.255354E-001	-6.908602E-002	2.256993E-001	-6.916359E-002	-9.732799E-002	2.558001E-002
8.100000E+008	6.474033E-002	-2.785482E-002	2.252343E-001	-6.984705E-002	2.253962E-001	-6.993547E-002	-9.712625E-002	2.594799E-002
8.200000E+008	6.458553E-002	-2.813107E-002	2.249490E-001	-7.064116E-002	2.250803E-001	-7.069193E-002	-9.695554E-002	2.628810E-002
8.300000E+008	6.443332E-002	-2.841927E-002	2.246035E-001	-7.141501E-002	2.247922E-001	-7.148878E-002	-9.679547E-002	2.664203E-002
8.400000E+008	6.426792E-002	-2.869365E-002	2.242828E-001	-7.215853E-002	2.244609E-001	-7.226013E-002	-9.664166E-002	2.699469E-002
8.500000E+008	6.412299E-002	-2.892236E-002	2.239938E-001	-7.294824E-002	2.241715E-001	-7.304854E-002	-9.652776E-002	2.737038E-002
8.600000E+008	6.395574E-002	-2.915788E-002	2.236710E-001	-7.372026E-002	2.238385E-001	-7.381426E-002	-9.639316E-002	2.773111E-002
8.700000E+008	6.376963E-002	-2.935354E-002	2.233820E-001	-7.449547E-002	2.235163E-001	-7.459280E-002	-9.628604E-002	2.808891E-002
8.800000E+008	6.358868E-002	-2.955198E-002	2.230450E-001	-7.527938E-002	2.232241E-001	-7.535017E-002	-9.617237E-002	2.842605E-002
8.900000E+008	6.335212E-002	-2.975661E-002	2.227258E-001	-7.603123E-002	2.229014E-001	-7.611733E-002	-9.604915E-002	2.874855E-002
9.000000E+008	6.313224E-002	-2.997203E-002	2.223887E-001	-7.680919E-002	2.225955E-001	-7.689023E-002	-9.589335E-002	2.909589E-002
9.100000E+008	6.288486E-002	-3.018042E-002	2.220444E-001	-7.757135E-002	2.222671E-001	-7.766490E-002	-9.572703E-002	2.940473E-002
9.200000E+008	6.265440E-002	-3.043248E-002	2.217155E-001	-7.831494E-002	2.219499E-001	-7.843818E-002	-9.551011E-002	2.973441E-002
9.300000E+008	6.243689E-002	-3.066252E-002	2.213971E-001	-7.906411E-002	2.215895E-001	-7.918121E-002	-9.528481E-002	3.007837E-002
9.400000E+008	6.222317E-002	-3.091731E-002	2.210727E-001	-7.983088E-002	2.212663E-001	-7.994513E-002	-9.501387E-002	3.042877E-002
9.500000E+008	6.202608E-002	-3.119504E-002	2.207424E-001	-8.058896E-002	2.209215E-001	-8.072292E-002	-9.473769E-002	3.083429E-002
9.600000E+008	6.182308E-002	-3.140618E-002	2.203963E-001	-8.135856E-002	2.205814E-001	-8.146473E-002	-9.446051E-002	3.123286E-002
9.700000E+008	6.166148E-002	-3.162236E-002	2.200502E-001	-8.209553E-002	2.202462E-001	-8.221956E-002	-9.418199E-002	3.165977E-002
9.800000E+008	6.151331E-002	-3.180818E-002	2.197408E-001	-8.283329E-002	2.199107E-001	-8.296108E-002	-9.393197E-002	3.208579E-002
9.900000E+008	6.135888E-002	-3.199996E-002	2.193997E-001	-8.359067E-002	2.195716E-001	-8.372640E-002	-9.372104E-002	3.252783E-002
1.000000E+009	6.117060E-002	-3.216269E-002	2.190519E-001	-8.435604E-002	2.192223E-001	-8.448361E-002	-9.355390E-002	3.295201E-002
1.010000E+009	6.096913E-002	-3.231406E-002	2.187186E-001	-8.511831E-002	2.188811E-001	-8.522730E-002	-9.336988E-002	3.339912E-002
1.020000E+009	6.073801E-002	-3.245615E-002	2.183564E-001	-8.585663E-002	2.185128E-001	-8.598680E-002	-9.325220E-002	3.386137E-002
1.030000E+009	6.053173E-002	-3.261697E-002	2.179951E-001	-8.660143E-002	2.181817E-001	-8.671124E-002	-9.308197E-002	3.428579E-002
1.040000E+009	6.028965E-002	-3.276500E-002	2.176481E-001	-8.733298E-002	2.178106E-001	-8.744893E-002	-9.291166E-002	3.471112E-002
1.050000E+009	6.009819E-002	-3.296472E-002	2.173031E-001	-8.808524E-002	2.174558E-001	-8.821122E-002	-9.271878E-002	3.514675E-002
1.060000E+009	5.987029E-002	-3.315619E-002	2.169327E-001	-8.882288E-002	2.171000E-001	-8.891793E-002	-9.252619E-002	3.556557E-002
1.070000E+009	5.959347E-002	-3.332778E-002	2.165699E-001	-8.955214E-002	2.167374E-001	-8.963555E-002	-9.231205E-002	3.599334E-002
1.080000E+009	5.940623E-002	-3.352603E-002	2.161985E-001	-9.031324E-002	2.164014E-001	-9.040818E-002	-9.208046E-002	3.641723E-002
1.090000E+009	5.921532E-002	-3.369478E-002	2.158639E-001	-9.105842E-002	2.160363E-001	-9.113737E-002	-9.188594E-002	3.681846E-002
1.100000E+009	5.902083E-002	-3.387025E-002	2.154539E-001	-9.180199E-002	2.156605E-001	-9.186514E-002	-9.169208E-002	3.725824E-002
1.110000E+009	5.880392E-002	-3.404015E-002	2.150910E-001	-9.253714E-002	2.153220E-001	-9.260001E-002	-9.149794E-002	3.768278E-002
1.120000E+009	5.859147E-002	-3.421642E-002	2.147541E-001	-9.325832E-002	2.149292E-001	-9.336868E-002	-9.136654E-002	3.807953E-002
1.130000E+009	5.837254E-002	-3.437678E-002	2.143736E-001	-9.398831E-002	2.145643E-001	-9.410406E-002	-9.121509E-002	3.849842E-002
1.140000E+009	5.811229E-002	-3.452390E-002	2.139903E-001	-9.472467E-002	2.141886E-001	-9.483887E-002	-9.105046E-002	3.894648E-002
1.150000E+009	5.790475E-002	-3.469647E-002	2.136047E-001	-9.545559E-002	2.137852E-001	-9.557255E-002	-9.083859E-002	3.934695E-002
1.160000E+009	5.766630E-002	-3.486291E-002	2.132155E-001	-9.620552E-002	2.133989E-001	-9.630396E-002	-9.067241E-002	3.974014E-002
1.170000E+009	5.743570E-002	-3.503923E-002	2.128187E-001	-9.690273E-002	2.130124E-001	-9.699723E-002	-9.047100E-002	4.020603E-002
1.180000E+009	5.720151E-002	-3.521414E-002	2.124341E-001	-9.763240E-002	2.126346E-001	-9.774256E-002	-9.023672E-002	4.059860E-002
1.190000E+009	5.696949E-002	-3.538758E-002	2.120279E-001	-9.837509E-002	2.122079E-001	-9.846219E-002	-9.001324E-002	4.105018E-002
1.200000E+009	5.674713E-002	-3.555257E-002	2.116551E-001	-9.910552E-002	2.118208E-001	-9.919030E-002	-8.978930E-002	4.149574E-002
1.210000E+009	5.656619E-002	-3.576920E-002	2.112452E-001	-9.981818E-002	2.114140E-001	-9.992366E-002	-8.955970E-002	4.195594E-002
1.220000E+009	5.634250E-002	-3.595471E-002	2.108547E-001	-1.005418E-001	2.110417E-001	-1.006124E-001	-8.939261E-002	4.241265E-002
1.230000E+009	5.613522E-002	-3.611764E-002	2.104474E-001	-1.012466E-001	2.106096E-001	-1.013473E-001	-8.920399E-002	4.283557E-002
1.240000E+009	5.594770E-002	-3.632065E-002	2.100519E-001	-1.019558E-001	2.102343E-001	-1.020548E-001	-8.903928E-002	4.323388E-002
1.250000E+009	5.574409E-002	-3.651238E-002	2.096438E-001	-1.026848E-001	2.098628E-001	-1.027867E-001	-8.889042E-002	4.365119E-002
1.260000E+009	5.554066E-002	-3.668034E-002	2.092269E-001	-1.033982E-001	2.093958E-001	-1.035044E-001	-8.870910E-002	4.402205E-002
1.270000E+009	5.536675E-002	-3.683254E-002	2.088128E-001	-1.041339E-001	2.089909E-001	-1.042040E-001	-8.848380E-002	4.438504E-002
1.280000E+009	5.517907E-002	-3.701369E-002	2.084256E-001	-1.048554E-001	2.086056E-001	-1.049222E-001	-8.828434E-002	4.473469E-002
1.290000E+009	5.499144E-002	-3.713564E-002	2.079909E-001	-1.055609E-001	2.081837E-001	-1.056176E-001	-8.799847E-002	4.507905E-002
1.300000E+009	5.481021E-002	-3.724940E-002	2.075532E-001	-1.062483E-001	2.077677E-001	-1.063668E-001	-8.771623E-002	4.543890E-002
1.310000E+009	5.461608E-002	-3.739879E-002	2.071284E-001	-1.069701E-001	2.073392E-001	-1.070767E-001	-8.741254E-002	4.586770E-002
1.320000E+009	5.440814E-002	-3.751110E-002	2.066966E-001	-1.076847E-001	2.069381E-001	-1.077949E-001	-8.705493E-002	4.632555E-002
1.330000E+009	5.421349E-002	-3.761134E-002	2.063007E-001	-1.083723E-001	2.064810E-001	-1.085034E-001	-8.669385E-002	4.679663E-002
1.340000E+009	5.398348E-002	-3.770592E-002	2.058550E-001	-1.090641E-001	2.060249E-001	-1.091937E-001	-8.638355E-002	4.734522E-002
1.350000E+009	5.374642E-002	-3.779450E-002	2.054294E-001	-1.097762E-001	2.055873E-001	-1.098679E-001	-8.605016E-002	4.789544E-002
1.360000E+009	5.357994E-002	-3.790387E-002	2.049579E-001	-1.104836E-001	2.051791E-001	-1.105815E-001	-8.573049E-002	4.847319E-002
1.370000E+009	5.334489E-002	-3.799087E-002	2.045315E-001	-1.111801E-001	2.047193E-001	-1.112831E-001	-8.547822E-002	4.904303E-002
1.380000E+009	5.313445E-002	-3.811689E-002	2.040878E-001	-1.118654E-001	2.042799E-001	-1.119730E-001	-8.523815E-002	4.959493E-002
1.390000E+009	5.293229E-002	-3.823175E-002	2.036371E-001	-1.125705E-001	2.038334E-001	-1.126879E-001	-8.501846E-002	5.017275E-002
1.400000E+009	5.268585E-002	-3.838032E-002	2.031759E-001	-1.132386E-001	2.033851E-001	-1.133352E-001	-8.480346E-002	5.070482E-002
1.410000E+009	5.247231E-002	-3.848288E-002	2.027363E-001	-1.139416E-001	2.029145E-001	-1.140520E-001	-8.459123E-002	5.125594E-002
1.420000E+009	5.221729E-002	-3.858068E-002	2.022675E-001	-1.146099E-001	2.024678E-001	-1.147192E-001	-8.438466E-002	5.174363E-002
1.430000E+009	5.205333E-002	-3.868246E-002	2.018091E-001	-1.153139E-001	2.020283E-001	-1.154233E-001	-8.416051E-002	5.223836E-002
1.440000E+009	5.181924E-002	-3.877915E-002	2.013678E-001	-1.159755E-001	2.015496E-001	-1.160793E-001	-8.389807E-002	5.272675E-002
1.450000E+009	5.160327E-002	-3.889447E-002	2.008987E-001	-1.166575E-001	2.010810E-001	-1.167568E-001	-8.362294E-002	5.321463E-002
1.460000E+009	5.133094E-002	-3.897685E-002	2.004338E-001	-1.173612E-001	2.006024E-001	-1.174627E-001	-8.336726E-002	5.372807E-002
1.470000E+009	5.109292E-002	-3.909557E-002	1.999573E-001	-1.180138E-001	2.001312E-001	-1.181282E-001	-8.307756E-002	5.424804E-002
1.480000E+009	5.086135E-002	-3.915578E-002	1.994544E-001	-1.186733E-001	1.996651E-001	-1.187944E-001	-8.278636E-002	5.484577E-002
1.490000E+009	5.063673E-002	-3.927405E-002	1.990104E-001	-1.193450E-001	1.991938E-001	-1.194432E-001	-8.250532E-002	5.540058E-002
1.500000E+009	5.041433E-002	-3.936617E-002	1.985404E-001	-1.200103E-001	1.987300E-001	-1.201159E-001	-8.217442E-002	5.596468E-002
