! Device ID: PE43711P
! File Path: z:\PE43711P\CHAR_NOM_04282014\AMB\3p300\LS_ATT_16p25dB\PE43711P_AMB_3p300V_3p000V_0p000V_LS_ATT_16p25dB_S2P_SN_5_A0137A.s2p
! Serial: 5
! Lot: A0137A
! Temp: 25C
! VDD: 3.300
! VSS: 0.000
! Control_Hi: 3.000
! Control_Lo: 0.000
! Attenuation Step: 16.25dB
! Port 1: RF1
! Port 2: RF2
! ThroughPath:1-2
! IDD: 0.0001269988
! ISS: -5.98e-008
!

#  Hz  S   RI  R   50

1.000000E+007	6.394310E-002	7.687781E-005	1.346493E-001	-6.238149E-004	1.347988E-001	-6.502301E-004	-1.250838E-001	9.723438E-004
2.000000E+007	6.415196E-002	-6.868574E-005	1.346155E-001	-9.916947E-004	1.347062E-001	-1.008817E-003	-1.247531E-001	1.532666E-003
3.000000E+007	6.439420E-002	-2.639619E-004	1.346074E-001	-1.483466E-003	1.347069E-001	-1.491214E-003	-1.244469E-001	2.030195E-003
4.000000E+007	6.454119E-002	-4.738805E-004	1.346186E-001	-1.987367E-003	1.346978E-001	-1.995485E-003	-1.242716E-001	2.603491E-003
5.000000E+007	6.463714E-002	-7.111606E-004	1.346105E-001	-2.514407E-003	1.347044E-001	-2.524538E-003	-1.242310E-001	3.177846E-003
6.000000E+007	6.478084E-002	-9.960550E-004	1.345679E-001	-3.000817E-003	1.346976E-001	-3.026195E-003	-1.240925E-001	3.623336E-003
7.000000E+007	6.489669E-002	-1.292634E-003	1.345389E-001	-3.483582E-003	1.346491E-001	-3.501697E-003	-1.238980E-001	4.068182E-003
8.000000E+007	6.500185E-002	-1.575448E-003	1.345132E-001	-3.958158E-003	1.346272E-001	-3.986814E-003	-1.237287E-001	4.508369E-003
9.000000E+007	6.509857E-002	-1.867573E-003	1.344948E-001	-4.446784E-003	1.345867E-001	-4.460382E-003	-1.236019E-001	4.887147E-003
1.000000E+008	6.518537E-002	-2.146533E-003	1.344741E-001	-4.967932E-003	1.345692E-001	-4.956934E-003	-1.235313E-001	5.298235E-003
1.100000E+008	6.528473E-002	-2.439990E-003	1.344354E-001	-5.458894E-003	1.345392E-001	-5.438390E-003	-1.234342E-001	5.673377E-003
1.200000E+008	6.538147E-002	-2.780466E-003	1.343700E-001	-5.954484E-003	1.344920E-001	-5.950270E-003	-1.233527E-001	5.998336E-003
1.300000E+008	6.545799E-002	-3.092554E-003	1.343307E-001	-6.419914E-003	1.344379E-001	-6.435246E-003	-1.232204E-001	6.334770E-003
1.400000E+008	6.548636E-002	-3.356254E-003	1.342827E-001	-6.893685E-003	1.343981E-001	-6.923574E-003	-1.230949E-001	6.676451E-003
1.500000E+008	6.545673E-002	-3.625931E-003	1.342423E-001	-7.364534E-003	1.343232E-001	-7.393831E-003	-1.229890E-001	7.003399E-003
1.600000E+008	6.546863E-002	-3.848343E-003	1.342133E-001	-7.827415E-003	1.342616E-001	-7.836205E-003	-1.229271E-001	7.338744E-003
1.700000E+008	6.549455E-002	-4.119065E-003	1.341745E-001	-8.359025E-003	1.342853E-001	-8.337856E-003	-1.228765E-001	7.689634E-003
1.800000E+008	6.546192E-002	-4.408606E-003	1.340663E-001	-8.873297E-003	1.342377E-001	-8.848709E-003	-1.227864E-001	8.003314E-003
1.900000E+008	6.537893E-002	-4.717503E-003	1.339711E-001	-9.325106E-003	1.341598E-001	-9.345530E-003	-1.227194E-001	8.257468E-003
2.000000E+008	6.529380E-002	-5.043870E-003	1.339284E-001	-9.781953E-003	1.340871E-001	-9.803805E-003	-1.226412E-001	8.520010E-003
2.100000E+008	6.520657E-002	-5.406033E-003	1.338768E-001	-1.024572E-002	1.340085E-001	-1.025267E-002	-1.225266E-001	8.728976E-003
2.200000E+008	6.512259E-002	-5.736751E-003	1.338246E-001	-1.070711E-002	1.339381E-001	-1.070867E-002	-1.224082E-001	8.942682E-003
2.300000E+008	6.506101E-002	-6.093885E-003	1.337622E-001	-1.117924E-002	1.338736E-001	-1.117368E-002	-1.222571E-001	9.149425E-003
2.400000E+008	6.500938E-002	-6.450241E-003	1.337095E-001	-1.165242E-002	1.338005E-001	-1.163732E-002	-1.221078E-001	9.400548E-003
2.500000E+008	6.496718E-002	-6.774873E-003	1.336174E-001	-1.213483E-002	1.337189E-001	-1.212292E-002	-1.219214E-001	9.630133E-003
2.600000E+008	6.495180E-002	-7.121123E-003	1.335366E-001	-1.260861E-002	1.336531E-001	-1.260935E-002	-1.216954E-001	9.921409E-003
2.700000E+008	6.493833E-002	-7.437803E-003	1.334540E-001	-1.306171E-002	1.335797E-001	-1.307265E-002	-1.214627E-001	1.025459E-002
2.800000E+008	6.493101E-002	-7.718660E-003	1.333782E-001	-1.352234E-002	1.334960E-001	-1.351563E-002	-1.212490E-001	1.054603E-002
2.900000E+008	6.489266E-002	-7.991305E-003	1.333066E-001	-1.395899E-002	1.334056E-001	-1.396239E-002	-1.210963E-001	1.087102E-002
3.000000E+008	6.485798E-002	-8.225372E-003	1.332479E-001	-1.444175E-002	1.333491E-001	-1.441679E-002	-1.209400E-001	1.125160E-002
3.100000E+008	6.477627E-002	-8.454589E-003	1.331695E-001	-1.491069E-002	1.332682E-001	-1.489259E-002	-1.208103E-001	1.161558E-002
3.200000E+008	6.469745E-002	-8.665504E-003	1.330771E-001	-1.539119E-002	1.332033E-001	-1.538133E-002	-1.207071E-001	1.197421E-002
3.300000E+008	6.458371E-002	-8.886157E-003	1.330027E-001	-1.584485E-002	1.331061E-001	-1.586235E-002	-1.206059E-001	1.231768E-002
3.400000E+008	6.440248E-002	-9.123345E-003	1.329096E-001	-1.631953E-002	1.329682E-001	-1.635431E-002	-1.204709E-001	1.259587E-002
3.500000E+008	6.422686E-002	-9.376749E-003	1.328091E-001	-1.677821E-002	1.328545E-001	-1.677494E-002	-1.203138E-001	1.285648E-002
3.600000E+008	6.405399E-002	-9.616609E-003	1.327215E-001	-1.724062E-002	1.327497E-001	-1.718822E-002	-1.201533E-001	1.312561E-002
3.700000E+008	6.390216E-002	-9.892246E-003	1.326038E-001	-1.767020E-002	1.326723E-001	-1.761279E-002	-1.199534E-001	1.336546E-002
3.800000E+008	6.375828E-002	-1.017429E-002	1.325069E-001	-1.812320E-002	1.326188E-001	-1.807416E-002	-1.197518E-001	1.364455E-002
3.900000E+008	6.359836E-002	-1.049793E-002	1.323764E-001	-1.859695E-002	1.325269E-001	-1.855378E-002	-1.194725E-001	1.395662E-002
4.000000E+008	6.347820E-002	-1.082769E-002	1.322752E-001	-1.901819E-002	1.324245E-001	-1.900840E-002	-1.191577E-001	1.428111E-002
4.100000E+008	6.333184E-002	-1.113329E-002	1.321853E-001	-1.942613E-002	1.323080E-001	-1.945506E-002	-1.188692E-001	1.459050E-002
4.200000E+008	6.321635E-002	-1.143563E-002	1.321123E-001	-1.987834E-002	1.322012E-001	-1.989427E-002	-1.186451E-001	1.498180E-002
4.300000E+008	6.310699E-002	-1.170411E-002	1.320173E-001	-2.033063E-002	1.321062E-001	-2.035872E-002	-1.184180E-001	1.539471E-002
4.400000E+008	6.300728E-002	-1.194149E-002	1.319102E-001	-2.078751E-002	1.320184E-001	-2.076815E-002	-1.182226E-001	1.582168E-002
4.500000E+008	6.289711E-002	-1.220838E-002	1.318023E-001	-2.124460E-002	1.319113E-001	-2.124451E-002	-1.180271E-001	1.628142E-002
4.600000E+008	6.279743E-002	-1.246921E-002	1.317054E-001	-2.169207E-002	1.317922E-001	-2.170577E-002	-1.178235E-001	1.675500E-002
4.700000E+008	6.267357E-002	-1.269616E-002	1.315857E-001	-2.212671E-002	1.316743E-001	-2.214390E-002	-1.176798E-001	1.714881E-002
4.800000E+008	6.251478E-002	-1.289889E-002	1.314841E-001	-2.256674E-002	1.315582E-001	-2.256229E-002	-1.175271E-001	1.755391E-002
4.900000E+008	6.236076E-002	-1.311858E-002	1.313708E-001	-2.299654E-002	1.314418E-001	-2.301521E-002	-1.173816E-001	1.792809E-002
5.000000E+008	6.220060E-002	-1.332166E-002	1.312616E-001	-2.343110E-002	1.313372E-001	-2.344065E-002	-1.172201E-001	1.830050E-002
5.100000E+008	6.206821E-002	-1.355467E-002	1.311454E-001	-2.387335E-002	1.312252E-001	-2.386491E-002	-1.170324E-001	1.866023E-002
5.200000E+008	6.189947E-002	-1.380846E-002	1.310362E-001	-2.432947E-002	1.311317E-001	-2.431786E-002	-1.168592E-001	1.904532E-002
5.300000E+008	6.170594E-002	-1.405514E-002	1.309210E-001	-2.476672E-002	1.310218E-001	-2.478033E-002	-1.165907E-001	1.942491E-002
5.400000E+008	6.153024E-002	-1.436145E-002	1.307754E-001	-2.519272E-002	1.308875E-001	-2.520788E-002	-1.163616E-001	1.978598E-002
5.500000E+008	6.134448E-002	-1.460798E-002	1.306639E-001	-2.564364E-002	1.307601E-001	-2.564299E-002	-1.161329E-001	2.019378E-002
5.600000E+008	6.118331E-002	-1.490589E-002	1.305488E-001	-2.605306E-002	1.306273E-001	-2.607935E-002	-1.159239E-001	2.058846E-002
5.700000E+008	6.102217E-002	-1.518514E-002	1.304164E-001	-2.649917E-002	1.305164E-001	-2.650697E-002	-1.157547E-001	2.105536E-002
5.800000E+008	6.087896E-002	-1.545440E-002	1.302986E-001	-2.692243E-002	1.303917E-001	-2.693772E-002	-1.155721E-001	2.149022E-002
5.900000E+008	6.074388E-002	-1.575393E-002	1.301790E-001	-2.737363E-002	1.302798E-001	-2.737369E-002	-1.154013E-001	2.196565E-002
6.000000E+008	6.065882E-002	-1.603850E-002	1.300242E-001	-2.780199E-002	1.301456E-001	-2.782002E-002	-1.152020E-001	2.239062E-002
6.100000E+008	6.056736E-002	-1.631615E-002	1.299086E-001	-2.821811E-002	1.299887E-001	-2.825616E-002	-1.150309E-001	2.282572E-002
6.200000E+008	6.050063E-002	-1.650773E-002	1.297669E-001	-2.863240E-002	1.298538E-001	-2.866021E-002	-1.148510E-001	2.322733E-002
6.300000E+008	6.041784E-002	-1.673791E-002	1.296460E-001	-2.906362E-002	1.297216E-001	-2.908653E-002	-1.146820E-001	2.363417E-002
6.400000E+008	6.034273E-002	-1.692906E-002	1.294983E-001	-2.948411E-002	1.295835E-001	-2.951045E-002	-1.144770E-001	2.405863E-002
6.500000E+008	6.027509E-002	-1.710817E-002	1.293757E-001	-2.990845E-002	1.294639E-001	-2.992517E-002	-1.143062E-001	2.449782E-002
6.600000E+008	6.015223E-002	-1.730903E-002	1.292541E-001	-3.032325E-002	1.293250E-001	-3.036554E-002	-1.141087E-001	2.492001E-002
6.700000E+008	5.998566E-002	-1.746710E-002	1.291189E-001	-3.076230E-002	1.291884E-001	-3.078965E-002	-1.139381E-001	2.536853E-002
6.800000E+008	5.981737E-002	-1.763748E-002	1.289828E-001	-3.118304E-002	1.290557E-001	-3.121283E-002	-1.137435E-001	2.583048E-002
6.900000E+008	5.964466E-002	-1.777475E-002	1.288204E-001	-3.159444E-002	1.289107E-001	-3.161946E-002	-1.135606E-001	2.630389E-002
7.000000E+008	5.950333E-002	-1.797439E-002	1.286840E-001	-3.201184E-002	1.287854E-001	-3.202783E-002	-1.134368E-001	2.674994E-002
7.100000E+008	5.931671E-002	-1.816418E-002	1.285443E-001	-3.242400E-002	1.286462E-001	-3.244695E-002	-1.133276E-001	2.721518E-002
7.200000E+008	5.915297E-002	-1.836405E-002	1.284126E-001	-3.283018E-002	1.284843E-001	-3.286911E-002	-1.131949E-001	2.763526E-002
7.300000E+008	5.898279E-002	-1.857050E-002	1.282469E-001	-3.325192E-002	1.283637E-001	-3.328334E-002	-1.130878E-001	2.802977E-002
7.400000E+008	5.879792E-002	-1.876815E-002	1.281140E-001	-3.366817E-002	1.282322E-001	-3.370436E-002	-1.129704E-001	2.840555E-002
7.500000E+008	5.861626E-002	-1.898036E-002	1.279761E-001	-3.408102E-002	1.280699E-001	-3.412205E-002	-1.128551E-001	2.878267E-002
7.600000E+008	5.845391E-002	-1.920898E-002	1.278270E-001	-3.449318E-002	1.279342E-001	-3.452534E-002	-1.127147E-001	2.913529E-002
7.700000E+008	5.829477E-002	-1.944537E-002	1.276759E-001	-3.490479E-002	1.277779E-001	-3.494200E-002	-1.125516E-001	2.947619E-002
7.800000E+008	5.814345E-002	-1.965633E-002	1.275271E-001	-3.534064E-002	1.276436E-001	-3.536499E-002	-1.123903E-001	2.984779E-002
7.900000E+008	5.797153E-002	-1.992420E-002	1.273785E-001	-3.575439E-002	1.274865E-001	-3.578563E-002	-1.122092E-001	3.021465E-002
8.000000E+008	5.783081E-002	-2.014998E-002	1.272324E-001	-3.616355E-002	1.273206E-001	-3.618571E-002	-1.119931E-001	3.058553E-002
8.100000E+008	5.770439E-002	-2.041438E-002	1.270789E-001	-3.656033E-002	1.271610E-001	-3.661184E-002	-1.117592E-001	3.099874E-002
8.200000E+008	5.759104E-002	-2.061350E-002	1.269236E-001	-3.697814E-002	1.269978E-001	-3.700449E-002	-1.115497E-001	3.139353E-002
8.300000E+008	5.751231E-002	-2.084879E-002	1.267612E-001	-3.737059E-002	1.268744E-001	-3.739432E-002	-1.113401E-001	3.178094E-002
8.400000E+008	5.741791E-002	-2.106936E-002	1.266109E-001	-3.778394E-002	1.267114E-001	-3.782053E-002	-1.111427E-001	3.219609E-002
8.500000E+008	5.734091E-002	-2.125306E-002	1.264653E-001	-3.818385E-002	1.265684E-001	-3.824584E-002	-1.109848E-001	3.260531E-002
8.600000E+008	5.721627E-002	-2.141651E-002	1.263024E-001	-3.857363E-002	1.263947E-001	-3.861759E-002	-1.108150E-001	3.299989E-002
8.700000E+008	5.711847E-002	-2.154375E-002	1.261484E-001	-3.899996E-002	1.262348E-001	-3.903804E-002	-1.106567E-001	3.340542E-002
8.800000E+008	5.699029E-002	-2.168308E-002	1.259899E-001	-3.940082E-002	1.260877E-001	-3.943112E-002	-1.105122E-001	3.378602E-002
8.900000E+008	5.684268E-002	-2.183709E-002	1.258173E-001	-3.981280E-002	1.259278E-001	-3.984200E-002	-1.103500E-001	3.415769E-002
9.000000E+008	5.670980E-002	-2.199746E-002	1.256574E-001	-4.021023E-002	1.257883E-001	-4.025967E-002	-1.101558E-001	3.451467E-002
9.100000E+008	5.651966E-002	-2.214322E-002	1.254813E-001	-4.061376E-002	1.256044E-001	-4.064977E-002	-1.099407E-001	3.485251E-002
9.200000E+008	5.633999E-002	-2.233543E-002	1.253219E-001	-4.100918E-002	1.254378E-001	-4.105114E-002	-1.096855E-001	3.522827E-002
9.300000E+008	5.620538E-002	-2.254495E-002	1.251596E-001	-4.140609E-002	1.252583E-001	-4.146179E-002	-1.094171E-001	3.561375E-002
9.400000E+008	5.606388E-002	-2.273608E-002	1.250044E-001	-4.179119E-002	1.251021E-001	-4.185485E-002	-1.091192E-001	3.601331E-002
9.500000E+008	5.595892E-002	-2.293365E-002	1.248482E-001	-4.220609E-002	1.249382E-001	-4.226080E-002	-1.087957E-001	3.645465E-002
9.600000E+008	5.582970E-002	-2.310112E-002	1.246498E-001	-4.259615E-002	1.247606E-001	-4.264579E-002	-1.084623E-001	3.688848E-002
9.700000E+008	5.572618E-002	-2.326322E-002	1.244895E-001	-4.298322E-002	1.246028E-001	-4.304940E-002	-1.081833E-001	3.733889E-002
9.800000E+008	5.563216E-002	-2.340610E-002	1.243367E-001	-4.338402E-002	1.244317E-001	-4.344673E-002	-1.079085E-001	3.783124E-002
9.900000E+008	5.555672E-002	-2.355531E-002	1.241822E-001	-4.378458E-002	1.242663E-001	-4.385299E-002	-1.076443E-001	3.830129E-002
1.000000E+009	5.543220E-002	-2.365527E-002	1.240063E-001	-4.417543E-002	1.241057E-001	-4.425260E-002	-1.074431E-001	3.876529E-002
1.010000E+009	5.530224E-002	-2.375286E-002	1.238469E-001	-4.458468E-002	1.239224E-001	-4.462702E-002	-1.072172E-001	3.924997E-002
1.020000E+009	5.515423E-002	-2.386920E-002	1.236701E-001	-4.496871E-002	1.237422E-001	-4.502746E-002	-1.070153E-001	3.973936E-002
1.030000E+009	5.499756E-002	-2.397768E-002	1.234725E-001	-4.537351E-002	1.235674E-001	-4.541156E-002	-1.068246E-001	4.017417E-002
1.040000E+009	5.484340E-002	-2.407377E-002	1.233100E-001	-4.575472E-002	1.233978E-001	-4.579465E-002	-1.066242E-001	4.064516E-002
1.050000E+009	5.471647E-002	-2.423809E-002	1.231317E-001	-4.615150E-002	1.232110E-001	-4.619223E-002	-1.063883E-001	4.111171E-002
1.060000E+009	5.455779E-002	-2.436764E-002	1.229465E-001	-4.653046E-002	1.230404E-001	-4.657999E-002	-1.061461E-001	4.155874E-002
1.070000E+009	5.439107E-002	-2.450916E-002	1.227669E-001	-4.692874E-002	1.228673E-001	-4.695140E-002	-1.058811E-001	4.201149E-002
1.080000E+009	5.424762E-002	-2.464127E-002	1.225930E-001	-4.731282E-002	1.227003E-001	-4.736159E-002	-1.056290E-001	4.248542E-002
1.090000E+009	5.410532E-002	-2.478666E-002	1.224165E-001	-4.772301E-002	1.225113E-001	-4.775579E-002	-1.053823E-001	4.293025E-002
1.100000E+009	5.399792E-002	-2.491818E-002	1.222148E-001	-4.811681E-002	1.223462E-001	-4.812783E-002	-1.051689E-001	4.340374E-002
1.110000E+009	5.384624E-002	-2.501299E-002	1.220313E-001	-4.848618E-002	1.221639E-001	-4.852527E-002	-1.049274E-001	4.385711E-002
1.120000E+009	5.367974E-002	-2.515674E-002	1.218571E-001	-4.887611E-002	1.219796E-001	-4.893338E-002	-1.047894E-001	4.431487E-002
1.130000E+009	5.353336E-002	-2.528967E-002	1.216887E-001	-4.927713E-002	1.217653E-001	-4.931531E-002	-1.045797E-001	4.474111E-002
1.140000E+009	5.337110E-002	-2.541613E-002	1.214833E-001	-4.966352E-002	1.215948E-001	-4.969074E-002	-1.043566E-001	4.522210E-002
1.150000E+009	5.321801E-002	-2.552830E-002	1.212955E-001	-5.004915E-002	1.214025E-001	-5.008783E-002	-1.041205E-001	4.564741E-002
1.160000E+009	5.304867E-002	-2.566084E-002	1.210937E-001	-5.043643E-002	1.212181E-001	-5.047238E-002	-1.038778E-001	4.607842E-002
1.170000E+009	5.291183E-002	-2.578465E-002	1.209087E-001	-5.081814E-002	1.210231E-001	-5.084036E-002	-1.036402E-001	4.654882E-002
1.180000E+009	5.277440E-002	-2.592819E-002	1.207014E-001	-5.120214E-002	1.208223E-001	-5.124448E-002	-1.033675E-001	4.700115E-002
1.190000E+009	5.258184E-002	-2.604686E-002	1.205166E-001	-5.159523E-002	1.206157E-001	-5.162173E-002	-1.031103E-001	4.747785E-002
1.200000E+009	5.241680E-002	-2.617324E-002	1.203280E-001	-5.197885E-002	1.204212E-001	-5.200215E-002	-1.028268E-001	4.796844E-002
1.210000E+009	5.231709E-002	-2.634537E-002	1.201247E-001	-5.236191E-002	1.202142E-001	-5.240165E-002	-1.025852E-001	4.847093E-002
1.220000E+009	5.216058E-002	-2.648444E-002	1.199134E-001	-5.272817E-002	1.200333E-001	-5.276740E-002	-1.023839E-001	4.892531E-002
1.230000E+009	5.200686E-002	-2.663674E-002	1.197278E-001	-5.311133E-002	1.198187E-001	-5.317016E-002	-1.021404E-001	4.938092E-002
1.240000E+009	5.187740E-002	-2.679587E-002	1.195321E-001	-5.348631E-002	1.196214E-001	-5.352253E-002	-1.019431E-001	4.981471E-002
1.250000E+009	5.177587E-002	-2.695258E-002	1.193244E-001	-5.386974E-002	1.194396E-001	-5.390296E-002	-1.017355E-001	5.025276E-002
1.260000E+009	5.162469E-002	-2.708254E-002	1.191201E-001	-5.425778E-002	1.192135E-001	-5.429832E-002	-1.015146E-001	5.065737E-002
1.270000E+009	5.155476E-002	-2.722050E-002	1.189274E-001	-5.462582E-002	1.190135E-001	-5.466639E-002	-1.012526E-001	5.104778E-002
1.280000E+009	5.144113E-002	-2.734321E-002	1.187177E-001	-5.502759E-002	1.188085E-001	-5.504525E-002	-1.010066E-001	5.142881E-002
1.290000E+009	5.134786E-002	-2.743091E-002	1.184978E-001	-5.539777E-002	1.186042E-001	-5.542655E-002	-1.006699E-001	5.180415E-002
1.300000E+009	5.123695E-002	-2.752934E-002	1.182908E-001	-5.577142E-002	1.184031E-001	-5.581372E-002	-1.003386E-001	5.220949E-002
1.310000E+009	5.111629E-002	-2.762118E-002	1.180712E-001	-5.614566E-002	1.181869E-001	-5.617843E-002	-1.000065E-001	5.263323E-002
1.320000E+009	5.098563E-002	-2.773054E-002	1.178655E-001	-5.650990E-002	1.179827E-001	-5.658254E-002	-9.961011E-002	5.313074E-002
1.330000E+009	5.084546E-002	-2.778669E-002	1.176514E-001	-5.689516E-002	1.177619E-001	-5.694354E-002	-9.921810E-002	5.365757E-002
1.340000E+009	5.069096E-002	-2.786494E-002	1.174420E-001	-5.726633E-002	1.175393E-001	-5.732141E-002	-9.882984E-002	5.420214E-002
1.350000E+009	5.053590E-002	-2.793035E-002	1.172281E-001	-5.764042E-002	1.173281E-001	-5.769342E-002	-9.848198E-002	5.476048E-002
1.360000E+009	5.042831E-002	-2.800847E-002	1.170031E-001	-5.800476E-002	1.171261E-001	-5.806368E-002	-9.811911E-002	5.535347E-002
1.370000E+009	5.028649E-002	-2.809161E-002	1.167915E-001	-5.838316E-002	1.168896E-001	-5.842655E-002	-9.782939E-002	5.594441E-002
1.380000E+009	5.014166E-002	-2.820324E-002	1.165731E-001	-5.874698E-002	1.166747E-001	-5.881016E-002	-9.752846E-002	5.651560E-002
1.390000E+009	5.001216E-002	-2.829149E-002	1.163267E-001	-5.912621E-002	1.164453E-001	-5.917984E-002	-9.728902E-002	5.713529E-002
1.400000E+009	4.985066E-002	-2.838717E-002	1.161072E-001	-5.948822E-002	1.162080E-001	-5.952093E-002	-9.701018E-002	5.769677E-002
1.410000E+009	4.969833E-002	-2.845179E-002	1.158864E-001	-5.984803E-002	1.159738E-001	-5.989648E-002	-9.675794E-002	5.823470E-002
1.420000E+009	4.953919E-002	-2.853924E-002	1.156511E-001	-6.021928E-002	1.157652E-001	-6.025122E-002	-9.649919E-002	5.876326E-002
1.430000E+009	4.940807E-002	-2.860814E-002	1.154266E-001	-6.056074E-002	1.155258E-001	-6.061458E-002	-9.621912E-002	5.927464E-002
1.440000E+009	4.924529E-002	-2.869229E-002	1.152064E-001	-6.094484E-002	1.153116E-001	-6.097091E-002	-9.594209E-002	5.976501E-002
1.450000E+009	4.908668E-002	-2.876939E-002	1.149504E-001	-6.130225E-002	1.150730E-001	-6.134856E-002	-9.562336E-002	6.029355E-002
1.460000E+009	4.890676E-002	-2.882795E-002	1.147406E-001	-6.167197E-002	1.148494E-001	-6.173535E-002	-9.530615E-002	6.081345E-002
1.470000E+009	4.874200E-002	-2.895101E-002	1.145186E-001	-6.203654E-002	1.145932E-001	-6.206968E-002	-9.497756E-002	6.135002E-002
1.480000E+009	4.857511E-002	-2.900371E-002	1.142414E-001	-6.238063E-002	1.143695E-001	-6.243448E-002	-9.464994E-002	6.194710E-002
1.490000E+009	4.841825E-002	-2.910424E-002	1.140158E-001	-6.273356E-002	1.141223E-001	-6.277169E-002	-9.432064E-002	6.252152E-002
1.500000E+009	4.827803E-002	-2.919147E-002	1.137806E-001	-6.309948E-002	1.138759E-001	-6.313700E-002	-9.397379E-002	6.311742E-002
