! Device ID: PE43711P
! File Path: z:\PE43711P\CHAR_NOM_04282014\AMB\3p300\LS_ATT_23p75dB\PE43711P_AMB_3p300V_3p000V_0p000V_LS_ATT_23p75dB_S2P_SN_5_A0137A.s2p
! Serial: 5
! Lot: A0137A
! Temp: 25C
! VDD: 3.300
! VSS: 0.000
! Control_Hi: 3.000
! Control_Lo: 0.000
! Attenuation Step: 23.75dB
! Port 1: RF1
! Port 2: RF2
! ThroughPath:1-2
! IDD: 0.0001278985
! ISS: -4.98e-008
!

#  Hz  S   RI  R   50

1.000000E+007	4.245511E-002	3.028778E-004	5.635419E-002	-2.412339E-004	5.642688E-002	-2.705894E-004	-1.198555E-001	9.386048E-004
2.000000E+007	4.269347E-002	3.576167E-004	5.633741E-002	-3.592811E-004	5.637624E-002	-3.735172E-004	-1.195161E-001	1.497951E-003
3.000000E+007	4.296026E-002	3.512409E-004	5.635109E-002	-5.480332E-004	5.638617E-002	-5.583317E-004	-1.192239E-001	1.979957E-003
4.000000E+007	4.312249E-002	3.502596E-004	5.632575E-002	-7.283912E-004	5.637863E-002	-7.468529E-004	-1.190515E-001	2.546930E-003
5.000000E+007	4.322685E-002	3.192766E-004	5.633316E-002	-9.478364E-004	5.639173E-002	-9.331881E-004	-1.190111E-001	3.118108E-003
6.000000E+007	4.338176E-002	2.515469E-004	5.632303E-002	-1.123788E-003	5.638144E-002	-1.113957E-003	-1.188646E-001	3.567864E-003
7.000000E+007	4.350143E-002	1.518614E-004	5.630501E-002	-1.305755E-003	5.635993E-002	-1.298225E-003	-1.186790E-001	4.001951E-003
8.000000E+007	4.364366E-002	7.141641E-005	5.629897E-002	-1.478830E-003	5.635063E-002	-1.478685E-003	-1.185216E-001	4.425520E-003
9.000000E+007	4.374819E-002	4.012455E-006	5.630592E-002	-1.658012E-003	5.634399E-002	-1.662628E-003	-1.184061E-001	4.791206E-003
1.000000E+008	4.387011E-002	-7.969950E-005	5.628718E-002	-1.844874E-003	5.633306E-002	-1.850157E-003	-1.183502E-001	5.195222E-003
1.100000E+008	4.398032E-002	-1.863594E-004	5.629534E-002	-2.032341E-003	5.632955E-002	-2.026813E-003	-1.182391E-001	5.558267E-003
1.200000E+008	4.411979E-002	-3.294273E-004	5.625294E-002	-2.214019E-003	5.631550E-002	-2.208212E-003	-1.181373E-001	5.864190E-003
1.300000E+008	4.421616E-002	-4.280696E-004	5.623875E-002	-2.395284E-003	5.629874E-002	-2.390613E-003	-1.180175E-001	6.202156E-003
1.400000E+008	4.430023E-002	-4.853321E-004	5.623279E-002	-2.572192E-003	5.626682E-002	-2.580087E-003	-1.179022E-001	6.542587E-003
1.500000E+008	4.432739E-002	-5.623487E-004	5.621643E-002	-2.737020E-003	5.625611E-002	-2.753066E-003	-1.177936E-001	6.850910E-003
1.600000E+008	4.436525E-002	-5.896482E-004	5.620455E-002	-2.920149E-003	5.622580E-002	-2.918173E-003	-1.177175E-001	7.180318E-003
1.700000E+008	4.443271E-002	-6.681178E-004	5.619300E-002	-3.117800E-003	5.624812E-002	-3.096053E-003	-1.176274E-001	7.525835E-003
1.800000E+008	4.446902E-002	-7.538892E-004	5.616234E-002	-3.296929E-003	5.622723E-002	-3.295627E-003	-1.175348E-001	7.833046E-003
1.900000E+008	4.443184E-002	-8.721027E-004	5.612243E-002	-3.473762E-003	5.620248E-002	-3.491646E-003	-1.174707E-001	8.099558E-003
2.000000E+008	4.436519E-002	-9.894258E-004	5.610861E-002	-3.653979E-003	5.618099E-002	-3.657747E-003	-1.173996E-001	8.335218E-003
2.100000E+008	4.432738E-002	-1.173822E-003	5.609252E-002	-3.825008E-003	5.614037E-002	-3.819923E-003	-1.173148E-001	8.529740E-003
2.200000E+008	4.429866E-002	-1.317980E-003	5.607781E-002	-3.987953E-003	5.612319E-002	-3.991101E-003	-1.171964E-001	8.711648E-003
2.300000E+008	4.430788E-002	-1.491861E-003	5.605371E-002	-4.161280E-003	5.610275E-002	-4.172552E-003	-1.170521E-001	8.905981E-003
2.400000E+008	4.431746E-002	-1.662776E-003	5.604011E-002	-4.345160E-003	5.607223E-002	-4.345061E-003	-1.168802E-001	9.145861E-003
2.500000E+008	4.432636E-002	-1.810808E-003	5.601789E-002	-4.529834E-003	5.605137E-002	-4.523128E-003	-1.166801E-001	9.364107E-003
2.600000E+008	4.438643E-002	-1.967177E-003	5.598534E-002	-4.712931E-003	5.602651E-002	-4.701555E-003	-1.164407E-001	9.664471E-003
2.700000E+008	4.443233E-002	-2.090479E-003	5.594893E-002	-4.887714E-003	5.599934E-002	-4.871063E-003	-1.162041E-001	9.972621E-003
2.800000E+008	4.450271E-002	-2.194220E-003	5.592019E-002	-5.054636E-003	5.596675E-002	-5.027363E-003	-1.159913E-001	1.028702E-002
2.900000E+008	4.451791E-002	-2.290578E-003	5.590061E-002	-5.213090E-003	5.594684E-002	-5.216042E-003	-1.158406E-001	1.060101E-002
3.000000E+008	4.453096E-002	-2.352255E-003	5.587206E-002	-5.394838E-003	5.592761E-002	-5.385719E-003	-1.156788E-001	1.096723E-002
3.100000E+008	4.452368E-002	-2.400842E-003	5.584153E-002	-5.563538E-003	5.589990E-002	-5.562338E-003	-1.155397E-001	1.131726E-002
3.200000E+008	4.451210E-002	-2.437252E-003	5.582446E-002	-5.756352E-003	5.587611E-002	-5.738744E-003	-1.154463E-001	1.165605E-002
3.300000E+008	4.445429E-002	-2.487443E-003	5.578549E-002	-5.931597E-003	5.583767E-002	-5.932770E-003	-1.153327E-001	1.197400E-002
3.400000E+008	4.435849E-002	-2.552490E-003	5.575982E-002	-6.096895E-003	5.578291E-002	-6.116897E-003	-1.152191E-001	1.225498E-002
3.500000E+008	4.426086E-002	-2.641534E-003	5.573300E-002	-6.278791E-003	5.574466E-002	-6.281228E-003	-1.150628E-001	1.249202E-002
3.600000E+008	4.417737E-002	-2.742815E-003	5.570943E-002	-6.461951E-003	5.570129E-002	-6.430033E-003	-1.148793E-001	1.275768E-002
3.700000E+008	4.409196E-002	-2.850967E-003	5.565366E-002	-6.619225E-003	5.567907E-002	-6.583026E-003	-1.146632E-001	1.299183E-002
3.800000E+008	4.401838E-002	-2.979963E-003	5.562128E-002	-6.788859E-003	5.565667E-002	-6.759632E-003	-1.144628E-001	1.326093E-002
3.900000E+008	4.394846E-002	-3.130821E-003	5.557475E-002	-6.959772E-003	5.562788E-002	-6.930731E-003	-1.141801E-001	1.356184E-002
4.000000E+008	4.390314E-002	-3.292486E-003	5.553037E-002	-7.113969E-003	5.558929E-002	-7.112780E-003	-1.138559E-001	1.388239E-002
4.100000E+008	4.384677E-002	-3.423766E-003	5.549407E-002	-7.282798E-003	5.555410E-002	-7.277165E-003	-1.135666E-001	1.418355E-002
4.200000E+008	4.381551E-002	-3.570273E-003	5.548229E-002	-7.432340E-003	5.552589E-002	-7.454913E-003	-1.133371E-001	1.454270E-002
4.300000E+008	4.378284E-002	-3.692001E-003	5.544478E-002	-7.612479E-003	5.547893E-002	-7.608861E-003	-1.131257E-001	1.494910E-002
4.400000E+008	4.374943E-002	-3.777587E-003	5.540953E-002	-7.784008E-003	5.545531E-002	-7.779790E-003	-1.129164E-001	1.537423E-002
4.500000E+008	4.372777E-002	-3.903523E-003	5.537157E-002	-7.950361E-003	5.541862E-002	-7.948076E-003	-1.127224E-001	1.580876E-002
4.600000E+008	4.371419E-002	-4.000359E-003	5.533901E-002	-8.130367E-003	5.539355E-002	-8.136011E-003	-1.125339E-001	1.624834E-002
4.700000E+008	4.367375E-002	-4.100708E-003	5.529962E-002	-8.292056E-003	5.533948E-002	-8.293342E-003	-1.123468E-001	1.663107E-002
4.800000E+008	4.362074E-002	-4.152065E-003	5.526261E-002	-8.456437E-003	5.528560E-002	-8.443296E-003	-1.121997E-001	1.701173E-002
4.900000E+008	4.355208E-002	-4.232863E-003	5.521978E-002	-8.623076E-003	5.525926E-002	-8.625586E-003	-1.120437E-001	1.738867E-002
5.000000E+008	4.346632E-002	-4.279726E-003	5.518094E-002	-8.785586E-003	5.522069E-002	-8.778912E-003	-1.118627E-001	1.774919E-002
5.100000E+008	4.342217E-002	-4.353536E-003	5.515680E-002	-8.948410E-003	5.518991E-002	-8.944736E-003	-1.116867E-001	1.812205E-002
5.200000E+008	4.333228E-002	-4.461912E-003	5.510885E-002	-9.112983E-003	5.515075E-002	-9.116935E-003	-1.115225E-001	1.847321E-002
5.300000E+008	4.324471E-002	-4.561312E-003	5.506368E-002	-9.281428E-003	5.511067E-002	-9.290308E-003	-1.112575E-001	1.883346E-002
5.400000E+008	4.313813E-002	-4.738124E-003	5.502198E-002	-9.458084E-003	5.506846E-002	-9.458880E-003	-1.110290E-001	1.919042E-002
5.500000E+008	4.305056E-002	-4.844339E-003	5.497201E-002	-9.612088E-003	5.503113E-002	-9.616139E-003	-1.108274E-001	1.956649E-002
5.600000E+008	4.297282E-002	-5.000576E-003	5.492453E-002	-9.783342E-003	5.497457E-002	-9.780931E-003	-1.105859E-001	1.994579E-002
5.700000E+008	4.290081E-002	-5.157969E-003	5.489277E-002	-9.930920E-003	5.493442E-002	-9.940613E-003	-1.104098E-001	2.039366E-002
5.800000E+008	4.285653E-002	-5.298258E-003	5.484771E-002	-1.010496E-002	5.489511E-002	-1.009896E-002	-1.102219E-001	2.080402E-002
5.900000E+008	4.281493E-002	-5.467038E-003	5.480788E-002	-1.028538E-002	5.485054E-002	-1.027806E-002	-1.100466E-001	2.129234E-002
6.000000E+008	4.282659E-002	-5.617758E-003	5.476464E-002	-1.042770E-002	5.480753E-002	-1.044333E-002	-1.098258E-001	2.168029E-002
6.100000E+008	4.283698E-002	-5.741776E-003	5.470833E-002	-1.059666E-002	5.474971E-002	-1.061242E-002	-1.096534E-001	2.211554E-002
6.200000E+008	4.284323E-002	-5.826176E-003	5.466719E-002	-1.075637E-002	5.470708E-002	-1.075419E-002	-1.094739E-001	2.251163E-002
6.300000E+008	4.285934E-002	-5.910190E-003	5.461839E-002	-1.091813E-002	5.466299E-002	-1.092529E-002	-1.092923E-001	2.291487E-002
6.400000E+008	4.288255E-002	-5.967687E-003	5.457332E-002	-1.107775E-002	5.460993E-002	-1.107722E-002	-1.090974E-001	2.332041E-002
6.500000E+008	4.286912E-002	-6.027296E-003	5.451289E-002	-1.124051E-002	5.457012E-002	-1.123452E-002	-1.089235E-001	2.371552E-002
6.600000E+008	4.285839E-002	-6.093684E-003	5.448958E-002	-1.138553E-002	5.452398E-002	-1.138946E-002	-1.087268E-001	2.413464E-002
6.700000E+008	4.278869E-002	-6.144137E-003	5.443788E-002	-1.155986E-002	5.446547E-002	-1.156831E-002	-1.085480E-001	2.454846E-002
6.800000E+008	4.273086E-002	-6.189497E-003	5.439732E-002	-1.171469E-002	5.442117E-002	-1.172347E-002	-1.083577E-001	2.500058E-002
6.900000E+008	4.264096E-002	-6.222976E-003	5.433287E-002	-1.187227E-002	5.437277E-002	-1.188257E-002	-1.081789E-001	2.545473E-002
7.000000E+008	4.259935E-002	-6.284417E-003	5.428649E-002	-1.202471E-002	5.434028E-002	-1.203316E-002	-1.080340E-001	2.589168E-002
7.100000E+008	4.250303E-002	-6.349465E-003	5.423491E-002	-1.218606E-002	5.427656E-002	-1.218941E-002	-1.079129E-001	2.633419E-002
7.200000E+008	4.242866E-002	-6.406771E-003	5.419536E-002	-1.233282E-002	5.423344E-002	-1.234834E-002	-1.077760E-001	2.673906E-002
7.300000E+008	4.235976E-002	-6.506305E-003	5.414709E-002	-1.250219E-002	5.418574E-002	-1.250856E-002	-1.076438E-001	2.713250E-002
7.400000E+008	4.225927E-002	-6.577250E-003	5.409837E-002	-1.266725E-002	5.414037E-002	-1.267348E-002	-1.075464E-001	2.750949E-002
7.500000E+008	4.219308E-002	-6.683180E-003	5.405258E-002	-1.281419E-002	5.408184E-002	-1.282559E-002	-1.074308E-001	2.785656E-002
7.600000E+008	4.212468E-002	-6.788761E-003	5.399599E-002	-1.297570E-002	5.404548E-002	-1.297984E-002	-1.073007E-001	2.820711E-002
7.700000E+008	4.205548E-002	-6.917536E-003	5.392263E-002	-1.311801E-002	5.398431E-002	-1.314582E-002	-1.071316E-001	2.852247E-002
7.800000E+008	4.198650E-002	-7.020564E-003	5.389113E-002	-1.328718E-002	5.393878E-002	-1.330126E-002	-1.069630E-001	2.885221E-002
7.900000E+008	4.192172E-002	-7.161804E-003	5.383808E-002	-1.345269E-002	5.387265E-002	-1.344841E-002	-1.067820E-001	2.920181E-002
8.000000E+008	4.188865E-002	-7.288088E-003	5.378372E-002	-1.359869E-002	5.381663E-002	-1.361667E-002	-1.065522E-001	2.958103E-002
8.100000E+008	4.185643E-002	-7.456233E-003	5.372409E-002	-1.374453E-002	5.376357E-002	-1.376979E-002	-1.063120E-001	2.996044E-002
8.200000E+008	4.187067E-002	-7.544082E-003	5.367300E-002	-1.390387E-002	5.370362E-002	-1.389572E-002	-1.060803E-001	3.032694E-002
8.300000E+008	4.186785E-002	-7.649251E-003	5.360672E-002	-1.405726E-002	5.366277E-002	-1.407496E-002	-1.058601E-001	3.071059E-002
8.400000E+008	4.188060E-002	-7.739037E-003	5.356784E-002	-1.422057E-002	5.360729E-002	-1.422913E-002	-1.056686E-001	3.111112E-002
8.500000E+008	4.190708E-002	-7.802218E-003	5.352019E-002	-1.436514E-002	5.355104E-002	-1.439828E-002	-1.055014E-001	3.151217E-002
8.600000E+008	4.188657E-002	-7.868637E-003	5.344608E-002	-1.452221E-002	5.349318E-002	-1.453917E-002	-1.053461E-001	3.188897E-002
8.700000E+008	4.187989E-002	-7.904991E-003	5.340686E-002	-1.467980E-002	5.343685E-002	-1.468606E-002	-1.051713E-001	3.227451E-002
8.800000E+008	4.186073E-002	-7.930886E-003	5.335903E-002	-1.483110E-002	5.339237E-002	-1.482389E-002	-1.050368E-001	3.263353E-002
8.900000E+008	4.178572E-002	-7.974175E-003	5.329220E-002	-1.497887E-002	5.333420E-002	-1.499762E-002	-1.048731E-001	3.297605E-002
9.000000E+008	4.175459E-002	-8.034416E-003	5.322962E-002	-1.515394E-002	5.327930E-002	-1.514819E-002	-1.046743E-001	3.331456E-002
9.100000E+008	4.166203E-002	-8.087419E-003	5.318041E-002	-1.528580E-002	5.322186E-002	-1.530487E-002	-1.044540E-001	3.361900E-002
9.200000E+008	4.159433E-002	-8.190009E-003	5.311186E-002	-1.544236E-002	5.315940E-002	-1.545194E-002	-1.041899E-001	3.398854E-002
9.300000E+008	4.158295E-002	-8.271876E-003	5.307042E-002	-1.558896E-002	5.310749E-002	-1.560388E-002	-1.039193E-001	3.434051E-002
9.400000E+008	4.154783E-002	-8.359297E-003	5.300452E-002	-1.573558E-002	5.303600E-002	-1.576100E-002	-1.035901E-001	3.471629E-002
9.500000E+008	4.153065E-002	-8.459992E-003	5.294744E-002	-1.589466E-002	5.299489E-002	-1.590940E-002	-1.032738E-001	3.516565E-002
9.600000E+008	4.150834E-002	-8.526034E-003	5.288038E-002	-1.604840E-002	5.294074E-002	-1.605063E-002	-1.029559E-001	3.557117E-002
9.700000E+008	4.152190E-002	-8.588630E-003	5.281748E-002	-1.619578E-002	5.286613E-002	-1.621819E-002	-1.026530E-001	3.602566E-002
9.800000E+008	4.153294E-002	-8.628224E-003	5.277894E-002	-1.633982E-002	5.282524E-002	-1.636531E-002	-1.023879E-001	3.649945E-002
9.900000E+008	4.153151E-002	-8.678503E-003	5.271483E-002	-1.650659E-002	5.276427E-002	-1.651216E-002	-1.021362E-001	3.695025E-002
1.000000E+009	4.151347E-002	-8.690160E-003	5.266138E-002	-1.665319E-002	5.269534E-002	-1.665776E-002	-1.019338E-001	3.736424E-002
1.010000E+009	4.147442E-002	-8.689165E-003	5.260667E-002	-1.679915E-002	5.263973E-002	-1.682469E-002	-1.017039E-001	3.783798E-002
1.020000E+009	4.142129E-002	-8.735327E-003	5.253221E-002	-1.694649E-002	5.258279E-002	-1.697000E-002	-1.015095E-001	3.828205E-002
1.030000E+009	4.139307E-002	-8.753299E-003	5.248484E-002	-1.711860E-002	5.251831E-002	-1.712333E-002	-1.013029E-001	3.871768E-002
1.040000E+009	4.133040E-002	-8.775398E-003	5.241770E-002	-1.725678E-002	5.246897E-002	-1.726716E-002	-1.010912E-001	3.913329E-002
1.050000E+009	4.130558E-002	-8.814437E-003	5.236448E-002	-1.739884E-002	5.239734E-002	-1.743139E-002	-1.008517E-001	3.960597E-002
1.060000E+009	4.127847E-002	-8.846548E-003	5.229694E-002	-1.756238E-002	5.233754E-002	-1.756239E-002	-1.005964E-001	4.002299E-002
1.070000E+009	4.120983E-002	-8.895351E-003	5.222309E-002	-1.769138E-002	5.227707E-002	-1.771403E-002	-1.003446E-001	4.047404E-002
1.080000E+009	4.115757E-002	-8.921293E-003	5.217201E-002	-1.785525E-002	5.221693E-002	-1.785505E-002	-1.000702E-001	4.093387E-002
1.090000E+009	4.112617E-002	-8.974626E-003	5.211653E-002	-1.798963E-002	5.216029E-002	-1.800851E-002	-9.985292E-002	4.136997E-002
1.100000E+009	4.109309E-002	-9.003779E-003	5.204592E-002	-1.815813E-002	5.209358E-002	-1.814845E-002	-9.963094E-002	4.183380E-002
1.110000E+009	4.103634E-002	-9.043977E-003	5.199409E-002	-1.828706E-002	5.203713E-002	-1.829975E-002	-9.940947E-002	4.225187E-002
1.120000E+009	4.097823E-002	-9.083754E-003	5.191516E-002	-1.843849E-002	5.198162E-002	-1.845188E-002	-9.923432E-002	4.267432E-002
1.130000E+009	4.094171E-002	-9.120426E-003	5.186930E-002	-1.859345E-002	5.189966E-002	-1.861936E-002	-9.904086E-002	4.308218E-002
1.140000E+009	4.087298E-002	-9.167358E-003	5.179750E-002	-1.874563E-002	5.184730E-002	-1.876733E-002	-9.882757E-002	4.351894E-002
1.150000E+009	4.084962E-002	-9.215898E-003	5.173142E-002	-1.888690E-002	5.177106E-002	-1.890239E-002	-9.855791E-002	4.393635E-002
1.160000E+009	4.078605E-002	-9.245181E-003	5.165145E-002	-1.904109E-002	5.170047E-002	-1.905711E-002	-9.832872E-002	4.433654E-002
1.170000E+009	4.075084E-002	-9.290007E-003	5.159555E-002	-1.919508E-002	5.162756E-002	-1.920904E-002	-9.807778E-002	4.479508E-002
1.180000E+009	4.070676E-002	-9.322494E-003	5.152598E-002	-1.934220E-002	5.157005E-002	-1.935731E-002	-9.779054E-002	4.523295E-002
1.190000E+009	4.063569E-002	-9.355197E-003	5.146257E-002	-1.948181E-002	5.149413E-002	-1.950095E-002	-9.750929E-002	4.570145E-002
1.200000E+009	4.057709E-002	-9.403100E-003	5.139321E-002	-1.963482E-002	5.143429E-002	-1.962758E-002	-9.724691E-002	4.617548E-002
1.210000E+009	4.054967E-002	-9.485008E-003	5.130921E-002	-1.977029E-002	5.137280E-002	-1.979263E-002	-9.702135E-002	4.663951E-002
1.220000E+009	4.050151E-002	-9.553329E-003	5.123070E-002	-1.991059E-002	5.129453E-002	-1.993148E-002	-9.678917E-002	4.709766E-002
1.230000E+009	4.045997E-002	-9.626985E-003	5.117026E-002	-2.007061E-002	5.122860E-002	-2.008359E-002	-9.658482E-002	4.752598E-002
1.240000E+009	4.042488E-002	-9.704037E-003	5.109575E-002	-2.020270E-002	5.115330E-002	-2.021720E-002	-9.639342E-002	4.792254E-002
1.250000E+009	4.043140E-002	-9.778247E-003	5.103432E-002	-2.037818E-002	5.109877E-002	-2.036887E-002	-9.618841E-002	4.833600E-002
1.260000E+009	4.038609E-002	-9.827968E-003	5.097168E-002	-2.050061E-002	5.100941E-002	-2.053172E-002	-9.593262E-002	4.868582E-002
1.270000E+009	4.042965E-002	-9.883051E-003	5.090496E-002	-2.064759E-002	5.093946E-002	-2.066666E-002	-9.567506E-002	4.905911E-002
1.280000E+009	4.043119E-002	-9.931451E-003	5.082903E-002	-2.079750E-002	5.087277E-002	-2.081602E-002	-9.539884E-002	4.942387E-002
1.290000E+009	4.044785E-002	-9.975001E-003	5.074889E-002	-2.095159E-002	5.080321E-002	-2.095711E-002	-9.506632E-002	4.978879E-002
1.300000E+009	4.043009E-002	-9.969199E-003	5.067417E-002	-2.108864E-002	5.072364E-002	-2.110019E-002	-9.473589E-002	5.018853E-002
1.310000E+009	4.044420E-002	-9.971854E-003	5.058175E-002	-2.123000E-002	5.065415E-002	-2.126122E-002	-9.441105E-002	5.058755E-002
1.320000E+009	4.040274E-002	-9.984300E-003	5.053287E-002	-2.139614E-002	5.057956E-002	-2.140831E-002	-9.401118E-002	5.106133E-002
1.330000E+009	4.038219E-002	-9.967632E-003	5.045768E-002	-2.153274E-002	5.050238E-002	-2.154922E-002	-9.360694E-002	5.155326E-002
1.340000E+009	4.034355E-002	-9.961530E-003	5.038101E-002	-2.166133E-002	5.042254E-002	-2.169055E-002	-9.324660E-002	5.207539E-002
1.350000E+009	4.026525E-002	-9.989109E-003	5.031179E-002	-2.180439E-002	5.034521E-002	-2.184591E-002	-9.290131E-002	5.260895E-002
1.360000E+009	4.027176E-002	-9.991917E-003	5.021646E-002	-2.197683E-002	5.026066E-002	-2.198060E-002	-9.253850E-002	5.316348E-002
1.370000E+009	4.023012E-002	-9.992542E-003	5.015170E-002	-2.211326E-002	5.019521E-002	-2.213569E-002	-9.225277E-002	5.371734E-002
1.380000E+009	4.020081E-002	-1.002244E-002	5.006768E-002	-2.225399E-002	5.010809E-002	-2.227342E-002	-9.193635E-002	5.427312E-002
1.390000E+009	4.019278E-002	-1.005107E-002	4.998336E-002	-2.239498E-002	5.003854E-002	-2.239957E-002	-9.168923E-002	5.487995E-002
1.400000E+009	4.014776E-002	-1.007943E-002	4.991136E-002	-2.254214E-002	4.995391E-002	-2.255159E-002	-9.140446E-002	5.538765E-002
1.410000E+009	4.010498E-002	-1.007159E-002	4.983370E-002	-2.270107E-002	4.986723E-002	-2.267989E-002	-9.113254E-002	5.593695E-002
1.420000E+009	4.005340E-002	-1.006295E-002	4.975106E-002	-2.282436E-002	4.978995E-002	-2.282685E-002	-9.088464E-002	5.641868E-002
1.430000E+009	4.004347E-002	-1.006826E-002	4.966704E-002	-2.296391E-002	4.972263E-002	-2.298045E-002	-9.060266E-002	5.691123E-002
1.440000E+009	3.998876E-002	-1.008033E-002	4.959623E-002	-2.309760E-002	4.963791E-002	-2.309962E-002	-9.033106E-002	5.739115E-002
1.450000E+009	3.992605E-002	-1.007630E-002	4.950576E-002	-2.322518E-002	4.957212E-002	-2.323848E-002	-9.002279E-002	5.788295E-002
1.460000E+009	3.985560E-002	-1.009575E-002	4.942167E-002	-2.339456E-002	4.946510E-002	-2.340064E-002	-8.971303E-002	5.837421E-002
1.470000E+009	3.981048E-002	-1.012648E-002	4.933954E-002	-2.351726E-002	4.937900E-002	-2.352698E-002	-8.938726E-002	5.888367E-002
1.480000E+009	3.975980E-002	-1.011913E-002	4.925054E-002	-2.364416E-002	4.929429E-002	-2.367364E-002	-8.904911E-002	5.945026E-002
1.490000E+009	3.971797E-002	-1.016053E-002	4.916154E-002	-2.380088E-002	4.922814E-002	-2.380746E-002	-8.872677E-002	5.998101E-002
1.500000E+009	3.968172E-002	-1.019104E-002	4.909824E-002	-2.392804E-002	4.913952E-002	-2.393850E-002	-8.835882E-002	6.056517E-002
