! Device ID: PE43711P
! File Path: z:\PE43711P\CHAR_NOM_04282014\AMB\3p300\LS_ATT_29p25dB\PE43711P_AMB_3p300V_3p000V_0p000V_LS_ATT_29p25dB_S2P_SN_5_A0137A.s2p
! Serial: 5
! Lot: A0137A
! Temp: 25C
! VDD: 3.300
! VSS: 0.000
! Control_Hi: 3.000
! Control_Lo: 0.000
! Attenuation Step: 29.25dB
! Port 1: RF1
! Port 2: RF2
! ThroughPath:1-2
! IDD: 0.0001278424
! ISS: -1.121e-007
!

#  Hz  S   RI  R   50

1.000000E+007	1.960047E-002	5.476145E-004	2.981651E-002	-1.095949E-004	2.983732E-002	-1.237154E-004	-1.147503E-001	9.156501E-004
2.000000E+007	1.985194E-002	7.500462E-004	2.981213E-002	-1.662043E-004	2.982892E-002	-1.702438E-004	-1.144126E-001	1.513075E-003
3.000000E+007	2.010811E-002	9.386815E-004	2.982032E-002	-2.487417E-004	2.984095E-002	-2.548359E-004	-1.141108E-001	2.008199E-003
4.000000E+007	2.028517E-002	1.112880E-003	2.982702E-002	-3.385741E-004	2.983092E-002	-3.388251E-004	-1.139521E-001	2.576525E-003
5.000000E+007	2.039691E-002	1.285603E-003	2.980560E-002	-4.325638E-004	2.982504E-002	-4.167360E-004	-1.139105E-001	3.134681E-003
6.000000E+007	2.056705E-002	1.401799E-003	2.980408E-002	-5.145054E-004	2.982956E-002	-5.181694E-004	-1.137737E-001	3.605669E-003
7.000000E+007	2.070338E-002	1.512537E-003	2.979423E-002	-6.020061E-004	2.981650E-002	-5.987045E-004	-1.135953E-001	4.048276E-003
8.000000E+007	2.085002E-002	1.599501E-003	2.980122E-002	-6.805562E-004	2.980702E-002	-6.806845E-004	-1.134423E-001	4.486493E-003
9.000000E+007	2.098425E-002	1.712952E-003	2.979226E-002	-7.629166E-004	2.982745E-002	-7.641512E-004	-1.133285E-001	4.869087E-003
1.000000E+008	2.112458E-002	1.808910E-003	2.979411E-002	-8.441736E-004	2.981879E-002	-8.427427E-004	-1.132703E-001	5.277896E-003
1.100000E+008	2.126919E-002	1.887391E-003	2.979315E-002	-9.372349E-004	2.980572E-002	-9.307098E-004	-1.131746E-001	5.645494E-003
1.200000E+008	2.142979E-002	1.946778E-003	2.977329E-002	-1.030529E-003	2.980244E-002	-1.016024E-003	-1.130931E-001	5.970423E-003
1.300000E+008	2.157274E-002	2.022662E-003	2.977552E-002	-1.098454E-003	2.979236E-002	-1.111202E-003	-1.129614E-001	6.309770E-003
1.400000E+008	2.168134E-002	2.137749E-003	2.976333E-002	-1.183343E-003	2.979119E-002	-1.182904E-003	-1.128584E-001	6.660709E-003
1.500000E+008	2.173616E-002	2.253633E-003	2.975289E-002	-1.267387E-003	2.977221E-002	-1.268913E-003	-1.127785E-001	6.991662E-003
1.600000E+008	2.182629E-002	2.401386E-003	2.975153E-002	-1.347565E-003	2.976755E-002	-1.344604E-003	-1.126963E-001	7.331397E-003
1.700000E+008	2.193650E-002	2.492755E-003	2.974802E-002	-1.433355E-003	2.978194E-002	-1.431858E-003	-1.126250E-001	7.678611E-003
1.800000E+008	2.200704E-002	2.597045E-003	2.973212E-002	-1.530004E-003	2.976380E-002	-1.523368E-003	-1.125263E-001	8.017447E-003
1.900000E+008	2.201924E-002	2.673032E-003	2.971646E-002	-1.606452E-003	2.975159E-002	-1.603967E-003	-1.124798E-001	8.289960E-003
2.000000E+008	2.200724E-002	2.719926E-003	2.971922E-002	-1.682199E-003	2.974319E-002	-1.685066E-003	-1.124312E-001	8.536846E-003
2.100000E+008	2.201383E-002	2.705213E-003	2.971658E-002	-1.767125E-003	2.972084E-002	-1.772209E-003	-1.123532E-001	8.744432E-003
2.200000E+008	2.203308E-002	2.713157E-003	2.969942E-002	-1.842323E-003	2.971638E-002	-1.834337E-003	-1.122555E-001	8.944494E-003
2.300000E+008	2.206926E-002	2.720013E-003	2.969071E-002	-1.926387E-003	2.970822E-002	-1.911179E-003	-1.121143E-001	9.158574E-003
2.400000E+008	2.213113E-002	2.733689E-003	2.968426E-002	-1.993181E-003	2.970060E-002	-2.005849E-003	-1.119657E-001	9.416136E-003
2.500000E+008	2.219249E-002	2.745901E-003	2.967280E-002	-2.092791E-003	2.968339E-002	-2.085421E-003	-1.117582E-001	9.656338E-003
2.600000E+008	2.230227E-002	2.756176E-003	2.966571E-002	-2.177696E-003	2.968499E-002	-2.163589E-003	-1.115516E-001	9.973807E-003
2.700000E+008	2.242086E-002	2.806718E-003	2.963282E-002	-2.249470E-003	2.967802E-002	-2.255256E-003	-1.113133E-001	1.030957E-002
2.800000E+008	2.254448E-002	2.852168E-003	2.963735E-002	-2.339385E-003	2.966390E-002	-2.326874E-003	-1.111171E-001	1.063219E-002
2.900000E+008	2.261893E-002	2.920546E-003	2.962161E-002	-2.408807E-003	2.963977E-002	-2.397011E-003	-1.109813E-001	1.097997E-002
3.000000E+008	2.268936E-002	3.028193E-003	2.962038E-002	-2.494124E-003	2.964191E-002	-2.479333E-003	-1.108450E-001	1.134951E-002
3.100000E+008	2.272670E-002	3.136515E-003	2.960840E-002	-2.574221E-003	2.963526E-002	-2.555926E-003	-1.107254E-001	1.174333E-002
3.200000E+008	2.277275E-002	3.261588E-003	2.959316E-002	-2.658930E-003	2.961391E-002	-2.653146E-003	-1.106333E-001	1.210643E-002
3.300000E+008	2.276785E-002	3.370696E-003	2.958526E-002	-2.752912E-003	2.959517E-002	-2.731645E-003	-1.105613E-001	1.245574E-002
3.400000E+008	2.276011E-002	3.448686E-003	2.957289E-002	-2.819511E-003	2.959148E-002	-2.825579E-003	-1.104296E-001	1.272967E-002
3.500000E+008	2.271970E-002	3.503867E-003	2.954737E-002	-2.897212E-003	2.955887E-002	-2.893653E-003	-1.102819E-001	1.298219E-002
3.600000E+008	2.269593E-002	3.573432E-003	2.953741E-002	-2.980291E-003	2.953720E-002	-2.976161E-003	-1.101289E-001	1.328513E-002
3.700000E+008	2.266838E-002	3.598849E-003	2.951474E-002	-3.055601E-003	2.953979E-002	-3.044225E-003	-1.099190E-001	1.353023E-002
3.800000E+008	2.267605E-002	3.633714E-003	2.950275E-002	-3.145909E-003	2.951909E-002	-3.121356E-003	-1.097237E-001	1.382156E-002
3.900000E+008	2.264588E-002	3.628702E-003	2.948981E-002	-3.229436E-003	2.949357E-002	-3.195033E-003	-1.094502E-001	1.416192E-002
4.000000E+008	2.269135E-002	3.621787E-003	2.946865E-002	-3.287738E-003	2.948799E-002	-3.301579E-003	-1.091400E-001	1.449905E-002
4.100000E+008	2.269803E-002	3.623930E-003	2.945002E-002	-3.360373E-003	2.948958E-002	-3.360992E-003	-1.088598E-001	1.483650E-002
4.200000E+008	2.272438E-002	3.622244E-003	2.945426E-002	-3.432029E-003	2.946474E-002	-3.440579E-003	-1.086550E-001	1.523620E-002
4.300000E+008	2.275714E-002	3.638391E-003	2.943532E-002	-3.521648E-003	2.945493E-002	-3.514764E-003	-1.084544E-001	1.564956E-002
4.400000E+008	2.281272E-002	3.689673E-003	2.941290E-002	-3.596328E-003	2.943497E-002	-3.595294E-003	-1.082726E-001	1.611631E-002
4.500000E+008	2.285104E-002	3.716742E-003	2.940230E-002	-3.677499E-003	2.943215E-002	-3.681348E-003	-1.080796E-001	1.657959E-002
4.600000E+008	2.290058E-002	3.762485E-003	2.938708E-002	-3.755834E-003	2.941124E-002	-3.754728E-003	-1.078847E-001	1.703464E-002
4.700000E+008	2.293168E-002	3.796961E-003	2.938310E-002	-3.836298E-003	2.939084E-002	-3.832420E-003	-1.077297E-001	1.745020E-002
4.800000E+008	2.296510E-002	3.879854E-003	2.935400E-002	-3.894615E-003	2.937827E-002	-3.907954E-003	-1.075688E-001	1.787973E-002
4.900000E+008	2.294739E-002	3.953013E-003	2.934758E-002	-3.984651E-003	2.935178E-002	-3.991523E-003	-1.074302E-001	1.829058E-002
5.000000E+008	2.296724E-002	4.014043E-003	2.931381E-002	-4.064306E-003	2.933957E-002	-4.070111E-003	-1.072659E-001	1.867253E-002
5.100000E+008	2.297448E-002	4.074670E-003	2.930589E-002	-4.135522E-003	2.933572E-002	-4.131373E-003	-1.070909E-001	1.907169E-002
5.200000E+008	2.295863E-002	4.117313E-003	2.928238E-002	-4.214914E-003	2.931186E-002	-4.215946E-003	-1.069256E-001	1.947271E-002
5.300000E+008	2.293005E-002	4.136493E-003	2.926976E-002	-4.290346E-003	2.928269E-002	-4.304155E-003	-1.066989E-001	1.985896E-002
5.400000E+008	2.290609E-002	4.116392E-003	2.924464E-002	-4.370692E-003	2.927087E-002	-4.378437E-003	-1.064847E-001	2.024294E-002
5.500000E+008	2.288578E-002	4.135263E-003	2.923548E-002	-4.450605E-003	2.925203E-002	-4.464497E-003	-1.062670E-001	2.067152E-002
5.600000E+008	2.288456E-002	4.109530E-003	2.921681E-002	-4.514747E-003	2.923366E-002	-4.527684E-003	-1.060388E-001	2.107071E-002
5.700000E+008	2.288724E-002	4.068365E-003	2.918929E-002	-4.597841E-003	2.920900E-002	-4.601443E-003	-1.058796E-001	2.154141E-002
5.800000E+008	2.291530E-002	4.045869E-003	2.917142E-002	-4.671163E-003	2.917893E-002	-4.669415E-003	-1.056874E-001	2.199347E-002
5.900000E+008	2.293956E-002	4.012341E-003	2.915334E-002	-4.760998E-003	2.917072E-002	-4.762654E-003	-1.055107E-001	2.249793E-002
6.000000E+008	2.303951E-002	3.984174E-003	2.914284E-002	-4.831924E-003	2.915791E-002	-4.832299E-003	-1.053065E-001	2.295199E-002
6.100000E+008	2.312403E-002	3.988187E-003	2.911153E-002	-4.912314E-003	2.913895E-002	-4.911422E-003	-1.051439E-001	2.339569E-002
6.200000E+008	2.321136E-002	4.028254E-003	2.910386E-002	-4.982531E-003	2.911389E-002	-4.989311E-003	-1.049637E-001	2.384933E-002
6.300000E+008	2.330539E-002	4.061067E-003	2.907182E-002	-5.058924E-003	2.909204E-002	-5.049057E-003	-1.047938E-001	2.427995E-002
6.400000E+008	2.340476E-002	4.120767E-003	2.905930E-002	-5.125738E-003	2.906305E-002	-5.144137E-003	-1.046185E-001	2.472600E-002
6.500000E+008	2.347033E-002	4.192770E-003	2.903444E-002	-5.197172E-003	2.906081E-002	-5.198784E-003	-1.044342E-001	2.517773E-002
6.600000E+008	2.352173E-002	4.247910E-003	2.901889E-002	-5.281223E-003	2.902815E-002	-5.280757E-003	-1.042290E-001	2.560845E-002
6.700000E+008	2.353168E-002	4.327949E-003	2.898340E-002	-5.363291E-003	2.902153E-002	-5.344064E-003	-1.040684E-001	2.607692E-002
6.800000E+008	2.354475E-002	4.384481E-003	2.896990E-002	-5.423255E-003	2.900014E-002	-5.435684E-003	-1.038818E-001	2.655256E-002
6.900000E+008	2.355656E-002	4.477077E-003	2.894866E-002	-5.496756E-003	2.896044E-002	-5.502223E-003	-1.036870E-001	2.703755E-002
7.000000E+008	2.356821E-002	4.533202E-003	2.892647E-002	-5.580424E-003	2.894392E-002	-5.569607E-003	-1.035414E-001	2.751514E-002
7.100000E+008	2.357725E-002	4.575732E-003	2.890462E-002	-5.651354E-003	2.892821E-002	-5.651663E-003	-1.034168E-001	2.798377E-002
7.200000E+008	2.357838E-002	4.618001E-003	2.889604E-002	-5.726906E-003	2.890587E-002	-5.710436E-003	-1.032904E-001	2.845520E-002
7.300000E+008	2.357099E-002	4.640001E-003	2.887691E-002	-5.788249E-003	2.889236E-002	-5.792528E-003	-1.031686E-001	2.887364E-002
7.400000E+008	2.356628E-002	4.674384E-003	2.884274E-002	-5.864893E-003	2.886784E-002	-5.868601E-003	-1.030749E-001	2.928843E-002
7.500000E+008	2.357768E-002	4.703172E-003	2.883622E-002	-5.934012E-003	2.884999E-002	-5.933036E-003	-1.029488E-001	2.968577E-002
7.600000E+008	2.358349E-002	4.718140E-003	2.880330E-002	-6.017392E-003	2.882861E-002	-6.008828E-003	-1.028007E-001	3.008185E-002
7.700000E+008	2.359007E-002	4.694312E-003	2.877185E-002	-6.078112E-003	2.880985E-002	-6.094472E-003	-1.026571E-001	3.043302E-002
7.800000E+008	2.362221E-002	4.685650E-003	2.875245E-002	-6.162758E-003	2.878274E-002	-6.164028E-003	-1.024851E-001	3.080985E-002
7.900000E+008	2.362099E-002	4.662645E-003	2.872526E-002	-6.218767E-003	2.876561E-002	-6.249022E-003	-1.023256E-001	3.117808E-002
8.000000E+008	2.365869E-002	4.638636E-003	2.872768E-002	-6.318340E-003	2.873366E-002	-6.335183E-003	-1.020746E-001	3.160147E-002
8.100000E+008	2.370081E-002	4.599922E-003	2.868966E-002	-6.379885E-003	2.870894E-002	-6.389057E-003	-1.018259E-001	3.202199E-002
8.200000E+008	2.379061E-002	4.611014E-003	2.866479E-002	-6.458196E-003	2.869975E-002	-6.461679E-003	-1.015742E-001	3.241682E-002
8.300000E+008	2.388490E-002	4.600039E-003	2.863654E-002	-6.537074E-003	2.866359E-002	-6.529944E-003	-1.013577E-001	3.288156E-002
8.400000E+008	2.397492E-002	4.622340E-003	2.861726E-002	-6.595241E-003	2.864681E-002	-6.597383E-003	-1.011487E-001	3.328956E-002
8.500000E+008	2.407258E-002	4.660629E-003	2.859439E-002	-6.668988E-003	2.861287E-002	-6.673823E-003	-1.009868E-001	3.373144E-002
8.600000E+008	2.414323E-002	4.696957E-003	2.856135E-002	-6.736949E-003	2.859250E-002	-6.737265E-003	-1.008476E-001	3.415867E-002
8.700000E+008	2.420200E-002	4.794570E-003	2.855975E-002	-6.799405E-003	2.857279E-002	-6.822336E-003	-1.006658E-001	3.457874E-002
8.800000E+008	2.427152E-002	4.863586E-003	2.852428E-002	-6.886644E-003	2.854474E-002	-6.875811E-003	-1.005311E-001	3.496431E-002
8.900000E+008	2.429520E-002	4.915962E-003	2.849745E-002	-6.949569E-003	2.851588E-002	-6.958505E-003	-1.003659E-001	3.534934E-002
9.000000E+008	2.434365E-002	4.965477E-003	2.847929E-002	-7.024874E-003	2.851116E-002	-7.031105E-003	-1.001563E-001	3.573270E-002
9.100000E+008	2.433784E-002	5.003628E-003	2.845155E-002	-7.092182E-003	2.847947E-002	-7.111137E-003	-9.991421E-002	3.608886E-002
9.200000E+008	2.434778E-002	5.021243E-003	2.842184E-002	-7.179101E-003	2.845477E-002	-7.168339E-003	-9.965981E-002	3.647333E-002
9.300000E+008	2.440255E-002	5.020067E-003	2.839787E-002	-7.235190E-003	2.842054E-002	-7.247940E-003	-9.935896E-002	3.688148E-002
9.400000E+008	2.445694E-002	5.028684E-003	2.838899E-002	-7.306114E-003	2.840477E-002	-7.308146E-003	-9.902672E-002	3.730020E-002
9.500000E+008	2.454302E-002	5.023251E-003	2.836449E-002	-7.380942E-003	2.838323E-002	-7.382428E-003	-9.869676E-002	3.777706E-002
9.600000E+008	2.457951E-002	5.072028E-003	2.832813E-002	-7.441765E-003	2.834464E-002	-7.456761E-003	-9.836121E-002	3.825600E-002
9.700000E+008	2.466622E-002	5.100407E-003	2.828950E-002	-7.518035E-003	2.832292E-002	-7.523593E-003	-9.805789E-002	3.873475E-002
9.800000E+008	2.476547E-002	5.167908E-003	2.827371E-002	-7.583846E-003	2.830938E-002	-7.574002E-003	-9.778883E-002	3.924446E-002
9.900000E+008	2.483993E-002	5.235812E-003	2.825788E-002	-7.666959E-003	2.829203E-002	-7.673096E-003	-9.751235E-002	3.975237E-002
1.000000E+009	2.489479E-002	5.310944E-003	2.823669E-002	-7.744817E-003	2.826013E-002	-7.732846E-003	-9.729907E-002	4.022190E-002
1.010000E+009	2.496167E-002	5.386511E-003	2.820125E-002	-7.810510E-003	2.823002E-002	-7.800869E-003	-9.706093E-002	4.070778E-002
1.020000E+009	2.500399E-002	5.449282E-003	2.818276E-002	-7.869564E-003	2.820851E-002	-7.880204E-003	-9.687312E-002	4.117936E-002
1.030000E+009	2.504712E-002	5.534089E-003	2.815372E-002	-7.945051E-003	2.817855E-002	-7.950307E-003	-9.663833E-002	4.164008E-002
1.040000E+009	2.505459E-002	5.608759E-003	2.812941E-002	-8.012925E-003	2.815814E-002	-8.020048E-003	-9.641702E-002	4.210857E-002
1.050000E+009	2.512485E-002	5.654758E-003	2.811304E-002	-8.080989E-003	2.813327E-002	-8.091004E-003	-9.615013E-002	4.263020E-002
1.060000E+009	2.515443E-002	5.707865E-003	2.809105E-002	-8.149989E-003	2.809050E-002	-8.146320E-003	-9.589441E-002	4.309712E-002
1.070000E+009	2.518002E-002	5.757791E-003	2.806188E-002	-8.222884E-003	2.808579E-002	-8.206317E-003	-9.561944E-002	4.359663E-002
1.080000E+009	2.521368E-002	5.820666E-003	2.804240E-002	-8.288760E-003	2.804903E-002	-8.290933E-003	-9.533047E-002	4.408893E-002
1.090000E+009	2.526020E-002	5.866565E-003	2.799945E-002	-8.362593E-003	2.802874E-002	-8.361856E-003	-9.509219E-002	4.457020E-002
1.100000E+009	2.528239E-002	5.932958E-003	2.799092E-002	-8.428359E-003	2.800058E-002	-8.428551E-003	-9.486783E-002	4.505942E-002
1.110000E+009	2.534454E-002	5.974594E-003	2.796251E-002	-8.498860E-003	2.798731E-002	-8.491350E-003	-9.462647E-002	4.553255E-002
1.120000E+009	2.534612E-002	6.030519E-003	2.790335E-002	-8.561967E-003	2.794297E-002	-8.568734E-003	-9.443568E-002	4.597127E-002
1.130000E+009	2.539922E-002	6.070111E-003	2.790015E-002	-8.636058E-003	2.792375E-002	-8.637756E-003	-9.422098E-002	4.643000E-002
1.140000E+009	2.542449E-002	6.125474E-003	2.787522E-002	-8.723277E-003	2.790356E-002	-8.706059E-003	-9.396964E-002	4.689680E-002
1.150000E+009	2.546505E-002	6.173348E-003	2.783795E-002	-8.777166E-003	2.788082E-002	-8.760679E-003	-9.370160E-002	4.733518E-002
1.160000E+009	2.549680E-002	6.222710E-003	2.780980E-002	-8.845620E-003	2.785543E-002	-8.843327E-003	-9.346755E-002	4.780692E-002
1.170000E+009	2.555310E-002	6.288408E-003	2.777631E-002	-8.928160E-003	2.782693E-002	-8.929750E-003	-9.317691E-002	4.829294E-002
1.180000E+009	2.561158E-002	6.333908E-003	2.775876E-002	-9.000945E-003	2.777269E-002	-9.000964E-003	-9.288040E-002	4.877364E-002
1.190000E+009	2.561743E-002	6.402911E-003	2.773033E-002	-9.066724E-003	2.775651E-002	-9.057644E-003	-9.261319E-002	4.928215E-002
1.200000E+009	2.562550E-002	6.418807E-003	2.769127E-002	-9.138552E-003	2.773226E-002	-9.132333E-003	-9.230061E-002	4.979273E-002
1.210000E+009	2.569400E-002	6.440587E-003	2.766139E-002	-9.183922E-003	2.768945E-002	-9.202197E-003	-9.204991E-002	5.030577E-002
1.220000E+009	2.572740E-002	6.458792E-003	2.763397E-002	-9.274468E-003	2.766619E-002	-9.269649E-003	-9.181463E-002	5.079933E-002
1.230000E+009	2.575748E-002	6.487134E-003	2.761506E-002	-9.325590E-003	2.764265E-002	-9.344800E-003	-9.157764E-002	5.122879E-002
1.240000E+009	2.581879E-002	6.498838E-003	2.758131E-002	-9.401157E-003	2.762103E-002	-9.415825E-003	-9.136124E-002	5.168745E-002
1.250000E+009	2.590117E-002	6.500302E-003	2.754887E-002	-9.467769E-003	2.759008E-002	-9.470248E-003	-9.113499E-002	5.213792E-002
1.260000E+009	2.597012E-002	6.518474E-003	2.752477E-002	-9.550894E-003	2.754316E-002	-9.540312E-003	-9.085531E-002	5.254363E-002
1.270000E+009	2.609438E-002	6.556441E-003	2.750055E-002	-9.629155E-003	2.751696E-002	-9.605258E-003	-9.057496E-002	5.294029E-002
1.280000E+009	2.617667E-002	6.597084E-003	2.747662E-002	-9.677286E-003	2.748771E-002	-9.673966E-003	-9.027252E-002	5.334156E-002
1.290000E+009	2.626609E-002	6.659415E-003	2.743690E-002	-9.741845E-003	2.746349E-002	-9.735743E-003	-8.993377E-002	5.373358E-002
1.300000E+009	2.635229E-002	6.761411E-003	2.739459E-002	-9.825138E-003	2.743521E-002	-9.833007E-003	-8.957052E-002	5.417641E-002
1.310000E+009	2.641714E-002	6.805921E-003	2.736001E-002	-9.883720E-003	2.740596E-002	-9.906051E-003	-8.922244E-002	5.462121E-002
1.320000E+009	2.646745E-002	6.907526E-003	2.734268E-002	-9.959058E-003	2.737247E-002	-9.950053E-003	-8.880914E-002	5.513826E-002
1.330000E+009	2.655022E-002	7.006940E-003	2.730759E-002	-1.002727E-002	2.734273E-002	-1.002469E-002	-8.839962E-002	5.566442E-002
1.340000E+009	2.658393E-002	7.076467E-003	2.728425E-002	-1.008653E-002	2.731050E-002	-1.011000E-002	-8.801327E-002	5.619846E-002
1.350000E+009	2.661857E-002	7.154139E-003	2.726367E-002	-1.017411E-002	2.726825E-002	-1.016443E-002	-8.762852E-002	5.677979E-002
1.360000E+009	2.670413E-002	7.217028E-003	2.720829E-002	-1.023804E-002	2.724114E-002	-1.024090E-002	-8.725330E-002	5.738454E-002
1.370000E+009	2.674584E-002	7.297469E-003	2.718833E-002	-1.030687E-002	2.721686E-002	-1.030503E-002	-8.693038E-002	5.797207E-002
1.380000E+009	2.681366E-002	7.355461E-003	2.716068E-002	-1.036471E-002	2.718238E-002	-1.036592E-002	-8.659688E-002	5.854069E-002
1.390000E+009	2.687346E-002	7.411420E-003	2.711649E-002	-1.044001E-002	2.714714E-002	-1.044490E-002	-8.628213E-002	5.916133E-002
1.400000E+009	2.694135E-002	7.463852E-003	2.708105E-002	-1.050454E-002	2.710083E-002	-1.052065E-002	-8.600720E-002	5.974218E-002
1.410000E+009	2.697881E-002	7.557599E-003	2.704613E-002	-1.057509E-002	2.706522E-002	-1.056709E-002	-8.571104E-002	6.033064E-002
1.420000E+009	2.701344E-002	7.643269E-003	2.702179E-002	-1.064368E-002	2.703680E-002	-1.063515E-002	-8.544128E-002	6.085762E-002
1.430000E+009	2.709206E-002	7.732356E-003	2.698091E-002	-1.071923E-002	2.700680E-002	-1.069602E-002	-8.512809E-002	6.140265E-002
1.440000E+009	2.711377E-002	7.792831E-003	2.693940E-002	-1.078432E-002	2.697188E-002	-1.077351E-002	-8.484380E-002	6.189558E-002
1.450000E+009	2.715631E-002	7.864459E-003	2.689454E-002	-1.083853E-002	2.693296E-002	-1.083954E-002	-8.449843E-002	6.242842E-002
1.460000E+009	2.715753E-002	7.927529E-003	2.687066E-002	-1.090963E-002	2.688751E-002	-1.090362E-002	-8.416162E-002	6.293379E-002
1.470000E+009	2.721568E-002	7.974461E-003	2.684199E-002	-1.096965E-002	2.685037E-002	-1.097159E-002	-8.381739E-002	6.348873E-002
1.480000E+009	2.723927E-002	8.037931E-003	2.680194E-002	-1.102688E-002	2.682473E-002	-1.104004E-002	-8.343329E-002	6.406769E-002
1.490000E+009	2.730481E-002	8.097334E-003	2.675440E-002	-1.110195E-002	2.678803E-002	-1.111333E-002	-8.307298E-002	6.465211E-002
1.500000E+009	2.737427E-002	8.139144E-003	2.674144E-002	-1.117379E-002	2.675293E-002	-1.116938E-002	-8.267286E-002	6.524579E-002
1.510000E+009	2.743017E-002	8.196790E-003	2.669173E-002	-1.123651E-002	2.670926E-002	-1.123796E-002	-8.230504E-002	6.583916E-002
