! Device ID: PE43711P
! File Path: z:\PE43711P\CHAR_NOM_04282014\AMB\3p300\LS_ATT_18p50dB\PE43711P_AMB_3p300V_3p000V_0p000V_LS_ATT_18p50dB_S2P_SN_5_A0137A.s2p
! Serial: 5
! Lot: A0137A
! Temp: 25C
! VDD: 3.300
! VSS: 0.000
! Control_Hi: 3.000
! Control_Lo: 0.000
! Attenuation Step: 18.50dB
! Port 1: RF1
! Port 2: RF2
! ThroughPath:1-2
! IDD: 0.0001271987
! ISS: -7.97e-008
!

#  Hz  S   RI  R   50

1.000000E+007	5.317836E-002	1.647705E-004	1.036509E-001	-4.521784E-004	1.037565E-001	-5.005692E-004	-1.209593E-001	9.356369E-004
2.000000E+007	5.339410E-002	1.562386E-004	1.036454E-001	-7.063079E-004	1.037077E-001	-7.317987E-004	-1.206617E-001	1.547063E-003
3.000000E+007	5.365827E-002	5.309472E-005	1.036485E-001	-1.084858E-003	1.037047E-001	-1.101673E-003	-1.203612E-001	2.066295E-003
4.000000E+007	5.380592E-002	-3.548823E-005	1.036440E-001	-1.444228E-003	1.036979E-001	-1.467398E-003	-1.201919E-001	2.627572E-003
5.000000E+007	5.391218E-002	-1.634615E-004	1.036253E-001	-1.851483E-003	1.037116E-001	-1.829582E-003	-1.201406E-001	3.224499E-003
6.000000E+007	5.405605E-002	-3.507800E-004	1.036034E-001	-2.219544E-003	1.036997E-001	-2.202917E-003	-1.200093E-001	3.685245E-003
7.000000E+007	5.417590E-002	-5.266073E-004	1.035829E-001	-2.562486E-003	1.036738E-001	-2.568252E-003	-1.198174E-001	4.147322E-003
8.000000E+007	5.431181E-002	-7.183178E-004	1.035650E-001	-2.899844E-003	1.036483E-001	-2.905489E-003	-1.196738E-001	4.604918E-003
9.000000E+007	5.441469E-002	-8.852727E-004	1.035481E-001	-3.255583E-003	1.036283E-001	-3.260529E-003	-1.195602E-001	4.995092E-003
1.000000E+008	5.452536E-002	-1.078471E-003	1.035386E-001	-3.630810E-003	1.036110E-001	-3.622574E-003	-1.195091E-001	5.422697E-003
1.100000E+008	5.461664E-002	-1.263774E-003	1.035162E-001	-4.003433E-003	1.035862E-001	-3.970599E-003	-1.194018E-001	5.811773E-003
1.200000E+008	5.472983E-002	-1.497244E-003	1.034601E-001	-4.355852E-003	1.035583E-001	-4.348383E-003	-1.193191E-001	6.142914E-003
1.300000E+008	5.482119E-002	-1.700797E-003	1.034448E-001	-4.700099E-003	1.035264E-001	-4.713546E-003	-1.192055E-001	6.511215E-003
1.400000E+008	5.486797E-002	-1.864661E-003	1.033959E-001	-5.066165E-003	1.034885E-001	-5.078615E-003	-1.191092E-001	6.875466E-003
1.500000E+008	5.487704E-002	-2.023107E-003	1.033634E-001	-5.384541E-003	1.034332E-001	-5.411726E-003	-1.190251E-001	7.225447E-003
1.600000E+008	5.490524E-002	-2.147597E-003	1.033580E-001	-5.735399E-003	1.033875E-001	-5.743101E-003	-1.189510E-001	7.567766E-003
1.700000E+008	5.494745E-002	-2.324750E-003	1.033168E-001	-6.127361E-003	1.034010E-001	-6.100287E-003	-1.189037E-001	7.917608E-003
1.800000E+008	5.496149E-002	-2.507139E-003	1.032429E-001	-6.499709E-003	1.033709E-001	-6.503452E-003	-1.188064E-001	8.272976E-003
1.900000E+008	5.489252E-002	-2.707914E-003	1.031726E-001	-6.847615E-003	1.033103E-001	-6.845149E-003	-1.187645E-001	8.556854E-003
2.000000E+008	5.483026E-002	-2.936716E-003	1.031444E-001	-7.174297E-003	1.032743E-001	-7.183192E-003	-1.187056E-001	8.824498E-003
2.100000E+008	5.476161E-002	-3.203988E-003	1.031045E-001	-7.507711E-003	1.032120E-001	-7.511989E-003	-1.186225E-001	9.065967E-003
2.200000E+008	5.471062E-002	-3.445657E-003	1.030767E-001	-7.847932E-003	1.031727E-001	-7.843563E-003	-1.185022E-001	9.284480E-003
2.300000E+008	5.467725E-002	-3.693008E-003	1.030286E-001	-8.200558E-003	1.031122E-001	-8.179479E-003	-1.183818E-001	9.529138E-003
2.400000E+008	5.466667E-002	-3.952545E-003	1.029921E-001	-8.539502E-003	1.030593E-001	-8.538829E-003	-1.182303E-001	9.787967E-003
2.500000E+008	5.465315E-002	-4.180758E-003	1.029260E-001	-8.894466E-003	1.030175E-001	-8.877884E-003	-1.180617E-001	1.005443E-002
2.600000E+008	5.465882E-002	-4.423439E-003	1.028636E-001	-9.247222E-003	1.029683E-001	-9.226671E-003	-1.178521E-001	1.037833E-002
2.700000E+008	5.468470E-002	-4.652898E-003	1.028025E-001	-9.569422E-003	1.029024E-001	-9.578103E-003	-1.176338E-001	1.072518E-002
2.800000E+008	5.472196E-002	-4.844232E-003	1.027474E-001	-9.903003E-003	1.028326E-001	-9.900987E-003	-1.174286E-001	1.104998E-002
2.900000E+008	5.470690E-002	-5.017913E-003	1.026943E-001	-1.024707E-002	1.027783E-001	-1.022444E-002	-1.172868E-001	1.140210E-002
3.000000E+008	5.470996E-002	-5.168993E-003	1.026578E-001	-1.058603E-002	1.027425E-001	-1.058182E-002	-1.171540E-001	1.179986E-002
3.100000E+008	5.466816E-002	-5.306666E-003	1.025844E-001	-1.092570E-002	1.026894E-001	-1.091944E-002	-1.170407E-001	1.220638E-002
3.200000E+008	5.461899E-002	-5.424724E-003	1.025415E-001	-1.126914E-002	1.026280E-001	-1.126401E-002	-1.169448E-001	1.260296E-002
3.300000E+008	5.453703E-002	-5.565194E-003	1.024926E-001	-1.162137E-002	1.025807E-001	-1.162385E-002	-1.168651E-001	1.295155E-002
3.400000E+008	5.439527E-002	-5.707949E-003	1.024146E-001	-1.195892E-002	1.024695E-001	-1.198130E-002	-1.167441E-001	1.328086E-002
3.500000E+008	5.425794E-002	-5.889594E-003	1.023489E-001	-1.229705E-002	1.023734E-001	-1.229088E-002	-1.165956E-001	1.355916E-002
3.600000E+008	5.413187E-002	-6.036621E-003	1.022750E-001	-1.263776E-002	1.023082E-001	-1.261282E-002	-1.164606E-001	1.387265E-002
3.700000E+008	5.401551E-002	-6.219410E-003	1.021953E-001	-1.295918E-002	1.022519E-001	-1.290548E-002	-1.162561E-001	1.414654E-002
3.800000E+008	5.390454E-002	-6.435399E-003	1.021254E-001	-1.329506E-002	1.022148E-001	-1.325383E-002	-1.160755E-001	1.444389E-002
3.900000E+008	5.378814E-002	-6.666055E-003	1.020503E-001	-1.363863E-002	1.021488E-001	-1.359487E-002	-1.158179E-001	1.480501E-002
4.000000E+008	5.371809E-002	-6.909188E-003	1.019575E-001	-1.394733E-002	1.020683E-001	-1.392704E-002	-1.155099E-001	1.514611E-002
4.100000E+008	5.362745E-002	-7.126615E-003	1.018924E-001	-1.424242E-002	1.019929E-001	-1.427146E-002	-1.152380E-001	1.550281E-002
4.200000E+008	5.355689E-002	-7.348038E-003	1.018364E-001	-1.456875E-002	1.019171E-001	-1.458106E-002	-1.150108E-001	1.591893E-002
4.300000E+008	5.348258E-002	-7.541009E-003	1.017840E-001	-1.490396E-002	1.018332E-001	-1.491973E-002	-1.147871E-001	1.635623E-002
4.400000E+008	5.341891E-002	-7.711955E-003	1.016909E-001	-1.523738E-002	1.017914E-001	-1.524540E-002	-1.146183E-001	1.684663E-002
4.500000E+008	5.336631E-002	-7.884800E-003	1.016293E-001	-1.556928E-002	1.017156E-001	-1.556046E-002	-1.144410E-001	1.735290E-002
4.600000E+008	5.329661E-002	-8.068318E-003	1.015583E-001	-1.590999E-002	1.016258E-001	-1.591660E-002	-1.142442E-001	1.783999E-002
4.700000E+008	5.322940E-002	-8.228371E-003	1.014781E-001	-1.622679E-002	1.015389E-001	-1.622187E-002	-1.140875E-001	1.828331E-002
4.800000E+008	5.311857E-002	-8.352866E-003	1.013933E-001	-1.655435E-002	1.014484E-001	-1.653510E-002	-1.139525E-001	1.872157E-002
4.900000E+008	5.299409E-002	-8.491570E-003	1.013156E-001	-1.686212E-002	1.013736E-001	-1.687426E-002	-1.138349E-001	1.913067E-002
5.000000E+008	5.289558E-002	-8.636513E-003	1.012405E-001	-1.718346E-002	1.013022E-001	-1.717674E-002	-1.136707E-001	1.954451E-002
5.100000E+008	5.279520E-002	-8.784453E-003	1.011418E-001	-1.750494E-002	1.012312E-001	-1.748687E-002	-1.135051E-001	1.996309E-002
5.200000E+008	5.267768E-002	-8.949014E-003	1.010657E-001	-1.783518E-002	1.011544E-001	-1.782870E-002	-1.133343E-001	2.037694E-002
5.300000E+008	5.253848E-002	-9.132878E-003	1.009848E-001	-1.815500E-002	1.010813E-001	-1.816862E-002	-1.130735E-001	2.079294E-002
5.400000E+008	5.240011E-002	-9.372412E-003	1.008942E-001	-1.848707E-002	1.009740E-001	-1.848401E-002	-1.128628E-001	2.118735E-002
5.500000E+008	5.226435E-002	-9.536229E-003	1.008063E-001	-1.879596E-002	1.008841E-001	-1.881879E-002	-1.126610E-001	2.163464E-002
5.600000E+008	5.214271E-002	-9.746847E-003	1.007242E-001	-1.911255E-002	1.007960E-001	-1.910994E-002	-1.124322E-001	2.209218E-002
5.700000E+008	5.203814E-002	-9.975676E-003	1.006355E-001	-1.942945E-002	1.007150E-001	-1.944071E-002	-1.122790E-001	2.258555E-002
5.800000E+008	5.194852E-002	-1.017836E-002	1.005455E-001	-1.974078E-002	1.006140E-001	-1.974811E-002	-1.120980E-001	2.308146E-002
5.900000E+008	5.186155E-002	-1.040794E-002	1.004553E-001	-2.006232E-002	1.005441E-001	-2.009645E-002	-1.119379E-001	2.360218E-002
6.000000E+008	5.182539E-002	-1.063417E-002	1.003550E-001	-2.039940E-002	1.004411E-001	-2.040289E-002	-1.117384E-001	2.406698E-002
6.100000E+008	5.177871E-002	-1.080649E-002	1.002724E-001	-2.069829E-002	1.003307E-001	-2.069779E-002	-1.115776E-001	2.453208E-002
6.200000E+008	5.176240E-002	-1.094171E-002	1.001712E-001	-2.100829E-002	1.002480E-001	-2.101871E-002	-1.114031E-001	2.500429E-002
6.300000E+008	5.172470E-002	-1.110305E-002	1.000711E-001	-2.131799E-002	1.001397E-001	-2.132229E-002	-1.112351E-001	2.544670E-002
6.400000E+008	5.169653E-002	-1.124916E-002	9.998383E-002	-2.162448E-002	1.000484E-001	-2.163734E-002	-1.110465E-001	2.591351E-002
6.500000E+008	5.165152E-002	-1.134694E-002	9.988986E-002	-2.192814E-002	9.995064E-002	-2.195363E-002	-1.108700E-001	2.638597E-002
6.600000E+008	5.159175E-002	-1.147668E-002	9.979703E-002	-2.225226E-002	9.985881E-002	-2.227485E-002	-1.106754E-001	2.685833E-002
6.700000E+008	5.149367E-002	-1.157673E-002	9.969916E-002	-2.255334E-002	9.977138E-002	-2.258388E-002	-1.104898E-001	2.734881E-002
6.800000E+008	5.137400E-002	-1.168462E-002	9.960341E-002	-2.287032E-002	9.966984E-002	-2.289167E-002	-1.103112E-001	2.786477E-002
6.900000E+008	5.125621E-002	-1.177873E-002	9.949277E-002	-2.317343E-002	9.955338E-002	-2.319323E-002	-1.101394E-001	2.838888E-002
7.000000E+008	5.114612E-002	-1.189333E-002	9.939400E-002	-2.347613E-002	9.945101E-002	-2.348476E-002	-1.100003E-001	2.889411E-002
7.100000E+008	5.103865E-002	-1.202383E-002	9.929154E-002	-2.377906E-002	9.937297E-002	-2.380072E-002	-1.098982E-001	2.936505E-002
7.200000E+008	5.089811E-002	-1.215164E-002	9.920238E-002	-2.408964E-002	9.926063E-002	-2.411327E-002	-1.097615E-001	2.985060E-002
7.300000E+008	5.078377E-002	-1.231800E-002	9.909189E-002	-2.439319E-002	9.916601E-002	-2.441501E-002	-1.096358E-001	3.029260E-002
7.400000E+008	5.064327E-002	-1.244246E-002	9.899642E-002	-2.470776E-002	9.906336E-002	-2.471826E-002	-1.095292E-001	3.071806E-002
7.500000E+008	5.053294E-002	-1.260621E-002	9.887284E-002	-2.500070E-002	9.896469E-002	-2.502470E-002	-1.094240E-001	3.115687E-002
7.600000E+008	5.041399E-002	-1.274285E-002	9.878078E-002	-2.530126E-002	9.886868E-002	-2.533321E-002	-1.092681E-001	3.155874E-002
7.700000E+008	5.029765E-002	-1.292018E-002	9.867219E-002	-2.560661E-002	9.876091E-002	-2.562809E-002	-1.091123E-001	3.194606E-002
7.800000E+008	5.019069E-002	-1.310203E-002	9.858024E-002	-2.591501E-002	9.866132E-002	-2.593181E-002	-1.089387E-001	3.234429E-002
7.900000E+008	5.009464E-002	-1.329260E-002	9.849321E-002	-2.622156E-002	9.854630E-002	-2.625058E-002	-1.087650E-001	3.276690E-002
8.000000E+008	5.000817E-002	-1.347453E-002	9.836177E-002	-2.652483E-002	9.843262E-002	-2.654305E-002	-1.085538E-001	3.319826E-002
8.100000E+008	4.992541E-002	-1.368462E-002	9.823697E-002	-2.682090E-002	9.831408E-002	-2.685409E-002	-1.082889E-001	3.365534E-002
8.200000E+008	4.988919E-002	-1.382581E-002	9.812455E-002	-2.713499E-002	9.822647E-002	-2.713655E-002	-1.080434E-001	3.410585E-002
8.300000E+008	4.985565E-002	-1.400957E-002	9.803039E-002	-2.741114E-002	9.810856E-002	-2.744357E-002	-1.078578E-001	3.454611E-002
8.400000E+008	4.980292E-002	-1.415337E-002	9.790630E-002	-2.772269E-002	9.798323E-002	-2.774381E-002	-1.076415E-001	3.500295E-002
8.500000E+008	4.976758E-002	-1.425889E-002	9.782242E-002	-2.801931E-002	9.788880E-002	-2.803333E-002	-1.074911E-001	3.546000E-002
8.600000E+008	4.973185E-002	-1.438387E-002	9.770573E-002	-2.830725E-002	9.776802E-002	-2.833778E-002	-1.073236E-001	3.591542E-002
8.700000E+008	4.966852E-002	-1.447301E-002	9.758907E-002	-2.860764E-002	9.764099E-002	-2.864178E-002	-1.071538E-001	3.635701E-002
8.800000E+008	4.959258E-002	-1.456280E-002	9.748221E-002	-2.890799E-002	9.755204E-002	-2.894293E-002	-1.070043E-001	3.677946E-002
8.900000E+008	4.948121E-002	-1.466624E-002	9.734345E-002	-2.919445E-002	9.744092E-002	-2.923614E-002	-1.068277E-001	3.718474E-002
9.000000E+008	4.939101E-002	-1.476300E-002	9.723161E-002	-2.949752E-002	9.731304E-002	-2.952985E-002	-1.066378E-001	3.759969E-002
9.100000E+008	4.927637E-002	-1.485087E-002	9.712408E-002	-2.980411E-002	9.720287E-002	-2.983687E-002	-1.063994E-001	3.800822E-002
9.200000E+008	4.915557E-002	-1.500019E-002	9.701138E-002	-3.007973E-002	9.709262E-002	-3.011696E-002	-1.061368E-001	3.843206E-002
9.300000E+008	4.906484E-002	-1.513640E-002	9.687567E-002	-3.038106E-002	9.696685E-002	-3.041560E-002	-1.058525E-001	3.885445E-002
9.400000E+008	4.899950E-002	-1.526827E-002	9.677829E-002	-3.066642E-002	9.687093E-002	-3.070222E-002	-1.055152E-001	3.931339E-002
9.500000E+008	4.891969E-002	-1.542835E-002	9.666138E-002	-3.096015E-002	9.673780E-002	-3.100490E-002	-1.051964E-001	3.981707E-002
9.600000E+008	4.886088E-002	-1.554194E-002	9.653012E-002	-3.125460E-002	9.661368E-002	-3.128660E-002	-1.048687E-001	4.029492E-002
9.700000E+008	4.882167E-002	-1.565056E-002	9.640049E-002	-3.153528E-002	9.650722E-002	-3.157060E-002	-1.045555E-001	4.080274E-002
9.800000E+008	4.877438E-002	-1.575072E-002	9.629316E-002	-3.181942E-002	9.638118E-002	-3.186258E-002	-1.042644E-001	4.133927E-002
9.900000E+008	4.872403E-002	-1.584033E-002	9.619003E-002	-3.212650E-002	9.626092E-002	-3.216232E-002	-1.039816E-001	4.185068E-002
1.000000E+009	4.866907E-002	-1.590224E-002	9.607971E-002	-3.241637E-002	9.614822E-002	-3.247182E-002	-1.037844E-001	4.236296E-002
1.010000E+009	4.859681E-002	-1.594230E-002	9.594884E-002	-3.269224E-002	9.602340E-002	-3.274253E-002	-1.035388E-001	4.289292E-002
1.020000E+009	4.853028E-002	-1.601763E-002	9.581963E-002	-3.299316E-002	9.590704E-002	-3.305864E-002	-1.033343E-001	4.339911E-002
1.030000E+009	4.842658E-002	-1.606912E-002	9.569442E-002	-3.327601E-002	9.577220E-002	-3.330943E-002	-1.031050E-001	4.391273E-002
1.040000E+009	4.830817E-002	-1.615263E-002	9.556776E-002	-3.359099E-002	9.565915E-002	-3.361430E-002	-1.029002E-001	4.442172E-002
1.050000E+009	4.822344E-002	-1.623545E-002	9.546380E-002	-3.387058E-002	9.552442E-002	-3.389416E-002	-1.026284E-001	4.495124E-002
1.060000E+009	4.813881E-002	-1.632528E-002	9.532610E-002	-3.414408E-002	9.539477E-002	-3.417262E-002	-1.023701E-001	4.545584E-002
1.070000E+009	4.801453E-002	-1.641649E-002	9.519314E-002	-3.443200E-002	9.527105E-002	-3.446489E-002	-1.020778E-001	4.596100E-002
1.080000E+009	4.793807E-002	-1.650818E-002	9.507961E-002	-3.472403E-002	9.515589E-002	-3.475038E-002	-1.017985E-001	4.648227E-002
1.090000E+009	4.784104E-002	-1.660685E-002	9.494785E-002	-3.500514E-002	9.501185E-002	-3.504362E-002	-1.015640E-001	4.698413E-002
1.100000E+009	4.775537E-002	-1.668534E-002	9.479667E-002	-3.530298E-002	9.490469E-002	-3.532962E-002	-1.013112E-001	4.749759E-002
1.110000E+009	4.769186E-002	-1.674024E-002	9.468728E-002	-3.558269E-002	9.477212E-002	-3.562155E-002	-1.010620E-001	4.800556E-002
1.120000E+009	4.758150E-002	-1.683211E-002	9.456157E-002	-3.588734E-002	9.464205E-002	-3.591939E-002	-1.008871E-001	4.848126E-002
1.130000E+009	4.748816E-002	-1.693331E-002	9.444298E-002	-3.617064E-002	9.450352E-002	-3.619761E-002	-1.006542E-001	4.896937E-002
1.140000E+009	4.737357E-002	-1.701343E-002	9.430248E-002	-3.645828E-002	9.438896E-002	-3.648244E-002	-1.004107E-001	4.947883E-002
1.150000E+009	4.729726E-002	-1.709420E-002	9.415288E-002	-3.674275E-002	9.423448E-002	-3.677441E-002	-1.001616E-001	4.997810E-002
1.160000E+009	4.717763E-002	-1.716519E-002	9.402905E-002	-3.701003E-002	9.409515E-002	-3.706032E-002	-9.991083E-002	5.044253E-002
1.170000E+009	4.708305E-002	-1.725278E-002	9.389863E-002	-3.729867E-002	9.397942E-002	-3.730741E-002	-9.963354E-002	5.098826E-002
1.180000E+009	4.700224E-002	-1.733696E-002	9.373094E-002	-3.760247E-002	9.384455E-002	-3.761629E-002	-9.931921E-002	5.147491E-002
1.190000E+009	4.688029E-002	-1.740576E-002	9.361504E-002	-3.788567E-002	9.368011E-002	-3.792475E-002	-9.905666E-002	5.200681E-002
1.200000E+009	4.677180E-002	-1.750336E-002	9.348264E-002	-3.815070E-002	9.355485E-002	-3.818303E-002	-9.874503E-002	5.255423E-002
1.210000E+009	4.671696E-002	-1.762194E-002	9.332944E-002	-3.844495E-002	9.341704E-002	-3.846444E-002	-9.849688E-002	5.305775E-002
1.220000E+009	4.661276E-002	-1.773735E-002	9.320642E-002	-3.870956E-002	9.326748E-002	-3.874140E-002	-9.824966E-002	5.359709E-002
1.230000E+009	4.651049E-002	-1.784337E-002	9.305398E-002	-3.900072E-002	9.313207E-002	-3.902237E-002	-9.800467E-002	5.407950E-002
1.240000E+009	4.644849E-002	-1.795065E-002	9.291362E-002	-3.929527E-002	9.298213E-002	-3.930531E-002	-9.775912E-002	5.457298E-002
1.250000E+009	4.637194E-002	-1.805170E-002	9.276928E-002	-3.956735E-002	9.285751E-002	-3.956514E-002	-9.754622E-002	5.506101E-002
1.260000E+009	4.630147E-002	-1.817192E-002	9.262846E-002	-3.985475E-002	9.270079E-002	-3.987015E-002	-9.727740E-002	5.550277E-002
1.270000E+009	4.629677E-002	-1.827618E-002	9.248612E-002	-4.010820E-002	9.254680E-002	-4.014968E-002	-9.699814E-002	5.592439E-002
1.280000E+009	4.622923E-002	-1.835088E-002	9.234272E-002	-4.041131E-002	9.243270E-002	-4.043185E-002	-9.669222E-002	5.636608E-002
1.290000E+009	4.618560E-002	-1.841507E-002	9.218901E-002	-4.069730E-002	9.227697E-002	-4.071977E-002	-9.634620E-002	5.678399E-002
1.300000E+009	4.615654E-002	-1.845289E-002	9.204415E-002	-4.095664E-002	9.213571E-002	-4.098312E-002	-9.600588E-002	5.722693E-002
1.310000E+009	4.607050E-002	-1.851257E-002	9.188692E-002	-4.126632E-002	9.197412E-002	-4.127732E-002	-9.563365E-002	5.771550E-002
1.320000E+009	4.600521E-002	-1.856574E-002	9.174012E-002	-4.153314E-002	9.182388E-002	-4.154422E-002	-9.521180E-002	5.825395E-002
1.330000E+009	4.591851E-002	-1.857102E-002	9.161201E-002	-4.179442E-002	9.167855E-002	-4.183019E-002	-9.479226E-002	5.880572E-002
1.340000E+009	4.582471E-002	-1.862668E-002	9.144782E-002	-4.207483E-002	9.153265E-002	-4.209760E-002	-9.436881E-002	5.938791E-002
1.350000E+009	4.573847E-002	-1.866953E-002	9.129343E-002	-4.233924E-002	9.136834E-002	-4.239374E-002	-9.399784E-002	6.000159E-002
1.360000E+009	4.567361E-002	-1.872392E-002	9.111272E-002	-4.260743E-002	9.122862E-002	-4.267152E-002	-9.361503E-002	6.063378E-002
1.370000E+009	4.560942E-002	-1.874607E-002	9.098202E-002	-4.290777E-002	9.107481E-002	-4.293541E-002	-9.328258E-002	6.126737E-002
1.380000E+009	4.552290E-002	-1.882484E-002	9.082768E-002	-4.316215E-002	9.089236E-002	-4.321175E-002	-9.296133E-002	6.188932E-002
1.390000E+009	4.543502E-002	-1.887566E-002	9.065478E-002	-4.343877E-002	9.075549E-002	-4.348372E-002	-9.265178E-002	6.253388E-002
1.400000E+009	4.533956E-002	-1.893723E-002	9.049800E-002	-4.373207E-002	9.056994E-002	-4.373896E-002	-9.236343E-002	6.313875E-002
1.410000E+009	4.525794E-002	-1.896560E-002	9.033266E-002	-4.399536E-002	9.042080E-002	-4.403106E-002	-9.207546E-002	6.374211E-002
1.420000E+009	4.514612E-002	-1.900420E-002	9.015894E-002	-4.426133E-002	9.025360E-002	-4.429959E-002	-9.178446E-002	6.430794E-002
1.430000E+009	4.507781E-002	-1.904560E-002	9.001437E-002	-4.453147E-002	9.009043E-002	-4.456205E-002	-9.146625E-002	6.486649E-002
1.440000E+009	4.497687E-002	-1.908117E-002	8.985156E-002	-4.480695E-002	8.995327E-002	-4.482043E-002	-9.116472E-002	6.540834E-002
1.450000E+009	4.485895E-002	-1.914007E-002	8.967342E-002	-4.506711E-002	8.977833E-002	-4.509452E-002	-9.079678E-002	6.596111E-002
1.460000E+009	4.473924E-002	-1.917406E-002	8.952501E-002	-4.534066E-002	8.959018E-002	-4.536050E-002	-9.047355E-002	6.652069E-002
1.470000E+009	4.464440E-002	-1.922294E-002	8.935322E-002	-4.560634E-002	8.942266E-002	-4.563785E-002	-9.010371E-002	6.709589E-002
1.480000E+009	4.452320E-002	-1.927678E-002	8.918743E-002	-4.586819E-002	8.925247E-002	-4.590755E-002	-8.974790E-002	6.774440E-002
1.490000E+009	4.444925E-002	-1.934424E-002	8.900898E-002	-4.612388E-002	8.909868E-002	-4.615971E-002	-8.935233E-002	6.835599E-002
1.500000E+009	4.436948E-002	-1.939395E-002	8.884900E-002	-4.639643E-002	8.891983E-002	-4.642058E-002	-8.896325E-002	6.897015E-002
