! Device ID: PE43711P
! File Path: z:\PE43711P\CHAR_NOM_04282014\AMB\3p300\LS_ATT_27p75dB\PE43711P_AMB_3p300V_3p000V_0p000V_LS_ATT_27p75dB_S2P_SN_5_A0137A.s2p
! Serial: 5
! Lot: A0137A
! Temp: 25C
! VDD: 3.300
! VSS: 0.000
! Control_Hi: 3.000
! Control_Lo: 0.000
! Attenuation Step: 27.75dB
! Port 1: RF1
! Port 2: RF2
! ThroughPath:1-2
! IDD: 0.0001279497
! ISS: -8.72e-008
!

#  Hz  S   RI  R   50

1.000000E+007	3.113705E-002	4.304793E-004	3.543977E-002	-1.377435E-004	3.545889E-002	-1.496887E-004	-1.145245E-001	9.240433E-004
2.000000E+007	3.136847E-002	5.502014E-004	3.543355E-002	-2.149220E-004	3.545765E-002	-2.036283E-004	-1.142375E-001	1.498995E-003
3.000000E+007	3.163041E-002	6.584784E-004	3.545456E-002	-3.205119E-004	3.546079E-002	-3.134613E-004	-1.139234E-001	1.965321E-003
4.000000E+007	3.180473E-002	7.411280E-004	3.542489E-002	-4.352633E-004	3.546476E-002	-4.345014E-004	-1.137708E-001	2.524150E-003
5.000000E+007	3.189909E-002	8.189596E-004	3.542270E-002	-5.452800E-004	3.546600E-002	-5.389701E-004	-1.137127E-001	3.093488E-003
6.000000E+007	3.206879E-002	8.439722E-004	3.543345E-002	-6.388960E-004	3.546666E-002	-6.354334E-004	-1.135701E-001	3.540882E-003
7.000000E+007	3.220445E-002	8.558506E-004	3.542049E-002	-7.478618E-004	3.544569E-002	-7.556663E-004	-1.133964E-001	3.981344E-003
8.000000E+007	3.234543E-002	8.777302E-004	3.541809E-002	-8.469497E-004	3.545514E-002	-8.576948E-004	-1.132379E-001	4.396660E-003
9.000000E+007	3.246210E-002	8.756488E-004	3.542249E-002	-9.710226E-004	3.543380E-002	-9.539974E-004	-1.131149E-001	4.758250E-003
1.000000E+008	3.259104E-002	8.797969E-004	3.541056E-002	-1.078488E-003	3.543591E-002	-1.064527E-003	-1.130652E-001	5.159769E-003
1.100000E+008	3.272760E-002	8.872966E-004	3.539898E-002	-1.177082E-003	3.543585E-002	-1.166935E-003	-1.129568E-001	5.521586E-003
1.200000E+008	3.286977E-002	8.448750E-004	3.538469E-002	-1.286633E-003	3.542235E-002	-1.280709E-003	-1.128666E-001	5.829480E-003
1.300000E+008	3.298076E-002	8.394912E-004	3.538242E-002	-1.384402E-003	3.541982E-002	-1.386584E-003	-1.127378E-001	6.139979E-003
1.400000E+008	3.308086E-002	8.569740E-004	3.536871E-002	-1.485715E-003	3.540543E-002	-1.498493E-003	-1.126267E-001	6.483125E-003
1.500000E+008	3.313987E-002	8.923162E-004	3.536897E-002	-1.591943E-003	3.538561E-002	-1.591683E-003	-1.125234E-001	6.801391E-003
1.600000E+008	3.320887E-002	9.486584E-004	3.535781E-002	-1.686531E-003	3.536892E-002	-1.682681E-003	-1.124403E-001	7.124980E-003
1.700000E+008	3.329245E-002	9.643168E-004	3.536859E-002	-1.803498E-003	3.539025E-002	-1.794657E-003	-1.123475E-001	7.454057E-003
1.800000E+008	3.335300E-002	9.656571E-004	3.534338E-002	-1.917284E-003	3.536897E-002	-1.909473E-003	-1.122504E-001	7.772951E-003
1.900000E+008	3.332380E-002	9.502126E-004	3.531361E-002	-2.025447E-003	3.536695E-002	-2.015211E-003	-1.121962E-001	8.035986E-003
2.000000E+008	3.329136E-002	9.256089E-004	3.531261E-002	-2.129482E-003	3.534590E-002	-2.109802E-003	-1.121251E-001	8.270763E-003
2.100000E+008	3.327927E-002	8.376913E-004	3.529217E-002	-2.217316E-003	3.532877E-002	-2.221967E-003	-1.120392E-001	8.461337E-003
2.200000E+008	3.327384E-002	7.735720E-004	3.528163E-002	-2.301893E-003	3.531977E-002	-2.305068E-003	-1.119161E-001	8.646824E-003
2.300000E+008	3.329623E-002	6.964217E-004	3.528616E-002	-2.411583E-003	3.531144E-002	-2.405806E-003	-1.117865E-001	8.834303E-003
2.400000E+008	3.335190E-002	6.082693E-004	3.527279E-002	-2.529338E-003	3.528794E-002	-2.515332E-003	-1.116173E-001	9.063397E-003
2.500000E+008	3.337697E-002	5.516205E-004	3.524713E-002	-2.625797E-003	3.528033E-002	-2.618141E-003	-1.114077E-001	9.290959E-003
2.600000E+008	3.345939E-002	4.889399E-004	3.524083E-002	-2.739849E-003	3.526729E-002	-2.735200E-003	-1.111851E-001	9.587095E-003
2.700000E+008	3.354750E-002	4.555172E-004	3.522036E-002	-2.830020E-003	3.524592E-002	-2.821319E-003	-1.109611E-001	9.901846E-003
2.800000E+008	3.363946E-002	4.126247E-004	3.521337E-002	-2.937597E-003	3.523009E-002	-2.923302E-003	-1.107310E-001	1.020531E-002
2.900000E+008	3.367404E-002	3.971545E-004	3.520446E-002	-3.026128E-003	3.521302E-002	-3.008798E-003	-1.105721E-001	1.051833E-002
3.000000E+008	3.373535E-002	4.341704E-004	3.518094E-002	-3.135396E-003	3.519967E-002	-3.116465E-003	-1.104178E-001	1.088005E-002
3.100000E+008	3.374333E-002	4.584177E-004	3.517915E-002	-3.232139E-003	3.518789E-002	-3.224463E-003	-1.102940E-001	1.123817E-002
3.200000E+008	3.375667E-002	4.996484E-004	3.514705E-002	-3.341487E-003	3.517846E-002	-3.336692E-003	-1.101988E-001	1.158069E-002
3.300000E+008	3.372063E-002	5.407755E-004	3.514066E-002	-3.437944E-003	3.516719E-002	-3.442069E-003	-1.100934E-001	1.188783E-002
3.400000E+008	3.367868E-002	5.555603E-004	3.511169E-002	-3.543844E-003	3.513333E-002	-3.547601E-003	-1.099488E-001	1.215942E-002
3.500000E+008	3.361442E-002	5.315667E-004	3.508854E-002	-3.645831E-003	3.510300E-002	-3.638620E-003	-1.097942E-001	1.238867E-002
3.600000E+008	3.355680E-002	5.155180E-004	3.508293E-002	-3.746664E-003	3.509012E-002	-3.731978E-003	-1.096248E-001	1.266483E-002
3.700000E+008	3.349638E-002	4.793001E-004	3.505756E-002	-3.848134E-003	3.506389E-002	-3.829542E-003	-1.094017E-001	1.288192E-002
3.800000E+008	3.347414E-002	4.312469E-004	3.503998E-002	-3.941808E-003	3.505859E-002	-3.924062E-003	-1.092052E-001	1.315487E-002
3.900000E+008	3.342409E-002	3.608632E-004	3.501455E-002	-4.045939E-003	3.504419E-002	-4.017913E-003	-1.089412E-001	1.346551E-002
4.000000E+008	3.343399E-002	2.840825E-004	3.498390E-002	-4.126415E-003	3.501360E-002	-4.125333E-003	-1.086113E-001	1.377248E-002
4.100000E+008	3.341642E-002	2.050300E-004	3.497073E-002	-4.218058E-003	3.500351E-002	-4.220692E-003	-1.083038E-001	1.408662E-002
4.200000E+008	3.340684E-002	1.432527E-004	3.495911E-002	-4.321824E-003	3.497914E-002	-4.318194E-003	-1.080876E-001	1.444708E-002
4.300000E+008	3.340402E-002	9.696652E-005	3.492294E-002	-4.421819E-003	3.497549E-002	-4.408503E-003	-1.078645E-001	1.484272E-002
4.400000E+008	3.342367E-002	7.908532E-005	3.493064E-002	-4.511575E-003	3.495624E-002	-4.514906E-003	-1.076885E-001	1.526975E-002
4.500000E+008	3.343938E-002	3.638917E-005	3.491061E-002	-4.613755E-003	3.493479E-002	-4.614674E-003	-1.074726E-001	1.570419E-002
4.600000E+008	3.344863E-002	5.902104E-006	3.488377E-002	-4.729163E-003	3.491143E-002	-4.719317E-003	-1.072818E-001	1.613760E-002
4.700000E+008	3.345265E-002	-1.426367E-005	3.485672E-002	-4.826514E-003	3.488242E-002	-4.812527E-003	-1.070908E-001	1.651447E-002
4.800000E+008	3.343363E-002	-1.474573E-005	3.484024E-002	-4.919223E-003	3.486211E-002	-4.911891E-003	-1.069355E-001	1.690368E-002
4.900000E+008	3.339327E-002	-4.662580E-006	3.481450E-002	-5.004194E-003	3.483350E-002	-5.012975E-003	-1.067821E-001	1.727861E-002
5.000000E+008	3.336206E-002	1.237340E-005	3.478919E-002	-5.093247E-003	3.480853E-002	-5.095247E-003	-1.066102E-001	1.764486E-002
5.100000E+008	3.335481E-002	3.085401E-006	3.478588E-002	-5.201999E-003	3.479916E-002	-5.193604E-003	-1.064317E-001	1.799961E-002
5.200000E+008	3.330510E-002	-2.472781E-005	3.475231E-002	-5.290641E-003	3.477195E-002	-5.286043E-003	-1.062500E-001	1.836630E-002
5.300000E+008	3.324349E-002	-6.793088E-005	3.471837E-002	-5.405963E-003	3.476571E-002	-5.392934E-003	-1.059907E-001	1.872552E-002
5.400000E+008	3.317070E-002	-1.690977E-004	3.470059E-002	-5.494805E-003	3.472841E-002	-5.479360E-003	-1.057682E-001	1.906558E-002
5.500000E+008	3.312247E-002	-2.116439E-004	3.468051E-002	-5.581666E-003	3.469883E-002	-5.585124E-003	-1.055550E-001	1.946544E-002
5.600000E+008	3.309012E-002	-2.987074E-004	3.464427E-002	-5.677048E-003	3.466179E-002	-5.687447E-003	-1.053288E-001	1.983528E-002
5.700000E+008	3.306533E-002	-3.991525E-004	3.462698E-002	-5.766902E-003	3.465011E-002	-5.777845E-003	-1.051466E-001	2.027294E-002
5.800000E+008	3.305950E-002	-4.730199E-004	3.460075E-002	-5.874961E-003	3.462358E-002	-5.868715E-003	-1.049655E-001	2.067988E-002
5.900000E+008	3.306581E-002	-5.674849E-004	3.458438E-002	-5.961551E-003	3.461334E-002	-5.958377E-003	-1.047723E-001	2.115996E-002
6.000000E+008	3.309425E-002	-6.627847E-004	3.456398E-002	-6.053449E-003	3.458906E-002	-6.060580E-003	-1.045400E-001	2.156768E-002
6.100000E+008	3.315080E-002	-7.043664E-004	3.454351E-002	-6.163412E-003	3.455576E-002	-6.164142E-003	-1.043749E-001	2.198987E-002
6.200000E+008	3.319318E-002	-7.328096E-004	3.449545E-002	-6.240822E-003	3.452934E-002	-6.256121E-003	-1.041946E-001	2.238556E-002
6.300000E+008	3.326597E-002	-7.527728E-004	3.446693E-002	-6.341468E-003	3.451188E-002	-6.350547E-003	-1.040293E-001	2.277877E-002
6.400000E+008	3.331165E-002	-7.484142E-004	3.444079E-002	-6.441331E-003	3.446973E-002	-6.432112E-003	-1.038258E-001	2.319303E-002
6.500000E+008	3.334252E-002	-7.615211E-004	3.442354E-002	-6.525586E-003	3.443577E-002	-6.521610E-003	-1.036453E-001	2.360014E-002
6.600000E+008	3.337323E-002	-7.479620E-004	3.439122E-002	-6.623589E-003	3.442594E-002	-6.625864E-003	-1.034574E-001	2.400262E-002
6.700000E+008	3.334336E-002	-7.279099E-004	3.437874E-002	-6.719073E-003	3.440764E-002	-6.712899E-003	-1.032784E-001	2.441991E-002
6.800000E+008	3.331156E-002	-7.204334E-004	3.433810E-002	-6.798734E-003	3.437929E-002	-6.812401E-003	-1.030646E-001	2.485686E-002
6.900000E+008	3.328835E-002	-7.015463E-004	3.431948E-002	-6.905049E-003	3.433549E-002	-6.892248E-003	-1.028694E-001	2.531097E-002
7.000000E+008	3.327785E-002	-7.156890E-004	3.428433E-002	-6.989672E-003	3.430876E-002	-6.981525E-003	-1.027469E-001	2.576011E-002
7.100000E+008	3.322345E-002	-7.039492E-004	3.425495E-002	-7.077413E-003	3.428373E-002	-7.076353E-003	-1.026087E-001	2.617516E-002
7.200000E+008	3.319293E-002	-7.098984E-004	3.422469E-002	-7.172655E-003	3.426781E-002	-7.170735E-003	-1.024566E-001	2.660622E-002
7.300000E+008	3.316508E-002	-7.461346E-004	3.420705E-002	-7.260788E-003	3.423207E-002	-7.266816E-003	-1.023582E-001	2.699285E-002
7.400000E+008	3.310740E-002	-7.617358E-004	3.417740E-002	-7.357615E-003	3.420104E-002	-7.354435E-003	-1.022526E-001	2.736907E-002
7.500000E+008	3.308893E-002	-8.103866E-004	3.413737E-002	-7.445490E-003	3.416660E-002	-7.450503E-003	-1.021247E-001	2.773308E-002
7.600000E+008	3.304222E-002	-8.514948E-004	3.411950E-002	-7.532261E-003	3.414969E-002	-7.545883E-003	-1.019786E-001	2.807381E-002
7.700000E+008	3.301262E-002	-9.215551E-004	3.408399E-002	-7.624684E-003	3.412716E-002	-7.638907E-003	-1.018321E-001	2.839380E-002
7.800000E+008	3.301586E-002	-9.793861E-004	3.406684E-002	-7.719183E-003	3.409562E-002	-7.715984E-003	-1.016537E-001	2.872070E-002
7.900000E+008	3.299314E-002	-1.055890E-003	3.403648E-002	-7.815603E-003	3.406987E-002	-7.811578E-003	-1.014733E-001	2.906344E-002
8.000000E+008	3.298474E-002	-1.133063E-003	3.400657E-002	-7.896878E-003	3.401416E-002	-7.920714E-003	-1.012417E-001	2.942082E-002
8.100000E+008	3.299351E-002	-1.214326E-003	3.397081E-002	-7.989834E-003	3.400610E-002	-8.004817E-003	-1.009767E-001	2.980285E-002
8.200000E+008	3.304380E-002	-1.269357E-003	3.394328E-002	-8.095144E-003	3.397031E-002	-8.088721E-003	-1.007222E-001	3.017291E-002
8.300000E+008	3.310674E-002	-1.324206E-003	3.390690E-002	-8.170395E-003	3.393951E-002	-8.176177E-003	-1.005224E-001	3.056253E-002
8.400000E+008	3.317122E-002	-1.367912E-003	3.387210E-002	-8.257361E-003	3.391847E-002	-8.263829E-003	-1.003137E-001	3.096913E-002
8.500000E+008	3.321450E-002	-1.357711E-003	3.386984E-002	-8.344157E-003	3.388085E-002	-8.349948E-003	-1.001596E-001	3.134918E-002
8.600000E+008	3.323516E-002	-1.378858E-003	3.382339E-002	-8.441603E-003	3.385722E-002	-8.434763E-003	-9.999068E-002	3.176073E-002
8.700000E+008	3.326506E-002	-1.344861E-003	3.379007E-002	-8.528733E-003	3.383963E-002	-8.531455E-003	-9.983770E-002	3.211843E-002
8.800000E+008	3.329994E-002	-1.325996E-003	3.375974E-002	-8.619202E-003	3.379900E-002	-8.625189E-003	-9.968245E-002	3.248623E-002
8.900000E+008	3.327544E-002	-1.335677E-003	3.372968E-002	-8.708275E-003	3.375750E-002	-8.720560E-003	-9.952031E-002	3.281131E-002
9.000000E+008	3.327988E-002	-1.321445E-003	3.370414E-002	-8.802467E-003	3.372465E-002	-8.799027E-003	-9.931297E-002	3.314524E-002
9.100000E+008	3.323914E-002	-1.319426E-003	3.367346E-002	-8.896780E-003	3.369157E-002	-8.891325E-003	-9.908377E-002	3.345948E-002
9.200000E+008	3.322597E-002	-1.366051E-003	3.363303E-002	-8.982116E-003	3.366978E-002	-8.990720E-003	-9.881133E-002	3.380147E-002
9.300000E+008	3.322015E-002	-1.403611E-003	3.359889E-002	-9.055726E-003	3.362746E-002	-9.072867E-003	-9.853723E-002	3.416095E-002
9.400000E+008	3.325103E-002	-1.444806E-003	3.357135E-002	-9.151907E-003	3.361125E-002	-9.159862E-003	-9.821062E-002	3.454329E-002
9.500000E+008	3.329055E-002	-1.503575E-003	3.354883E-002	-9.231502E-003	3.356531E-002	-9.253048E-003	-9.788951E-002	3.498118E-002
9.600000E+008	3.330980E-002	-1.503676E-003	3.349344E-002	-9.326249E-003	3.353658E-002	-9.331922E-003	-9.755845E-002	3.537873E-002
9.700000E+008	3.335852E-002	-1.516598E-003	3.347128E-002	-9.409083E-003	3.348632E-002	-9.432814E-003	-9.726118E-002	3.584112E-002
9.800000E+008	3.338285E-002	-1.508918E-003	3.345539E-002	-9.501800E-003	3.347147E-002	-9.513715E-003	-9.699370E-002	3.629476E-002
9.900000E+008	3.343653E-002	-1.506999E-003	3.341557E-002	-9.604297E-003	3.343945E-002	-9.599029E-003	-9.674224E-002	3.675525E-002
1.000000E+009	3.345275E-002	-1.465024E-003	3.337547E-002	-9.664389E-003	3.340992E-002	-9.690674E-003	-9.651103E-002	3.718732E-002
1.010000E+009	3.347127E-002	-1.422233E-003	3.335101E-002	-9.778239E-003	3.338490E-002	-9.784506E-003	-9.629090E-002	3.763709E-002
1.020000E+009	3.350221E-002	-1.417807E-003	3.330956E-002	-9.853970E-003	3.334427E-002	-9.864111E-003	-9.609332E-002	3.808546E-002
1.030000E+009	3.349346E-002	-1.384643E-003	3.328722E-002	-9.938347E-003	3.331076E-002	-9.953163E-003	-9.587903E-002	3.849825E-002
1.040000E+009	3.350035E-002	-1.344166E-003	3.324645E-002	-1.002763E-002	3.326822E-002	-1.003717E-002	-9.565757E-002	3.892303E-002
1.050000E+009	3.348693E-002	-1.352994E-003	3.321282E-002	-1.011362E-002	3.326147E-002	-1.012622E-002	-9.540462E-002	3.937097E-002
1.060000E+009	3.350402E-002	-1.337988E-003	3.319389E-002	-1.020829E-002	3.320475E-002	-1.017973E-002	-9.516132E-002	3.982306E-002
1.070000E+009	3.346287E-002	-1.329676E-003	3.314822E-002	-1.028912E-002	3.317097E-002	-1.029193E-002	-9.490257E-002	4.026934E-002
1.080000E+009	3.346941E-002	-1.328532E-003	3.311022E-002	-1.037694E-002	3.313793E-002	-1.039210E-002	-9.463045E-002	4.071698E-002
1.090000E+009	3.346980E-002	-1.337850E-003	3.308504E-002	-1.047238E-002	3.310877E-002	-1.046883E-002	-9.438276E-002	4.115292E-002
1.100000E+009	3.348464E-002	-1.310698E-003	3.304092E-002	-1.056014E-002	3.307255E-002	-1.054850E-002	-9.416459E-002	4.161232E-002
1.110000E+009	3.346989E-002	-1.299181E-003	3.300570E-002	-1.065292E-002	3.304725E-002	-1.063520E-002	-9.395139E-002	4.202875E-002
1.120000E+009	3.347617E-002	-1.301180E-003	3.296908E-002	-1.071886E-002	3.300534E-002	-1.072479E-002	-9.377158E-002	4.244173E-002
1.130000E+009	3.346519E-002	-1.293675E-003	3.294114E-002	-1.080776E-002	3.296127E-002	-1.081073E-002	-9.357461E-002	4.286008E-002
1.140000E+009	3.344635E-002	-1.283126E-003	3.290503E-002	-1.089727E-002	3.294568E-002	-1.091788E-002	-9.333621E-002	4.328025E-002
1.150000E+009	3.346306E-002	-1.293359E-003	3.287425E-002	-1.098675E-002	3.290679E-002	-1.099756E-002	-9.308736E-002	4.368285E-002
1.160000E+009	3.345846E-002	-1.302597E-003	3.283569E-002	-1.107717E-002	3.287107E-002	-1.108418E-002	-9.283568E-002	4.409240E-002
1.170000E+009	3.344660E-002	-1.268988E-003	3.278392E-002	-1.116950E-002	3.282834E-002	-1.115957E-002	-9.257288E-002	4.453950E-002
1.180000E+009	3.346736E-002	-1.274045E-003	3.275400E-002	-1.124704E-002	3.279154E-002	-1.124944E-002	-9.225767E-002	4.498940E-002
1.190000E+009	3.342588E-002	-1.243548E-003	3.270931E-002	-1.133390E-002	3.276754E-002	-1.135171E-002	-9.201927E-002	4.545468E-002
1.200000E+009	3.342876E-002	-1.255807E-003	3.268160E-002	-1.142253E-002	3.270582E-002	-1.142004E-002	-9.172387E-002	4.591033E-002
1.210000E+009	3.344148E-002	-1.261370E-003	3.264200E-002	-1.150236E-002	3.266967E-002	-1.151327E-002	-9.149579E-002	4.636342E-002
1.220000E+009	3.343501E-002	-1.305249E-003	3.262027E-002	-1.159888E-002	3.264469E-002	-1.160795E-002	-9.127259E-002	4.681736E-002
1.230000E+009	3.342995E-002	-1.337309E-003	3.256835E-002	-1.167379E-002	3.260591E-002	-1.168591E-002	-9.106122E-002	4.722587E-002
1.240000E+009	3.345672E-002	-1.363120E-003	3.253017E-002	-1.175977E-002	3.254840E-002	-1.176649E-002	-9.084083E-002	4.764595E-002
1.250000E+009	3.348796E-002	-1.391266E-003	3.250819E-002	-1.186601E-002	3.251809E-002	-1.185471E-002	-9.064991E-002	4.804450E-002
1.260000E+009	3.350406E-002	-1.419291E-003	3.244601E-002	-1.194237E-002	3.247246E-002	-1.194458E-002	-9.038107E-002	4.839992E-002
1.270000E+009	3.360936E-002	-1.429040E-003	3.241026E-002	-1.202166E-002	3.244460E-002	-1.201836E-002	-9.010780E-002	4.876418E-002
1.280000E+009	3.363582E-002	-1.443810E-003	3.237882E-002	-1.210988E-002	3.241316E-002	-1.210479E-002	-8.982566E-002	4.910358E-002
1.290000E+009	3.368942E-002	-1.393981E-003	3.234068E-002	-1.218454E-002	3.235889E-002	-1.220456E-002	-8.949463E-002	4.948565E-002
1.300000E+009	3.375319E-002	-1.338852E-003	3.228933E-002	-1.228324E-002	3.232705E-002	-1.228790E-002	-8.915911E-002	4.987013E-002
1.310000E+009	3.378344E-002	-1.337985E-003	3.224136E-002	-1.236449E-002	3.228143E-002	-1.235323E-002	-8.882446E-002	5.029436E-002
1.320000E+009	3.378751E-002	-1.297926E-003	3.220841E-002	-1.245423E-002	3.225241E-002	-1.246335E-002	-8.842639E-002	5.074148E-002
1.330000E+009	3.381975E-002	-1.237513E-003	3.216613E-002	-1.252314E-002	3.220671E-002	-1.254211E-002	-8.802771E-002	5.121515E-002
1.340000E+009	3.380578E-002	-1.196592E-003	3.212722E-002	-1.260630E-002	3.215741E-002	-1.262139E-002	-8.764380E-002	5.173551E-002
1.350000E+009	3.379843E-002	-1.172471E-003	3.207650E-002	-1.270769E-002	3.211171E-002	-1.269247E-002	-8.729515E-002	5.227090E-002
1.360000E+009	3.382864E-002	-1.137166E-003	3.204467E-002	-1.278744E-002	3.208171E-002	-1.280177E-002	-8.694600E-002	5.282553E-002
1.370000E+009	3.385034E-002	-1.090284E-003	3.201433E-002	-1.286403E-002	3.203567E-002	-1.288404E-002	-8.663070E-002	5.337652E-002
1.380000E+009	3.386625E-002	-1.078845E-003	3.194733E-002	-1.295811E-002	3.198323E-002	-1.296006E-002	-8.631954E-002	5.393339E-002
1.390000E+009	3.389662E-002	-1.065599E-003	3.190962E-002	-1.304326E-002	3.193451E-002	-1.304524E-002	-8.603211E-002	5.448435E-002
1.400000E+009	3.392618E-002	-1.058290E-003	3.186713E-002	-1.313696E-002	3.188360E-002	-1.314290E-002	-8.576267E-002	5.501641E-002
1.410000E+009	3.392969E-002	-1.006950E-003	3.182219E-002	-1.321067E-002	3.185576E-002	-1.321913E-002	-8.547368E-002	5.556053E-002
1.420000E+009	3.391198E-002	-9.752064E-004	3.175905E-002	-1.328888E-002	3.179849E-002	-1.329286E-002	-8.522191E-002	5.604040E-002
1.430000E+009	3.395259E-002	-9.390711E-004	3.173773E-002	-1.335324E-002	3.178090E-002	-1.339348E-002	-8.494360E-002	5.652949E-002
1.440000E+009	3.392924E-002	-8.917869E-004	3.168725E-002	-1.345279E-002	3.169978E-002	-1.346588E-002	-8.467536E-002	5.699297E-002
1.450000E+009	3.392260E-002	-8.560652E-004	3.164318E-002	-1.354006E-002	3.166942E-002	-1.354325E-002	-8.435075E-002	5.747907E-002
1.460000E+009	3.390280E-002	-8.273825E-004	3.159554E-002	-1.362282E-002	3.162475E-002	-1.363633E-002	-8.404831E-002	5.795802E-002
1.470000E+009	3.388103E-002	-8.353716E-004	3.155918E-002	-1.371597E-002	3.157579E-002	-1.371068E-002	-8.370516E-002	5.846642E-002
1.480000E+009	3.390311E-002	-7.896760E-004	3.150385E-002	-1.377908E-002	3.151196E-002	-1.378708E-002	-8.335431E-002	5.900140E-002
1.490000E+009	3.391458E-002	-7.808818E-004	3.148013E-002	-1.385172E-002	3.147217E-002	-1.385628E-002	-8.299690E-002	5.953731E-002
1.500000E+009	3.393947E-002	-7.746393E-004	3.140933E-002	-1.394212E-002	3.143826E-002	-1.393933E-002	-8.263822E-002	6.010499E-002
1.510000E+009	3.395286E-002	-7.782651E-004	3.135854E-002	-1.402762E-002	3.138243E-002	-1.403179E-002	-8.228530E-002	6.065133E-002
