! Device ID: PE43711P
! File Path: z:\PE43711P\CHAR_NOM_04282014\AMB\3p300\LS_ATT_23p50dB\PE43711P_AMB_3p300V_3p000V_0p000V_LS_ATT_23p50dB_S2P_SN_5_A0137A.s2p
! Serial: 5
! Lot: A0137A
! Temp: 25C
! VDD: 3.300
! VSS: 0.000
! Control_Hi: 3.000
! Control_Lo: 0.000
! Attenuation Step: 23.50dB
! Port 1: RF1
! Port 2: RF2
! ThroughPath:1-2
! IDD: 0.0001278034
! ISS: -1.918e-007
!

#  Hz  S   RI  R   50

1.000000E+007	4.247818E-002	3.035306E-004	5.809013E-002	-2.452207E-004	5.815772E-002	-2.396978E-004	-1.254069E-001	9.457429E-004
2.000000E+007	4.270064E-002	3.522129E-004	5.808244E-002	-3.705486E-004	5.812648E-002	-3.868462E-004	-1.250996E-001	1.541071E-003
3.000000E+007	4.297552E-002	3.483983E-004	5.809286E-002	-5.657908E-004	5.811787E-002	-5.673156E-004	-1.247945E-001	2.029330E-003
4.000000E+007	4.312732E-002	3.426116E-004	5.807592E-002	-7.499128E-004	5.811623E-002	-7.660463E-004	-1.246164E-001	2.620723E-003
5.000000E+007	4.323211E-002	3.344562E-004	5.807130E-002	-9.537100E-004	5.812335E-002	-9.518313E-004	-1.245718E-001	3.200922E-003
6.000000E+007	4.337718E-002	2.480938E-004	5.806325E-002	-1.139369E-003	5.811868E-002	-1.147675E-003	-1.244433E-001	3.662926E-003
7.000000E+007	4.351680E-002	1.676128E-004	5.804287E-002	-1.332763E-003	5.809887E-002	-1.333948E-003	-1.242600E-001	4.137384E-003
8.000000E+007	4.363017E-002	8.431763E-005	5.803733E-002	-1.501422E-003	5.809679E-002	-1.507461E-003	-1.240953E-001	4.568135E-003
9.000000E+007	4.374512E-002	-1.504851E-005	5.804164E-002	-1.699339E-003	5.808613E-002	-1.696573E-003	-1.239826E-001	4.950317E-003
1.000000E+008	4.387713E-002	-8.316601E-005	5.803733E-002	-1.884198E-003	5.807384E-002	-1.875602E-003	-1.239172E-001	5.361803E-003
1.100000E+008	4.397801E-002	-1.916919E-004	5.801415E-002	-2.083311E-003	5.805935E-002	-2.076502E-003	-1.238230E-001	5.744525E-003
1.200000E+008	4.411999E-002	-3.370064E-004	5.798692E-002	-2.267740E-003	5.804806E-002	-2.276757E-003	-1.237161E-001	6.073582E-003
1.300000E+008	4.421934E-002	-4.203665E-004	5.797228E-002	-2.458819E-003	5.803310E-002	-2.452804E-003	-1.235805E-001	6.414703E-003
1.400000E+008	4.429647E-002	-4.930926E-004	5.795801E-002	-2.628209E-003	5.801201E-002	-2.641087E-003	-1.234905E-001	6.764270E-003
1.500000E+008	4.432990E-002	-5.577608E-004	5.794098E-002	-2.813787E-003	5.797895E-002	-2.810793E-003	-1.233716E-001	7.108786E-003
1.600000E+008	4.436359E-002	-5.913299E-004	5.793770E-002	-2.985010E-003	5.796829E-002	-2.987042E-003	-1.233046E-001	7.448753E-003
1.700000E+008	4.444200E-002	-6.761788E-004	5.793084E-002	-3.193471E-003	5.798177E-002	-3.173248E-003	-1.232180E-001	7.801035E-003
1.800000E+008	4.447095E-002	-7.514997E-004	5.789736E-002	-3.390608E-003	5.796584E-002	-3.375929E-003	-1.231109E-001	8.145963E-003
1.900000E+008	4.442970E-002	-8.641557E-004	5.785368E-002	-3.558024E-003	5.793434E-002	-3.556813E-003	-1.230449E-001	8.426508E-003
2.000000E+008	4.438647E-002	-9.890167E-004	5.783188E-002	-3.734752E-003	5.789569E-002	-3.737574E-003	-1.229961E-001	8.664821E-003
2.100000E+008	4.433100E-002	-1.168374E-003	5.781410E-002	-3.902343E-003	5.787728E-002	-3.910748E-003	-1.229021E-001	8.885736E-003
2.200000E+008	4.430666E-002	-1.322034E-003	5.779905E-002	-4.088408E-003	5.785661E-002	-4.081996E-003	-1.227854E-001	9.091112E-003
2.300000E+008	4.430707E-002	-1.482529E-003	5.778761E-002	-4.263015E-003	5.782395E-002	-4.254220E-003	-1.226484E-001	9.305509E-003
2.400000E+008	4.432669E-002	-1.652408E-003	5.775809E-002	-4.450915E-003	5.780943E-002	-4.450406E-003	-1.224857E-001	9.569867E-003
2.500000E+008	4.434007E-002	-1.796779E-003	5.773001E-002	-4.629523E-003	5.778069E-002	-4.624332E-003	-1.222781E-001	9.797042E-003
2.600000E+008	4.438607E-002	-1.949728E-003	5.770677E-002	-4.813287E-003	5.774956E-002	-4.806666E-003	-1.220508E-001	1.010694E-002
2.700000E+008	4.443160E-002	-2.084196E-003	5.767491E-002	-4.993718E-003	5.771451E-002	-4.974496E-003	-1.218141E-001	1.045493E-002
2.800000E+008	4.451257E-002	-2.202611E-003	5.764257E-002	-5.148924E-003	5.769241E-002	-5.159101E-003	-1.216007E-001	1.075456E-002
2.900000E+008	4.452419E-002	-2.279440E-003	5.761630E-002	-5.336626E-003	5.765618E-002	-5.334566E-003	-1.214398E-001	1.110145E-002
3.000000E+008	4.454774E-002	-2.341182E-003	5.759198E-002	-5.518006E-003	5.764391E-002	-5.516554E-003	-1.212953E-001	1.147794E-002
3.100000E+008	4.451767E-002	-2.404484E-003	5.755928E-002	-5.690812E-003	5.761472E-002	-5.683013E-003	-1.211512E-001	1.185497E-002
3.200000E+008	4.451901E-002	-2.435012E-003	5.752264E-002	-5.882295E-003	5.759736E-002	-5.873044E-003	-1.210675E-001	1.222552E-002
3.300000E+008	4.445100E-002	-2.481889E-003	5.750214E-002	-6.067636E-003	5.755926E-002	-6.061352E-003	-1.209685E-001	1.255357E-002
3.400000E+008	4.436397E-002	-2.555353E-003	5.746906E-002	-6.236805E-003	5.749385E-002	-6.254532E-003	-1.208343E-001	1.285521E-002
3.500000E+008	4.425511E-002	-2.648748E-003	5.744550E-002	-6.425048E-003	5.745404E-002	-6.408348E-003	-1.206705E-001	1.311085E-002
3.600000E+008	4.418296E-002	-2.733447E-003	5.741284E-002	-6.597089E-003	5.742291E-002	-6.585777E-003	-1.205013E-001	1.339054E-002
3.700000E+008	4.409065E-002	-2.846825E-003	5.737142E-002	-6.764811E-003	5.739244E-002	-6.729063E-003	-1.202920E-001	1.364088E-002
3.800000E+008	4.401639E-002	-2.983688E-003	5.731957E-002	-6.941140E-003	5.737253E-002	-6.909039E-003	-1.200866E-001	1.392415E-002
3.900000E+008	4.392943E-002	-3.124626E-003	5.728040E-002	-7.122316E-003	5.734168E-002	-7.080590E-003	-1.197959E-001	1.426681E-002
4.000000E+008	4.390206E-002	-3.282419E-003	5.724497E-002	-7.274581E-003	5.730637E-002	-7.266397E-003	-1.194811E-001	1.458224E-002
4.100000E+008	4.385741E-002	-3.433123E-003	5.720668E-002	-7.429343E-003	5.726697E-002	-7.436136E-003	-1.192021E-001	1.491252E-002
4.200000E+008	4.381362E-002	-3.577286E-003	5.717996E-002	-7.601027E-003	5.724033E-002	-7.602099E-003	-1.189644E-001	1.530465E-002
4.300000E+008	4.378578E-002	-3.690856E-003	5.716065E-002	-7.774955E-003	5.719313E-002	-7.784721E-003	-1.187522E-001	1.571667E-002
4.400000E+008	4.375446E-002	-3.789747E-003	5.710943E-002	-7.949105E-003	5.715696E-002	-7.954673E-003	-1.185412E-001	1.617971E-002
4.500000E+008	4.373574E-002	-3.894409E-003	5.709298E-002	-8.126267E-003	5.712873E-002	-8.139981E-003	-1.183342E-001	1.663369E-002
4.600000E+008	4.373303E-002	-3.993617E-003	5.703697E-002	-8.295776E-003	5.708163E-002	-8.292821E-003	-1.181478E-001	1.708397E-002
4.700000E+008	4.368442E-002	-4.081605E-003	5.698722E-002	-8.465301E-003	5.702603E-002	-8.478157E-003	-1.179767E-001	1.748426E-002
4.800000E+008	4.362283E-002	-4.155645E-003	5.696624E-002	-8.621711E-003	5.699362E-002	-8.637302E-003	-1.178360E-001	1.788925E-002
4.900000E+008	4.354120E-002	-4.215076E-003	5.693496E-002	-8.805104E-003	5.694985E-002	-8.800416E-003	-1.176756E-001	1.828922E-002
5.000000E+008	4.347194E-002	-4.280617E-003	5.688729E-002	-8.973619E-003	5.692093E-002	-8.962075E-003	-1.175141E-001	1.866735E-002
5.100000E+008	4.342027E-002	-4.354823E-003	5.684590E-002	-9.149642E-003	5.687929E-002	-9.143609E-003	-1.173247E-001	1.904989E-002
5.200000E+008	4.332828E-002	-4.451764E-003	5.679271E-002	-9.306789E-003	5.684948E-002	-9.310681E-003	-1.171577E-001	1.942724E-002
5.300000E+008	4.323516E-002	-4.567813E-003	5.674768E-002	-9.483751E-003	5.680588E-002	-9.478598E-003	-1.168989E-001	1.981717E-002
5.400000E+008	4.313622E-002	-4.722134E-003	5.671495E-002	-9.651802E-003	5.676711E-002	-9.649200E-003	-1.166719E-001	2.019111E-002
5.500000E+008	4.303992E-002	-4.853670E-003	5.667841E-002	-9.818120E-003	5.670381E-002	-9.816546E-003	-1.164627E-001	2.059557E-002
5.600000E+008	4.297638E-002	-4.995433E-003	5.662816E-002	-9.983127E-003	5.665877E-002	-9.988441E-003	-1.162122E-001	2.098969E-002
5.700000E+008	4.290429E-002	-5.153625E-003	5.657786E-002	-1.013163E-002	5.661606E-002	-1.015592E-002	-1.160585E-001	2.145314E-002
5.800000E+008	4.286667E-002	-5.294057E-003	5.654499E-002	-1.032177E-002	5.658674E-002	-1.032418E-002	-1.158807E-001	2.188634E-002
5.900000E+008	4.282399E-002	-5.475320E-003	5.649603E-002	-1.049373E-002	5.653489E-002	-1.048520E-002	-1.156759E-001	2.239262E-002
6.000000E+008	4.282474E-002	-5.623058E-003	5.644030E-002	-1.065297E-002	5.648842E-002	-1.066189E-002	-1.154632E-001	2.282308E-002
6.100000E+008	4.282009E-002	-5.736720E-003	5.640157E-002	-1.081194E-002	5.643060E-002	-1.082901E-002	-1.152962E-001	2.324608E-002
6.200000E+008	4.284743E-002	-5.824440E-003	5.634873E-002	-1.097343E-002	5.638800E-002	-1.098980E-002	-1.151100E-001	2.368149E-002
6.300000E+008	4.285493E-002	-5.901686E-003	5.629900E-002	-1.113157E-002	5.633612E-002	-1.114881E-002	-1.149352E-001	2.410469E-002
6.400000E+008	4.288055E-002	-5.960703E-003	5.625088E-002	-1.130622E-002	5.629721E-002	-1.131473E-002	-1.147340E-001	2.452904E-002
6.500000E+008	4.288484E-002	-6.018607E-003	5.620545E-002	-1.145878E-002	5.625267E-002	-1.146946E-002	-1.145547E-001	2.496733E-002
6.600000E+008	4.286383E-002	-6.106021E-003	5.615888E-002	-1.161950E-002	5.619972E-002	-1.162939E-002	-1.143502E-001	2.539358E-002
6.700000E+008	4.279614E-002	-6.124815E-003	5.611177E-002	-1.178958E-002	5.615309E-002	-1.180092E-002	-1.141845E-001	2.584207E-002
6.800000E+008	4.271852E-002	-6.168246E-003	5.606554E-002	-1.194631E-002	5.609481E-002	-1.194915E-002	-1.139885E-001	2.630067E-002
6.900000E+008	4.265402E-002	-6.218679E-003	5.600407E-002	-1.209980E-002	5.604240E-002	-1.212549E-002	-1.138123E-001	2.677577E-002
7.000000E+008	4.258913E-002	-6.287124E-003	5.595532E-002	-1.227601E-002	5.601384E-002	-1.227794E-002	-1.136582E-001	2.725291E-002
7.100000E+008	4.251727E-002	-6.348871E-003	5.590849E-002	-1.241820E-002	5.594155E-002	-1.243276E-002	-1.135318E-001	2.769268E-002
7.200000E+008	4.243518E-002	-6.420527E-003	5.586609E-002	-1.259859E-002	5.590704E-002	-1.259026E-002	-1.133964E-001	2.814957E-002
7.300000E+008	4.236285E-002	-6.504410E-003	5.580967E-002	-1.275278E-002	5.584500E-002	-1.277682E-002	-1.132819E-001	2.854703E-002
7.400000E+008	4.226881E-002	-6.588028E-003	5.575804E-002	-1.292114E-002	5.581062E-002	-1.291483E-002	-1.131691E-001	2.894516E-002
7.500000E+008	4.220416E-002	-6.674486E-003	5.571543E-002	-1.307318E-002	5.574167E-002	-1.308718E-002	-1.130505E-001	2.931505E-002
7.600000E+008	4.212887E-002	-6.781569E-003	5.566547E-002	-1.324065E-002	5.570489E-002	-1.324194E-002	-1.129009E-001	2.970059E-002
7.700000E+008	4.205495E-002	-6.902952E-003	5.561060E-002	-1.338807E-002	5.565667E-002	-1.340114E-002	-1.127631E-001	3.002811E-002
7.800000E+008	4.199521E-002	-7.018110E-003	5.554924E-002	-1.354289E-002	5.560365E-002	-1.356727E-002	-1.125775E-001	3.038298E-002
7.900000E+008	4.192636E-002	-7.169834E-003	5.550589E-002	-1.372940E-002	5.554528E-002	-1.372366E-002	-1.123921E-001	3.074539E-002
8.000000E+008	4.188890E-002	-7.277511E-003	5.543151E-002	-1.387189E-002	5.547931E-002	-1.388107E-002	-1.121780E-001	3.114463E-002
8.100000E+008	4.185777E-002	-7.424646E-003	5.538561E-002	-1.403020E-002	5.544445E-002	-1.402941E-002	-1.119223E-001	3.153920E-002
8.200000E+008	4.187958E-002	-7.531930E-003	5.532441E-002	-1.419706E-002	5.536773E-002	-1.418207E-002	-1.116814E-001	3.192975E-002
8.300000E+008	4.187238E-002	-7.650931E-003	5.528341E-002	-1.434311E-002	5.532105E-002	-1.433993E-002	-1.114747E-001	3.235990E-002
8.400000E+008	4.190123E-002	-7.744536E-003	5.521679E-002	-1.448773E-002	5.526695E-002	-1.450766E-002	-1.112615E-001	3.276155E-002
8.500000E+008	4.191158E-002	-7.809428E-003	5.517216E-002	-1.465370E-002	5.521036E-002	-1.467468E-002	-1.110999E-001	3.319225E-002
8.600000E+008	4.188475E-002	-7.878323E-003	5.510891E-002	-1.482571E-002	5.515800E-002	-1.481863E-002	-1.109464E-001	3.360387E-002
8.700000E+008	4.188873E-002	-7.886725E-003	5.504599E-002	-1.497834E-002	5.508468E-002	-1.498290E-002	-1.107687E-001	3.400018E-002
8.800000E+008	4.187027E-002	-7.914725E-003	5.500507E-002	-1.511532E-002	5.503885E-002	-1.513110E-002	-1.106174E-001	3.438438E-002
8.900000E+008	4.180407E-002	-7.976013E-003	5.495541E-002	-1.527779E-002	5.500315E-002	-1.528363E-002	-1.104588E-001	3.473092E-002
9.000000E+008	4.175261E-002	-8.029653E-003	5.487424E-002	-1.543905E-002	5.492740E-002	-1.545256E-002	-1.102679E-001	3.511588E-002
9.100000E+008	4.167080E-002	-8.080143E-003	5.483433E-002	-1.559523E-002	5.487630E-002	-1.560388E-002	-1.100187E-001	3.546440E-002
9.200000E+008	4.160601E-002	-8.180467E-003	5.475156E-002	-1.574432E-002	5.482471E-002	-1.575580E-002	-1.097703E-001	3.581799E-002
9.300000E+008	4.156474E-002	-8.250834E-003	5.471768E-002	-1.590004E-002	5.475032E-002	-1.592725E-002	-1.094940E-001	3.620185E-002
9.400000E+008	4.156380E-002	-8.356623E-003	5.466773E-002	-1.604895E-002	5.469694E-002	-1.605884E-002	-1.091580E-001	3.660598E-002
9.500000E+008	4.155422E-002	-8.464113E-003	5.459021E-002	-1.620632E-002	5.463041E-002	-1.623298E-002	-1.088438E-001	3.707583E-002
9.600000E+008	4.150736E-002	-8.517980E-003	5.452302E-002	-1.636066E-002	5.457664E-002	-1.636984E-002	-1.085085E-001	3.751012E-002
9.700000E+008	4.152145E-002	-8.576824E-003	5.445599E-002	-1.649814E-002	5.452133E-002	-1.652918E-002	-1.082128E-001	3.796260E-002
9.800000E+008	4.151175E-002	-8.621252E-003	5.440732E-002	-1.664156E-002	5.445539E-002	-1.667605E-002	-1.079427E-001	3.846117E-002
9.900000E+008	4.151654E-002	-8.655564E-003	5.437703E-002	-1.680848E-002	5.441376E-002	-1.682369E-002	-1.076690E-001	3.894738E-002
1.000000E+009	4.148758E-002	-8.691845E-003	5.430817E-002	-1.696659E-002	5.432729E-002	-1.697954E-002	-1.074722E-001	3.939910E-002
1.010000E+009	4.147722E-002	-8.684613E-003	5.424555E-002	-1.712948E-002	5.428862E-002	-1.714547E-002	-1.072456E-001	3.988868E-002
1.020000E+009	4.142862E-002	-8.723433E-003	5.419638E-002	-1.729044E-002	5.420991E-002	-1.729194E-002	-1.070502E-001	4.034347E-002
1.030000E+009	4.138824E-002	-8.729717E-003	5.412141E-002	-1.743798E-002	5.416444E-002	-1.744058E-002	-1.068424E-001	4.079812E-002
1.040000E+009	4.134234E-002	-8.765040E-003	5.405732E-002	-1.758411E-002	5.409898E-002	-1.758304E-002	-1.066261E-001	4.125155E-002
1.050000E+009	4.131059E-002	-8.803748E-003	5.400790E-002	-1.773339E-002	5.404214E-002	-1.775969E-002	-1.063829E-001	4.172481E-002
1.060000E+009	4.126784E-002	-8.835608E-003	5.394733E-002	-1.788484E-002	5.398223E-002	-1.788522E-002	-1.061182E-001	4.218669E-002
1.070000E+009	4.120296E-002	-8.884386E-003	5.387608E-002	-1.803296E-002	5.392119E-002	-1.804628E-002	-1.058526E-001	4.263468E-002
1.080000E+009	4.117128E-002	-8.921480E-003	5.380711E-002	-1.817273E-002	5.386256E-002	-1.818193E-002	-1.055912E-001	4.313885E-002
1.090000E+009	4.113705E-002	-8.968651E-003	5.376366E-002	-1.833542E-002	5.380152E-002	-1.833963E-002	-1.053407E-001	4.358366E-002
1.100000E+009	4.110088E-002	-9.003983E-003	5.367558E-002	-1.850231E-002	5.372463E-002	-1.850842E-002	-1.051229E-001	4.408183E-002
1.110000E+009	4.105210E-002	-9.032950E-003	5.361519E-002	-1.864550E-002	5.366046E-002	-1.863553E-002	-1.048886E-001	4.452583E-002
1.120000E+009	4.098090E-002	-9.087347E-003	5.355859E-002	-1.878702E-002	5.361257E-002	-1.881772E-002	-1.047175E-001	4.497088E-002
1.130000E+009	4.093773E-002	-9.116988E-003	5.348788E-002	-1.893895E-002	5.354317E-002	-1.895769E-002	-1.045281E-001	4.542324E-002
1.140000E+009	4.086592E-002	-9.145925E-003	5.341469E-002	-1.910525E-002	5.347183E-002	-1.911495E-002	-1.042851E-001	4.586063E-002
1.150000E+009	4.084980E-002	-9.214889E-003	5.338184E-002	-1.924749E-002	5.340440E-002	-1.926236E-002	-1.040467E-001	4.629718E-002
1.160000E+009	4.078472E-002	-9.244730E-003	5.328938E-002	-1.940554E-002	5.334766E-002	-1.939988E-002	-1.037944E-001	4.674096E-002
1.170000E+009	4.074503E-002	-9.276715E-003	5.323459E-002	-1.955983E-002	5.326772E-002	-1.955829E-002	-1.035297E-001	4.720955E-002
1.180000E+009	4.072446E-002	-9.335674E-003	5.315264E-002	-1.970786E-002	5.319854E-002	-1.971094E-002	-1.032504E-001	4.766824E-002
1.190000E+009	4.063255E-002	-9.344691E-003	5.307826E-002	-1.985497E-002	5.312522E-002	-1.985901E-002	-1.029732E-001	4.817230E-002
1.200000E+009	4.058834E-002	-9.407872E-003	5.300823E-002	-1.999674E-002	5.306314E-002	-2.001608E-002	-1.026797E-001	4.866758E-002
1.210000E+009	4.055856E-002	-9.469096E-003	5.297204E-002	-2.013869E-002	5.300099E-002	-2.016474E-002	-1.024336E-001	4.913510E-002
1.220000E+009	4.051483E-002	-9.562370E-003	5.288109E-002	-2.029237E-002	5.293586E-002	-2.031795E-002	-1.022160E-001	4.962400E-002
1.230000E+009	4.045035E-002	-9.628725E-003	5.281003E-002	-2.044698E-002	5.285833E-002	-2.045369E-002	-1.019961E-001	5.007081E-002
1.240000E+009	4.042278E-002	-9.690848E-003	5.274351E-002	-2.059024E-002	5.278734E-002	-2.060757E-002	-1.017919E-001	5.049587E-002
1.250000E+009	4.043840E-002	-9.771276E-003	5.267194E-002	-2.075005E-002	5.270501E-002	-2.074119E-002	-1.015705E-001	5.093279E-002
1.260000E+009	4.039582E-002	-9.825631E-003	5.258691E-002	-2.089498E-002	5.263936E-002	-2.090019E-002	-1.013188E-001	5.131727E-002
1.270000E+009	4.044811E-002	-9.881803E-003	5.252534E-002	-2.102512E-002	5.256985E-002	-2.104783E-002	-1.010547E-001	5.168951E-002
1.280000E+009	4.042630E-002	-9.932869E-003	5.246026E-002	-2.118371E-002	5.250139E-002	-2.120299E-002	-1.007825E-001	5.209084E-002
1.290000E+009	4.043210E-002	-9.962958E-003	5.236886E-002	-2.134149E-002	5.243386E-002	-2.136435E-002	-1.004578E-001	5.246657E-002
1.300000E+009	4.044811E-002	-9.944365E-003	5.231808E-002	-2.148132E-002	5.234216E-002	-2.149548E-002	-1.000954E-001	5.286991E-002
1.310000E+009	4.043420E-002	-9.973133E-003	5.221722E-002	-2.164082E-002	5.228694E-002	-2.163369E-002	-9.977265E-002	5.332335E-002
1.320000E+009	4.041045E-002	-9.977674E-003	5.215691E-002	-2.180530E-002	5.219743E-002	-2.180244E-002	-9.936243E-002	5.381486E-002
1.330000E+009	4.039839E-002	-9.961158E-003	5.209669E-002	-2.193528E-002	5.213916E-002	-2.195756E-002	-9.896627E-002	5.433368E-002
1.340000E+009	4.033103E-002	-9.958141E-003	5.199927E-002	-2.208213E-002	5.206376E-002	-2.207552E-002	-9.859349E-002	5.485768E-002
1.350000E+009	4.028027E-002	-9.978954E-003	5.191076E-002	-2.221370E-002	5.197137E-002	-2.223674E-002	-9.823111E-002	5.542561E-002
1.360000E+009	4.027548E-002	-9.968964E-003	5.185620E-002	-2.236608E-002	5.190372E-002	-2.239098E-002	-9.787358E-002	5.601644E-002
1.370000E+009	4.023592E-002	-9.986380E-003	5.177118E-002	-2.252977E-002	5.181681E-002	-2.253199E-002	-9.755854E-002	5.660213E-002
1.380000E+009	4.020008E-002	-1.000289E-002	5.168319E-002	-2.267389E-002	5.174805E-002	-2.267671E-002	-9.725703E-002	5.718124E-002
1.390000E+009	4.019237E-002	-1.004113E-002	5.161984E-002	-2.281777E-002	5.166897E-002	-2.282030E-002	-9.697679E-002	5.775665E-002
1.400000E+009	4.014657E-002	-1.007459E-002	5.152347E-002	-2.296699E-002	5.157781E-002	-2.296899E-002	-9.669980E-002	5.832199E-002
1.410000E+009	4.010244E-002	-1.005451E-002	5.145495E-002	-2.309704E-002	5.148195E-002	-2.309760E-002	-9.643682E-002	5.887434E-002
1.420000E+009	4.006557E-002	-1.006311E-002	5.137433E-002	-2.325612E-002	5.141340E-002	-2.325078E-002	-9.616862E-002	5.940923E-002
1.430000E+009	4.004521E-002	-1.005138E-002	5.129922E-002	-2.337224E-002	5.134488E-002	-2.338709E-002	-9.588333E-002	5.991042E-002
1.440000E+009	3.998887E-002	-1.008028E-002	5.120463E-002	-2.352996E-002	5.125354E-002	-2.353748E-002	-9.558586E-002	6.042256E-002
1.450000E+009	3.992198E-002	-1.005831E-002	5.113535E-002	-2.365905E-002	5.117080E-002	-2.368987E-002	-9.528043E-002	6.093821E-002
1.460000E+009	3.983980E-002	-1.006600E-002	5.104057E-002	-2.381525E-002	5.109026E-002	-2.385310E-002	-9.496145E-002	6.143712E-002
1.470000E+009	3.981102E-002	-1.011648E-002	5.095185E-002	-2.396015E-002	5.100346E-002	-2.396671E-002	-9.462102E-002	6.198099E-002
1.480000E+009	3.974815E-002	-1.013197E-002	5.086328E-002	-2.409577E-002	5.092710E-002	-2.410772E-002	-9.427285E-002	6.253691E-002
1.490000E+009	3.971737E-002	-1.014628E-002	5.079318E-002	-2.421481E-002	5.083500E-002	-2.423768E-002	-9.391899E-002	6.312303E-002
1.500000E+009	3.968431E-002	-1.017716E-002	5.070155E-002	-2.438248E-002	5.075118E-002	-2.439512E-002	-9.356024E-002	6.370128E-002
