! Device ID: PE43711P
! File Path: z:\PE43711P\CHAR_NOM_04282014\AMB\3p300\LS_ATT_14p75dB\PE43711P_AMB_3p300V_3p000V_0p000V_LS_ATT_14p75dB_S2P_SN_5_A0137A.s2p
! Serial: 5
! Lot: A0137A
! Temp: 25C
! VDD: 3.300
! VSS: 0.000
! Control_Hi: 3.000
! Control_Lo: 0.000
! Attenuation Step: 14.75dB
! Port 1: RF1
! Port 2: RF2
! ThroughPath:1-2
! IDD: 0.0001278278
! ISS: -1.171e-007
!

#  Hz  S   RI  R   50

1.000000E+007	6.400109E-002	5.038141E-005	1.600483E-001	-7.840994E-004	1.602528E-001	-8.285196E-004	-1.175595E-001	9.200095E-004
2.000000E+007	6.421707E-002	-5.237384E-005	1.600286E-001	-1.196440E-003	1.601204E-001	-1.235865E-003	-1.172428E-001	1.479487E-003
3.000000E+007	6.445586E-002	-2.595043E-004	1.600221E-001	-1.810480E-003	1.601251E-001	-1.817137E-003	-1.169444E-001	1.945775E-003
4.000000E+007	6.459834E-002	-4.556060E-004	1.600159E-001	-2.410196E-003	1.601156E-001	-2.428296E-003	-1.167699E-001	2.511575E-003
5.000000E+007	6.470063E-002	-7.061073E-004	1.600094E-001	-3.055636E-003	1.601381E-001	-3.060224E-003	-1.167140E-001	3.044061E-003
6.000000E+007	6.485332E-002	-9.959682E-004	1.599584E-001	-3.663676E-003	1.601148E-001	-3.667566E-003	-1.165735E-001	3.463255E-003
7.000000E+007	6.495204E-002	-1.291667E-003	1.599161E-001	-4.232923E-003	1.600605E-001	-4.261436E-003	-1.164024E-001	3.898130E-003
8.000000E+007	6.506425E-002	-1.572676E-003	1.598964E-001	-4.805258E-003	1.600301E-001	-4.833020E-003	-1.162413E-001	4.306039E-003
9.000000E+007	6.516700E-002	-1.865541E-003	1.598672E-001	-5.392624E-003	1.599954E-001	-5.414646E-003	-1.161124E-001	4.667541E-003
1.000000E+008	6.527118E-002	-2.149963E-003	1.598539E-001	-6.006632E-003	1.599628E-001	-6.001665E-003	-1.160402E-001	5.051410E-003
1.100000E+008	6.535200E-002	-2.445451E-003	1.598074E-001	-6.615548E-003	1.599209E-001	-6.603109E-003	-1.159514E-001	5.401848E-003
1.200000E+008	6.545326E-002	-2.781425E-003	1.597216E-001	-7.202524E-003	1.598689E-001	-7.213051E-003	-1.158678E-001	5.705925E-003
1.300000E+008	6.552415E-002	-3.091783E-003	1.596720E-001	-7.792277E-003	1.598156E-001	-7.803176E-003	-1.157538E-001	6.028904E-003
1.400000E+008	6.556416E-002	-3.376029E-003	1.596250E-001	-8.391012E-003	1.597598E-001	-8.400141E-003	-1.156338E-001	6.348695E-003
1.500000E+008	6.553859E-002	-3.636581E-003	1.595832E-001	-8.939267E-003	1.596696E-001	-8.967731E-003	-1.155142E-001	6.635407E-003
1.600000E+008	6.553479E-002	-3.860772E-003	1.595527E-001	-9.509976E-003	1.595981E-001	-9.521932E-003	-1.154731E-001	6.943290E-003
1.700000E+008	6.556625E-002	-4.144771E-003	1.594942E-001	-1.013634E-002	1.596098E-001	-1.011415E-002	-1.154503E-001	7.273650E-003
1.800000E+008	6.552313E-002	-4.416370E-003	1.593709E-001	-1.076590E-002	1.595645E-001	-1.075945E-002	-1.153794E-001	7.570074E-003
1.900000E+008	6.544890E-002	-4.743405E-003	1.592594E-001	-1.131746E-002	1.594629E-001	-1.134803E-002	-1.153231E-001	7.820450E-003
2.000000E+008	6.536507E-002	-5.062436E-003	1.591924E-001	-1.187572E-002	1.593760E-001	-1.188119E-002	-1.152426E-001	8.052300E-003
2.100000E+008	6.527629E-002	-5.440699E-003	1.591323E-001	-1.244661E-002	1.592850E-001	-1.245429E-002	-1.151263E-001	8.234075E-003
2.200000E+008	6.519110E-002	-5.783575E-003	1.590571E-001	-1.298907E-002	1.592059E-001	-1.300977E-002	-1.150141E-001	8.422676E-003
2.300000E+008	6.514699E-002	-6.129272E-003	1.589940E-001	-1.357038E-002	1.591205E-001	-1.356943E-002	-1.148802E-001	8.616310E-003
2.400000E+008	6.510202E-002	-6.480087E-003	1.589262E-001	-1.414328E-002	1.590354E-001	-1.414336E-002	-1.147317E-001	8.863715E-003
2.500000E+008	6.504665E-002	-6.810876E-003	1.588209E-001	-1.472632E-002	1.589535E-001	-1.472342E-002	-1.145602E-001	9.054531E-003
2.600000E+008	6.502956E-002	-7.157757E-003	1.587221E-001	-1.531155E-002	1.588556E-001	-1.530490E-002	-1.143585E-001	9.343549E-003
2.700000E+008	6.501985E-002	-7.493466E-003	1.586150E-001	-1.586423E-002	1.587686E-001	-1.586756E-002	-1.141473E-001	9.637785E-003
2.800000E+008	6.501044E-002	-7.779116E-003	1.585322E-001	-1.640600E-002	1.586648E-001	-1.641046E-002	-1.139293E-001	9.917391E-003
2.900000E+008	6.496553E-002	-8.039096E-003	1.584471E-001	-1.696303E-002	1.585621E-001	-1.696228E-002	-1.137920E-001	1.023293E-002
3.000000E+008	6.491729E-002	-8.277117E-003	1.583640E-001	-1.754121E-002	1.584799E-001	-1.752084E-002	-1.136522E-001	1.058799E-002
3.100000E+008	6.485699E-002	-8.518720E-003	1.582665E-001	-1.809669E-002	1.584021E-001	-1.808939E-002	-1.135347E-001	1.095285E-002
3.200000E+008	6.477818E-002	-8.729896E-003	1.581649E-001	-1.868053E-002	1.582961E-001	-1.866745E-002	-1.134412E-001	1.129902E-002
3.300000E+008	6.464802E-002	-8.940376E-003	1.580696E-001	-1.924311E-002	1.582010E-001	-1.926613E-002	-1.133464E-001	1.162142E-002
3.400000E+008	6.447718E-002	-9.183017E-003	1.579391E-001	-1.980640E-002	1.580307E-001	-1.986107E-002	-1.132246E-001	1.188318E-002
3.500000E+008	6.429592E-002	-9.443892E-003	1.578287E-001	-2.037785E-002	1.578792E-001	-2.037815E-002	-1.130963E-001	1.211657E-002
3.600000E+008	6.412911E-002	-9.673041E-003	1.577237E-001	-2.093367E-002	1.577618E-001	-2.088591E-002	-1.129357E-001	1.239659E-002
3.700000E+008	6.397224E-002	-9.951176E-003	1.575764E-001	-2.145674E-002	1.576741E-001	-2.138367E-002	-1.127533E-001	1.261381E-002
3.800000E+008	6.382030E-002	-1.024797E-002	1.574656E-001	-2.199642E-002	1.576024E-001	-2.194717E-002	-1.125653E-001	1.286473E-002
3.900000E+008	6.366891E-002	-1.056466E-002	1.573169E-001	-2.258432E-002	1.574804E-001	-2.253806E-002	-1.122934E-001	1.319208E-002
4.000000E+008	6.354789E-002	-1.089902E-002	1.571756E-001	-2.309125E-002	1.573629E-001	-2.308626E-002	-1.119877E-001	1.348781E-002
4.100000E+008	6.340858E-002	-1.120708E-002	1.570753E-001	-2.359812E-002	1.572153E-001	-2.363674E-002	-1.117163E-001	1.378319E-002
4.200000E+008	6.328143E-002	-1.151425E-002	1.569758E-001	-2.415662E-002	1.570980E-001	-2.415318E-002	-1.115220E-001	1.415115E-002
4.300000E+008	6.318373E-002	-1.177433E-002	1.568806E-001	-2.470573E-002	1.569716E-001	-2.472090E-002	-1.113132E-001	1.455523E-002
4.400000E+008	6.308149E-002	-1.202859E-002	1.567586E-001	-2.525020E-002	1.568467E-001	-2.526612E-002	-1.111170E-001	1.499158E-002
4.500000E+008	6.298580E-002	-1.227945E-002	1.566238E-001	-2.580138E-002	1.567401E-001	-2.579908E-002	-1.109513E-001	1.543540E-002
4.600000E+008	6.288003E-002	-1.253977E-002	1.564751E-001	-2.634652E-002	1.565982E-001	-2.636638E-002	-1.107554E-001	1.589448E-002
4.700000E+008	6.273548E-002	-1.278770E-002	1.563299E-001	-2.687475E-002	1.564512E-001	-2.690279E-002	-1.106145E-001	1.627639E-002
4.800000E+008	6.259320E-002	-1.297400E-002	1.562050E-001	-2.739957E-002	1.563100E-001	-2.740417E-002	-1.105047E-001	1.667150E-002
4.900000E+008	6.241736E-002	-1.319955E-002	1.560756E-001	-2.793959E-002	1.561717E-001	-2.794078E-002	-1.103607E-001	1.705885E-002
5.000000E+008	6.227296E-002	-1.340427E-002	1.559426E-001	-2.846816E-002	1.560448E-001	-2.846403E-002	-1.102111E-001	1.741616E-002
5.100000E+008	6.212634E-002	-1.365833E-002	1.557982E-001	-2.899972E-002	1.559177E-001	-2.900591E-002	-1.100479E-001	1.778222E-002
5.200000E+008	6.196650E-002	-1.389742E-002	1.556672E-001	-2.954436E-002	1.558047E-001	-2.954884E-002	-1.098822E-001	1.814122E-002
5.300000E+008	6.177008E-002	-1.415673E-002	1.555165E-001	-3.007974E-002	1.556504E-001	-3.010049E-002	-1.096400E-001	1.849490E-002
5.400000E+008	6.159002E-002	-1.447649E-002	1.553670E-001	-3.061662E-002	1.554887E-001	-3.063248E-002	-1.094177E-001	1.884545E-002
5.500000E+008	6.142246E-002	-1.471184E-002	1.552358E-001	-3.114037E-002	1.553284E-001	-3.116135E-002	-1.092160E-001	1.925192E-002
5.600000E+008	6.124845E-002	-1.498441E-002	1.550658E-001	-3.166545E-002	1.551655E-001	-3.167735E-002	-1.090065E-001	1.965246E-002
5.700000E+008	6.110124E-002	-1.528217E-002	1.549275E-001	-3.218211E-002	1.550154E-001	-3.219477E-002	-1.088527E-001	2.011017E-002
5.800000E+008	6.094722E-002	-1.556463E-002	1.547615E-001	-3.269938E-002	1.549013E-001	-3.271364E-002	-1.086982E-001	2.053862E-002
5.900000E+008	6.081262E-002	-1.585903E-002	1.546150E-001	-3.325292E-002	1.547499E-001	-3.326741E-002	-1.085411E-001	2.102365E-002
6.000000E+008	6.072113E-002	-1.613717E-002	1.544653E-001	-3.377367E-002	1.545661E-001	-3.379528E-002	-1.083430E-001	2.144318E-002
6.100000E+008	6.062518E-002	-1.640446E-002	1.542982E-001	-3.428750E-002	1.543887E-001	-3.432614E-002	-1.081975E-001	2.185512E-002
6.200000E+008	6.054161E-002	-1.661468E-002	1.541209E-001	-3.478975E-002	1.542203E-001	-3.483309E-002	-1.080303E-001	2.227138E-002
6.300000E+008	6.048231E-002	-1.682511E-002	1.539523E-001	-3.531311E-002	1.540546E-001	-3.534275E-002	-1.078668E-001	2.265981E-002
6.400000E+008	6.040105E-002	-1.704115E-002	1.538068E-001	-3.581610E-002	1.539045E-001	-3.584614E-002	-1.076899E-001	2.306476E-002
6.500000E+008	6.031270E-002	-1.722355E-002	1.536421E-001	-3.633768E-002	1.537406E-001	-3.636617E-002	-1.075288E-001	2.351349E-002
6.600000E+008	6.020915E-002	-1.741456E-002	1.534955E-001	-3.685078E-002	1.535776E-001	-3.689487E-002	-1.073330E-001	2.393081E-002
6.700000E+008	6.004833E-002	-1.757093E-002	1.533167E-001	-3.737974E-002	1.534104E-001	-3.740562E-002	-1.071711E-001	2.438256E-002
6.800000E+008	5.987200E-002	-1.774160E-002	1.531532E-001	-3.786601E-002	1.532413E-001	-3.790756E-002	-1.069942E-001	2.484991E-002
6.900000E+008	5.970251E-002	-1.788570E-002	1.529548E-001	-3.838403E-002	1.530633E-001	-3.841331E-002	-1.068410E-001	2.533447E-002
7.000000E+008	5.954827E-002	-1.807378E-002	1.528064E-001	-3.890653E-002	1.529117E-001	-3.890104E-002	-1.067115E-001	2.577576E-002
7.100000E+008	5.937181E-002	-1.827329E-002	1.526253E-001	-3.939696E-002	1.527259E-001	-3.943538E-002	-1.066323E-001	2.621157E-002
7.200000E+008	5.918604E-002	-1.846114E-002	1.524667E-001	-3.990104E-002	1.525630E-001	-3.992819E-002	-1.065135E-001	2.664186E-002
7.300000E+008	5.900242E-002	-1.869541E-002	1.522798E-001	-4.039768E-002	1.524052E-001	-4.045072E-002	-1.064046E-001	2.703132E-002
7.400000E+008	5.882204E-002	-1.889472E-002	1.520952E-001	-4.091607E-002	1.522289E-001	-4.095849E-002	-1.063057E-001	2.742677E-002
7.500000E+008	5.866116E-002	-1.911073E-002	1.519121E-001	-4.141550E-002	1.520504E-001	-4.147300E-002	-1.062028E-001	2.778663E-002
7.600000E+008	5.849256E-002	-1.932950E-002	1.517489E-001	-4.192944E-002	1.518454E-001	-4.197015E-002	-1.060791E-001	2.815216E-002
7.700000E+008	5.833631E-002	-1.956487E-002	1.515612E-001	-4.242713E-002	1.516876E-001	-4.247886E-002	-1.059320E-001	2.846913E-002
7.800000E+008	5.816718E-002	-1.979481E-002	1.513787E-001	-4.293391E-002	1.515039E-001	-4.298224E-002	-1.057718E-001	2.883320E-002
7.900000E+008	5.800519E-002	-2.004196E-002	1.512044E-001	-4.344154E-002	1.513331E-001	-4.349334E-002	-1.056275E-001	2.919730E-002
8.000000E+008	5.786314E-002	-2.029566E-002	1.510110E-001	-4.393629E-002	1.511150E-001	-4.397643E-002	-1.054188E-001	2.959521E-002
8.100000E+008	5.772609E-002	-2.053752E-002	1.508267E-001	-4.441587E-002	1.509199E-001	-4.447855E-002	-1.051801E-001	3.000290E-002
8.200000E+008	5.762533E-002	-2.075260E-002	1.506530E-001	-4.492241E-002	1.507213E-001	-4.495026E-002	-1.049966E-001	3.039208E-002
8.300000E+008	5.753168E-002	-2.098690E-002	1.504378E-001	-4.542070E-002	1.505645E-001	-4.546841E-002	-1.047914E-001	3.079468E-002
8.400000E+008	5.743316E-002	-2.120050E-002	1.502434E-001	-4.590864E-002	1.503771E-001	-4.596311E-002	-1.046069E-001	3.119065E-002
8.500000E+008	5.735235E-002	-2.138844E-002	1.500709E-001	-4.639336E-002	1.501811E-001	-4.647222E-002	-1.044689E-001	3.160058E-002
8.600000E+008	5.723319E-002	-2.155243E-002	1.498531E-001	-4.688510E-002	1.499629E-001	-4.695265E-002	-1.043219E-001	3.201233E-002
8.700000E+008	5.713260E-002	-2.167651E-002	1.496848E-001	-4.738098E-002	1.497771E-001	-4.743990E-002	-1.041701E-001	3.238972E-002
8.800000E+008	5.701487E-002	-2.181806E-002	1.494859E-001	-4.788944E-002	1.496062E-001	-4.792477E-002	-1.040217E-001	3.279024E-002
8.900000E+008	5.685422E-002	-2.197451E-002	1.492736E-001	-4.836923E-002	1.494181E-001	-4.842242E-002	-1.038815E-001	3.313854E-002
9.000000E+008	5.670427E-002	-2.212954E-002	1.490859E-001	-4.888615E-002	1.492117E-001	-4.891155E-002	-1.037019E-001	3.351978E-002
9.100000E+008	5.651485E-002	-2.229953E-002	1.488738E-001	-4.935348E-002	1.490155E-001	-4.940541E-002	-1.034856E-001	3.387869E-002
9.200000E+008	5.633858E-002	-2.248874E-002	1.486763E-001	-4.983609E-002	1.488223E-001	-4.990492E-002	-1.032503E-001	3.425190E-002
9.300000E+008	5.620692E-002	-2.265794E-002	1.484792E-001	-5.032151E-002	1.485852E-001	-5.039154E-002	-1.029901E-001	3.463234E-002
9.400000E+008	5.607162E-002	-2.286946E-002	1.482755E-001	-5.079872E-002	1.483994E-001	-5.086132E-002	-1.026800E-001	3.502223E-002
9.500000E+008	5.594302E-002	-2.307380E-002	1.480789E-001	-5.129488E-002	1.481908E-001	-5.137793E-002	-1.023906E-001	3.548333E-002
9.600000E+008	5.581159E-002	-2.322665E-002	1.478620E-001	-5.177375E-002	1.479774E-001	-5.184243E-002	-1.020652E-001	3.591010E-002
9.700000E+008	5.569613E-002	-2.339509E-002	1.476387E-001	-5.225541E-002	1.477721E-001	-5.232095E-002	-1.017784E-001	3.637484E-002
9.800000E+008	5.561774E-002	-2.354378E-002	1.474552E-001	-5.272456E-002	1.475756E-001	-5.281047E-002	-1.015199E-001	3.684592E-002
9.900000E+008	5.553107E-002	-2.369976E-002	1.472649E-001	-5.322283E-002	1.473744E-001	-5.330603E-002	-1.012788E-001	3.732437E-002
1.000000E+009	5.539960E-002	-2.379525E-002	1.470578E-001	-5.368808E-002	1.471380E-001	-5.377470E-002	-1.010620E-001	3.780206E-002
1.010000E+009	5.526451E-002	-2.390501E-002	1.468462E-001	-5.418405E-002	1.469458E-001	-5.425343E-002	-1.008483E-001	3.829106E-002
1.020000E+009	5.512180E-002	-2.401616E-002	1.466275E-001	-5.467571E-002	1.467197E-001	-5.473371E-002	-1.006568E-001	3.876086E-002
1.030000E+009	5.498738E-002	-2.412495E-002	1.463913E-001	-5.514679E-002	1.465125E-001	-5.520853E-002	-1.004793E-001	3.922548E-002
1.040000E+009	5.482000E-002	-2.423350E-002	1.461828E-001	-5.561870E-002	1.462957E-001	-5.567977E-002	-1.002664E-001	3.970677E-002
1.050000E+009	5.465882E-002	-2.437764E-002	1.459812E-001	-5.608692E-002	1.460715E-001	-5.614180E-002	-1.000636E-001	4.016941E-002
1.060000E+009	5.450865E-002	-2.451328E-002	1.457585E-001	-5.655882E-002	1.458607E-001	-5.661751E-002	-9.982816E-002	4.062549E-002
1.070000E+009	5.435045E-002	-2.464188E-002	1.455337E-001	-5.703669E-002	1.456442E-001	-5.706826E-002	-9.957314E-002	4.108436E-002
1.080000E+009	5.420741E-002	-2.479349E-002	1.452987E-001	-5.752370E-002	1.454275E-001	-5.757033E-002	-9.931816E-002	4.154569E-002
1.090000E+009	5.407253E-002	-2.492663E-002	1.450753E-001	-5.800894E-002	1.452221E-001	-5.805060E-002	-9.909325E-002	4.200775E-002
1.100000E+009	5.392867E-002	-2.505666E-002	1.448567E-001	-5.846739E-002	1.449990E-001	-5.849571E-002	-9.885681E-002	4.247259E-002
1.110000E+009	5.379037E-002	-2.519358E-002	1.446266E-001	-5.893711E-002	1.447631E-001	-5.898715E-002	-9.862588E-002	4.292727E-002
1.120000E+009	5.362573E-002	-2.531408E-002	1.443958E-001	-5.941486E-002	1.445265E-001	-5.947806E-002	-9.847177E-002	4.337355E-002
1.130000E+009	5.347891E-002	-2.543255E-002	1.441803E-001	-5.988071E-002	1.442882E-001	-5.993939E-002	-9.829188E-002	4.382598E-002
1.140000E+009	5.330093E-002	-2.556453E-002	1.439455E-001	-6.038442E-002	1.440817E-001	-6.041227E-002	-9.809689E-002	4.429442E-002
1.150000E+009	5.315015E-002	-2.567662E-002	1.437045E-001	-6.085631E-002	1.438388E-001	-6.087737E-002	-9.786212E-002	4.474721E-002
1.160000E+009	5.297760E-002	-2.580183E-002	1.434662E-001	-6.129773E-002	1.436080E-001	-6.137137E-002	-9.765531E-002	4.515941E-002
1.170000E+009	5.284664E-002	-2.593461E-002	1.432412E-001	-6.177212E-002	1.433554E-001	-6.181989E-002	-9.740486E-002	4.565006E-002
1.180000E+009	5.269007E-002	-2.607001E-002	1.429857E-001	-6.224644E-002	1.431296E-001	-6.227969E-002	-9.713735E-002	4.609205E-002
1.190000E+009	5.250695E-002	-2.619388E-002	1.427569E-001	-6.269797E-002	1.428654E-001	-6.276410E-002	-9.689058E-002	4.658533E-002
1.200000E+009	5.235259E-002	-2.633702E-002	1.425231E-001	-6.317540E-002	1.426254E-001	-6.321212E-002	-9.660187E-002	4.708184E-002
1.210000E+009	5.223511E-002	-2.649993E-002	1.422571E-001	-6.364333E-002	1.423843E-001	-6.367577E-002	-9.636667E-002	4.756162E-002
1.220000E+009	5.206843E-002	-2.664843E-002	1.420248E-001	-6.409117E-002	1.421461E-001	-6.414053E-002	-9.615483E-002	4.806323E-002
1.230000E+009	5.192126E-002	-2.678284E-002	1.417818E-001	-6.454558E-002	1.418874E-001	-6.460679E-002	-9.593693E-002	4.850493E-002
1.240000E+009	5.179606E-002	-2.693587E-002	1.415303E-001	-6.501889E-002	1.416238E-001	-6.504987E-002	-9.574465E-002	4.894305E-002
1.250000E+009	5.167576E-002	-2.709357E-002	1.412795E-001	-6.546710E-002	1.414133E-001	-6.551113E-002	-9.553838E-002	4.940433E-002
1.260000E+009	5.152796E-002	-2.724547E-002	1.410297E-001	-6.595780E-002	1.411348E-001	-6.599105E-002	-9.531662E-002	4.978160E-002
1.270000E+009	5.146218E-002	-2.736154E-002	1.407706E-001	-6.639110E-002	1.408979E-001	-6.644212E-002	-9.505384E-002	5.018250E-002
1.280000E+009	5.132704E-002	-2.749065E-002	1.405353E-001	-6.687061E-002	1.406534E-001	-6.690483E-002	-9.481193E-002	5.056484E-002
1.290000E+009	5.123447E-002	-2.761034E-002	1.402726E-001	-6.732482E-002	1.404050E-001	-6.738172E-002	-9.450487E-002	5.093762E-002
1.300000E+009	5.112461E-002	-2.766939E-002	1.400136E-001	-6.776816E-002	1.401257E-001	-6.783298E-002	-9.416990E-002	5.135696E-002
1.310000E+009	5.098811E-002	-2.779258E-002	1.397496E-001	-6.826162E-002	1.398734E-001	-6.828850E-002	-9.384973E-002	5.179298E-002
1.320000E+009	5.086176E-002	-2.785420E-002	1.394884E-001	-6.871305E-002	1.396123E-001	-6.874864E-002	-9.345833E-002	5.228096E-002
1.330000E+009	5.074478E-002	-2.794829E-002	1.392274E-001	-6.914853E-002	1.393560E-001	-6.921329E-002	-9.305398E-002	5.280418E-002
1.340000E+009	5.057962E-002	-2.800294E-002	1.389496E-001	-6.960201E-002	1.390782E-001	-6.967008E-002	-9.268626E-002	5.335223E-002
1.350000E+009	5.042085E-002	-2.807610E-002	1.386967E-001	-7.005953E-002	1.388017E-001	-7.011650E-002	-9.232905E-002	5.393737E-002
1.360000E+009	5.031162E-002	-2.816444E-002	1.384146E-001	-7.049869E-002	1.385409E-001	-7.058006E-002	-9.198658E-002	5.452862E-002
1.370000E+009	5.014044E-002	-2.823182E-002	1.381559E-001	-7.096439E-002	1.382768E-001	-7.101005E-002	-9.169317E-002	5.513773E-002
1.380000E+009	4.999373E-002	-2.833960E-002	1.378807E-001	-7.139089E-002	1.380017E-001	-7.145630E-002	-9.139820E-002	5.572128E-002
1.390000E+009	4.987571E-002	-2.842427E-002	1.375767E-001	-7.185273E-002	1.377171E-001	-7.191784E-002	-9.114156E-002	5.633923E-002
1.400000E+009	4.971101E-002	-2.851299E-002	1.373195E-001	-7.231246E-002	1.374409E-001	-7.234089E-002	-9.089418E-002	5.688116E-002
1.410000E+009	4.956914E-002	-2.858601E-002	1.370402E-001	-7.274107E-002	1.371470E-001	-7.280018E-002	-9.063946E-002	5.746434E-002
1.420000E+009	4.939457E-002	-2.865757E-002	1.367677E-001	-7.318093E-002	1.368740E-001	-7.321566E-002	-9.040006E-002	5.798110E-002
1.430000E+009	4.925992E-002	-2.873871E-002	1.364637E-001	-7.361184E-002	1.366077E-001	-7.367013E-002	-9.010068E-002	5.848550E-002
1.440000E+009	4.910477E-002	-2.882227E-002	1.361789E-001	-7.404872E-002	1.363118E-001	-7.412130E-002	-8.984183E-002	5.899934E-002
1.450000E+009	4.892451E-002	-2.887881E-002	1.359096E-001	-7.451382E-002	1.360492E-001	-7.455454E-002	-8.951281E-002	5.950013E-002
1.460000E+009	4.876702E-002	-2.897543E-002	1.356213E-001	-7.494727E-002	1.357276E-001	-7.500385E-002	-8.920839E-002	6.004042E-002
1.470000E+009	4.860991E-002	-2.906052E-002	1.353069E-001	-7.537954E-002	1.354502E-001	-7.544510E-002	-8.887239E-002	6.060850E-002
1.480000E+009	4.842772E-002	-2.910486E-002	1.350182E-001	-7.582634E-002	1.351604E-001	-7.587391E-002	-8.854851E-002	6.120374E-002
1.490000E+009	4.827094E-002	-2.921343E-002	1.347460E-001	-7.624739E-002	1.348461E-001	-7.628700E-002	-8.821780E-002	6.179026E-002
1.500000E+009	4.812617E-002	-2.928775E-002	1.344354E-001	-7.668152E-002	1.345609E-001	-7.673629E-002	-8.787327E-002	6.237209E-002
