! Device ID: PE43711P
! File Path: z:\PE43711P\CHAR_NOM_04282014\AMB\3p300\LS_ATT_26p75dB\PE43711P_AMB_3p300V_3p000V_0p000V_LS_ATT_26p75dB_S2P_SN_5_A0137A.s2p
! Serial: 5
! Lot: A0137A
! Temp: 25C
! VDD: 3.300
! VSS: 0.000
! Control_Hi: 3.000
! Control_Lo: 0.000
! Attenuation Step: 26.75dB
! Port 1: RF1
! Port 2: RF2
! ThroughPath:1-2
! IDD: 0.0001274523
! ISS: -1.196e-007
!

#  Hz  S   RI  R   50

1.000000E+007	3.112886E-002	4.297311E-004	3.986162E-002	-1.424430E-004	3.991050E-002	-1.447576E-004	-1.293319E-001	9.182314E-004
2.000000E+007	3.135656E-002	5.453699E-004	3.986928E-002	-2.390358E-004	3.989465E-002	-2.495324E-004	-1.290212E-001	1.572714E-003
3.000000E+007	3.161953E-002	6.598397E-004	3.987071E-002	-3.666677E-004	3.988889E-002	-3.674218E-004	-1.287170E-001	2.084801E-003
4.000000E+007	3.178838E-002	7.466494E-004	3.986564E-002	-4.811793E-004	3.987354E-002	-4.907434E-004	-1.285366E-001	2.689924E-003
5.000000E+007	3.189816E-002	8.137090E-004	3.985544E-002	-6.253013E-004	3.988386E-002	-6.095957E-004	-1.285114E-001	3.292500E-003
6.000000E+007	3.206069E-002	8.387598E-004	3.984655E-002	-7.345446E-004	3.989446E-002	-7.479877E-004	-1.283613E-001	3.766143E-003
7.000000E+007	3.219245E-002	8.576263E-004	3.984278E-002	-8.538560E-004	3.987739E-002	-8.576567E-004	-1.281749E-001	4.238399E-003
8.000000E+007	3.232698E-002	8.724122E-004	3.983422E-002	-9.630259E-004	3.986592E-002	-9.661933E-004	-1.280303E-001	4.711425E-003
9.000000E+007	3.244575E-002	8.815395E-004	3.984442E-002	-1.090889E-003	3.986611E-002	-1.074750E-003	-1.278970E-001	5.107278E-003
1.000000E+008	3.259162E-002	8.929350E-004	3.983153E-002	-1.205169E-003	3.986294E-002	-1.208898E-003	-1.278453E-001	5.546079E-003
1.100000E+008	3.272588E-002	8.712965E-004	3.982415E-002	-1.336050E-003	3.985674E-002	-1.325283E-003	-1.277494E-001	5.936067E-003
1.200000E+008	3.286665E-002	8.364890E-004	3.979777E-002	-1.442493E-003	3.984369E-002	-1.453983E-003	-1.276381E-001	6.276176E-003
1.300000E+008	3.298059E-002	8.461396E-004	3.979510E-002	-1.563881E-003	3.983267E-002	-1.573065E-003	-1.275071E-001	6.640615E-003
1.400000E+008	3.306986E-002	8.652429E-004	3.978355E-002	-1.692070E-003	3.983604E-002	-1.703692E-003	-1.274026E-001	7.014022E-003
1.500000E+008	3.312633E-002	9.031878E-004	3.977284E-002	-1.794910E-003	3.980254E-002	-1.805362E-003	-1.273043E-001	7.365713E-003
1.600000E+008	3.319016E-002	9.503558E-004	3.978568E-002	-1.910313E-003	3.979643E-002	-1.912980E-003	-1.272123E-001	7.728042E-003
1.700000E+008	3.328499E-002	9.663391E-004	3.976789E-002	-2.051444E-003	3.980130E-002	-2.031813E-003	-1.271396E-001	8.089864E-003
1.800000E+008	3.333660E-002	9.722864E-004	3.973844E-002	-2.178973E-003	3.978473E-002	-2.163954E-003	-1.270293E-001	8.443978E-003
1.900000E+008	3.330902E-002	9.555281E-004	3.972543E-002	-2.288105E-003	3.977483E-002	-2.280392E-003	-1.269602E-001	8.752968E-003
2.000000E+008	3.326660E-002	9.171516E-004	3.970826E-002	-2.391343E-003	3.976116E-002	-2.389451E-003	-1.269065E-001	9.009968E-003
2.100000E+008	3.326209E-002	8.272268E-004	3.970837E-002	-2.506992E-003	3.973829E-002	-2.496814E-003	-1.268188E-001	9.231439E-003
2.200000E+008	3.325265E-002	7.668546E-004	3.967526E-002	-2.611324E-003	3.973030E-002	-2.617419E-003	-1.267136E-001	9.455563E-003
2.300000E+008	3.327056E-002	6.825060E-004	3.968666E-002	-2.737459E-003	3.971146E-002	-2.725144E-003	-1.265634E-001	9.682308E-003
2.400000E+008	3.332504E-002	6.118347E-004	3.966910E-002	-2.856002E-003	3.969500E-002	-2.847455E-003	-1.263894E-001	9.954542E-003
2.500000E+008	3.335599E-002	5.443092E-004	3.964147E-002	-2.980824E-003	3.967491E-002	-2.967845E-003	-1.261921E-001	1.020884E-002
2.600000E+008	3.345373E-002	4.778955E-004	3.961839E-002	-3.087639E-003	3.966173E-002	-3.074742E-003	-1.259563E-001	1.054169E-002
2.700000E+008	3.353771E-002	4.393489E-004	3.960826E-002	-3.194487E-003	3.964143E-002	-3.200622E-003	-1.257175E-001	1.089031E-002
2.800000E+008	3.363234E-002	3.997800E-004	3.960209E-002	-3.311977E-003	3.963588E-002	-3.301881E-003	-1.254906E-001	1.123126E-002
2.900000E+008	3.365859E-002	3.989992E-004	3.957535E-002	-3.428933E-003	3.960591E-002	-3.404763E-003	-1.253420E-001	1.157928E-002
3.000000E+008	3.372469E-002	4.257797E-004	3.957199E-002	-3.533989E-003	3.959061E-002	-3.536621E-003	-1.251998E-001	1.197552E-002
3.100000E+008	3.373883E-002	4.579089E-004	3.954719E-002	-3.656075E-003	3.957948E-002	-3.653981E-003	-1.250656E-001	1.237728E-002
3.200000E+008	3.374468E-002	5.007317E-004	3.953224E-002	-3.772340E-003	3.956631E-002	-3.761829E-003	-1.249761E-001	1.276082E-002
3.300000E+008	3.371506E-002	5.322282E-004	3.952169E-002	-3.884809E-003	3.954662E-002	-3.888799E-003	-1.248671E-001	1.311677E-002
3.400000E+008	3.366807E-002	5.423661E-004	3.949636E-002	-4.009268E-003	3.951938E-002	-4.012441E-003	-1.247296E-001	1.342265E-002
3.500000E+008	3.359200E-002	5.201872E-004	3.946601E-002	-4.110449E-003	3.948733E-002	-4.118675E-003	-1.245717E-001	1.368916E-002
3.600000E+008	3.355338E-002	5.071301E-004	3.945325E-002	-4.222890E-003	3.946831E-002	-4.225066E-003	-1.243931E-001	1.398699E-002
3.700000E+008	3.350213E-002	4.742533E-004	3.943120E-002	-4.346781E-003	3.944289E-002	-4.314795E-003	-1.241813E-001	1.426524E-002
3.800000E+008	3.345597E-002	4.202145E-004	3.939365E-002	-4.454459E-003	3.943299E-002	-4.436792E-003	-1.239673E-001	1.455483E-002
3.900000E+008	3.341030E-002	3.582533E-004	3.937352E-002	-4.563736E-003	3.939589E-002	-4.541328E-003	-1.236909E-001	1.490565E-002
4.000000E+008	3.341393E-002	2.809726E-004	3.933659E-002	-4.675085E-003	3.939914E-002	-4.663077E-003	-1.233495E-001	1.525236E-002
4.100000E+008	3.339280E-002	2.047453E-004	3.933043E-002	-4.764067E-003	3.936046E-002	-4.780922E-003	-1.230698E-001	1.559953E-002
4.200000E+008	3.339628E-002	1.398326E-004	3.930206E-002	-4.874720E-003	3.934586E-002	-4.884002E-003	-1.228462E-001	1.598716E-002
4.300000E+008	3.339164E-002	8.107265E-005	3.928746E-002	-4.996032E-003	3.931494E-002	-4.995538E-003	-1.226200E-001	1.642045E-002
4.400000E+008	3.340251E-002	7.824240E-005	3.927122E-002	-5.112046E-003	3.930340E-002	-5.105563E-003	-1.224350E-001	1.687946E-002
4.500000E+008	3.341798E-002	3.529853E-005	3.925262E-002	-5.225982E-003	3.927887E-002	-5.214324E-003	-1.222388E-001	1.735488E-002
4.600000E+008	3.343962E-002	1.437484E-005	3.921233E-002	-5.345278E-003	3.925572E-002	-5.323049E-003	-1.220348E-001	1.784220E-002
4.700000E+008	3.343489E-002	-1.905871E-005	3.919660E-002	-5.444410E-003	3.922317E-002	-5.443969E-003	-1.218556E-001	1.825978E-002
4.800000E+008	3.341984E-002	-2.655120E-005	3.917345E-002	-5.544868E-003	3.919464E-002	-5.550985E-003	-1.216853E-001	1.867835E-002
4.900000E+008	3.337674E-002	-6.908854E-006	3.915225E-002	-5.652591E-003	3.917630E-002	-5.651806E-003	-1.215383E-001	1.909861E-002
5.000000E+008	3.335204E-002	-5.384452E-006	3.911525E-002	-5.764284E-003	3.914748E-002	-5.765453E-003	-1.213704E-001	1.949348E-002
5.100000E+008	3.332721E-002	-8.882093E-006	3.910163E-002	-5.859114E-003	3.913083E-002	-5.873106E-003	-1.211794E-001	1.988292E-002
5.200000E+008	3.327847E-002	-4.546073E-005	3.907202E-002	-5.981951E-003	3.910922E-002	-5.982833E-003	-1.209995E-001	2.028960E-002
5.300000E+008	3.323660E-002	-8.273234E-005	3.906031E-002	-6.101009E-003	3.909045E-002	-6.085136E-003	-1.207585E-001	2.069466E-002
5.400000E+008	3.316582E-002	-1.745836E-004	3.902075E-002	-6.203446E-003	3.905618E-002	-6.197805E-003	-1.205196E-001	2.108064E-002
5.500000E+008	3.309619E-002	-2.252994E-004	3.900810E-002	-6.303143E-003	3.902067E-002	-6.303687E-003	-1.203127E-001	2.149346E-002
5.600000E+008	3.307714E-002	-3.100796E-004	3.895956E-002	-6.413873E-003	3.899662E-002	-6.406608E-003	-1.200873E-001	2.190327E-002
5.700000E+008	3.306142E-002	-3.979453E-004	3.893577E-002	-6.525554E-003	3.897371E-002	-6.523878E-003	-1.198951E-001	2.238509E-002
5.800000E+008	3.303399E-002	-4.739178E-004	3.890316E-002	-6.621302E-003	3.894823E-002	-6.618174E-003	-1.197000E-001	2.286700E-002
5.900000E+008	3.303730E-002	-5.745975E-004	3.888924E-002	-6.734556E-003	3.893152E-002	-6.746959E-003	-1.195265E-001	2.337208E-002
6.000000E+008	3.308522E-002	-6.736377E-004	3.885060E-002	-6.851136E-003	3.889496E-002	-6.854389E-003	-1.192975E-001	2.380673E-002
6.100000E+008	3.313795E-002	-7.301841E-004	3.883599E-002	-6.954352E-003	3.884578E-002	-6.969470E-003	-1.191154E-001	2.426133E-002
6.200000E+008	3.318394E-002	-7.444033E-004	3.879688E-002	-7.065572E-003	3.883124E-002	-7.050104E-003	-1.189213E-001	2.470863E-002
6.300000E+008	3.325296E-002	-7.554515E-004	3.876812E-002	-7.167282E-003	3.879860E-002	-7.168918E-003	-1.187444E-001	2.514124E-002
6.400000E+008	3.329659E-002	-7.648618E-004	3.873810E-002	-7.253823E-003	3.876355E-002	-7.268084E-003	-1.185511E-001	2.556588E-002
6.500000E+008	3.333121E-002	-7.509721E-004	3.871234E-002	-7.362971E-003	3.872883E-002	-7.389313E-003	-1.183811E-001	2.604381E-002
6.600000E+008	3.336714E-002	-7.724374E-004	3.868508E-002	-7.485521E-003	3.871988E-002	-7.480287E-003	-1.181814E-001	2.647605E-002
6.700000E+008	3.332433E-002	-7.340700E-004	3.864484E-002	-7.577600E-003	3.867339E-002	-7.585370E-003	-1.179954E-001	2.693117E-002
6.800000E+008	3.330053E-002	-7.302369E-004	3.862754E-002	-7.690953E-003	3.865307E-002	-7.691331E-003	-1.177997E-001	2.742370E-002
6.900000E+008	3.327720E-002	-7.068429E-004	3.857523E-002	-7.798269E-003	3.861522E-002	-7.793754E-003	-1.176112E-001	2.790994E-002
7.000000E+008	3.325528E-002	-7.102156E-004	3.854503E-002	-7.899869E-003	3.858945E-002	-7.892517E-003	-1.174681E-001	2.837600E-002
7.100000E+008	3.322040E-002	-7.245643E-004	3.852890E-002	-7.999194E-003	3.855240E-002	-7.991537E-003	-1.173243E-001	2.884011E-002
7.200000E+008	3.318315E-002	-7.169088E-004	3.850033E-002	-8.089714E-003	3.853281E-002	-8.098624E-003	-1.171867E-001	2.929580E-002
7.300000E+008	3.314697E-002	-7.649441E-004	3.847304E-002	-8.208976E-003	3.851108E-002	-8.194980E-003	-1.170681E-001	2.973963E-002
7.400000E+008	3.309213E-002	-7.805296E-004	3.844254E-002	-8.311641E-003	3.847067E-002	-8.317077E-003	-1.169415E-001	3.014224E-002
7.500000E+008	3.306824E-002	-8.152850E-004	3.839657E-002	-8.402441E-003	3.843427E-002	-8.415091E-003	-1.168392E-001	3.053577E-002
7.600000E+008	3.302531E-002	-8.665229E-004	3.835516E-002	-8.521459E-003	3.840432E-002	-8.520855E-003	-1.167004E-001	3.093503E-002
7.700000E+008	3.300030E-002	-9.171937E-004	3.833922E-002	-8.627095E-003	3.835813E-002	-8.626167E-003	-1.165298E-001	3.129631E-002
7.800000E+008	3.298180E-002	-9.751149E-004	3.830023E-002	-8.712720E-003	3.834634E-002	-8.728553E-003	-1.163462E-001	3.166178E-002
7.900000E+008	3.297250E-002	-1.067535E-003	3.826237E-002	-8.829183E-003	3.831422E-002	-8.835788E-003	-1.161742E-001	3.205221E-002
8.000000E+008	3.298182E-002	-1.141797E-003	3.824497E-002	-8.926943E-003	3.826995E-002	-8.942986E-003	-1.159447E-001	3.243068E-002
8.100000E+008	3.297082E-002	-1.227206E-003	3.820313E-002	-9.035054E-003	3.823266E-002	-9.034519E-003	-1.156735E-001	3.286784E-002
8.200000E+008	3.302394E-002	-1.272929E-003	3.816905E-002	-9.124294E-003	3.820526E-002	-9.142996E-003	-1.154289E-001	3.327220E-002
8.300000E+008	3.308349E-002	-1.325387E-003	3.813587E-002	-9.225234E-003	3.816769E-002	-9.236212E-003	-1.152045E-001	3.369887E-002
8.400000E+008	3.313974E-002	-1.372784E-003	3.810206E-002	-9.340341E-003	3.813170E-002	-9.339902E-003	-1.149947E-001	3.412621E-002
8.500000E+008	3.320512E-002	-1.381924E-003	3.807719E-002	-9.431059E-003	3.810353E-002	-9.429466E-003	-1.148541E-001	3.457246E-002
8.600000E+008	3.321573E-002	-1.391792E-003	3.803154E-002	-9.538841E-003	3.807095E-002	-9.531742E-003	-1.146701E-001	3.500878E-002
8.700000E+008	3.324602E-002	-1.360342E-003	3.800089E-002	-9.635664E-003	3.801234E-002	-9.656518E-003	-1.145101E-001	3.541882E-002
8.800000E+008	3.327111E-002	-1.331967E-003	3.797008E-002	-9.736790E-003	3.799644E-002	-9.735690E-003	-1.143506E-001	3.581112E-002
8.900000E+008	3.326442E-002	-1.336834E-003	3.792763E-002	-9.833904E-003	3.795500E-002	-9.846601E-003	-1.141676E-001	3.619230E-002
9.000000E+008	3.327002E-002	-1.336919E-003	3.788587E-002	-9.946395E-003	3.792537E-002	-9.943048E-003	-1.139778E-001	3.656498E-002
9.100000E+008	3.323317E-002	-1.341115E-003	3.784582E-002	-1.004064E-002	3.787426E-002	-1.004247E-002	-1.137486E-001	3.690707E-002
9.200000E+008	3.320400E-002	-1.371278E-003	3.783347E-002	-1.012569E-002	3.785662E-002	-1.013923E-002	-1.134710E-001	3.731348E-002
9.300000E+008	3.321817E-002	-1.412268E-003	3.778406E-002	-1.022845E-002	3.780639E-002	-1.024660E-002	-1.131957E-001	3.770236E-002
9.400000E+008	3.325343E-002	-1.470757E-003	3.774799E-002	-1.033716E-002	3.777504E-002	-1.035283E-002	-1.128417E-001	3.812858E-002
9.500000E+008	3.327818E-002	-1.518906E-003	3.771548E-002	-1.042335E-002	3.774481E-002	-1.044805E-002	-1.125136E-001	3.860305E-002
9.600000E+008	3.327647E-002	-1.533791E-003	3.767983E-002	-1.053462E-002	3.772275E-002	-1.054005E-002	-1.121917E-001	3.905250E-002
9.700000E+008	3.332309E-002	-1.540981E-003	3.762892E-002	-1.063973E-002	3.766629E-002	-1.064498E-002	-1.118835E-001	3.952712E-002
9.800000E+008	3.335946E-002	-1.526297E-003	3.760450E-002	-1.072256E-002	3.763882E-002	-1.073728E-002	-1.116220E-001	4.006019E-002
9.900000E+008	3.340704E-002	-1.489546E-003	3.756900E-002	-1.083734E-002	3.761302E-002	-1.085552E-002	-1.113428E-001	4.054502E-002
1.000000E+009	3.343130E-002	-1.482676E-003	3.752693E-002	-1.093434E-002	3.756126E-002	-1.095295E-002	-1.111338E-001	4.101005E-002
1.010000E+009	3.344896E-002	-1.436783E-003	3.749598E-002	-1.103367E-002	3.754127E-002	-1.103917E-002	-1.109011E-001	4.149925E-002
1.020000E+009	3.347742E-002	-1.428406E-003	3.745543E-002	-1.113777E-002	3.749954E-002	-1.114604E-002	-1.106969E-001	4.198719E-002
1.030000E+009	3.347842E-002	-1.401640E-003	3.741606E-002	-1.123504E-002	3.746160E-002	-1.123339E-002	-1.104771E-001	4.244918E-002
1.040000E+009	3.345303E-002	-1.377123E-003	3.738648E-002	-1.132582E-002	3.742972E-002	-1.133335E-002	-1.102593E-001	4.293573E-002
1.050000E+009	3.346721E-002	-1.371914E-003	3.735031E-002	-1.143204E-002	3.737123E-002	-1.143459E-002	-1.100141E-001	4.341669E-002
1.060000E+009	3.347400E-002	-1.349780E-003	3.731105E-002	-1.150583E-002	3.733007E-002	-1.153324E-002	-1.097442E-001	4.390784E-002
1.070000E+009	3.345026E-002	-1.337420E-003	3.726641E-002	-1.161119E-002	3.731430E-002	-1.163076E-002	-1.094662E-001	4.437844E-002
1.080000E+009	3.344766E-002	-1.350355E-003	3.723127E-002	-1.172283E-002	3.727190E-002	-1.172855E-002	-1.091881E-001	4.487527E-002
1.090000E+009	3.344023E-002	-1.337428E-003	3.720052E-002	-1.181907E-002	3.724139E-002	-1.183721E-002	-1.089531E-001	4.534217E-002
1.100000E+009	3.346174E-002	-1.321851E-003	3.714574E-002	-1.193449E-002	3.718680E-002	-1.192413E-002	-1.087287E-001	4.582728E-002
1.110000E+009	3.345187E-002	-1.322690E-003	3.711173E-002	-1.201388E-002	3.714876E-002	-1.201706E-002	-1.084964E-001	4.632148E-002
1.120000E+009	3.344312E-002	-1.325500E-003	3.707668E-002	-1.211358E-002	3.713970E-002	-1.211058E-002	-1.083210E-001	4.676234E-002
1.130000E+009	3.344696E-002	-1.322729E-003	3.704497E-002	-1.221682E-002	3.706748E-002	-1.221886E-002	-1.081138E-001	4.722349E-002
1.140000E+009	3.342905E-002	-1.315710E-003	3.699675E-002	-1.229944E-002	3.702605E-002	-1.232339E-002	-1.078658E-001	4.768846E-002
1.150000E+009	3.343555E-002	-1.312400E-003	3.695485E-002	-1.241220E-002	3.698578E-002	-1.240708E-002	-1.076081E-001	4.812984E-002
1.160000E+009	3.342464E-002	-1.295847E-003	3.691687E-002	-1.250702E-002	3.693687E-002	-1.251006E-002	-1.073560E-001	4.858215E-002
1.170000E+009	3.344386E-002	-1.287297E-003	3.687227E-002	-1.261126E-002	3.690158E-002	-1.260251E-002	-1.070895E-001	4.907175E-002
1.180000E+009	3.344783E-002	-1.271081E-003	3.682120E-002	-1.269761E-002	3.687426E-002	-1.270100E-002	-1.067873E-001	4.954760E-002
1.190000E+009	3.340754E-002	-1.270425E-003	3.678877E-002	-1.279573E-002	3.682373E-002	-1.280810E-002	-1.065121E-001	5.007427E-002
1.200000E+009	3.339725E-002	-1.259760E-003	3.675054E-002	-1.289852E-002	3.675803E-002	-1.290223E-002	-1.062155E-001	5.057274E-002
1.210000E+009	3.342260E-002	-1.292496E-003	3.670785E-002	-1.299331E-002	3.673795E-002	-1.300403E-002	-1.059830E-001	5.108654E-002
1.220000E+009	3.341320E-002	-1.325716E-003	3.665464E-002	-1.308840E-002	3.668139E-002	-1.310495E-002	-1.057603E-001	5.156337E-002
1.230000E+009	3.339110E-002	-1.346087E-003	3.662328E-002	-1.318620E-002	3.665210E-002	-1.320156E-002	-1.055217E-001	5.201242E-002
1.240000E+009	3.343884E-002	-1.382327E-003	3.656981E-002	-1.327145E-002	3.660699E-002	-1.328653E-002	-1.053223E-001	5.245865E-002
1.250000E+009	3.346140E-002	-1.412628E-003	3.652676E-002	-1.339025E-002	3.657442E-002	-1.339006E-002	-1.050988E-001	5.291331E-002
1.260000E+009	3.348756E-002	-1.432879E-003	3.649296E-002	-1.348750E-002	3.652048E-002	-1.348586E-002	-1.048381E-001	5.331177E-002
1.270000E+009	3.358288E-002	-1.451931E-003	3.644654E-002	-1.357810E-002	3.647863E-002	-1.358701E-002	-1.045582E-001	5.371959E-002
1.280000E+009	3.360864E-002	-1.444583E-003	3.640110E-002	-1.367850E-002	3.644118E-002	-1.367535E-002	-1.042553E-001	5.411726E-002
1.290000E+009	3.367974E-002	-1.424672E-003	3.636636E-002	-1.376303E-002	3.638538E-002	-1.378809E-002	-1.039246E-001	5.453300E-002
1.300000E+009	3.371282E-002	-1.358231E-003	3.629294E-002	-1.388564E-002	3.633915E-002	-1.385833E-002	-1.035712E-001	5.494564E-002
1.310000E+009	3.374541E-002	-1.359190E-003	3.626586E-002	-1.396010E-002	3.629810E-002	-1.397644E-002	-1.032271E-001	5.539217E-002
1.320000E+009	3.377169E-002	-1.317271E-003	3.621152E-002	-1.406698E-002	3.624712E-002	-1.408102E-002	-1.028243E-001	5.589756E-002
1.330000E+009	3.377596E-002	-1.250137E-003	3.616676E-002	-1.414579E-002	3.620041E-002	-1.417505E-002	-1.024175E-001	5.642948E-002
1.340000E+009	3.379988E-002	-1.206838E-003	3.612956E-002	-1.425330E-002	3.616351E-002	-1.424876E-002	-1.020263E-001	5.697732E-002
1.350000E+009	3.379568E-002	-1.189620E-003	3.607518E-002	-1.435577E-002	3.610614E-002	-1.435524E-002	-1.016711E-001	5.756791E-002
1.360000E+009	3.381442E-002	-1.160086E-003	3.603456E-002	-1.443775E-002	3.607209E-002	-1.446192E-002	-1.012904E-001	5.816102E-002
1.370000E+009	3.382844E-002	-1.108847E-003	3.600434E-002	-1.454136E-002	3.602783E-002	-1.454865E-002	-1.009857E-001	5.875623E-002
1.380000E+009	3.383292E-002	-1.122472E-003	3.594081E-002	-1.465693E-002	3.596074E-002	-1.465862E-002	-1.006556E-001	5.933983E-002
1.390000E+009	3.388171E-002	-1.089637E-003	3.587778E-002	-1.473160E-002	3.590993E-002	-1.474538E-002	-1.003664E-001	5.993641E-002
1.400000E+009	3.388265E-002	-1.069482E-003	3.582785E-002	-1.481050E-002	3.586700E-002	-1.483028E-002	-1.001038E-001	6.052773E-002
1.410000E+009	3.389277E-002	-1.013315E-003	3.578968E-002	-1.491694E-002	3.579681E-002	-1.492174E-002	-9.980740E-002	6.111753E-002
1.420000E+009	3.388779E-002	-9.688281E-004	3.572512E-002	-1.500257E-002	3.576021E-002	-1.500835E-002	-9.954039E-002	6.164360E-002
1.430000E+009	3.390106E-002	-9.395998E-004	3.568523E-002	-1.511302E-002	3.572858E-002	-1.511535E-002	-9.924369E-002	6.216593E-002
1.440000E+009	3.389089E-002	-9.047482E-004	3.562293E-002	-1.520071E-002	3.566235E-002	-1.520826E-002	-9.897350E-002	6.266549E-002
1.450000E+009	3.389595E-002	-8.549191E-004	3.557579E-002	-1.529067E-002	3.561109E-002	-1.530312E-002	-9.865499E-002	6.322462E-002
1.460000E+009	3.387034E-002	-8.521435E-004	3.550920E-002	-1.539159E-002	3.556450E-002	-1.540008E-002	-9.831744E-002	6.373301E-002
1.470000E+009	3.386865E-002	-8.312807E-004	3.546781E-002	-1.547200E-002	3.551031E-002	-1.548375E-002	-9.796480E-002	6.427589E-002
1.480000E+009	3.384623E-002	-8.108112E-004	3.541011E-002	-1.556084E-002	3.545632E-002	-1.556549E-002	-9.761307E-002	6.485666E-002
1.490000E+009	3.387437E-002	-8.105980E-004	3.538224E-002	-1.565776E-002	3.538712E-002	-1.567033E-002	-9.723183E-002	6.543950E-002
1.500000E+009	3.388688E-002	-7.988252E-004	3.531053E-002	-1.575258E-002	3.536063E-002	-1.574342E-002	-9.686875E-002	6.603498E-002
1.510000E+009	3.391405E-002	-7.899308E-004	3.525594E-002	-1.585042E-002	3.528500E-002	-1.584105E-002	-9.652812E-002	6.663678E-002
