! Device ID: PE43711P
! File Path: z:\PE43711P\CHAR_NOM_04282014\AMB\3p300\LS_ATT_28p50dB\PE43711P_AMB_3p300V_3p000V_0p000V_LS_ATT_28p50dB_S2P_SN_5_A0137A.s2p
! Serial: 5
! Lot: A0137A
! Temp: 25C
! VDD: 3.300
! VSS: 0.000
! Control_Hi: 3.000
! Control_Lo: 0.000
! Attenuation Step: 28.50dB
! Port 1: RF1
! Port 2: RF2
! ThroughPath:1-2
! IDD: 0.0001276376
! ISS: -1.121e-007
!

#  Hz  S   RI  R   50

1.000000E+007	1.958767E-002	5.438072E-004	3.258677E-002	-1.271980E-004	3.262253E-002	-1.090599E-004	-1.327506E-001	9.995027E-004
2.000000E+007	1.983948E-002	7.441226E-004	3.258422E-002	-1.766013E-004	3.260618E-002	-1.942112E-004	-1.324650E-001	1.585789E-003
3.000000E+007	2.010252E-002	9.460691E-004	3.257959E-002	-2.772988E-004	3.260476E-002	-2.789557E-004	-1.321743E-001	2.118185E-003
4.000000E+007	2.027410E-002	1.116969E-003	3.259604E-002	-3.731979E-004	3.260651E-002	-3.788803E-004	-1.320100E-001	2.731956E-003
5.000000E+007	2.037160E-002	1.295366E-003	3.258376E-002	-4.814367E-004	3.261032E-002	-4.816065E-004	-1.319705E-001	3.358998E-003
6.000000E+007	2.054452E-002	1.403068E-003	3.257027E-002	-5.770752E-004	3.260693E-002	-5.666671E-004	-1.318358E-001	3.851503E-003
7.000000E+007	2.069115E-002	1.503787E-003	3.257004E-002	-6.634587E-004	3.259861E-002	-6.603905E-004	-1.316581E-001	4.347828E-003
8.000000E+007	2.084525E-002	1.608470E-003	3.255631E-002	-7.493486E-004	3.258961E-002	-7.456498E-004	-1.314939E-001	4.819350E-003
9.000000E+007	2.096323E-002	1.712019E-003	3.256895E-002	-8.374972E-004	3.258355E-002	-8.353859E-004	-1.313829E-001	5.249925E-003
1.000000E+008	2.111511E-002	1.804786E-003	3.256898E-002	-9.313859E-004	3.257923E-002	-9.266883E-004	-1.313370E-001	5.682165E-003
1.100000E+008	2.127036E-002	1.892604E-003	3.254837E-002	-1.031619E-003	3.257453E-002	-1.033638E-003	-1.312453E-001	6.099198E-003
1.200000E+008	2.141816E-002	1.948280E-003	3.253764E-002	-1.119188E-003	3.256244E-002	-1.116286E-003	-1.311317E-001	6.458057E-003
1.300000E+008	2.155845E-002	2.026740E-003	3.253234E-002	-1.212477E-003	3.255903E-002	-1.209380E-003	-1.310163E-001	6.827500E-003
1.400000E+008	2.166341E-002	2.145061E-003	3.252592E-002	-1.304335E-003	3.255547E-002	-1.305730E-003	-1.309312E-001	7.234414E-003
1.500000E+008	2.173218E-002	2.258840E-003	3.252347E-002	-1.397337E-003	3.253671E-002	-1.390965E-003	-1.308390E-001	7.599094E-003
1.600000E+008	2.181200E-002	2.396789E-003	3.251346E-002	-1.480209E-003	3.253589E-002	-1.477025E-003	-1.307595E-001	7.974229E-003
1.700000E+008	2.192253E-002	2.490373E-003	3.252272E-002	-1.573643E-003	3.254274E-002	-1.559030E-003	-1.306872E-001	8.375831E-003
1.800000E+008	2.199238E-002	2.599474E-003	3.249494E-002	-1.670323E-003	3.253662E-002	-1.668719E-003	-1.305806E-001	8.744370E-003
1.900000E+008	2.200505E-002	2.651697E-003	3.248149E-002	-1.764536E-003	3.252351E-002	-1.768390E-003	-1.305439E-001	9.054979E-003
2.000000E+008	2.198991E-002	2.716128E-003	3.246843E-002	-1.847932E-003	3.250195E-002	-1.840131E-003	-1.304853E-001	9.351266E-003
2.100000E+008	2.199452E-002	2.709757E-003	3.247309E-002	-1.931316E-003	3.249225E-002	-1.933366E-003	-1.304130E-001	9.597188E-003
2.200000E+008	2.201461E-002	2.717470E-003	3.244995E-002	-2.025020E-003	3.248168E-002	-2.021964E-003	-1.303223E-001	9.822524E-003
2.300000E+008	2.205389E-002	2.727751E-003	3.244043E-002	-2.116313E-003	3.247474E-002	-2.102529E-003	-1.301685E-001	1.006528E-002
2.400000E+008	2.211879E-002	2.731028E-003	3.244370E-002	-2.211551E-003	3.245823E-002	-2.199031E-003	-1.300272E-001	1.037077E-002
2.500000E+008	2.219735E-002	2.748505E-003	3.242964E-002	-2.287262E-003	3.244392E-002	-2.288651E-003	-1.298247E-001	1.064983E-002
2.600000E+008	2.228824E-002	2.774899E-003	3.241303E-002	-2.395809E-003	3.243709E-002	-2.384182E-003	-1.296001E-001	1.101774E-002
2.700000E+008	2.240092E-002	2.791560E-003	3.240485E-002	-2.484975E-003	3.242826E-002	-2.459018E-003	-1.293851E-001	1.138345E-002
2.800000E+008	2.251803E-002	2.842246E-003	3.237610E-002	-2.553956E-003	3.241563E-002	-2.550118E-003	-1.291669E-001	1.175575E-002
2.900000E+008	2.259450E-002	2.922380E-003	3.237192E-002	-2.648283E-003	3.239397E-002	-2.636974E-003	-1.290359E-001	1.212657E-002
3.000000E+008	2.267493E-002	3.031153E-003	3.236703E-002	-2.739873E-003	3.238620E-002	-2.719802E-003	-1.289051E-001	1.254884E-002
3.100000E+008	2.271781E-002	3.120973E-003	3.236169E-002	-2.825464E-003	3.237091E-002	-2.825427E-003	-1.287891E-001	1.296077E-002
3.200000E+008	2.275686E-002	3.254334E-003	3.233913E-002	-2.911851E-003	3.235908E-002	-2.902033E-003	-1.287042E-001	1.338484E-002
3.300000E+008	2.275616E-002	3.367537E-003	3.232102E-002	-2.998495E-003	3.234520E-002	-2.998911E-003	-1.286259E-001	1.375656E-002
3.400000E+008	2.273323E-002	3.455633E-003	3.230244E-002	-3.087549E-003	3.232748E-002	-3.092973E-003	-1.284953E-001	1.408498E-002
3.500000E+008	2.270163E-002	3.492606E-003	3.228635E-002	-3.179814E-003	3.230393E-002	-3.180686E-003	-1.283672E-001	1.439043E-002
3.600000E+008	2.268947E-002	3.565614E-003	3.227922E-002	-3.266441E-003	3.228197E-002	-3.255171E-003	-1.281893E-001	1.472229E-002
3.700000E+008	2.266339E-002	3.592715E-003	3.225262E-002	-3.358827E-003	3.227152E-002	-3.333685E-003	-1.279848E-001	1.501775E-002
3.800000E+008	2.265218E-002	3.629187E-003	3.224248E-002	-3.438784E-003	3.226193E-002	-3.430989E-003	-1.277975E-001	1.535377E-002
3.900000E+008	2.264524E-002	3.628024E-003	3.222765E-002	-3.535308E-003	3.224928E-002	-3.519385E-003	-1.275215E-001	1.573951E-002
4.000000E+008	2.268254E-002	3.609799E-003	3.218965E-002	-3.617088E-003	3.223216E-002	-3.604354E-003	-1.272078E-001	1.611391E-002
4.100000E+008	2.269105E-002	3.621992E-003	3.217845E-002	-3.676279E-003	3.220718E-002	-3.686031E-003	-1.269275E-001	1.649046E-002
4.200000E+008	2.270752E-002	3.617520E-003	3.216927E-002	-3.778145E-003	3.219864E-002	-3.765687E-003	-1.267329E-001	1.691266E-002
4.300000E+008	2.274486E-002	3.648010E-003	3.216440E-002	-3.863103E-003	3.218117E-002	-3.849267E-003	-1.265320E-001	1.736983E-002
4.400000E+008	2.276983E-002	3.674296E-003	3.214536E-002	-3.952819E-003	3.216657E-002	-3.937472E-003	-1.263502E-001	1.788012E-002
4.500000E+008	2.283764E-002	3.725557E-003	3.212135E-002	-4.031968E-003	3.213794E-002	-4.028730E-003	-1.261496E-001	1.838250E-002
4.600000E+008	2.289749E-002	3.762996E-003	3.211393E-002	-4.117792E-003	3.213175E-002	-4.117301E-003	-1.259732E-001	1.890086E-002
4.700000E+008	2.293949E-002	3.795663E-003	3.207912E-002	-4.202211E-003	3.210607E-002	-4.202459E-003	-1.257998E-001	1.935352E-002
4.800000E+008	2.294335E-002	3.869465E-003	3.206394E-002	-4.286787E-003	3.208584E-002	-4.284716E-003	-1.256612E-001	1.980753E-002
4.900000E+008	2.293853E-002	3.948725E-003	3.205482E-002	-4.370732E-003	3.206732E-002	-4.375612E-003	-1.255179E-001	2.025769E-002
5.000000E+008	2.294394E-002	4.020032E-003	3.202830E-002	-4.452527E-003	3.205102E-002	-4.453775E-003	-1.253573E-001	2.070135E-002
5.100000E+008	2.295833E-002	4.081896E-003	3.200307E-002	-4.537531E-003	3.204273E-002	-4.524473E-003	-1.251672E-001	2.113398E-002
5.200000E+008	2.293263E-002	4.114075E-003	3.198507E-002	-4.625868E-003	3.202058E-002	-4.625543E-003	-1.250137E-001	2.157697E-002
5.300000E+008	2.291812E-002	4.139025E-003	3.198181E-002	-4.710464E-003	3.199395E-002	-4.717295E-003	-1.247791E-001	2.202335E-002
5.400000E+008	2.288691E-002	4.114228E-003	3.195840E-002	-4.786668E-003	3.199032E-002	-4.797574E-003	-1.245477E-001	2.243548E-002
5.500000E+008	2.288264E-002	4.126235E-003	3.192500E-002	-4.876254E-003	3.194410E-002	-4.871616E-003	-1.243644E-001	2.289862E-002
5.600000E+008	2.287028E-002	4.097424E-003	3.192115E-002	-4.963827E-003	3.192660E-002	-4.952558E-003	-1.241332E-001	2.333723E-002
5.700000E+008	2.288080E-002	4.058822E-003	3.189215E-002	-5.040419E-003	3.191665E-002	-5.031103E-003	-1.239707E-001	2.386128E-002
5.800000E+008	2.290037E-002	4.044337E-003	3.187957E-002	-5.127392E-003	3.189547E-002	-5.123838E-003	-1.237925E-001	2.436082E-002
5.900000E+008	2.293350E-002	4.006995E-003	3.185824E-002	-5.225763E-003	3.187220E-002	-5.212711E-003	-1.236159E-001	2.491602E-002
6.000000E+008	2.303613E-002	3.980645E-003	3.183756E-002	-5.293740E-003	3.185939E-002	-5.299474E-003	-1.233875E-001	2.540268E-002
6.100000E+008	2.311157E-002	3.979542E-003	3.180532E-002	-5.375448E-003	3.183487E-002	-5.369745E-003	-1.232224E-001	2.588523E-002
6.200000E+008	2.320144E-002	4.020697E-003	3.178587E-002	-5.466255E-003	3.181577E-002	-5.464988E-003	-1.230418E-001	2.637546E-002
6.300000E+008	2.328958E-002	4.060758E-003	3.176488E-002	-5.531240E-003	3.178031E-002	-5.541665E-003	-1.228767E-001	2.687355E-002
6.400000E+008	2.338302E-002	4.120091E-003	3.173713E-002	-5.618166E-003	3.176787E-002	-5.620389E-003	-1.226912E-001	2.733352E-002
6.500000E+008	2.345807E-002	4.192735E-003	3.172581E-002	-5.692724E-003	3.173859E-002	-5.695149E-003	-1.225372E-001	2.783166E-002
6.600000E+008	2.351091E-002	4.237834E-003	3.168876E-002	-5.790882E-003	3.172769E-002	-5.781963E-003	-1.223210E-001	2.831735E-002
6.700000E+008	2.352574E-002	4.331314E-003	3.169026E-002	-5.850550E-003	3.169727E-002	-5.867652E-003	-1.221438E-001	2.883327E-002
6.800000E+008	2.353814E-002	4.386648E-003	3.164420E-002	-5.945755E-003	3.167021E-002	-5.939009E-003	-1.219605E-001	2.935675E-002
6.900000E+008	2.353951E-002	4.463919E-003	3.162902E-002	-6.017529E-003	3.165443E-002	-6.020869E-003	-1.217710E-001	2.987796E-002
7.000000E+008	2.355156E-002	4.523678E-003	3.160573E-002	-6.112184E-003	3.163417E-002	-6.105645E-003	-1.216393E-001	3.040575E-002
7.100000E+008	2.356591E-002	4.558842E-003	3.158339E-002	-6.184194E-003	3.159655E-002	-6.176619E-003	-1.214955E-001	3.090912E-002
7.200000E+008	2.354858E-002	4.618127E-003	3.156143E-002	-6.272748E-003	3.156847E-002	-6.262384E-003	-1.213689E-001	3.143222E-002
7.300000E+008	2.357417E-002	4.636738E-003	3.153760E-002	-6.343196E-003	3.156710E-002	-6.358490E-003	-1.212403E-001	3.189511E-002
7.400000E+008	2.354953E-002	4.667891E-003	3.151711E-002	-6.439713E-003	3.153082E-002	-6.434288E-003	-1.211334E-001	3.235544E-002
7.500000E+008	2.355551E-002	4.702862E-003	3.148652E-002	-6.503462E-003	3.153000E-002	-6.505775E-003	-1.210297E-001	3.280286E-002
7.600000E+008	2.357333E-002	4.698779E-003	3.146182E-002	-6.585256E-003	3.149071E-002	-6.579211E-003	-1.208810E-001	3.322658E-002
7.700000E+008	2.356754E-002	4.683303E-003	3.145455E-002	-6.673169E-003	3.146288E-002	-6.660172E-003	-1.207300E-001	3.362503E-002
7.800000E+008	2.358360E-002	4.689072E-003	3.142736E-002	-6.738577E-003	3.144011E-002	-6.739716E-003	-1.205559E-001	3.403502E-002
7.900000E+008	2.360870E-002	4.654762E-003	3.139326E-002	-6.831109E-003	3.141800E-002	-6.818061E-003	-1.203825E-001	3.444082E-002
8.000000E+008	2.364853E-002	4.640998E-003	3.137682E-002	-6.898791E-003	3.139225E-002	-6.912047E-003	-1.201733E-001	3.488831E-002
8.100000E+008	2.370079E-002	4.597986E-003	3.135592E-002	-6.994504E-003	3.136475E-002	-6.994819E-003	-1.198761E-001	3.538375E-002
8.200000E+008	2.377540E-002	4.604805E-003	3.129779E-002	-7.059157E-003	3.134426E-002	-7.070086E-003	-1.196567E-001	3.584812E-002
8.300000E+008	2.388542E-002	4.601055E-003	3.130148E-002	-7.124652E-003	3.132374E-002	-7.125929E-003	-1.194257E-001	3.633044E-002
8.400000E+008	2.396592E-002	4.623754E-003	3.125636E-002	-7.221553E-003	3.127711E-002	-7.217349E-003	-1.192043E-001	3.680043E-002
8.500000E+008	2.404371E-002	4.656432E-003	3.125357E-002	-7.300471E-003	3.127100E-002	-7.296462E-003	-1.190592E-001	3.727960E-002
8.600000E+008	2.412726E-002	4.704170E-003	3.121146E-002	-7.375103E-003	3.123675E-002	-7.382778E-003	-1.188959E-001	3.777541E-002
8.700000E+008	2.420475E-002	4.786392E-003	3.119972E-002	-7.453299E-003	3.121194E-002	-7.460549E-003	-1.187223E-001	3.822292E-002
8.800000E+008	2.424828E-002	4.846890E-003	3.116682E-002	-7.527858E-003	3.118074E-002	-7.528618E-003	-1.185671E-001	3.866353E-002
8.900000E+008	2.430095E-002	4.914017E-003	3.112867E-002	-7.604130E-003	3.116393E-002	-7.603937E-003	-1.184020E-001	3.907231E-002
9.000000E+008	2.431362E-002	4.945521E-003	3.110726E-002	-7.688429E-003	3.114709E-002	-7.696836E-003	-1.181918E-001	3.950749E-002
9.100000E+008	2.431930E-002	5.010182E-003	3.108518E-002	-7.767748E-003	3.109324E-002	-7.753573E-003	-1.179644E-001	3.991592E-002
9.200000E+008	2.433811E-002	5.022530E-003	3.105707E-002	-7.840413E-003	3.108597E-002	-7.845851E-003	-1.177103E-001	4.034801E-002
9.300000E+008	2.438921E-002	5.030842E-003	3.103409E-002	-7.914056E-003	3.105809E-002	-7.917057E-003	-1.174012E-001	4.078945E-002
9.400000E+008	2.444056E-002	5.024747E-003	3.099337E-002	-7.979487E-003	3.102688E-002	-7.992594E-003	-1.170686E-001	4.126923E-002
9.500000E+008	2.452059E-002	5.036610E-003	3.097851E-002	-8.074608E-003	3.098633E-002	-8.085999E-003	-1.167299E-001	4.180408E-002
9.600000E+008	2.458405E-002	5.062454E-003	3.094288E-002	-8.149388E-003	3.098109E-002	-8.164336E-003	-1.163915E-001	4.231132E-002
9.700000E+008	2.466338E-002	5.108124E-003	3.091011E-002	-8.227295E-003	3.096127E-002	-8.233574E-003	-1.160926E-001	4.283567E-002
9.800000E+008	2.474945E-002	5.168288E-003	3.089255E-002	-8.283175E-003	3.092675E-002	-8.305909E-003	-1.158123E-001	4.341700E-002
9.900000E+008	2.482526E-002	5.224915E-003	3.087256E-002	-8.385633E-003	3.090782E-002	-8.373435E-003	-1.155441E-001	4.395090E-002
1.000000E+009	2.488625E-002	5.298549E-003	3.083754E-002	-8.458879E-003	3.086569E-002	-8.449340E-003	-1.153210E-001	4.446360E-002
1.010000E+009	2.493780E-002	5.382609E-003	3.082426E-002	-8.526543E-003	3.084504E-002	-8.527597E-003	-1.150901E-001	4.500135E-002
1.020000E+009	2.499157E-002	5.441492E-003	3.078471E-002	-8.598315E-003	3.080793E-002	-8.621322E-003	-1.148886E-001	4.552264E-002
1.030000E+009	2.502439E-002	5.517108E-003	3.076162E-002	-8.682109E-003	3.080019E-002	-8.701061E-003	-1.146520E-001	4.604959E-002
1.040000E+009	2.504486E-002	5.599879E-003	3.073302E-002	-8.750240E-003	3.075205E-002	-8.774926E-003	-1.144393E-001	4.655399E-002
1.050000E+009	2.509008E-002	5.644102E-003	3.070651E-002	-8.839993E-003	3.072546E-002	-8.844577E-003	-1.141585E-001	4.712402E-002
1.060000E+009	2.514214E-002	5.721339E-003	3.067982E-002	-8.927076E-003	3.070203E-002	-8.924356E-003	-1.138907E-001	4.762839E-002
1.070000E+009	2.516505E-002	5.758842E-003	3.064804E-002	-8.998241E-003	3.067529E-002	-8.990835E-003	-1.136060E-001	4.816032E-002
1.080000E+009	2.520291E-002	5.817263E-003	3.062440E-002	-9.063396E-003	3.066142E-002	-9.073944E-003	-1.133236E-001	4.871030E-002
1.090000E+009	2.524238E-002	5.857429E-003	3.058638E-002	-9.140870E-003	3.062854E-002	-9.154517E-003	-1.130777E-001	4.924297E-002
1.100000E+009	2.528854E-002	5.924835E-003	3.056262E-002	-9.234036E-003	3.059282E-002	-9.221722E-003	-1.128417E-001	4.978182E-002
1.110000E+009	2.532777E-002	5.975844E-003	3.054508E-002	-9.286187E-003	3.055500E-002	-9.296136E-003	-1.126090E-001	5.030069E-002
1.120000E+009	2.533327E-002	6.010777E-003	3.049926E-002	-9.362524E-003	3.051971E-002	-9.374862E-003	-1.124104E-001	5.080876E-002
1.130000E+009	2.538723E-002	6.068277E-003	3.046755E-002	-9.449116E-003	3.049088E-002	-9.454659E-003	-1.121902E-001	5.129075E-002
1.140000E+009	2.541495E-002	6.108533E-003	3.044702E-002	-9.528097E-003	3.047631E-002	-9.536796E-003	-1.119481E-001	5.181622E-002
1.150000E+009	2.546352E-002	6.161591E-003	3.041663E-002	-9.590736E-003	3.044964E-002	-9.611254E-003	-1.116616E-001	5.230640E-002
1.160000E+009	2.548753E-002	6.235439E-003	3.039868E-002	-9.668145E-003	3.042721E-002	-9.694063E-003	-1.114117E-001	5.279369E-002
1.170000E+009	2.553324E-002	6.273927E-003	3.035729E-002	-9.761506E-003	3.039288E-002	-9.760486E-003	-1.111172E-001	5.335784E-002
1.180000E+009	2.558554E-002	6.326662E-003	3.032445E-002	-9.825752E-003	3.035600E-002	-9.829007E-003	-1.108165E-001	5.387271E-002
1.190000E+009	2.559059E-002	6.389132E-003	3.027180E-002	-9.903299E-003	3.032667E-002	-9.918143E-003	-1.105345E-001	5.443857E-002
1.200000E+009	2.563531E-002	6.429348E-003	3.027281E-002	-9.968244E-003	3.029825E-002	-9.980312E-003	-1.102425E-001	5.499638E-002
1.210000E+009	2.568596E-002	6.446054E-003	3.022903E-002	-1.007274E-002	3.025994E-002	-1.006908E-002	-1.099567E-001	5.555736E-002
1.220000E+009	2.570303E-002	6.445568E-003	3.019826E-002	-1.014242E-002	3.022801E-002	-1.014144E-002	-1.097546E-001	5.607639E-002
1.230000E+009	2.574604E-002	6.470445E-003	3.016592E-002	-1.022052E-002	3.019540E-002	-1.020144E-002	-1.095161E-001	5.657977E-002
1.240000E+009	2.580491E-002	6.489454E-003	3.012910E-002	-1.029188E-002	3.016171E-002	-1.028851E-002	-1.092743E-001	5.708468E-002
1.250000E+009	2.588227E-002	6.495461E-003	3.010588E-002	-1.035747E-002	3.012460E-002	-1.035109E-002	-1.090528E-001	5.756664E-002
1.260000E+009	2.595040E-002	6.504038E-003	3.007552E-002	-1.041787E-002	3.011801E-002	-1.045144E-002	-1.087577E-001	5.803361E-002
1.270000E+009	2.607338E-002	6.544487E-003	3.004021E-002	-1.050440E-002	3.007163E-002	-1.050914E-002	-1.084588E-001	5.847710E-002
1.280000E+009	2.616641E-002	6.604114E-003	3.000625E-002	-1.058753E-002	3.003910E-002	-1.058374E-002	-1.081590E-001	5.892762E-002
1.290000E+009	2.625846E-002	6.686657E-003	2.996984E-002	-1.067555E-002	3.000878E-002	-1.065644E-002	-1.078223E-001	5.938036E-002
1.300000E+009	2.634284E-002	6.753353E-003	2.993703E-002	-1.074838E-002	2.996730E-002	-1.074437E-002	-1.074325E-001	5.986849E-002
1.310000E+009	2.641283E-002	6.814055E-003	2.990892E-002	-1.081732E-002	2.992836E-002	-1.081856E-002	-1.070717E-001	6.037623E-002
1.320000E+009	2.646551E-002	6.904849E-003	2.986877E-002	-1.089674E-002	2.990028E-002	-1.090326E-002	-1.066643E-001	6.092059E-002
1.330000E+009	2.653100E-002	6.997062E-003	2.985601E-002	-1.096275E-002	2.986658E-002	-1.097740E-002	-1.062497E-001	6.149966E-002
1.340000E+009	2.656440E-002	7.079413E-003	2.980028E-002	-1.103505E-002	2.984131E-002	-1.104852E-002	-1.058456E-001	6.209755E-002
1.350000E+009	2.658973E-002	7.126638E-003	2.976859E-002	-1.110439E-002	2.979613E-002	-1.111697E-002	-1.054658E-001	6.271359E-002
1.360000E+009	2.668226E-002	7.222412E-003	2.972088E-002	-1.119035E-002	2.976669E-002	-1.121626E-002	-1.050818E-001	6.335823E-002
1.370000E+009	2.671273E-002	7.281273E-003	2.970353E-002	-1.126006E-002	2.973032E-002	-1.126506E-002	-1.047479E-001	6.400038E-002
1.380000E+009	2.678722E-002	7.339714E-003	2.967741E-002	-1.134155E-002	2.967569E-002	-1.134023E-002	-1.044037E-001	6.463130E-002
1.390000E+009	2.686530E-002	7.410583E-003	2.962998E-002	-1.141740E-002	2.966133E-002	-1.142395E-002	-1.040963E-001	6.530310E-002
1.400000E+009	2.693424E-002	7.456011E-003	2.959566E-002	-1.147964E-002	2.961337E-002	-1.150376E-002	-1.038031E-001	6.592392E-002
1.410000E+009	2.696562E-002	7.558065E-003	2.955503E-002	-1.156464E-002	2.958130E-002	-1.157724E-002	-1.034858E-001	6.654567E-002
1.420000E+009	2.700646E-002	7.632690E-003	2.950549E-002	-1.161836E-002	2.954383E-002	-1.163131E-002	-1.032061E-001	6.713628E-002
1.430000E+009	2.707426E-002	7.732542E-003	2.947647E-002	-1.170330E-002	2.950486E-002	-1.171434E-002	-1.028835E-001	6.770737E-002
1.440000E+009	2.708944E-002	7.788651E-003	2.945315E-002	-1.179420E-002	2.947381E-002	-1.178683E-002	-1.025892E-001	6.827170E-002
1.450000E+009	2.713611E-002	7.873704E-003	2.939288E-002	-1.185491E-002	2.943340E-002	-1.186869E-002	-1.022504E-001	6.885699E-002
1.460000E+009	2.715517E-002	7.946181E-003	2.935579E-002	-1.192773E-002	2.937659E-002	-1.193845E-002	-1.018968E-001	6.941391E-002
1.470000E+009	2.718554E-002	7.969287E-003	2.932085E-002	-1.202297E-002	2.934147E-002	-1.200828E-002	-1.015229E-001	7.002249E-002
1.480000E+009	2.722068E-002	8.065406E-003	2.928839E-002	-1.207049E-002	2.931054E-002	-1.208812E-002	-1.011555E-001	7.063668E-002
1.490000E+009	2.728861E-002	8.092478E-003	2.925775E-002	-1.214176E-002	2.926560E-002	-1.215274E-002	-1.007608E-001	7.127914E-002
1.500000E+009	2.734105E-002	8.132590E-003	2.920872E-002	-1.221941E-002	2.923286E-002	-1.222160E-002	-1.003684E-001	7.192008E-002
1.510000E+009	2.742422E-002	8.182759E-003	2.917313E-002	-1.227956E-002	2.920362E-002	-1.230169E-002	-9.997910E-002	7.256849E-002
