! Device ID: PE43711P
! File Path: z:\PE43711P\CHAR_NOM_04282014\AMB\3p300\LS_ATT_21p00dB\PE43711P_AMB_3p300V_3p000V_0p000V_LS_ATT_21p00dB_S2P_SN_5_A0137A.s2p
! Serial: 5
! Lot: A0137A
! Temp: 25C
! VDD: 3.300
! VSS: 0.000
! Control_Hi: 3.000
! Control_Lo: 0.000
! Attenuation Step: 21.00dB
! Port 1: RF1
! Port 2: RF2
! ThroughPath:1-2
! IDD: 0.0001276376
! ISS: -9.47e-008
!

#  Hz  S   RI  R   50

1.000000E+007	5.318017E-002	1.719314E-004	7.744128E-002	-3.393943E-004	7.753998E-002	-3.263488E-004	-1.106851E-001	8.901668E-004
2.000000E+007	5.341982E-002	1.520455E-004	7.747039E-002	-5.240412E-004	7.750941E-002	-5.442747E-004	-1.104172E-001	1.461201E-003
3.000000E+007	5.367351E-002	7.138639E-005	7.746563E-002	-8.026994E-004	7.751942E-002	-8.131940E-004	-1.101141E-001	1.931519E-003
4.000000E+007	5.383312E-002	-3.498941E-005	7.746569E-002	-1.070035E-003	7.749980E-002	-1.091246E-003	-1.099415E-001	2.452631E-003
5.000000E+007	5.392000E-002	-1.642870E-004	7.745722E-002	-1.362400E-003	7.751177E-002	-1.358933E-003	-1.098957E-001	2.995024E-003
6.000000E+007	5.407362E-002	-3.569891E-004	7.743658E-002	-1.635042E-003	7.750972E-002	-1.627766E-003	-1.097653E-001	3.422064E-003
7.000000E+007	5.419271E-002	-5.362613E-004	7.742013E-002	-1.897538E-003	7.747978E-002	-1.890578E-003	-1.095853E-001	3.846389E-003
8.000000E+007	5.430128E-002	-7.106778E-004	7.740616E-002	-2.141757E-003	7.748169E-002	-2.147106E-003	-1.094119E-001	4.255186E-003
9.000000E+007	5.441282E-002	-8.958817E-004	7.739248E-002	-2.407229E-003	7.745865E-002	-2.416188E-003	-1.093053E-001	4.616535E-003
1.000000E+008	5.451508E-002	-1.071100E-003	7.738933E-002	-2.686740E-003	7.743574E-002	-2.680219E-003	-1.092350E-001	4.976572E-003
1.100000E+008	5.461960E-002	-1.272121E-003	7.736361E-002	-2.957203E-003	7.742805E-002	-2.930962E-003	-1.091252E-001	5.318632E-003
1.200000E+008	5.473830E-002	-1.507964E-003	7.732761E-002	-3.211717E-003	7.738743E-002	-3.217719E-003	-1.090290E-001	5.613337E-003
1.300000E+008	5.481531E-002	-1.705029E-003	7.731430E-002	-3.479479E-003	7.738821E-002	-3.477608E-003	-1.089167E-001	5.926918E-003
1.400000E+008	5.487598E-002	-1.867043E-003	7.729771E-002	-3.740339E-003	7.735584E-002	-3.750649E-003	-1.088062E-001	6.239772E-003
1.500000E+008	5.487964E-002	-2.028190E-003	7.726533E-002	-3.994973E-003	7.731046E-002	-3.994344E-003	-1.086901E-001	6.540368E-003
1.600000E+008	5.490509E-002	-2.149894E-003	7.726772E-002	-4.242737E-003	7.728130E-002	-4.234067E-003	-1.086219E-001	6.840382E-003
1.700000E+008	5.497319E-002	-2.330501E-003	7.723645E-002	-4.522894E-003	7.730537E-002	-4.506569E-003	-1.085425E-001	7.165452E-003
1.800000E+008	5.496036E-002	-2.500061E-003	7.718014E-002	-4.802468E-003	7.728488E-002	-4.798180E-003	-1.084537E-001	7.464209E-003
1.900000E+008	5.489972E-002	-2.717317E-003	7.713677E-002	-5.047523E-003	7.722916E-002	-5.053122E-003	-1.083929E-001	7.687140E-003
2.000000E+008	5.482262E-002	-2.917423E-003	7.710448E-002	-5.308605E-003	7.718459E-002	-5.299516E-003	-1.083365E-001	7.921156E-003
2.100000E+008	5.476573E-002	-3.194207E-003	7.708101E-002	-5.551470E-003	7.713817E-002	-5.551865E-003	-1.082395E-001	8.092503E-003
2.200000E+008	5.470545E-002	-3.432305E-003	7.705336E-002	-5.803598E-003	7.712336E-002	-5.806298E-003	-1.081114E-001	8.257581E-003
2.300000E+008	5.468395E-002	-3.685551E-003	7.702574E-002	-6.049734E-003	7.708216E-002	-6.039871E-003	-1.079748E-001	8.439021E-003
2.400000E+008	5.466957E-002	-3.934176E-003	7.699558E-002	-6.311560E-003	7.704108E-002	-6.301564E-003	-1.078102E-001	8.655210E-003
2.500000E+008	5.465402E-002	-4.170251E-003	7.695743E-002	-6.584821E-003	7.701055E-002	-6.561029E-003	-1.075989E-001	8.862520E-003
2.600000E+008	5.466546E-002	-4.416639E-003	7.690514E-002	-6.841805E-003	7.698695E-002	-6.827672E-003	-1.073818E-001	9.127941E-003
2.700000E+008	5.468684E-002	-4.638178E-003	7.686477E-002	-7.082592E-003	7.693094E-002	-7.074728E-003	-1.071529E-001	9.442511E-003
2.800000E+008	5.472266E-002	-4.829874E-003	7.682250E-002	-7.330308E-003	7.689014E-002	-7.318860E-003	-1.069203E-001	9.708643E-003
2.900000E+008	5.471505E-002	-5.007991E-003	7.679081E-002	-7.576429E-003	7.683545E-002	-7.572926E-003	-1.067709E-001	1.001459E-002
3.000000E+008	5.470394E-002	-5.140481E-003	7.674951E-002	-7.834963E-003	7.680906E-002	-7.823420E-003	-1.066221E-001	1.035424E-002
3.100000E+008	5.466680E-002	-5.286589E-003	7.671687E-002	-8.081381E-003	7.677747E-002	-8.079961E-003	-1.064936E-001	1.068776E-002
3.200000E+008	5.460571E-002	-5.398537E-003	7.666293E-002	-8.350706E-003	7.672034E-002	-8.332830E-003	-1.063977E-001	1.103162E-002
3.300000E+008	5.453251E-002	-5.536748E-003	7.661734E-002	-8.586686E-003	7.668971E-002	-8.598714E-003	-1.062825E-001	1.131628E-002
3.400000E+008	5.439294E-002	-5.699921E-003	7.656686E-002	-8.853779E-003	7.663053E-002	-8.868827E-003	-1.061541E-001	1.158281E-002
3.500000E+008	5.425526E-002	-5.858923E-003	7.652584E-002	-9.110308E-003	7.654647E-002	-9.096695E-003	-1.060031E-001	1.179792E-002
3.600000E+008	5.413548E-002	-6.020026E-003	7.648513E-002	-9.352644E-003	7.648820E-002	-9.320070E-003	-1.058512E-001	1.205218E-002
3.700000E+008	5.402303E-002	-6.202755E-003	7.640732E-002	-9.589807E-003	7.645701E-002	-9.551223E-003	-1.056316E-001	1.225318E-002
3.800000E+008	5.391484E-002	-6.405422E-003	7.636823E-002	-9.834901E-003	7.641989E-002	-9.802872E-003	-1.054339E-001	1.250162E-002
3.900000E+008	5.379303E-002	-6.637149E-003	7.629740E-002	-1.009544E-002	7.637785E-002	-1.005874E-002	-1.051404E-001	1.280386E-002
4.000000E+008	5.371060E-002	-6.885251E-003	7.622444E-002	-1.032383E-002	7.632530E-002	-1.031984E-002	-1.048257E-001	1.308447E-002
4.100000E+008	5.361599E-002	-7.087517E-003	7.618463E-002	-1.054158E-002	7.626002E-002	-1.055778E-002	-1.045332E-001	1.337993E-002
4.200000E+008	5.353751E-002	-7.326796E-003	7.614625E-002	-1.078187E-002	7.621449E-002	-1.079136E-002	-1.043154E-001	1.373057E-002
4.300000E+008	5.348001E-002	-7.496375E-003	7.609930E-002	-1.104006E-002	7.615532E-002	-1.102292E-002	-1.040808E-001	1.410297E-002
4.400000E+008	5.342181E-002	-7.676606E-003	7.604894E-002	-1.128595E-002	7.611169E-002	-1.127167E-002	-1.038865E-001	1.451410E-002
4.500000E+008	5.335812E-002	-7.861153E-003	7.598980E-002	-1.152954E-002	7.605632E-002	-1.153307E-002	-1.036965E-001	1.493953E-002
4.600000E+008	5.330148E-002	-8.030262E-003	7.593956E-002	-1.177676E-002	7.599150E-002	-1.179150E-002	-1.034858E-001	1.536033E-002
4.700000E+008	5.322135E-002	-8.203340E-003	7.587928E-002	-1.201267E-002	7.592392E-002	-1.201707E-002	-1.033209E-001	1.573564E-002
4.800000E+008	5.312253E-002	-8.326043E-003	7.581827E-002	-1.225245E-002	7.586290E-002	-1.224193E-002	-1.031694E-001	1.609711E-002
4.900000E+008	5.299522E-002	-8.467694E-003	7.575563E-002	-1.249175E-002	7.580124E-002	-1.249017E-002	-1.030322E-001	1.645563E-002
5.000000E+008	5.289334E-002	-8.600743E-003	7.569746E-002	-1.273131E-002	7.574839E-002	-1.271625E-002	-1.028518E-001	1.677909E-002
5.100000E+008	5.280303E-002	-8.739572E-003	7.564497E-002	-1.296093E-002	7.570232E-002	-1.294737E-002	-1.026776E-001	1.714267E-002
5.200000E+008	5.268099E-002	-8.926553E-003	7.558217E-002	-1.321129E-002	7.565489E-002	-1.319329E-002	-1.024834E-001	1.748521E-002
5.300000E+008	5.254498E-002	-9.110504E-003	7.552128E-002	-1.344844E-002	7.559423E-002	-1.344264E-002	-1.022299E-001	1.780711E-002
5.400000E+008	5.240711E-002	-9.318161E-003	7.545673E-002	-1.368562E-002	7.551512E-002	-1.369202E-002	-1.020052E-001	1.815097E-002
5.500000E+008	5.226851E-002	-9.493879E-003	7.539267E-002	-1.391228E-002	7.545179E-002	-1.392213E-002	-1.017980E-001	1.852600E-002
5.600000E+008	5.214574E-002	-9.713969E-003	7.532153E-002	-1.415330E-002	7.537194E-002	-1.415365E-002	-1.015764E-001	1.888680E-002
5.700000E+008	5.204957E-002	-9.941227E-003	7.525974E-002	-1.437858E-002	7.530318E-002	-1.438618E-002	-1.013854E-001	1.931313E-002
5.800000E+008	5.196768E-002	-1.015887E-002	7.519132E-002	-1.462465E-002	7.524057E-002	-1.462507E-002	-1.012042E-001	1.972863E-002
5.900000E+008	5.186889E-002	-1.036824E-002	7.512800E-002	-1.487852E-002	7.519040E-002	-1.485211E-002	-1.010318E-001	2.016330E-002
6.000000E+008	5.183744E-002	-1.058990E-002	7.506117E-002	-1.510023E-002	7.512432E-002	-1.510189E-002	-1.008232E-001	2.054985E-002
6.100000E+008	5.180292E-002	-1.078017E-002	7.499169E-002	-1.532490E-002	7.504053E-002	-1.534377E-002	-1.006613E-001	2.094782E-002
6.200000E+008	5.176594E-002	-1.092526E-002	7.491839E-002	-1.555348E-002	7.497735E-002	-1.557662E-002	-1.004817E-001	2.133792E-002
6.300000E+008	5.175277E-002	-1.105928E-002	7.484731E-002	-1.578624E-002	7.489433E-002	-1.577568E-002	-1.002932E-001	2.171336E-002
6.400000E+008	5.172758E-002	-1.119543E-002	7.478446E-002	-1.601396E-002	7.483357E-002	-1.602349E-002	-1.001030E-001	2.209211E-002
6.500000E+008	5.166808E-002	-1.130352E-002	7.470613E-002	-1.625141E-002	7.477474E-002	-1.626014E-002	-9.992915E-002	2.250223E-002
6.600000E+008	5.161529E-002	-1.143746E-002	7.464605E-002	-1.647290E-002	7.470115E-002	-1.647565E-002	-9.973309E-002	2.288922E-002
6.700000E+008	5.150259E-002	-1.153363E-002	7.457777E-002	-1.672843E-002	7.461465E-002	-1.671784E-002	-9.955356E-002	2.329582E-002
6.800000E+008	5.138828E-002	-1.165599E-002	7.450284E-002	-1.692462E-002	7.455283E-002	-1.695152E-002	-9.938049E-002	2.373642E-002
6.900000E+008	5.126860E-002	-1.174234E-002	7.442536E-002	-1.715252E-002	7.447307E-002	-1.716949E-002	-9.918727E-002	2.416249E-002
7.000000E+008	5.116916E-002	-1.184972E-002	7.435731E-002	-1.738040E-002	7.440527E-002	-1.738873E-002	-9.905136E-002	2.459551E-002
7.100000E+008	5.105249E-002	-1.198265E-002	7.426384E-002	-1.761036E-002	7.431922E-002	-1.761425E-002	-9.892074E-002	2.500394E-002
7.200000E+008	5.091999E-002	-1.212122E-002	7.420111E-002	-1.784652E-002	7.424905E-002	-1.785954E-002	-9.880229E-002	2.539681E-002
7.300000E+008	5.081060E-002	-1.227136E-002	7.413645E-002	-1.806070E-002	7.418357E-002	-1.808211E-002	-9.868412E-002	2.576824E-002
7.400000E+008	5.066265E-002	-1.238103E-002	7.405485E-002	-1.830675E-002	7.410647E-002	-1.830307E-002	-9.857579E-002	2.612537E-002
7.500000E+008	5.055411E-002	-1.255494E-002	7.398128E-002	-1.852575E-002	7.402323E-002	-1.853401E-002	-9.845872E-002	2.645575E-002
7.600000E+008	5.043961E-002	-1.271303E-002	7.389172E-002	-1.873764E-002	7.396132E-002	-1.875699E-002	-9.831240E-002	2.679941E-002
7.700000E+008	5.032700E-002	-1.288637E-002	7.382035E-002	-1.897555E-002	7.388136E-002	-1.898303E-002	-9.815970E-002	2.710625E-002
7.800000E+008	5.021935E-002	-1.305147E-002	7.376365E-002	-1.919234E-002	7.381609E-002	-1.921645E-002	-9.798301E-002	2.740375E-002
7.900000E+008	5.011263E-002	-1.326874E-002	7.366483E-002	-1.941428E-002	7.373452E-002	-1.944173E-002	-9.780930E-002	2.773382E-002
8.000000E+008	5.003241E-002	-1.343173E-002	7.358642E-002	-1.964962E-002	7.362639E-002	-1.965576E-002	-9.758645E-002	2.809433E-002
8.100000E+008	4.994669E-002	-1.362508E-002	7.350202E-002	-1.987651E-002	7.355297E-002	-1.990003E-002	-9.731688E-002	2.846905E-002
8.200000E+008	4.991413E-002	-1.378800E-002	7.341703E-002	-2.010346E-002	7.347846E-002	-2.009930E-002	-9.711006E-002	2.880499E-002
8.300000E+008	4.988218E-002	-1.396422E-002	7.332794E-002	-2.031118E-002	7.338759E-002	-2.032457E-002	-9.690104E-002	2.917919E-002
8.400000E+008	4.983410E-002	-1.410942E-002	7.325297E-002	-2.052214E-002	7.332893E-002	-2.055659E-002	-9.670636E-002	2.953532E-002
8.500000E+008	4.980079E-002	-1.422214E-002	7.318163E-002	-2.074877E-002	7.323258E-002	-2.078310E-002	-9.652765E-002	2.993828E-002
8.600000E+008	4.974789E-002	-1.433066E-002	7.308951E-002	-2.097027E-002	7.314584E-002	-2.098774E-002	-9.638150E-002	3.032928E-002
8.700000E+008	4.967930E-002	-1.441014E-002	7.301383E-002	-2.120789E-002	7.306296E-002	-2.122191E-002	-9.621639E-002	3.066355E-002
8.800000E+008	4.962866E-002	-1.448640E-002	7.293626E-002	-2.141670E-002	7.299735E-002	-2.142977E-002	-9.606927E-002	3.100659E-002
8.900000E+008	4.953293E-002	-1.461059E-002	7.282878E-002	-2.163401E-002	7.291177E-002	-2.165578E-002	-9.589417E-002	3.133076E-002
9.000000E+008	4.943271E-002	-1.470021E-002	7.275811E-002	-2.186589E-002	7.282102E-002	-2.186818E-002	-9.570419E-002	3.166322E-002
9.100000E+008	4.930932E-002	-1.479727E-002	7.266286E-002	-2.207277E-002	7.273396E-002	-2.209149E-002	-9.549148E-002	3.196281E-002
9.200000E+008	4.919117E-002	-1.494932E-002	7.258015E-002	-2.230275E-002	7.264155E-002	-2.231271E-002	-9.522089E-002	3.228300E-002
9.300000E+008	4.911045E-002	-1.507906E-002	7.248833E-002	-2.250736E-002	7.256270E-002	-2.253712E-002	-9.496069E-002	3.262536E-002
9.400000E+008	4.904440E-002	-1.523738E-002	7.242844E-002	-2.271700E-002	7.248375E-002	-2.276111E-002	-9.463324E-002	3.300268E-002
9.500000E+008	4.898398E-002	-1.537618E-002	7.232404E-002	-2.293351E-002	7.238826E-002	-2.295719E-002	-9.431524E-002	3.340563E-002
9.600000E+008	4.891391E-002	-1.550119E-002	7.223921E-002	-2.314447E-002	7.230443E-002	-2.318534E-002	-9.399531E-002	3.380493E-002
9.700000E+008	4.885895E-002	-1.559737E-002	7.213801E-002	-2.336929E-002	7.221000E-002	-2.339681E-002	-9.370879E-002	3.423928E-002
9.800000E+008	4.882331E-002	-1.568582E-002	7.207436E-002	-2.357520E-002	7.212658E-002	-2.362718E-002	-9.343169E-002	3.468731E-002
9.900000E+008	4.878880E-002	-1.578544E-002	7.198568E-002	-2.378789E-002	7.204766E-002	-2.383739E-002	-9.318148E-002	3.512113E-002
1.000000E+009	4.872443E-002	-1.584450E-002	7.190584E-002	-2.400704E-002	7.195729E-002	-2.405325E-002	-9.297975E-002	3.553901E-002
1.010000E+009	4.865569E-002	-1.592588E-002	7.181102E-002	-2.423798E-002	7.185839E-002	-2.426780E-002	-9.274625E-002	3.598565E-002
1.020000E+009	4.855237E-002	-1.597184E-002	7.170496E-002	-2.445310E-002	7.177612E-002	-2.448716E-002	-9.254887E-002	3.640966E-002
1.030000E+009	4.847094E-002	-1.605257E-002	7.160745E-002	-2.466705E-002	7.167395E-002	-2.469541E-002	-9.235423E-002	3.682077E-002
1.040000E+009	4.836610E-002	-1.608889E-002	7.151811E-002	-2.488117E-002	7.158635E-002	-2.489847E-002	-9.214357E-002	3.724268E-002
1.050000E+009	4.828396E-002	-1.619148E-002	7.143868E-002	-2.510905E-002	7.149239E-002	-2.510172E-002	-9.189713E-002	3.767839E-002
1.060000E+009	4.821244E-002	-1.628507E-002	7.135531E-002	-2.530440E-002	7.139829E-002	-2.531516E-002	-9.165886E-002	3.809537E-002
1.070000E+009	4.808174E-002	-1.636883E-002	7.124428E-002	-2.551995E-002	7.130259E-002	-2.553016E-002	-9.138077E-002	3.850345E-002
1.080000E+009	4.799389E-002	-1.645407E-002	7.116470E-002	-2.573907E-002	7.120170E-002	-2.575442E-002	-9.113746E-002	3.894024E-002
1.090000E+009	4.792347E-002	-1.654386E-002	7.106535E-002	-2.593663E-002	7.111205E-002	-2.597041E-002	-9.090569E-002	3.935225E-002
1.100000E+009	4.783113E-002	-1.662446E-002	7.095053E-002	-2.616350E-002	7.105036E-002	-2.617594E-002	-9.069191E-002	3.979549E-002
1.110000E+009	4.774808E-002	-1.671768E-002	7.086926E-002	-2.636505E-002	7.093170E-002	-2.639406E-002	-9.046656E-002	4.021538E-002
1.120000E+009	4.764580E-002	-1.680192E-002	7.078810E-002	-2.659593E-002	7.083684E-002	-2.660423E-002	-9.029195E-002	4.061990E-002
1.130000E+009	4.756230E-002	-1.686521E-002	7.066259E-002	-2.679366E-002	7.074332E-002	-2.681453E-002	-9.008826E-002	4.101499E-002
1.140000E+009	4.742121E-002	-1.696954E-002	7.059030E-002	-2.701032E-002	7.064143E-002	-2.704147E-002	-8.986552E-002	4.144116E-002
1.150000E+009	4.737422E-002	-1.704867E-002	7.049516E-002	-2.722189E-002	7.053240E-002	-2.724717E-002	-8.963553E-002	4.181730E-002
1.160000E+009	4.726024E-002	-1.712934E-002	7.038637E-002	-2.744844E-002	7.046478E-002	-2.745281E-002	-8.941672E-002	4.222435E-002
1.170000E+009	4.717081E-002	-1.719759E-002	7.027413E-002	-2.764602E-002	7.033202E-002	-2.766114E-002	-8.916153E-002	4.265724E-002
1.180000E+009	4.707443E-002	-1.728850E-002	7.016808E-002	-2.784967E-002	7.024723E-002	-2.786349E-002	-8.887142E-002	4.306713E-002
1.190000E+009	4.695372E-002	-1.735995E-002	7.008593E-002	-2.807183E-002	7.011956E-002	-2.808388E-002	-8.859738E-002	4.351729E-002
1.200000E+009	4.686269E-002	-1.745220E-002	6.997881E-002	-2.828180E-002	7.002974E-002	-2.829471E-002	-8.832018E-002	4.396847E-002
1.210000E+009	4.678411E-002	-1.757595E-002	6.986378E-002	-2.848428E-002	6.992781E-002	-2.850712E-002	-8.806879E-002	4.442950E-002
1.220000E+009	4.668981E-002	-1.769841E-002	6.976017E-002	-2.869468E-002	6.982769E-002	-2.871875E-002	-8.788068E-002	4.484794E-002
1.230000E+009	4.660296E-002	-1.779314E-002	6.966819E-002	-2.891522E-002	6.972314E-002	-2.893304E-002	-8.765121E-002	4.524675E-002
1.240000E+009	4.652635E-002	-1.790882E-002	6.954625E-002	-2.910766E-002	6.961598E-002	-2.913827E-002	-8.744704E-002	4.564875E-002
1.250000E+009	4.646676E-002	-1.804044E-002	6.944993E-002	-2.932937E-002	6.952162E-002	-2.933777E-002	-8.724006E-002	4.605254E-002
1.260000E+009	4.639586E-002	-1.814041E-002	6.934787E-002	-2.952689E-002	6.940488E-002	-2.956218E-002	-8.699257E-002	4.639419E-002
1.270000E+009	4.639636E-002	-1.822580E-002	6.923099E-002	-2.974613E-002	6.928489E-002	-2.973907E-002	-8.673879E-002	4.673866E-002
1.280000E+009	4.631790E-002	-1.831172E-002	6.913578E-002	-2.995111E-002	6.921019E-002	-2.995681E-002	-8.647509E-002	4.707633E-002
1.290000E+009	4.627948E-002	-1.837204E-002	6.900745E-002	-3.015564E-002	6.908605E-002	-3.017190E-002	-8.614878E-002	4.741812E-002
1.300000E+009	4.624866E-002	-1.839738E-002	6.891674E-002	-3.035769E-002	6.897679E-002	-3.038932E-002	-8.581876E-002	4.780278E-002
1.310000E+009	4.617353E-002	-1.847174E-002	6.878079E-002	-3.057644E-002	6.886248E-002	-3.057995E-002	-8.549219E-002	4.818444E-002
1.320000E+009	4.611934E-002	-1.851321E-002	6.869000E-002	-3.077344E-002	6.874897E-002	-3.081110E-002	-8.510497E-002	4.862445E-002
1.330000E+009	4.602847E-002	-1.855542E-002	6.858666E-002	-3.098320E-002	6.865060E-002	-3.101453E-002	-8.471612E-002	4.910646E-002
1.340000E+009	4.594194E-002	-1.857052E-002	6.845819E-002	-3.117727E-002	6.853557E-002	-3.122580E-002	-8.433724E-002	4.962709E-002
1.350000E+009	4.581887E-002	-1.863297E-002	6.835131E-002	-3.139084E-002	6.841286E-002	-3.140942E-002	-8.398428E-002	5.013082E-002
1.360000E+009	4.577215E-002	-1.867740E-002	6.822372E-002	-3.157191E-002	6.831260E-002	-3.162695E-002	-8.362861E-002	5.066963E-002
1.370000E+009	4.568249E-002	-1.872365E-002	6.813592E-002	-3.179286E-002	6.819237E-002	-3.181833E-002	-8.332701E-002	5.121784E-002
1.380000E+009	4.559916E-002	-1.878568E-002	6.801117E-002	-3.199899E-002	6.806903E-002	-3.203506E-002	-8.302087E-002	5.175035E-002
1.390000E+009	4.553715E-002	-1.884441E-002	6.788030E-002	-3.220087E-002	6.794857E-002	-3.224154E-002	-8.275565E-002	5.232625E-002
1.400000E+009	4.545262E-002	-1.891591E-002	6.777318E-002	-3.240692E-002	6.783259E-002	-3.243460E-002	-8.252310E-002	5.281516E-002
1.410000E+009	4.536132E-002	-1.894678E-002	6.764987E-002	-3.261369E-002	6.770073E-002	-3.263224E-002	-8.224892E-002	5.333130E-002
1.420000E+009	4.525124E-002	-1.898090E-002	6.752762E-002	-3.279824E-002	6.758257E-002	-3.282843E-002	-8.200165E-002	5.382599E-002
1.430000E+009	4.518837E-002	-1.901503E-002	6.740381E-002	-3.299876E-002	6.747286E-002	-3.303753E-002	-8.172360E-002	5.428647E-002
1.440000E+009	4.506515E-002	-1.907512E-002	6.729195E-002	-3.319654E-002	6.734001E-002	-3.322610E-002	-8.143007E-002	5.473485E-002
1.450000E+009	4.497114E-002	-1.912238E-002	6.715727E-002	-3.341243E-002	6.723623E-002	-3.343459E-002	-8.113586E-002	5.520185E-002
1.460000E+009	4.484608E-002	-1.915920E-002	6.704006E-002	-3.360146E-002	6.711373E-002	-3.363487E-002	-8.082714E-002	5.567931E-002
1.470000E+009	4.474811E-002	-1.921513E-002	6.692303E-002	-3.380863E-002	6.696079E-002	-3.383181E-002	-8.049089E-002	5.619309E-002
1.480000E+009	4.465586E-002	-1.926854E-002	6.680352E-002	-3.398906E-002	6.686711E-002	-3.402391E-002	-8.015847E-002	5.669156E-002
1.490000E+009	4.455014E-002	-1.931541E-002	6.666652E-002	-3.419019E-002	6.671618E-002	-3.420728E-002	-7.981023E-002	5.724877E-002
1.500000E+009	4.447567E-002	-1.939786E-002	6.655788E-002	-3.439370E-002	6.660078E-002	-3.440497E-002	-7.948969E-002	5.780177E-002
