! Device ID: PE43711P
! File Path: z:\PE43711P\CHAR_NOM_04282014\AMB\3p300\LS_ATT_1p00dB\PE43711P_AMB_3p300V_3p000V_0p000V_LS_ATT_1p00dB_S2P_SN_5_A0137A.s2p
! Serial: 5
! Lot: A0137A
! Temp: 25C
! VDD: 3.300
! VSS: 0.000
! Control_Hi: 3.000
! Control_Lo: 0.000
! Attenuation Step: 1.00dB
! Port 1: RF1
! Port 2: RF2
! ThroughPath:1-2
! IDD: 0.0001277303
! ISS: -1.171e-007
!

#  Hz  S   RI  R   50

1.000000E+007	1.032991E-001	-5.281288E-004	7.911069E-001	-4.010593E-003	7.913672E-001	-4.039800E-003	7.670127E-002	-6.074258E-004
2.000000E+007	1.033392E-001	-6.314388E-004	7.912141E-001	-6.731253E-003	7.911510E-001	-6.804913E-003	7.669205E-002	-6.124769E-004
3.000000E+007	1.037305E-001	-1.264953E-003	7.912136E-001	-1.019480E-002	7.911935E-001	-1.026649E-002	7.700859E-002	-9.300510E-004
4.000000E+007	1.037427E-001	-1.783211E-003	7.911871E-001	-1.361540E-002	7.911113E-001	-1.370064E-002	7.761853E-002	-1.367835E-003
5.000000E+007	1.041648E-001	-2.518017E-003	7.911571E-001	-1.730928E-002	7.910588E-001	-1.727330E-002	7.798459E-002	-2.119445E-003
6.000000E+007	1.045210E-001	-3.356727E-003	7.909866E-001	-2.075858E-002	7.909883E-001	-2.076654E-002	7.812253E-002	-2.993926E-003
7.000000E+007	1.046386E-001	-4.240096E-003	7.907866E-001	-2.422635E-002	7.907725E-001	-2.422525E-002	7.804170E-002	-3.834608E-003
8.000000E+007	1.048978E-001	-5.066286E-003	7.905881E-001	-2.757041E-002	7.906069E-001	-2.762858E-002	7.795457E-002	-4.455359E-003
9.000000E+007	1.050460E-001	-5.850332E-003	7.904332E-001	-3.101424E-002	7.903802E-001	-3.107848E-002	7.808518E-002	-5.136578E-003
1.000000E+008	1.051393E-001	-6.607214E-003	7.902499E-001	-3.448053E-002	7.901312E-001	-3.447259E-002	7.846724E-002	-5.937472E-003
1.100000E+008	1.052478E-001	-7.322966E-003	7.899463E-001	-3.795172E-002	7.898863E-001	-3.787491E-002	7.849483E-002	-6.740146E-003
1.200000E+008	1.054145E-001	-8.040289E-003	7.895614E-001	-4.134779E-002	7.895607E-001	-4.131542E-002	7.818957E-002	-7.483446E-003
1.300000E+008	1.055944E-001	-9.005762E-003	7.892775E-001	-4.475098E-002	7.892965E-001	-4.475856E-002	7.827229E-002	-8.442403E-003
1.400000E+008	1.056631E-001	-1.021572E-002	7.890402E-001	-4.818665E-002	7.889944E-001	-4.824439E-002	7.895919E-002	-9.480801E-003
1.500000E+008	1.055288E-001	-1.120869E-002	7.887019E-001	-5.152643E-002	7.885217E-001	-5.160131E-002	7.951168E-002	-1.033194E-002
1.600000E+008	1.051402E-001	-1.176727E-002	7.883275E-001	-5.483986E-002	7.880095E-001	-5.486376E-002	7.898009E-002	-1.095254E-002
1.700000E+008	1.046296E-001	-1.216830E-002	7.879748E-001	-5.839056E-002	7.878023E-001	-5.815492E-002	7.779764E-002	-1.171603E-002
1.800000E+008	1.042042E-001	-1.279254E-002	7.871752E-001	-6.186716E-002	7.872925E-001	-6.163747E-002	7.683389E-002	-1.265402E-002
1.900000E+008	1.040989E-001	-1.379511E-002	7.866148E-001	-6.510388E-002	7.867987E-001	-6.500489E-002	7.675611E-002	-1.358761E-002
2.000000E+008	1.042302E-001	-1.493706E-002	7.862789E-001	-6.842793E-002	7.863456E-001	-6.834772E-002	7.724376E-002	-1.432249E-002
2.100000E+008	1.044036E-001	-1.611999E-002	7.858641E-001	-7.170567E-002	7.858528E-001	-7.170491E-002	7.780418E-002	-1.495585E-002
2.200000E+008	1.044524E-001	-1.710707E-002	7.854581E-001	-7.487619E-002	7.854175E-001	-7.494480E-002	7.804834E-002	-1.556533E-002
2.300000E+008	1.042530E-001	-1.802521E-002	7.849405E-001	-7.820165E-002	7.848435E-001	-7.823902E-002	7.799128E-002	-1.635734E-002
2.400000E+008	1.039984E-001	-1.893495E-002	7.843724E-001	-8.148747E-002	7.842431E-001	-8.155940E-002	7.778647E-002	-1.725288E-002
2.500000E+008	1.037028E-001	-1.980671E-002	7.837681E-001	-8.484482E-002	7.836104E-001	-8.485252E-002	7.751093E-002	-1.833821E-002
2.600000E+008	1.034306E-001	-2.080138E-002	7.830958E-001	-8.819590E-002	7.830405E-001	-8.816185E-002	7.735130E-002	-1.930688E-002
2.700000E+008	1.031958E-001	-2.163105E-002	7.824366E-001	-9.147218E-002	7.824073E-001	-9.146419E-002	7.729320E-002	-2.012373E-002
2.800000E+008	1.030306E-001	-2.247371E-002	7.817893E-001	-9.463237E-002	7.817748E-001	-9.463560E-002	7.723499E-002	-2.081905E-002
2.900000E+008	1.027926E-001	-2.313688E-002	7.811649E-001	-9.781059E-002	7.810908E-001	-9.774606E-002	7.716043E-002	-2.140621E-002
3.000000E+008	1.026630E-001	-2.377131E-002	7.805722E-001	-1.010088E-001	7.805643E-001	-1.009486E-001	7.710084E-002	-2.204819E-002
3.100000E+008	1.024772E-001	-2.440483E-002	7.799398E-001	-1.041811E-001	7.799431E-001	-1.041858E-001	7.705098E-002	-2.262769E-002
3.200000E+008	1.022902E-001	-2.513619E-002	7.792244E-001	-1.074499E-001	7.793475E-001	-1.074303E-001	7.694924E-002	-2.330960E-002
3.300000E+008	1.019637E-001	-2.581531E-002	7.786141E-001	-1.106045E-001	7.786887E-001	-1.107646E-001	7.677687E-002	-2.400915E-002
3.400000E+008	1.015139E-001	-2.649224E-002	7.778665E-001	-1.139010E-001	7.776903E-001	-1.141226E-001	7.662258E-002	-2.478174E-002
3.500000E+008	1.010363E-001	-2.712526E-002	7.771326E-001	-1.171216E-001	7.767569E-001	-1.171054E-001	7.648172E-002	-2.560007E-002
3.600000E+008	1.006947E-001	-2.775906E-002	7.763580E-001	-1.203096E-001	7.760512E-001	-1.200270E-001	7.634420E-002	-2.624507E-002
3.700000E+008	1.003951E-001	-2.846362E-002	7.754706E-001	-1.233273E-001	7.754198E-001	-1.229292E-001	7.638819E-002	-2.686313E-002
3.800000E+008	1.000183E-001	-2.918833E-002	7.747654E-001	-1.263930E-001	7.748223E-001	-1.261440E-001	7.642097E-002	-2.761366E-002
3.900000E+008	9.955005E-002	-2.988593E-002	7.739121E-001	-1.296023E-001	7.740716E-001	-1.293503E-001	7.638982E-002	-2.841903E-002
4.000000E+008	9.917773E-002	-3.062796E-002	7.730444E-001	-1.325368E-001	7.732718E-001	-1.325496E-001	7.626055E-002	-2.911262E-002
4.100000E+008	9.862444E-002	-3.138842E-002	7.722845E-001	-1.355161E-001	7.723722E-001	-1.356648E-001	7.612078E-002	-2.975166E-002
4.200000E+008	9.802979E-002	-3.202477E-002	7.715870E-001	-1.386163E-001	7.715226E-001	-1.386585E-001	7.599765E-002	-3.035253E-002
4.300000E+008	9.769986E-002	-3.260890E-002	7.707912E-001	-1.417523E-001	7.706800E-001	-1.417857E-001	7.585031E-002	-3.100777E-002
4.400000E+008	9.737092E-002	-3.319782E-002	7.699491E-001	-1.448455E-001	7.698760E-001	-1.448105E-001	7.570734E-002	-3.154647E-002
4.500000E+008	9.705243E-002	-3.390224E-002	7.691151E-001	-1.479311E-001	7.690463E-001	-1.479170E-001	7.559933E-002	-3.212078E-002
4.600000E+008	9.670581E-002	-3.455164E-002	7.682329E-001	-1.510206E-001	7.681595E-001	-1.510181E-001	7.540354E-002	-3.261646E-002
4.700000E+008	9.628077E-002	-3.509832E-002	7.673871E-001	-1.540296E-001	7.672678E-001	-1.540136E-001	7.509353E-002	-3.308314E-002
4.800000E+008	9.581479E-002	-3.559253E-002	7.664971E-001	-1.569913E-001	7.663914E-001	-1.569202E-001	7.481356E-002	-3.345511E-002
4.900000E+008	9.531916E-002	-3.607917E-002	7.655560E-001	-1.600225E-001	7.654469E-001	-1.599778E-001	7.453984E-002	-3.385291E-002
5.000000E+008	9.490703E-002	-3.655063E-002	7.646795E-001	-1.630277E-001	7.645788E-001	-1.629266E-001	7.431309E-002	-3.434109E-002
5.100000E+008	9.454243E-002	-3.715311E-002	7.637637E-001	-1.660097E-001	7.637574E-001	-1.659038E-001	7.422160E-002	-3.485470E-002
5.200000E+008	9.405627E-002	-3.786315E-002	7.628279E-001	-1.690319E-001	7.628670E-001	-1.689548E-001	7.408432E-002	-3.550012E-002
5.300000E+008	9.354292E-002	-3.853670E-002	7.619285E-001	-1.720606E-001	7.619489E-001	-1.720136E-001	7.399034E-002	-3.616180E-002
5.400000E+008	9.298799E-002	-3.926203E-002	7.609351E-001	-1.750879E-001	7.609970E-001	-1.750358E-001	7.376973E-002	-3.683193E-002
5.500000E+008	9.249267E-002	-3.973217E-002	7.599873E-001	-1.780792E-001	7.599399E-001	-1.780145E-001	7.355121E-002	-3.730005E-002
5.600000E+008	9.204211E-002	-4.021965E-002	7.589465E-001	-1.809691E-001	7.589131E-001	-1.809635E-001	7.335266E-002	-3.777173E-002
5.700000E+008	9.166942E-002	-4.069881E-002	7.579808E-001	-1.838751E-001	7.579532E-001	-1.838261E-001	7.304296E-002	-3.816904E-002
5.800000E+008	9.125262E-002	-4.117328E-002	7.569731E-001	-1.868108E-001	7.569739E-001	-1.867414E-001	7.278766E-002	-3.868528E-002
5.900000E+008	9.081541E-002	-4.177564E-002	7.559542E-001	-1.897882E-001	7.560225E-001	-1.897362E-001	7.237748E-002	-3.919865E-002
6.000000E+008	9.041110E-002	-4.227615E-002	7.549479E-001	-1.926749E-001	7.550151E-001	-1.926654E-001	7.208142E-002	-3.974200E-002
6.100000E+008	9.000076E-002	-4.280194E-002	7.539743E-001	-1.955684E-001	7.539004E-001	-1.955789E-001	7.167144E-002	-4.019558E-002
6.200000E+008	8.962820E-002	-4.334418E-002	7.528860E-001	-1.984314E-001	7.529003E-001	-1.984595E-001	7.137437E-002	-4.061100E-002
6.300000E+008	8.931860E-002	-4.383019E-002	7.517757E-001	-2.013495E-001	7.518164E-001	-2.013478E-001	7.113412E-002	-4.107905E-002
6.400000E+008	8.899642E-002	-4.437066E-002	7.507497E-001	-2.042313E-001	7.507338E-001	-2.042348E-001	7.095073E-002	-4.146524E-002
6.500000E+008	8.870266E-002	-4.488078E-002	7.496969E-001	-2.070709E-001	7.497011E-001	-2.070823E-001	7.065028E-002	-4.191440E-002
6.600000E+008	8.822885E-002	-4.544825E-002	7.487180E-001	-2.099717E-001	7.486062E-001	-2.099842E-001	7.037347E-002	-4.232172E-002
6.700000E+008	8.763220E-002	-4.586857E-002	7.476460E-001	-2.128591E-001	7.475254E-001	-2.128555E-001	6.995779E-002	-4.271286E-002
6.800000E+008	8.710091E-002	-4.627089E-002	7.464803E-001	-2.156951E-001	7.464688E-001	-2.156979E-001	6.954272E-002	-4.295606E-002
6.900000E+008	8.653332E-002	-4.661870E-002	7.453383E-001	-2.185616E-001	7.452721E-001	-2.184923E-001	6.915032E-002	-4.322571E-002
7.000000E+008	8.609493E-002	-4.703083E-002	7.442270E-001	-2.213727E-001	7.442111E-001	-2.212577E-001	6.876736E-002	-4.362293E-002
7.100000E+008	8.569999E-002	-4.755738E-002	7.431112E-001	-2.241367E-001	7.431108E-001	-2.241765E-001	6.844077E-002	-4.404258E-002
7.200000E+008	8.519935E-002	-4.807245E-002	7.420556E-001	-2.269686E-001	7.419671E-001	-2.269918E-001	6.809754E-002	-4.460360E-002
7.300000E+008	8.465674E-002	-4.858603E-002	7.408432E-001	-2.297512E-001	7.409323E-001	-2.298220E-001	6.765595E-002	-4.513963E-002
7.400000E+008	8.409706E-002	-4.898041E-002	7.397147E-001	-2.326171E-001	7.397714E-001	-2.325700E-001	6.721392E-002	-4.560708E-002
7.500000E+008	8.362064E-002	-4.940190E-002	7.385997E-001	-2.353902E-001	7.386086E-001	-2.354363E-001	6.683081E-002	-4.602510E-002
7.600000E+008	8.304750E-002	-4.984252E-002	7.374323E-001	-2.382559E-001	7.374428E-001	-2.382293E-001	6.645483E-002	-4.651853E-002
7.700000E+008	8.253647E-002	-5.035701E-002	7.362238E-001	-2.410238E-001	7.362483E-001	-2.409900E-001	6.611352E-002	-4.703952E-002
7.800000E+008	8.186837E-002	-5.080140E-002	7.350410E-001	-2.438065E-001	7.351020E-001	-2.437413E-001	6.568648E-002	-4.758787E-002
7.900000E+008	8.131133E-002	-5.136478E-002	7.338378E-001	-2.465499E-001	7.339208E-001	-2.465827E-001	6.519336E-002	-4.807781E-002
8.000000E+008	8.072043E-002	-5.186510E-002	7.326056E-001	-2.492924E-001	7.326300E-001	-2.492875E-001	6.474029E-002	-4.852629E-002
8.100000E+008	8.018855E-002	-5.233732E-002	7.313996E-001	-2.520096E-001	7.314092E-001	-2.520573E-001	6.434798E-002	-4.886898E-002
8.200000E+008	7.972845E-002	-5.273701E-002	7.302090E-001	-2.548224E-001	7.301921E-001	-2.547437E-001	6.400181E-002	-4.927655E-002
8.300000E+008	7.935706E-002	-5.316262E-002	7.289578E-001	-2.575105E-001	7.290139E-001	-2.575231E-001	6.365597E-002	-4.964803E-002
8.400000E+008	7.900134E-002	-5.356214E-002	7.277120E-001	-2.602069E-001	7.277526E-001	-2.602291E-001	6.330995E-002	-5.000430E-002
8.500000E+008	7.856378E-002	-5.400552E-002	7.265169E-001	-2.629484E-001	7.265452E-001	-2.629601E-001	6.285146E-002	-5.041590E-002
8.600000E+008	7.801308E-002	-5.441373E-002	7.252172E-001	-2.656176E-001	7.252090E-001	-2.656498E-001	6.235651E-002	-5.071992E-002
8.700000E+008	7.746569E-002	-5.475342E-002	7.240053E-001	-2.683835E-001	7.239685E-001	-2.683630E-001	6.188571E-002	-5.107341E-002
8.800000E+008	7.685361E-002	-5.501997E-002	7.227565E-001	-2.711169E-001	7.227434E-001	-2.710283E-001	6.137066E-002	-5.137726E-002
8.900000E+008	7.629321E-002	-5.537988E-002	7.214464E-001	-2.737940E-001	7.214521E-001	-2.737763E-001	6.097474E-002	-5.171695E-002
9.000000E+008	7.578245E-002	-5.575318E-002	7.200896E-001	-2.764947E-001	7.201954E-001	-2.764691E-001	6.057173E-002	-5.205986E-002
9.100000E+008	7.515633E-002	-5.620225E-002	7.187851E-001	-2.791937E-001	7.188566E-001	-2.791540E-001	6.026273E-002	-5.253921E-002
9.200000E+008	7.458090E-002	-5.660744E-002	7.175069E-001	-2.818350E-001	7.175986E-001	-2.818895E-001	5.990332E-002	-5.302740E-002
9.300000E+008	7.397821E-002	-5.692931E-002	7.161951E-001	-2.844843E-001	7.161685E-001	-2.845447E-001	5.954316E-002	-5.340173E-002
9.400000E+008	7.340783E-002	-5.724498E-002	7.148889E-001	-2.871328E-001	7.149569E-001	-2.871523E-001	5.919247E-002	-5.363632E-002
9.500000E+008	7.283633E-002	-5.752347E-002	7.135757E-001	-2.897690E-001	7.135736E-001	-2.898580E-001	5.894869E-002	-5.388229E-002
9.600000E+008	7.237358E-002	-5.777095E-002	7.122027E-001	-2.924204E-001	7.122469E-001	-2.924232E-001	5.871133E-002	-5.408240E-002
9.700000E+008	7.192270E-002	-5.804919E-002	7.108076E-001	-2.950159E-001	7.109174E-001	-2.950690E-001	5.844331E-002	-5.437479E-002
9.800000E+008	7.144068E-002	-5.838099E-002	7.095503E-001	-2.975885E-001	7.095584E-001	-2.976711E-001	5.811027E-002	-5.469449E-002
9.900000E+008	7.092325E-002	-5.870034E-002	7.082035E-001	-3.002674E-001	7.082261E-001	-3.003339E-001	5.760664E-002	-5.496418E-002
1.000000E+009	7.039042E-002	-5.892821E-002	7.068449E-001	-3.028504E-001	7.068213E-001	-3.029279E-001	5.716556E-002	-5.510396E-002
1.010000E+009	6.975509E-002	-5.911874E-002	7.054915E-001	-3.054996E-001	7.054486E-001	-3.054986E-001	5.671422E-002	-5.525973E-002
1.020000E+009	6.920597E-002	-5.926328E-002	7.041137E-001	-3.081145E-001	7.040201E-001	-3.081189E-001	5.634387E-002	-5.540648E-002
1.030000E+009	6.878604E-002	-5.942063E-002	7.026624E-001	-3.106819E-001	7.026634E-001	-3.107058E-001	5.599486E-002	-5.562219E-002
1.040000E+009	6.827944E-002	-5.967674E-002	7.012505E-001	-3.132131E-001	7.012660E-001	-3.132715E-001	5.562451E-002	-5.586833E-002
1.050000E+009	6.765674E-002	-6.005052E-002	6.999257E-001	-3.158242E-001	6.998664E-001	-3.158445E-001	5.514767E-002	-5.613494E-002
1.060000E+009	6.701638E-002	-6.029820E-002	6.984989E-001	-3.183979E-001	6.984542E-001	-3.183923E-001	5.468238E-002	-5.628535E-002
1.070000E+009	6.637113E-002	-6.046639E-002	6.969999E-001	-3.209483E-001	6.970718E-001	-3.208796E-001	5.423947E-002	-5.647332E-002
1.080000E+009	6.589682E-002	-6.065129E-002	6.956171E-001	-3.235280E-001	6.957398E-001	-3.234994E-001	5.383826E-002	-5.658971E-002
1.090000E+009	6.544767E-002	-6.084498E-002	6.941848E-001	-3.261126E-001	6.943141E-001	-3.260639E-001	5.348460E-002	-5.677176E-002
1.100000E+009	6.505192E-002	-6.109466E-002	6.926809E-001	-3.287061E-001	6.928437E-001	-3.285938E-001	5.314605E-002	-5.697122E-002
1.110000E+009	6.458689E-002	-6.132195E-002	6.912809E-001	-3.312256E-001	6.914249E-001	-3.311448E-001	5.272174E-002	-5.730013E-002
1.120000E+009	6.406165E-002	-6.154849E-002	6.898574E-001	-3.337337E-001	6.899648E-001	-3.337530E-001	5.220028E-002	-5.750916E-002
1.130000E+009	6.349468E-002	-6.178104E-002	6.883766E-001	-3.362242E-001	6.884679E-001	-3.362837E-001	5.167631E-002	-5.769702E-002
1.140000E+009	6.288363E-002	-6.189813E-002	6.869252E-001	-3.388152E-001	6.870442E-001	-3.387844E-001	5.117816E-002	-5.780551E-002
1.150000E+009	6.233309E-002	-6.206213E-002	6.854310E-001	-3.413117E-001	6.854735E-001	-3.412777E-001	5.077872E-002	-5.796343E-002
1.160000E+009	6.186755E-002	-6.218322E-002	6.839514E-001	-3.438571E-001	6.840501E-001	-3.438409E-001	5.035935E-002	-5.816391E-002
1.170000E+009	6.132664E-002	-6.241930E-002	6.824170E-001	-3.463447E-001	6.825287E-001	-3.462801E-001	5.003919E-002	-5.831701E-002
1.180000E+009	6.081087E-002	-6.273486E-002	6.808088E-001	-3.488209E-001	6.810528E-001	-3.488529E-001	4.954983E-002	-5.854803E-002
1.190000E+009	6.028502E-002	-6.290264E-002	6.793162E-001	-3.513618E-001	6.793781E-001	-3.513262E-001	4.913347E-002	-5.867552E-002
1.200000E+009	5.969518E-002	-6.303084E-002	6.777981E-001	-3.538128E-001	6.779337E-001	-3.538067E-001	4.868634E-002	-5.877518E-002
1.210000E+009	5.920960E-002	-6.320617E-002	6.762542E-001	-3.562769E-001	6.763819E-001	-3.563261E-001	4.826031E-002	-5.885248E-002
1.220000E+009	5.874845E-002	-6.334070E-002	6.746929E-001	-3.587376E-001	6.748856E-001	-3.587781E-001	4.786236E-002	-5.893055E-002
1.230000E+009	5.830157E-002	-6.350318E-002	6.731238E-001	-3.612299E-001	6.732822E-001	-3.612241E-001	4.735968E-002	-5.909573E-002
1.240000E+009	5.781912E-002	-6.378573E-002	6.715602E-001	-3.636749E-001	6.716851E-001	-3.636501E-001	4.689541E-002	-5.923012E-002
1.250000E+009	5.722324E-002	-6.396745E-002	6.699461E-001	-3.661467E-001	6.701747E-001	-3.661137E-001	4.637436E-002	-5.943983E-002
1.260000E+009	5.664970E-002	-6.409595E-002	6.683296E-001	-3.685650E-001	6.685171E-001	-3.686242E-001	4.579541E-002	-5.965155E-002
1.270000E+009	5.614377E-002	-6.422044E-002	6.667739E-001	-3.710393E-001	6.668845E-001	-3.709819E-001	4.533533E-002	-5.976802E-002
1.280000E+009	5.557355E-002	-6.427999E-002	6.651695E-001	-3.734833E-001	6.653605E-001	-3.734104E-001	4.486077E-002	-5.993238E-002
1.290000E+009	5.505431E-002	-6.435061E-002	6.635410E-001	-3.758997E-001	6.637318E-001	-3.758380E-001	4.454362E-002	-6.012655E-002
1.300000E+009	5.458002E-002	-6.442599E-002	6.618810E-001	-3.782548E-001	6.621638E-001	-3.782892E-001	4.422900E-002	-6.026581E-002
1.310000E+009	5.400515E-002	-6.447890E-002	6.601895E-001	-3.806968E-001	6.604699E-001	-3.807002E-001	4.378575E-002	-6.040702E-002
1.320000E+009	5.342115E-002	-6.448520E-002	6.585751E-001	-3.830968E-001	6.588334E-001	-3.831101E-001	4.342741E-002	-6.046526E-002
1.330000E+009	5.295485E-002	-6.441761E-002	6.569451E-001	-3.854613E-001	6.572134E-001	-3.855355E-001	4.314563E-002	-6.042412E-002
1.340000E+009	5.240964E-002	-6.435774E-002	6.552582E-001	-3.877656E-001	6.554992E-001	-3.878727E-001	4.279277E-002	-6.033696E-002
1.350000E+009	5.188100E-002	-6.430854E-002	6.536181E-001	-3.901821E-001	6.537693E-001	-3.902399E-001	4.248364E-002	-6.024874E-002
1.360000E+009	5.149955E-002	-6.429045E-002	6.519071E-001	-3.924940E-001	6.521833E-001	-3.926059E-001	4.216059E-002	-6.012487E-002
1.370000E+009	5.100875E-002	-6.435242E-002	6.502734E-001	-3.949000E-001	6.504524E-001	-3.949170E-001	4.174396E-002	-6.004491E-002
1.380000E+009	5.048617E-002	-6.441980E-002	6.485181E-001	-3.972334E-001	6.487562E-001	-3.973060E-001	4.128782E-002	-6.002768E-002
1.390000E+009	4.998466E-002	-6.447863E-002	6.468247E-001	-3.996056E-001	6.470497E-001	-3.996635E-001	4.078315E-002	-5.986819E-002
1.400000E+009	4.946459E-002	-6.444720E-002	6.450926E-001	-4.018926E-001	6.453148E-001	-4.018997E-001	4.032138E-002	-5.973077E-002
1.410000E+009	4.897911E-002	-6.437488E-002	6.434217E-001	-4.042392E-001	6.435861E-001	-4.042720E-001	3.984850E-002	-5.957130E-002
1.420000E+009	4.854812E-002	-6.437409E-002	6.416072E-001	-4.065310E-001	6.419274E-001	-4.065517E-001	3.938555E-002	-5.944600E-002
1.430000E+009	4.814147E-002	-6.438811E-002	6.399074E-001	-4.088116E-001	6.401719E-001	-4.089097E-001	3.898679E-002	-5.940231E-002
1.440000E+009	4.763076E-002	-6.436669E-002	6.381460E-001	-4.110790E-001	6.383813E-001	-4.111217E-001	3.856142E-002	-5.936146E-002
1.450000E+009	4.713775E-002	-6.431932E-002	6.363931E-001	-4.133480E-001	6.366821E-001	-4.134709E-001	3.802508E-002	-5.927611E-002
1.460000E+009	4.662681E-002	-6.425339E-002	6.346384E-001	-4.156802E-001	6.348499E-001	-4.157776E-001	3.759802E-002	-5.914410E-002
1.470000E+009	4.619936E-002	-6.417779E-002	6.328564E-001	-4.179452E-001	6.331234E-001	-4.180374E-001	3.712302E-002	-5.889928E-002
1.480000E+009	4.573301E-002	-6.405854E-002	6.310657E-001	-4.201528E-001	6.312650E-001	-4.202378E-001	3.672562E-002	-5.863996E-002
1.490000E+009	4.533100E-002	-6.396242E-002	6.293140E-001	-4.223938E-001	6.295302E-001	-4.224273E-001	3.629402E-002	-5.843943E-002
1.500000E+009	4.491906E-002	-6.395630E-002	6.275349E-001	-4.246447E-001	6.277380E-001	-4.246496E-001	3.596623E-002	-5.829982E-002
