! Device ID: PE43711P
! File Path: z:\PE43711P\CHAR_NOM_04282014\AMB\3p300\LS_ATT_8p50dB\PE43711P_AMB_3p300V_3p000V_0p000V_LS_ATT_8p50dB_S2P_SN_5_A0137A.s2p
! Serial: 5
! Lot: A0137A
! Temp: 25C
! VDD: 3.300
! VSS: 0.000
! Control_Hi: 3.000
! Control_Lo: 0.000
! Attenuation Step: 8.50dB
! Port 1: RF1
! Port 2: RF2
! ThroughPath:1-2
! IDD: 0.0001275401
! ISS: -1.071e-007
!

#  Hz  S   RI  R   50

1.000000E+007	8.436992E-002	-2.142260E-004	3.303643E-001	-1.688704E-003	3.306871E-001	-1.772111E-003	-7.920965E-002	6.814110E-004
2.000000E+007	8.455487E-002	-4.640576E-004	3.304263E-001	-2.723713E-003	3.305277E-001	-2.728507E-003	-7.898650E-002	1.128822E-003
3.000000E+007	8.481829E-002	-8.713474E-004	3.304220E-001	-4.062087E-003	3.305514E-001	-4.079557E-003	-7.868915E-002	1.482230E-003
4.000000E+007	8.491770E-002	-1.306841E-003	3.304070E-001	-5.445858E-003	3.305328E-001	-5.461313E-003	-7.843534E-002	1.867431E-003
5.000000E+007	8.505879E-002	-1.776365E-003	3.304095E-001	-6.921041E-003	3.306034E-001	-6.890727E-003	-7.835694E-002	2.187084E-003
6.000000E+007	8.521460E-002	-2.298258E-003	3.303331E-001	-8.259867E-003	3.305770E-001	-8.238069E-003	-7.822923E-002	2.412650E-003
7.000000E+007	8.530261E-002	-2.835646E-003	3.302318E-001	-9.584590E-003	3.304749E-001	-9.582318E-003	-7.809472E-002	2.654021E-003
8.000000E+007	8.543703E-002	-3.360050E-003	3.301717E-001	-1.089358E-002	3.304030E-001	-1.090169E-002	-7.795100E-002	2.888977E-003
9.000000E+007	8.553465E-002	-3.871993E-003	3.301090E-001	-1.222895E-002	3.303072E-001	-1.223629E-002	-7.782913E-002	3.076775E-003
1.000000E+008	8.558819E-002	-4.376836E-003	3.300330E-001	-1.358137E-002	3.302187E-001	-1.356101E-002	-7.771333E-002	3.265714E-003
1.100000E+008	8.565399E-002	-4.895461E-003	3.299264E-001	-1.496733E-002	3.301226E-001	-1.491405E-002	-7.763035E-002	3.426909E-003
1.200000E+008	8.573535E-002	-5.429376E-003	3.297447E-001	-1.630108E-002	3.300101E-001	-1.628297E-002	-7.761394E-002	3.580437E-003
1.300000E+008	8.578705E-002	-5.977164E-003	3.296385E-001	-1.761042E-002	3.299055E-001	-1.760973E-002	-7.751418E-002	3.706852E-003
1.400000E+008	8.580687E-002	-6.535248E-003	3.295316E-001	-1.894914E-002	3.297507E-001	-1.896590E-002	-7.730043E-002	3.821573E-003
1.500000E+008	8.573174E-002	-7.056100E-003	3.293950E-001	-2.021545E-002	3.295474E-001	-2.023323E-002	-7.712526E-002	3.937484E-003
1.600000E+008	8.564996E-002	-7.485026E-003	3.292900E-001	-2.149635E-002	3.293941E-001	-2.149512E-002	-7.715076E-002	4.092450E-003
1.700000E+008	8.555766E-002	-7.923615E-003	3.291576E-001	-2.291967E-002	3.294274E-001	-2.281632E-002	-7.731027E-002	4.218114E-003
1.800000E+008	8.542013E-002	-8.435082E-003	3.288406E-001	-2.430487E-002	3.292523E-001	-2.424753E-002	-7.737975E-002	4.305892E-003
1.900000E+008	8.531149E-002	-8.974683E-003	3.286151E-001	-2.555183E-002	3.290300E-001	-2.556312E-002	-7.736530E-002	4.377379E-003
2.000000E+008	8.520937E-002	-9.560368E-003	3.284731E-001	-2.683786E-002	3.288217E-001	-2.683578E-002	-7.722252E-002	4.462913E-003
2.100000E+008	8.513071E-002	-1.018071E-002	3.283216E-001	-2.809670E-002	3.286091E-001	-2.808641E-002	-7.702798E-002	4.536439E-003
2.200000E+008	8.503699E-002	-1.075959E-002	3.281818E-001	-2.933875E-002	3.284105E-001	-2.934244E-002	-7.688945E-002	4.592168E-003
2.300000E+008	8.490883E-002	-1.132294E-002	3.279913E-001	-3.063568E-002	3.282271E-001	-3.063598E-002	-7.677763E-002	4.617779E-003
2.400000E+008	8.477230E-002	-1.189078E-002	3.278093E-001	-3.194086E-002	3.280161E-001	-3.190992E-002	-7.668131E-002	4.671720E-003
2.500000E+008	8.462609E-002	-1.244487E-002	3.275802E-001	-3.325249E-002	3.278047E-001	-3.319760E-002	-7.657349E-002	4.674327E-003
2.600000E+008	8.452981E-002	-1.301653E-002	3.273317E-001	-3.456360E-002	3.275983E-001	-3.451533E-002	-7.644622E-002	4.776932E-003
2.700000E+008	8.442104E-002	-1.355402E-002	3.270588E-001	-3.579445E-002	3.273577E-001	-3.580721E-002	-7.623569E-002	4.900413E-003
2.800000E+008	8.435361E-002	-1.407325E-002	3.268104E-001	-3.705999E-002	3.271160E-001	-3.701959E-002	-7.607375E-002	5.013980E-003
2.900000E+008	8.422017E-002	-1.452921E-002	3.266365E-001	-3.827896E-002	3.268635E-001	-3.823877E-002	-7.596315E-002	5.160520E-003
3.000000E+008	8.411255E-002	-1.495910E-002	3.264302E-001	-3.956645E-002	3.267004E-001	-3.950344E-002	-7.583538E-002	5.357314E-003
3.100000E+008	8.396192E-002	-1.538869E-002	3.261920E-001	-4.083399E-002	3.264751E-001	-4.078279E-002	-7.575987E-002	5.546907E-003
3.200000E+008	8.383051E-002	-1.580180E-002	3.259367E-001	-4.211633E-002	3.262478E-001	-4.206425E-002	-7.569050E-002	5.742667E-003
3.300000E+008	8.361878E-002	-1.619851E-002	3.257103E-001	-4.336982E-002	3.259975E-001	-4.340945E-002	-7.563370E-002	5.906267E-003
3.400000E+008	8.335121E-002	-1.662983E-002	3.254195E-001	-4.464041E-002	3.255986E-001	-4.472078E-002	-7.554704E-002	6.038016E-003
3.500000E+008	8.306293E-002	-1.707216E-002	3.251697E-001	-4.592704E-002	3.252498E-001	-4.589376E-002	-7.543041E-002	6.077546E-003
3.600000E+008	8.282717E-002	-1.749439E-002	3.248742E-001	-4.716201E-002	3.249763E-001	-4.703222E-002	-7.532307E-002	6.182096E-003
3.700000E+008	8.257106E-002	-1.794976E-002	3.245492E-001	-4.834010E-002	3.247455E-001	-4.817568E-002	-7.516435E-002	6.270497E-003
3.800000E+008	8.233256E-002	-1.842584E-002	3.242840E-001	-4.957006E-002	3.245680E-001	-4.944531E-002	-7.499758E-002	6.360683E-003
3.900000E+008	8.207175E-002	-1.892197E-002	3.239522E-001	-5.085243E-002	3.242930E-001	-5.073707E-002	-7.478573E-002	6.513338E-003
4.000000E+008	8.186188E-002	-1.943692E-002	3.236026E-001	-5.197467E-002	3.239822E-001	-5.200820E-002	-7.453055E-002	6.640831E-003
4.100000E+008	8.160147E-002	-1.992928E-002	3.233218E-001	-5.313344E-002	3.236494E-001	-5.321565E-002	-7.430388E-002	6.788753E-003
4.200000E+008	8.133361E-002	-2.041794E-002	3.231219E-001	-5.437253E-002	3.233528E-001	-5.437621E-002	-7.412948E-002	6.998789E-003
4.300000E+008	8.114070E-002	-2.084018E-002	3.228243E-001	-5.558169E-002	3.230562E-001	-5.560693E-002	-7.396497E-002	7.196276E-003
4.400000E+008	8.093242E-002	-2.126218E-002	3.225202E-001	-5.682769E-002	3.227698E-001	-5.683211E-002	-7.384994E-002	7.503070E-003
4.500000E+008	8.074827E-002	-2.169250E-002	3.222221E-001	-5.805424E-002	3.224866E-001	-5.805913E-002	-7.369088E-002	7.797346E-003
4.600000E+008	8.053275E-002	-2.212067E-002	3.218916E-001	-5.928179E-002	3.221383E-001	-5.928525E-002	-7.356378E-002	8.087261E-003
4.700000E+008	8.029650E-002	-2.250042E-002	3.215531E-001	-6.047448E-002	3.217966E-001	-6.048719E-002	-7.347490E-002	8.331050E-003
4.800000E+008	8.003621E-002	-2.284804E-002	3.212265E-001	-6.164883E-002	3.214423E-001	-6.163207E-002	-7.339148E-002	8.600650E-003
4.900000E+008	7.974874E-002	-2.324456E-002	3.208900E-001	-6.283375E-002	3.211034E-001	-6.284288E-002	-7.332799E-002	8.839992E-003
5.000000E+008	7.946388E-002	-2.359001E-002	3.205758E-001	-6.403083E-002	3.207948E-001	-6.399790E-002	-7.323115E-002	9.053196E-003
5.100000E+008	7.922544E-002	-2.398750E-002	3.202581E-001	-6.520644E-002	3.205084E-001	-6.517898E-002	-7.310944E-002	9.273039E-003
5.200000E+008	7.895287E-002	-2.441091E-002	3.199023E-001	-6.640836E-002	3.201820E-001	-6.640243E-002	-7.296741E-002	9.473173E-003
5.300000E+008	7.866194E-002	-2.484134E-002	3.195642E-001	-6.760805E-002	3.198499E-001	-6.761403E-002	-7.277172E-002	9.666570E-003
5.400000E+008	7.836453E-002	-2.530251E-002	3.191880E-001	-6.879632E-002	3.194856E-001	-6.881344E-002	-7.257555E-002	9.847815E-003
5.500000E+008	7.807199E-002	-2.570581E-002	3.188426E-001	-6.996186E-002	3.190811E-001	-6.999715E-002	-7.243763E-002	1.010059E-002
5.600000E+008	7.778689E-002	-2.612176E-002	3.184600E-001	-7.112617E-002	3.186844E-001	-7.115644E-002	-7.228601E-002	1.035478E-002
5.700000E+008	7.754008E-002	-2.655056E-002	3.181111E-001	-7.227337E-002	3.183365E-001	-7.230336E-002	-7.221744E-002	1.065137E-002
5.800000E+008	7.727338E-002	-2.693346E-002	3.177387E-001	-7.344857E-002	3.180014E-001	-7.347170E-002	-7.210675E-002	1.094624E-002
5.900000E+008	7.702055E-002	-2.736762E-002	3.173690E-001	-7.465629E-002	3.176578E-001	-7.468824E-002	-7.201580E-002	1.127602E-002
6.000000E+008	7.680538E-002	-2.778956E-002	3.169934E-001	-7.580105E-002	3.172567E-001	-7.585020E-002	-7.190921E-002	1.152527E-002
6.100000E+008	7.659895E-002	-2.819474E-002	3.166087E-001	-7.695553E-002	3.168312E-001	-7.701840E-002	-7.181833E-002	1.177780E-002
6.200000E+008	7.640823E-002	-2.857170E-002	3.162084E-001	-7.808162E-002	3.164720E-001	-7.814958E-002	-7.172847E-002	1.205950E-002
6.300000E+008	7.623038E-002	-2.893258E-002	3.158128E-001	-7.924665E-002	3.160637E-001	-7.929361E-002	-7.162330E-002	1.230526E-002
6.400000E+008	7.603727E-002	-2.928050E-002	3.154356E-001	-8.037422E-002	3.156807E-001	-8.043660E-002	-7.148831E-002	1.257140E-002
6.500000E+008	7.583814E-002	-2.960858E-002	3.150509E-001	-8.151977E-002	3.152853E-001	-8.156938E-002	-7.137719E-002	1.286491E-002
6.600000E+008	7.560416E-002	-2.993467E-002	3.146766E-001	-8.266176E-002	3.148910E-001	-8.273020E-002	-7.124477E-002	1.314118E-002
6.700000E+008	7.532543E-002	-3.020692E-002	3.142707E-001	-8.381557E-002	3.144860E-001	-8.387619E-002	-7.116591E-002	1.344604E-002
6.800000E+008	7.501977E-002	-3.051122E-002	3.138459E-001	-8.495307E-002	3.140686E-001	-8.502373E-002	-7.105288E-002	1.380567E-002
6.900000E+008	7.471749E-002	-3.079412E-002	3.134077E-001	-8.609309E-002	3.136400E-001	-8.612181E-002	-7.098026E-002	1.415480E-002
7.000000E+008	7.443981E-002	-3.110496E-002	3.130158E-001	-8.721846E-002	3.132582E-001	-8.725017E-002	-7.093811E-002	1.444579E-002
7.100000E+008	7.414388E-002	-3.143561E-002	3.125977E-001	-8.831405E-002	3.128681E-001	-8.837011E-002	-7.090783E-002	1.475878E-002
7.200000E+008	7.382906E-002	-3.175951E-002	3.121881E-001	-8.943570E-002	3.124481E-001	-8.950082E-002	-7.084994E-002	1.500209E-002
7.300000E+008	7.353197E-002	-3.210161E-002	3.117414E-001	-9.055125E-002	3.120368E-001	-9.065425E-002	-7.081464E-002	1.524496E-002
7.400000E+008	7.321151E-002	-3.244378E-002	3.113128E-001	-9.168964E-002	3.116016E-001	-9.176720E-002	-7.078880E-002	1.548653E-002
7.500000E+008	7.295291E-002	-3.277685E-002	3.109184E-001	-9.279865E-002	3.111671E-001	-9.291358E-002	-7.073972E-002	1.568188E-002
7.600000E+008	7.264549E-002	-3.312647E-002	3.104747E-001	-9.392063E-002	3.107362E-001	-9.401482E-002	-7.068505E-002	1.592253E-002
7.700000E+008	7.235122E-002	-3.348526E-002	3.100438E-001	-9.502822E-002	3.103295E-001	-9.511390E-002	-7.059572E-002	1.609810E-002
7.800000E+008	7.203749E-002	-3.381991E-002	3.095995E-001	-9.613979E-002	3.098834E-001	-9.623303E-002	-7.052308E-002	1.631382E-002
7.900000E+008	7.172728E-002	-3.419911E-002	3.091691E-001	-9.725817E-002	3.094473E-001	-9.737210E-002	-7.045726E-002	1.654417E-002
8.000000E+008	7.144117E-002	-3.456872E-002	3.087290E-001	-9.835292E-002	3.089774E-001	-9.845298E-002	-7.034627E-002	1.678738E-002
8.100000E+008	7.116893E-002	-3.491138E-002	3.082494E-001	-9.943823E-002	3.085040E-001	-9.955900E-002	-7.018553E-002	1.706308E-002
8.200000E+008	7.093960E-002	-3.528800E-002	3.078190E-001	-1.005676E-001	3.080535E-001	-1.006330E-001	-7.007857E-002	1.731967E-002
8.300000E+008	7.070959E-002	-3.561502E-002	3.073409E-001	-1.016546E-001	3.076134E-001	-1.017232E-001	-6.995509E-002	1.757851E-002
8.400000E+008	7.051159E-002	-3.592015E-002	3.068956E-001	-1.027105E-001	3.071529E-001	-1.028422E-001	-6.985085E-002	1.783310E-002
8.500000E+008	7.029796E-002	-3.623334E-002	3.064586E-001	-1.038296E-001	3.067191E-001	-1.039381E-001	-6.977782E-002	1.810548E-002
8.600000E+008	7.004747E-002	-3.651940E-002	3.059691E-001	-1.048988E-001	3.062140E-001	-1.050130E-001	-6.971479E-002	1.839398E-002
8.700000E+008	6.980820E-002	-3.676755E-002	3.055231E-001	-1.059980E-001	3.057563E-001	-1.060856E-001	-6.963654E-002	1.865063E-002
8.800000E+008	6.954023E-002	-3.700931E-002	3.050454E-001	-1.071161E-001	3.053057E-001	-1.071667E-001	-6.959055E-002	1.888595E-002
8.900000E+008	6.925790E-002	-3.727444E-002	3.045643E-001	-1.081769E-001	3.048395E-001	-1.082783E-001	-6.951521E-002	1.912400E-002
9.000000E+008	6.894117E-002	-3.753650E-002	3.040597E-001	-1.092466E-001	3.043909E-001	-1.093615E-001	-6.942826E-002	1.937745E-002
9.100000E+008	6.862650E-002	-3.779672E-002	3.035838E-001	-1.103310E-001	3.038881E-001	-1.104369E-001	-6.926282E-002	1.960701E-002
9.200000E+008	6.831126E-002	-3.809086E-002	3.031054E-001	-1.113906E-001	3.034171E-001	-1.115309E-001	-6.911209E-002	1.983752E-002
9.300000E+008	6.802085E-002	-3.836076E-002	3.026184E-001	-1.124663E-001	3.028804E-001	-1.125974E-001	-6.894071E-002	2.008209E-002
9.400000E+008	6.773924E-002	-3.867439E-002	3.021310E-001	-1.135341E-001	3.024286E-001	-1.136625E-001	-6.870706E-002	2.036097E-002
9.500000E+008	6.745651E-002	-3.896548E-002	3.016608E-001	-1.146070E-001	3.019086E-001	-1.147578E-001	-6.850188E-002	2.067806E-002
9.600000E+008	6.719611E-002	-3.922976E-002	3.011469E-001	-1.156746E-001	3.014179E-001	-1.157995E-001	-6.826838E-002	2.099518E-002
9.700000E+008	6.696882E-002	-3.948321E-002	3.006117E-001	-1.167122E-001	3.009113E-001	-1.168655E-001	-6.804380E-002	2.132980E-002
9.800000E+008	6.673802E-002	-3.972992E-002	3.001450E-001	-1.177324E-001	3.004202E-001	-1.179211E-001	-6.787424E-002	2.164984E-002
9.900000E+008	6.652777E-002	-3.995464E-002	2.996652E-001	-1.188286E-001	2.999361E-001	-1.190003E-001	-6.771046E-002	2.200309E-002
1.000000E+009	6.626749E-002	-4.015816E-002	2.991530E-001	-1.198792E-001	2.993947E-001	-1.200452E-001	-6.759465E-002	2.233815E-002
1.010000E+009	6.597667E-002	-4.035457E-002	2.986535E-001	-1.209732E-001	2.989054E-001	-1.211050E-001	-6.744283E-002	2.270553E-002
1.020000E+009	6.569306E-002	-4.054230E-002	2.981327E-001	-1.220064E-001	2.983586E-001	-1.221535E-001	-6.736138E-002	2.308242E-002
1.030000E+009	6.540736E-002	-4.071060E-002	2.976063E-001	-1.230548E-001	2.978525E-001	-1.231870E-001	-6.724261E-002	2.342658E-002
1.040000E+009	6.509858E-002	-4.090168E-002	2.970679E-001	-1.240829E-001	2.973407E-001	-1.242389E-001	-6.714174E-002	2.377072E-002
1.050000E+009	6.480591E-002	-4.115152E-002	2.965785E-001	-1.251211E-001	2.968181E-001	-1.252765E-001	-6.700230E-002	2.412125E-002
1.060000E+009	6.450659E-002	-4.137101E-002	2.960392E-001	-1.261737E-001	2.962802E-001	-1.262936E-001	-6.686199E-002	2.444076E-002
1.070000E+009	6.420417E-002	-4.160838E-002	2.955092E-001	-1.271961E-001	2.957629E-001	-1.273108E-001	-6.668884E-002	2.477305E-002
1.080000E+009	6.392508E-002	-4.182105E-002	2.949809E-001	-1.282748E-001	2.952642E-001	-1.283863E-001	-6.654982E-002	2.510500E-002
1.090000E+009	6.363441E-002	-4.203729E-002	2.944331E-001	-1.293262E-001	2.947157E-001	-1.294117E-001	-6.640624E-002	2.543193E-002
1.100000E+009	6.339294E-002	-4.225003E-002	2.938587E-001	-1.303583E-001	2.941857E-001	-1.304407E-001	-6.625550E-002	2.579852E-002
1.110000E+009	6.313556E-002	-4.246149E-002	2.933323E-001	-1.313583E-001	2.936450E-001	-1.314860E-001	-6.610534E-002	2.611742E-002
1.120000E+009	6.283886E-002	-4.264707E-002	2.928088E-001	-1.323966E-001	2.930788E-001	-1.325384E-001	-6.604882E-002	2.644083E-002
1.130000E+009	6.254710E-002	-4.283540E-002	2.922537E-001	-1.334138E-001	2.925198E-001	-1.335581E-001	-6.592027E-002	2.678043E-002
1.140000E+009	6.223623E-002	-4.303080E-002	2.917101E-001	-1.344648E-001	2.919742E-001	-1.346001E-001	-6.582852E-002	2.713250E-002
1.150000E+009	6.192317E-002	-4.321973E-002	2.911258E-001	-1.354858E-001	2.914064E-001	-1.356114E-001	-6.570103E-002	2.747439E-002
1.160000E+009	6.162902E-002	-4.340976E-002	2.905867E-001	-1.365187E-001	2.908644E-001	-1.366572E-001	-6.557144E-002	2.777666E-002
1.170000E+009	6.132804E-002	-4.363739E-002	2.900133E-001	-1.375298E-001	2.902787E-001	-1.376414E-001	-6.541662E-002	2.813451E-002
1.180000E+009	6.103728E-002	-4.385570E-002	2.894091E-001	-1.385517E-001	2.897353E-001	-1.386867E-001	-6.524244E-002	2.847559E-002
1.190000E+009	6.072940E-002	-4.404804E-002	2.888485E-001	-1.395925E-001	2.890882E-001	-1.396891E-001	-6.508447E-002	2.883232E-002
1.200000E+009	6.042744E-002	-4.423511E-002	2.882723E-001	-1.405986E-001	2.885262E-001	-1.406974E-001	-6.491699E-002	2.921390E-002
1.210000E+009	6.016858E-002	-4.447740E-002	2.876883E-001	-1.415958E-001	2.879409E-001	-1.417319E-001	-6.475963E-002	2.957231E-002
1.220000E+009	5.988424E-002	-4.470824E-002	2.870970E-001	-1.425911E-001	2.873663E-001	-1.427155E-001	-6.464106E-002	2.995680E-002
1.230000E+009	5.962209E-002	-4.490971E-002	2.864977E-001	-1.435962E-001	2.867683E-001	-1.437268E-001	-6.451975E-002	3.027979E-002
1.240000E+009	5.934197E-002	-4.513694E-002	2.859256E-001	-1.446106E-001	2.861674E-001	-1.447285E-001	-6.442174E-002	3.060448E-002
1.250000E+009	5.907895E-002	-4.533615E-002	2.853363E-001	-1.456051E-001	2.856269E-001	-1.457446E-001	-6.431352E-002	3.094185E-002
1.260000E+009	5.878456E-002	-4.553195E-002	2.847221E-001	-1.466126E-001	2.849794E-001	-1.467627E-001	-6.419385E-002	3.121416E-002
1.270000E+009	5.856441E-002	-4.573365E-002	2.841360E-001	-1.476220E-001	2.843660E-001	-1.477264E-001	-6.405097E-002	3.150874E-002
1.280000E+009	5.829419E-002	-4.589673E-002	2.835321E-001	-1.486116E-001	2.837816E-001	-1.487215E-001	-6.388546E-002	3.177006E-002
1.290000E+009	5.800370E-002	-4.607479E-002	2.829118E-001	-1.496607E-001	2.831785E-001	-1.497347E-001	-6.368171E-002	3.205234E-002
1.300000E+009	5.776566E-002	-4.622045E-002	2.822764E-001	-1.505861E-001	2.825837E-001	-1.507057E-001	-6.344029E-002	3.236076E-002
1.310000E+009	5.748833E-002	-4.636902E-002	2.816481E-001	-1.516119E-001	2.819564E-001	-1.517462E-001	-6.321814E-002	3.267803E-002
1.320000E+009	5.720734E-002	-4.650308E-002	2.810486E-001	-1.526014E-001	2.813603E-001	-1.527185E-001	-6.293276E-002	3.303864E-002
1.330000E+009	5.694361E-002	-4.660133E-002	2.804357E-001	-1.535550E-001	2.807209E-001	-1.537412E-001	-6.261684E-002	3.346253E-002
1.340000E+009	5.664189E-002	-4.670011E-002	2.797902E-001	-1.545506E-001	2.800434E-001	-1.546745E-001	-6.236642E-002	3.391479E-002
1.350000E+009	5.635616E-002	-4.683100E-002	2.791630E-001	-1.555365E-001	2.793930E-001	-1.556736E-001	-6.209023E-002	3.438365E-002
1.360000E+009	5.609418E-002	-4.696077E-002	2.784903E-001	-1.564912E-001	2.787933E-001	-1.566403E-001	-6.185071E-002	3.489494E-002
1.370000E+009	5.581469E-002	-4.706747E-002	2.778814E-001	-1.574714E-001	2.781443E-001	-1.576081E-001	-6.165634E-002	3.539703E-002
1.380000E+009	5.551279E-002	-4.720250E-002	2.772268E-001	-1.584366E-001	2.774791E-001	-1.585757E-001	-6.146995E-002	3.586592E-002
1.390000E+009	5.523471E-002	-4.733602E-002	2.765645E-001	-1.594237E-001	2.768437E-001	-1.595711E-001	-6.132410E-002	3.638535E-002
1.400000E+009	5.493412E-002	-4.747193E-002	2.759065E-001	-1.603597E-001	2.761766E-001	-1.604703E-001	-6.115375E-002	3.684700E-002
1.410000E+009	5.464029E-002	-4.759930E-002	2.752439E-001	-1.613161E-001	2.754937E-001	-1.614471E-001	-6.102306E-002	3.734370E-002
1.420000E+009	5.432823E-002	-4.770651E-002	2.745698E-001	-1.622767E-001	2.748587E-001	-1.623982E-001	-6.086547E-002	3.774920E-002
1.430000E+009	5.407872E-002	-4.783421E-002	2.739080E-001	-1.632042E-001	2.742189E-001	-1.633726E-001	-6.069420E-002	3.817809E-002
1.440000E+009	5.377202E-002	-4.795560E-002	2.732548E-001	-1.641608E-001	2.735351E-001	-1.643045E-001	-6.051991E-002	3.857342E-002
1.450000E+009	5.347324E-002	-4.805921E-002	2.725553E-001	-1.651024E-001	2.728164E-001	-1.652554E-001	-6.031260E-002	3.899739E-002
1.460000E+009	5.314486E-002	-4.815570E-002	2.718861E-001	-1.660564E-001	2.721254E-001	-1.661980E-001	-6.011571E-002	3.945705E-002
1.470000E+009	5.285896E-002	-4.827938E-002	2.712078E-001	-1.670113E-001	2.714750E-001	-1.671471E-001	-5.990983E-002	3.990624E-002
1.480000E+009	5.255110E-002	-4.833405E-002	2.704891E-001	-1.679104E-001	2.707507E-001	-1.680728E-001	-5.969471E-002	4.043729E-002
1.490000E+009	5.226157E-002	-4.845526E-002	2.698248E-001	-1.688588E-001	2.700745E-001	-1.690032E-001	-5.945448E-002	4.094047E-002
1.500000E+009	5.196949E-002	-4.859239E-002	2.691418E-001	-1.697948E-001	2.693947E-001	-1.698919E-001	-5.920648E-002	4.143712E-002
