! Device ID: PE43711P
! File Path: z:\PE43711P\CHAR_NOM_04282014\AMB\3p300\LS_ATT_24p75dB\PE43711P_AMB_3p300V_3p000V_0p000V_LS_ATT_24p75dB_S2P_SN_5_A0137A.s2p
! Serial: 5
! Lot: A0137A
! Temp: 25C
! VDD: 3.300
! VSS: 0.000
! Control_Hi: 3.000
! Control_Lo: 0.000
! Attenuation Step: 24.75dB
! Port 1: RF1
! Port 2: RF2
! ThroughPath:1-2
! IDD: 0.0001270524
! ISS: -1.345e-007
!

#  Hz  S   RI  R   50

1.000000E+007	3.115902E-002	4.214627E-004	5.028017E-002	-2.146055E-004	5.032151E-002	-2.248209E-004	-1.380089E-001	1.009947E-003
2.000000E+007	3.139652E-002	5.521744E-004	5.026517E-002	-3.062009E-004	5.029762E-002	-3.183326E-004	-1.376799E-001	1.638365E-003
3.000000E+007	3.164540E-002	6.526869E-004	5.028126E-002	-4.541549E-004	5.031311E-002	-4.677078E-004	-1.373719E-001	2.185412E-003
4.000000E+007	3.183328E-002	7.350357E-004	5.028231E-002	-6.211121E-004	5.031049E-002	-6.307579E-004	-1.372120E-001	2.818051E-003
5.000000E+007	3.192704E-002	8.217396E-004	5.027258E-002	-7.923382E-004	5.030985E-002	-7.926832E-004	-1.371786E-001	3.472871E-003
6.000000E+007	3.208437E-002	8.445179E-004	5.025025E-002	-9.446856E-004	5.030675E-002	-9.453420E-004	-1.370366E-001	3.982139E-003
7.000000E+007	3.222631E-002	8.612103E-004	5.025783E-002	-1.105621E-003	5.028943E-002	-1.100603E-003	-1.368477E-001	4.495776E-003
8.000000E+007	3.236242E-002	8.724004E-004	5.023349E-002	-1.240329E-003	5.028356E-002	-1.243291E-003	-1.366962E-001	4.989950E-003
9.000000E+007	3.248442E-002	8.721742E-004	5.022936E-002	-1.389603E-003	5.026853E-002	-1.412550E-003	-1.365828E-001	5.423328E-003
1.000000E+008	3.262519E-002	8.867414E-004	5.023916E-002	-1.558265E-003	5.027208E-002	-1.556476E-003	-1.365361E-001	5.893013E-003
1.100000E+008	3.275837E-002	8.765544E-004	5.022086E-002	-1.723712E-003	5.025173E-002	-1.711346E-003	-1.364424E-001	6.317803E-003
1.200000E+008	3.287746E-002	8.388656E-004	5.019232E-002	-1.869584E-003	5.024129E-002	-1.881400E-003	-1.363294E-001	6.700438E-003
1.300000E+008	3.299014E-002	8.427605E-004	5.018208E-002	-2.019881E-003	5.023611E-002	-2.021476E-003	-1.362121E-001	7.107799E-003
1.400000E+008	3.311884E-002	8.717013E-004	5.018086E-002	-2.169147E-003	5.022045E-002	-2.176329E-003	-1.361112E-001	7.511333E-003
1.500000E+008	3.315630E-002	8.862785E-004	5.016898E-002	-2.316821E-003	5.018840E-002	-2.328085E-003	-1.360133E-001	7.892236E-003
1.600000E+008	3.320544E-002	9.481719E-004	5.015046E-002	-2.464892E-003	5.018051E-002	-2.455123E-003	-1.359456E-001	8.293594E-003
1.700000E+008	3.331248E-002	9.563082E-004	5.015029E-002	-2.634076E-003	5.018519E-002	-2.621610E-003	-1.358756E-001	8.698361E-003
1.800000E+008	3.336630E-002	9.762536E-004	5.011628E-002	-2.785720E-003	5.017989E-002	-2.784758E-003	-1.357636E-001	9.099546E-003
1.900000E+008	3.334551E-002	9.457527E-004	5.009572E-002	-2.931146E-003	5.015010E-002	-2.944340E-003	-1.357228E-001	9.432539E-003
2.000000E+008	3.331150E-002	9.147763E-004	5.008056E-002	-3.081009E-003	5.012538E-002	-3.094761E-003	-1.356687E-001	9.739873E-003
2.100000E+008	3.330259E-002	8.234650E-004	5.006782E-002	-3.226965E-003	5.010461E-002	-3.236440E-003	-1.355894E-001	1.000715E-002
2.200000E+008	3.329966E-002	7.478597E-004	5.004666E-002	-3.372624E-003	5.009258E-002	-3.376447E-003	-1.354868E-001	1.027527E-002
2.300000E+008	3.330837E-002	6.824732E-004	5.002993E-002	-3.516106E-003	5.007495E-002	-3.505375E-003	-1.353509E-001	1.054182E-002
2.400000E+008	3.335296E-002	6.111304E-004	5.001743E-002	-3.668030E-003	5.004621E-002	-3.664529E-003	-1.351908E-001	1.083960E-002
2.500000E+008	3.340536E-002	5.440416E-004	4.999392E-002	-3.818947E-003	5.003063E-002	-3.819143E-003	-1.349916E-001	1.114247E-002
2.600000E+008	3.348654E-002	4.744476E-004	4.996107E-002	-3.976131E-003	5.001590E-002	-3.976462E-003	-1.347862E-001	1.150602E-002
2.700000E+008	3.355871E-002	4.379895E-004	4.994482E-002	-4.118112E-003	4.997418E-002	-4.112506E-003	-1.345436E-001	1.191232E-002
2.800000E+008	3.366558E-002	3.998931E-004	4.991184E-002	-4.254463E-003	4.996430E-002	-4.249897E-003	-1.343320E-001	1.229202E-002
2.900000E+008	3.369116E-002	3.917342E-004	4.990809E-002	-4.401477E-003	4.993311E-002	-4.402252E-003	-1.342010E-001	1.268642E-002
3.000000E+008	3.375621E-002	4.156890E-004	4.989340E-002	-4.554177E-003	4.992075E-002	-4.535431E-003	-1.340675E-001	1.311706E-002
3.100000E+008	3.376117E-002	4.405376E-004	4.986716E-002	-4.704474E-003	4.991466E-002	-4.701915E-003	-1.339409E-001	1.356566E-002
3.200000E+008	3.377322E-002	4.903127E-004	4.984124E-002	-4.860543E-003	4.988178E-002	-4.835073E-003	-1.338613E-001	1.399343E-002
3.300000E+008	3.375655E-002	5.269430E-004	4.981302E-002	-5.002006E-003	4.985864E-002	-5.018646E-003	-1.337630E-001	1.439926E-002
3.400000E+008	3.369316E-002	5.260769E-004	4.979200E-002	-5.149929E-003	4.982007E-002	-5.169777E-003	-1.336382E-001	1.475943E-002
3.500000E+008	3.362894E-002	4.957090E-004	4.976368E-002	-5.304737E-003	4.977950E-002	-5.297461E-003	-1.334996E-001	1.507386E-002
3.600000E+008	3.356783E-002	5.093821E-004	4.973780E-002	-5.457006E-003	4.974314E-002	-5.437849E-003	-1.333373E-001	1.541963E-002
3.700000E+008	3.352712E-002	4.755434E-004	4.970135E-002	-5.588014E-003	4.972071E-002	-5.556889E-003	-1.331308E-001	1.572335E-002
3.800000E+008	3.348611E-002	4.201489E-004	4.967118E-002	-5.726480E-003	4.970909E-002	-5.715160E-003	-1.329375E-001	1.608805E-002
3.900000E+008	3.343437E-002	3.489462E-004	4.964055E-002	-5.877007E-003	4.968938E-002	-5.859459E-003	-1.326700E-001	1.648970E-002
4.000000E+008	3.344136E-002	2.541662E-004	4.959475E-002	-6.020657E-003	4.966331E-002	-6.010756E-003	-1.323546E-001	1.687081E-002
4.100000E+008	3.343133E-002	1.943500E-004	4.957455E-002	-6.144288E-003	4.963647E-002	-6.162096E-003	-1.320738E-001	1.726480E-002
4.200000E+008	3.341420E-002	1.218926E-004	4.955599E-002	-6.290801E-003	4.959954E-002	-6.293498E-003	-1.318490E-001	1.771909E-002
4.300000E+008	3.343451E-002	9.165722E-005	4.954362E-002	-6.424209E-003	4.956670E-002	-6.419953E-003	-1.316532E-001	1.819202E-002
4.400000E+008	3.343604E-002	5.249207E-005	4.951331E-002	-6.574438E-003	4.954562E-002	-6.561155E-003	-1.314647E-001	1.871015E-002
4.500000E+008	3.345860E-002	3.343187E-005	4.947831E-002	-6.717432E-003	4.950373E-002	-6.719114E-003	-1.312661E-001	1.924228E-002
4.600000E+008	3.346635E-002	-1.284432E-005	4.945697E-002	-6.861279E-003	4.947874E-002	-6.853508E-003	-1.310847E-001	1.978102E-002
4.700000E+008	3.347281E-002	-4.098241E-005	4.941130E-002	-6.998944E-003	4.945055E-002	-7.000577E-003	-1.309126E-001	2.024396E-002
4.800000E+008	3.345045E-002	-2.197501E-005	4.937738E-002	-7.140286E-003	4.941733E-002	-7.139529E-003	-1.307741E-001	2.073745E-002
4.900000E+008	3.340815E-002	-6.635476E-006	4.935548E-002	-7.279082E-003	4.937818E-002	-7.285011E-003	-1.306199E-001	2.120089E-002
5.000000E+008	3.337573E-002	-2.482103E-005	4.932540E-002	-7.427513E-003	4.935132E-002	-7.407308E-003	-1.304585E-001	2.166237E-002
5.100000E+008	3.335779E-002	-2.512208E-005	4.927790E-002	-7.569662E-003	4.932379E-002	-7.547557E-003	-1.302971E-001	2.210377E-002
5.200000E+008	3.331201E-002	-5.164036E-005	4.925898E-002	-7.708827E-003	4.930409E-002	-7.684452E-003	-1.301246E-001	2.255896E-002
5.300000E+008	3.325799E-002	-9.925340E-005	4.921848E-002	-7.855023E-003	4.926457E-002	-7.853722E-003	-1.298872E-001	2.301049E-002
5.400000E+008	3.320098E-002	-1.812589E-004	4.918518E-002	-7.984824E-003	4.922361E-002	-7.977458E-003	-1.296462E-001	2.346395E-002
5.500000E+008	3.314196E-002	-2.294693E-004	4.915606E-002	-8.108878E-003	4.918941E-002	-8.121680E-003	-1.294502E-001	2.394906E-002
5.600000E+008	3.310363E-002	-3.045093E-004	4.912186E-002	-8.253349E-003	4.913916E-002	-8.252930E-003	-1.292261E-001	2.441964E-002
5.700000E+008	3.308673E-002	-4.175521E-004	4.907683E-002	-8.388760E-003	4.910762E-002	-8.395424E-003	-1.290561E-001	2.494453E-002
5.800000E+008	3.307204E-002	-4.879041E-004	4.904851E-002	-8.530205E-003	4.908358E-002	-8.532341E-003	-1.288774E-001	2.546943E-002
5.900000E+008	3.306723E-002	-6.058313E-004	4.899427E-002	-8.674521E-003	4.905055E-002	-8.679126E-003	-1.286936E-001	2.603930E-002
6.000000E+008	3.311045E-002	-6.684568E-004	4.897110E-002	-8.823407E-003	4.900903E-002	-8.815115E-003	-1.284846E-001	2.652876E-002
6.100000E+008	3.315488E-002	-7.206978E-004	4.894275E-002	-8.956410E-003	4.895974E-002	-8.957381E-003	-1.283022E-001	2.706203E-002
6.200000E+008	3.321857E-002	-7.603838E-004	4.889189E-002	-9.083362E-003	4.893409E-002	-9.092775E-003	-1.281121E-001	2.755401E-002
6.300000E+008	3.328090E-002	-7.755843E-004	4.885922E-002	-9.217209E-003	4.888151E-002	-9.225901E-003	-1.279371E-001	2.807130E-002
6.400000E+008	3.333219E-002	-7.801557E-004	4.882808E-002	-9.353587E-003	4.885970E-002	-9.353438E-003	-1.277701E-001	2.855445E-002
6.500000E+008	3.336021E-002	-7.806834E-004	4.877362E-002	-9.489068E-003	4.881506E-002	-9.505452E-003	-1.275789E-001	2.907467E-002
6.600000E+008	3.338931E-002	-7.896381E-004	4.874498E-002	-9.616159E-003	4.876729E-002	-9.640166E-003	-1.273860E-001	2.957635E-002
6.700000E+008	3.335159E-002	-7.584376E-004	4.869455E-002	-9.758443E-003	4.873480E-002	-9.767633E-003	-1.272016E-001	3.009035E-002
6.800000E+008	3.333864E-002	-7.526940E-004	4.865868E-002	-9.902879E-003	4.869871E-002	-9.894801E-003	-1.270147E-001	3.063776E-002
6.900000E+008	3.329818E-002	-7.276330E-004	4.862465E-002	-1.001646E-002	4.865708E-002	-1.003441E-002	-1.268296E-001	3.120190E-002
7.000000E+008	3.328852E-002	-7.235507E-004	4.858663E-002	-1.016141E-002	4.861258E-002	-1.015194E-002	-1.266706E-001	3.173029E-002
7.100000E+008	3.324837E-002	-7.391023E-004	4.853793E-002	-1.029731E-002	4.857826E-002	-1.029621E-002	-1.265386E-001	3.224979E-002
7.200000E+008	3.320366E-002	-7.472926E-004	4.850744E-002	-1.042234E-002	4.853533E-002	-1.044291E-002	-1.264096E-001	3.278041E-002
7.300000E+008	3.317787E-002	-7.830560E-004	4.846244E-002	-1.055934E-002	4.851719E-002	-1.057102E-002	-1.262721E-001	3.327217E-002
7.400000E+008	3.311874E-002	-8.030599E-004	4.841915E-002	-1.071640E-002	4.847406E-002	-1.071528E-002	-1.261824E-001	3.376043E-002
7.500000E+008	3.309614E-002	-8.407115E-004	4.838449E-002	-1.082201E-002	4.842129E-002	-1.083780E-002	-1.260466E-001	3.421509E-002
7.600000E+008	3.307461E-002	-8.911947E-004	4.834034E-002	-1.096053E-002	4.838449E-002	-1.096706E-002	-1.259078E-001	3.465659E-002
7.700000E+008	3.303040E-002	-9.559417E-004	4.828764E-002	-1.110255E-002	4.832797E-002	-1.110092E-002	-1.257556E-001	3.508038E-002
7.800000E+008	3.301732E-002	-1.000718E-003	4.826579E-002	-1.122870E-002	4.830379E-002	-1.122006E-002	-1.255785E-001	3.549680E-002
7.900000E+008	3.299923E-002	-1.081551E-003	4.821932E-002	-1.136189E-002	4.826508E-002	-1.136566E-002	-1.254027E-001	3.595451E-002
8.000000E+008	3.299317E-002	-1.164030E-003	4.816939E-002	-1.147441E-002	4.820665E-002	-1.150318E-002	-1.251709E-001	3.642656E-002
8.100000E+008	3.301333E-002	-1.260079E-003	4.813343E-002	-1.162140E-002	4.815320E-002	-1.163592E-002	-1.248818E-001	3.691580E-002
8.200000E+008	3.307155E-002	-1.300715E-003	4.808984E-002	-1.175572E-002	4.811425E-002	-1.175389E-002	-1.246493E-001	3.738374E-002
8.300000E+008	3.312516E-002	-1.353098E-003	4.804529E-002	-1.188136E-002	4.808082E-002	-1.188578E-002	-1.244357E-001	3.787969E-002
8.400000E+008	3.315483E-002	-1.396816E-003	4.799227E-002	-1.201020E-002	4.802827E-002	-1.202988E-002	-1.242137E-001	3.838466E-002
8.500000E+008	3.321645E-002	-1.406527E-003	4.795702E-002	-1.214784E-002	4.799410E-002	-1.215241E-002	-1.240593E-001	3.888171E-002
8.600000E+008	3.325447E-002	-1.417481E-003	4.790078E-002	-1.227658E-002	4.793212E-002	-1.228234E-002	-1.238806E-001	3.940162E-002
8.700000E+008	3.327639E-002	-1.402188E-003	4.787244E-002	-1.240827E-002	4.790536E-002	-1.242825E-002	-1.237136E-001	3.986689E-002
8.800000E+008	3.330624E-002	-1.378080E-003	4.782222E-002	-1.252900E-002	4.786588E-002	-1.253882E-002	-1.235433E-001	4.032675E-002
8.900000E+008	3.329642E-002	-1.362492E-003	4.777126E-002	-1.265839E-002	4.780439E-002	-1.267129E-002	-1.233896E-001	4.075319E-002
9.000000E+008	3.328722E-002	-1.352874E-003	4.772936E-002	-1.278995E-002	4.777116E-002	-1.280831E-002	-1.231677E-001	4.120918E-002
9.100000E+008	3.325788E-002	-1.365270E-003	4.766912E-002	-1.292353E-002	4.770706E-002	-1.293268E-002	-1.229320E-001	4.164295E-002
9.200000E+008	3.322731E-002	-1.413679E-003	4.762251E-002	-1.304911E-002	4.766995E-002	-1.305127E-002	-1.226740E-001	4.209742E-002
9.300000E+008	3.323978E-002	-1.441010E-003	4.757935E-002	-1.317970E-002	4.761841E-002	-1.319276E-002	-1.223692E-001	4.257923E-002
9.400000E+008	3.325735E-002	-1.499674E-003	4.753367E-002	-1.330527E-002	4.759269E-002	-1.332005E-002	-1.220374E-001	4.305561E-002
9.500000E+008	3.328936E-002	-1.542211E-003	4.749723E-002	-1.343427E-002	4.753077E-002	-1.345343E-002	-1.216892E-001	4.359404E-002
9.600000E+008	3.329840E-002	-1.553707E-003	4.745493E-002	-1.355924E-002	4.747968E-002	-1.357119E-002	-1.213579E-001	4.412117E-002
9.700000E+008	3.333716E-002	-1.564256E-003	4.739675E-002	-1.368490E-002	4.744321E-002	-1.370040E-002	-1.210393E-001	4.468907E-002
9.800000E+008	3.339711E-002	-1.553254E-003	4.734319E-002	-1.380098E-002	4.739662E-002	-1.382260E-002	-1.207500E-001	4.526299E-002
9.900000E+008	3.343661E-002	-1.546594E-003	4.731119E-002	-1.395289E-002	4.735049E-002	-1.397023E-002	-1.204727E-001	4.581034E-002
1.000000E+009	3.346082E-002	-1.507451E-003	4.726329E-002	-1.407067E-002	4.730447E-002	-1.408356E-002	-1.202550E-001	4.635967E-002
1.010000E+009	3.348203E-002	-1.461916E-003	4.721320E-002	-1.418485E-002	4.725285E-002	-1.422464E-002	-1.200077E-001	4.691266E-002
1.020000E+009	3.347784E-002	-1.453771E-003	4.715768E-002	-1.433425E-002	4.720716E-002	-1.434731E-002	-1.197957E-001	4.745898E-002
1.030000E+009	3.348632E-002	-1.416783E-003	4.711696E-002	-1.446186E-002	4.715363E-002	-1.447077E-002	-1.195788E-001	4.801197E-002
1.040000E+009	3.347192E-002	-1.396101E-003	4.705487E-002	-1.458158E-002	4.710607E-002	-1.460312E-002	-1.193534E-001	4.853501E-002
1.050000E+009	3.349643E-002	-1.379613E-003	4.702153E-002	-1.471853E-002	4.705352E-002	-1.472295E-002	-1.190868E-001	4.909837E-002
1.060000E+009	3.348713E-002	-1.367930E-003	4.697341E-002	-1.483230E-002	4.699728E-002	-1.485012E-002	-1.187905E-001	4.965092E-002
1.070000E+009	3.346864E-002	-1.368404E-003	4.691180E-002	-1.497210E-002	4.695567E-002	-1.496714E-002	-1.185116E-001	5.020068E-002
1.080000E+009	3.347331E-002	-1.355487E-003	4.686281E-002	-1.508120E-002	4.693078E-002	-1.509367E-002	-1.182260E-001	5.077151E-002
1.090000E+009	3.345545E-002	-1.361782E-003	4.682026E-002	-1.521707E-002	4.687030E-002	-1.522574E-002	-1.179558E-001	5.131925E-002
1.100000E+009	3.347900E-002	-1.357181E-003	4.677298E-002	-1.534969E-002	4.679529E-002	-1.534525E-002	-1.177161E-001	5.186530E-002
1.110000E+009	3.348280E-002	-1.353354E-003	4.671822E-002	-1.545935E-002	4.675738E-002	-1.548082E-002	-1.174735E-001	5.240882E-002
1.120000E+009	3.346132E-002	-1.342132E-003	4.666266E-002	-1.559328E-002	4.670842E-002	-1.561664E-002	-1.172585E-001	5.291227E-002
1.130000E+009	3.347113E-002	-1.336031E-003	4.662302E-002	-1.573197E-002	4.665625E-002	-1.573439E-002	-1.170441E-001	5.344811E-002
1.140000E+009	3.344106E-002	-1.348101E-003	4.656334E-002	-1.585055E-002	4.660110E-002	-1.584779E-002	-1.167915E-001	5.398963E-002
1.150000E+009	3.344249E-002	-1.342546E-003	4.651789E-002	-1.597608E-002	4.655177E-002	-1.598100E-002	-1.165265E-001	5.450612E-002
1.160000E+009	3.343202E-002	-1.308171E-003	4.645601E-002	-1.611308E-002	4.651029E-002	-1.611418E-002	-1.162656E-001	5.500511E-002
1.170000E+009	3.343577E-002	-1.308902E-003	4.639685E-002	-1.624222E-002	4.644764E-002	-1.623370E-002	-1.159754E-001	5.557767E-002
1.180000E+009	3.345315E-002	-1.321980E-003	4.634512E-002	-1.634716E-002	4.640380E-002	-1.635501E-002	-1.156606E-001	5.612457E-002
1.190000E+009	3.341289E-002	-1.280498E-003	4.628946E-002	-1.648148E-002	4.632882E-002	-1.650232E-002	-1.153707E-001	5.668357E-002
1.200000E+009	3.342853E-002	-1.291148E-003	4.624851E-002	-1.661266E-002	4.627452E-002	-1.661589E-002	-1.150434E-001	5.727888E-002
1.210000E+009	3.343856E-002	-1.308193E-003	4.618501E-002	-1.672184E-002	4.621823E-002	-1.675166E-002	-1.147822E-001	5.784663E-002
1.220000E+009	3.341850E-002	-1.364309E-003	4.613254E-002	-1.686048E-002	4.617120E-002	-1.687653E-002	-1.145457E-001	5.839721E-002
1.230000E+009	3.343088E-002	-1.368438E-003	4.608125E-002	-1.697825E-002	4.609296E-002	-1.698732E-002	-1.142895E-001	5.893030E-002
1.240000E+009	3.342971E-002	-1.399776E-003	4.602803E-002	-1.709609E-002	4.604641E-002	-1.711298E-002	-1.140739E-001	5.944613E-002
1.250000E+009	3.347380E-002	-1.433285E-003	4.596539E-002	-1.721630E-002	4.599663E-002	-1.724091E-002	-1.138188E-001	5.996701E-002
1.260000E+009	3.348184E-002	-1.471334E-003	4.589729E-002	-1.734772E-002	4.593410E-002	-1.736548E-002	-1.135539E-001	6.043561E-002
1.270000E+009	3.358980E-002	-1.478897E-003	4.585914E-002	-1.747340E-002	4.588234E-002	-1.747930E-002	-1.132313E-001	6.089745E-002
1.280000E+009	3.361674E-002	-1.469561E-003	4.578030E-002	-1.760532E-002	4.582807E-002	-1.761111E-002	-1.129571E-001	6.135935E-002
1.290000E+009	3.368537E-002	-1.449295E-003	4.574068E-002	-1.772851E-002	4.578258E-002	-1.774162E-002	-1.125747E-001	6.183907E-002
1.300000E+009	3.372913E-002	-1.403349E-003	4.566300E-002	-1.784670E-002	4.571537E-002	-1.785880E-002	-1.122063E-001	6.233780E-002
1.310000E+009	3.375486E-002	-1.390847E-003	4.562921E-002	-1.798440E-002	4.565395E-002	-1.799903E-002	-1.118431E-001	6.284623E-002
1.320000E+009	3.376413E-002	-1.347136E-003	4.555548E-002	-1.809567E-002	4.557529E-002	-1.811146E-002	-1.114353E-001	6.342175E-002
1.330000E+009	3.379449E-002	-1.272323E-003	4.550013E-002	-1.821064E-002	4.553294E-002	-1.824138E-002	-1.109832E-001	6.401497E-002
1.340000E+009	3.378569E-002	-1.238216E-003	4.542753E-002	-1.833980E-002	4.547711E-002	-1.835668E-002	-1.105900E-001	6.465527E-002
1.350000E+009	3.378912E-002	-1.215311E-003	4.537808E-002	-1.846950E-002	4.540856E-002	-1.847304E-002	-1.101811E-001	6.529337E-002
1.360000E+009	3.381940E-002	-1.173967E-003	4.530226E-002	-1.859348E-002	4.535948E-002	-1.860846E-002	-1.097960E-001	6.595422E-002
1.370000E+009	3.382854E-002	-1.141064E-003	4.525628E-002	-1.871940E-002	4.529372E-002	-1.872276E-002	-1.094494E-001	6.663698E-002
1.380000E+009	3.385224E-002	-1.122048E-003	4.518601E-002	-1.884512E-002	4.523660E-002	-1.886391E-002	-1.091257E-001	6.727032E-002
1.390000E+009	3.388082E-002	-1.111038E-003	4.510807E-002	-1.896678E-002	4.516417E-002	-1.897414E-002	-1.088229E-001	6.797255E-002
1.400000E+009	3.389706E-002	-1.096527E-003	4.505284E-002	-1.907797E-002	4.510567E-002	-1.909087E-002	-1.084986E-001	6.859713E-002
1.410000E+009	3.390722E-002	-1.061905E-003	4.499482E-002	-1.920101E-002	4.502920E-002	-1.921745E-002	-1.081992E-001	6.925944E-002
1.420000E+009	3.388894E-002	-1.003018E-003	4.492168E-002	-1.933035E-002	4.497111E-002	-1.933506E-002	-1.079030E-001	6.986913E-002
1.430000E+009	3.392457E-002	-9.636576E-004	4.484823E-002	-1.944168E-002	4.489200E-002	-1.947173E-002	-1.075775E-001	7.044103E-002
1.440000E+009	3.390178E-002	-9.363630E-004	4.478446E-002	-1.956631E-002	4.483362E-002	-1.956981E-002	-1.072841E-001	7.103659E-002
1.450000E+009	3.389053E-002	-9.058042E-004	4.471884E-002	-1.968840E-002	4.476798E-002	-1.969372E-002	-1.068857E-001	7.162214E-002
1.460000E+009	3.386939E-002	-8.722313E-004	4.467314E-002	-1.982263E-002	4.470120E-002	-1.982387E-002	-1.065436E-001	7.222296E-002
1.470000E+009	3.388356E-002	-8.666785E-004	4.459097E-002	-1.993903E-002	4.462878E-002	-1.993968E-002	-1.061599E-001	7.285701E-002
1.480000E+009	3.386996E-002	-8.214941E-004	4.451984E-002	-2.004856E-002	4.457088E-002	-2.005732E-002	-1.058000E-001	7.349501E-002
1.490000E+009	3.387766E-002	-8.340460E-004	4.444037E-002	-2.016466E-002	4.450222E-002	-2.016416E-002	-1.054024E-001	7.414774E-002
1.500000E+009	3.389085E-002	-8.186274E-004	4.438393E-002	-2.028589E-002	4.443523E-002	-2.029153E-002	-1.050046E-001	7.482283E-002
1.510000E+009	3.391335E-002	-8.045426E-004	4.430342E-002	-2.039566E-002	4.436736E-002	-2.040905E-002	-1.046141E-001	7.546582E-002
