! Device ID: PE43711P
! File Path: z:\PE43711P\CHAR_NOM_04282014\AMB\3p300\LS_ATT_7p50dB\PE43711P_AMB_3p300V_3p000V_0p000V_LS_ATT_7p50dB_S2P_SN_5_A0137A.s2p
! Serial: 5
! Lot: A0137A
! Temp: 25C
! VDD: 3.300
! VSS: 0.000
! Control_Hi: 3.000
! Control_Lo: 0.000
! Attenuation Step: 7.50dB
! Port 1: RF1
! Port 2: RF2
! ThroughPath:1-2
! IDD: 0.0001281789
! ISS: -9.71e-008
!

#  Hz  S   RI  R   50

1.000000E+007	8.478975E-002	-2.346443E-004	3.717582E-001	-1.740547E-003	3.720438E-001	-1.864800E-003	-9.319692E-002	6.525705E-004
2.000000E+007	8.495911E-002	-4.722255E-004	3.717232E-001	-3.040651E-003	3.717775E-001	-3.062145E-003	-9.294075E-002	1.172170E-003
3.000000E+007	8.522148E-002	-8.927510E-004	3.717383E-001	-4.571417E-003	3.718062E-001	-4.593067E-003	-9.264172E-002	1.536888E-003
4.000000E+007	8.531904E-002	-1.316452E-003	3.717291E-001	-6.125959E-003	3.717798E-001	-6.135168E-003	-9.239410E-002	1.938722E-003
5.000000E+007	8.546498E-002	-1.803519E-003	3.716997E-001	-7.772447E-003	3.718725E-001	-7.731271E-003	-9.228460E-002	2.274588E-003
6.000000E+007	8.563601E-002	-2.343045E-003	3.715956E-001	-9.273574E-003	3.718418E-001	-9.262938E-003	-9.216030E-002	2.510824E-003
7.000000E+007	8.573326E-002	-2.885459E-003	3.715043E-001	-1.077201E-002	3.717416E-001	-1.077517E-002	-9.202446E-002	2.726764E-003
8.000000E+007	8.586608E-002	-3.434517E-003	3.714286E-001	-1.221982E-002	3.716598E-001	-1.224381E-002	-9.189140E-002	2.987330E-003
9.000000E+007	8.595727E-002	-3.951890E-003	3.713429E-001	-1.373362E-002	3.715491E-001	-1.372943E-002	-9.176939E-002	3.181827E-003
1.000000E+008	8.603970E-002	-4.476685E-003	3.712743E-001	-1.525858E-002	3.714426E-001	-1.523602E-002	-9.163418E-002	3.388099E-003
1.100000E+008	8.610511E-002	-4.999425E-003	3.711605E-001	-1.681165E-002	3.713479E-001	-1.674851E-002	-9.157376E-002	3.542431E-003
1.200000E+008	8.618031E-002	-5.547747E-003	3.709338E-001	-1.829828E-002	3.711829E-001	-1.828239E-002	-9.156719E-002	3.706308E-003
1.300000E+008	8.624824E-002	-6.107308E-003	3.708250E-001	-1.977200E-002	3.710577E-001	-1.978499E-002	-9.145787E-002	3.838162E-003
1.400000E+008	8.625712E-002	-6.704760E-003	3.706978E-001	-2.127174E-002	3.708969E-001	-2.128966E-002	-9.121950E-002	3.942820E-003
1.500000E+008	8.618500E-002	-7.250503E-003	3.705541E-001	-2.270106E-002	3.706807E-001	-2.270921E-002	-9.101094E-002	4.055730E-003
1.600000E+008	8.609999E-002	-7.682947E-003	3.704448E-001	-2.415472E-002	3.705070E-001	-2.412559E-002	-9.108023E-002	4.224819E-003
1.700000E+008	8.597731E-002	-8.124781E-003	3.702916E-001	-2.574401E-002	3.705449E-001	-2.560404E-002	-9.127935E-002	4.374258E-003
1.800000E+008	8.583142E-002	-8.630800E-003	3.699321E-001	-2.728588E-002	3.703609E-001	-2.722464E-002	-9.140048E-002	4.472164E-003
1.900000E+008	8.570271E-002	-9.199813E-003	3.696790E-001	-2.869780E-002	3.700913E-001	-2.869913E-002	-9.137186E-002	4.535140E-003
2.000000E+008	8.562839E-002	-9.810112E-003	3.695166E-001	-3.011393E-002	3.698724E-001	-3.010972E-002	-9.120808E-002	4.631590E-003
2.100000E+008	8.556653E-002	-1.046559E-002	3.693379E-001	-3.152914E-002	3.696350E-001	-3.153280E-002	-9.099256E-002	4.729942E-003
2.200000E+008	8.547191E-002	-1.107309E-002	3.691687E-001	-3.293340E-002	3.694243E-001	-3.293638E-002	-9.084175E-002	4.798161E-003
2.300000E+008	8.534727E-002	-1.164942E-002	3.689847E-001	-3.437375E-002	3.692072E-001	-3.437121E-002	-9.075493E-002	4.841244E-003
2.400000E+008	8.520475E-002	-1.223716E-002	3.687760E-001	-3.584295E-002	3.689682E-001	-3.582438E-002	-9.067494E-002	4.898351E-003
2.500000E+008	8.505914E-002	-1.279694E-002	3.685014E-001	-3.729963E-002	3.687386E-001	-3.726207E-002	-9.059312E-002	4.898118E-003
2.600000E+008	8.494287E-002	-1.338613E-002	3.682197E-001	-3.878891E-002	3.685005E-001	-3.872024E-002	-9.045492E-002	5.004037E-003
2.700000E+008	8.482867E-002	-1.392942E-002	3.679256E-001	-4.017783E-002	3.682327E-001	-4.015094E-002	-9.026788E-002	5.121830E-003
2.800000E+008	8.476139E-002	-1.447962E-002	3.676525E-001	-4.156901E-002	3.679612E-001	-4.153829E-002	-9.010463E-002	5.246493E-003
2.900000E+008	8.463720E-002	-1.496088E-002	3.674378E-001	-4.296333E-002	3.676831E-001	-4.290882E-002	-8.999583E-002	5.420810E-003
3.000000E+008	8.451882E-002	-1.539840E-002	3.672257E-001	-4.437553E-002	3.674801E-001	-4.431601E-002	-8.988802E-002	5.611159E-003
3.100000E+008	8.436707E-002	-1.581463E-002	3.669577E-001	-4.579662E-002	3.672288E-001	-4.574767E-002	-8.980761E-002	5.832860E-003
3.200000E+008	8.420944E-002	-1.623510E-002	3.666634E-001	-4.724485E-002	3.669718E-001	-4.720829E-002	-8.975224E-002	6.043851E-003
3.300000E+008	8.402569E-002	-1.666800E-002	3.664020E-001	-4.864994E-002	3.666842E-001	-4.870141E-002	-8.970409E-002	6.217643E-003
3.400000E+008	8.373414E-002	-1.709231E-002	3.660760E-001	-5.007718E-002	3.662549E-001	-5.017225E-002	-8.960321E-002	6.338888E-003
3.500000E+008	8.344145E-002	-1.754994E-002	3.657644E-001	-5.149930E-002	3.658437E-001	-5.147041E-002	-8.952076E-002	6.408070E-003
3.600000E+008	8.319891E-002	-1.799339E-002	3.654614E-001	-5.291455E-002	3.655309E-001	-5.276179E-002	-8.940543E-002	6.536188E-003
3.700000E+008	8.294162E-002	-1.846247E-002	3.651004E-001	-5.423314E-002	3.652803E-001	-5.404636E-002	-8.925654E-002	6.634301E-003
3.800000E+008	8.268149E-002	-1.894652E-002	3.648087E-001	-5.560608E-002	3.650696E-001	-5.546338E-002	-8.911388E-002	6.733448E-003
3.900000E+008	8.241827E-002	-1.944896E-002	3.644318E-001	-5.702777E-002	3.647745E-001	-5.691306E-002	-8.889766E-002	6.892152E-003
4.000000E+008	8.220078E-002	-1.997267E-002	3.640536E-001	-5.832387E-002	3.644434E-001	-5.832381E-002	-8.865610E-002	7.039714E-003
4.100000E+008	8.192907E-002	-2.049715E-002	3.637451E-001	-5.959038E-002	3.640790E-001	-5.968912E-002	-8.844874E-002	7.189322E-003
4.200000E+008	8.165422E-002	-2.098139E-002	3.634780E-001	-6.096402E-002	3.637322E-001	-6.099895E-002	-8.828806E-002	7.410621E-003
4.300000E+008	8.144361E-002	-2.141920E-002	3.631789E-001	-6.235047E-002	3.633822E-001	-6.237871E-002	-8.813239E-002	7.653379E-003
4.400000E+008	8.123633E-002	-2.183916E-002	3.628518E-001	-6.373566E-002	3.630721E-001	-6.372882E-002	-8.801115E-002	7.936048E-003
4.500000E+008	8.103744E-002	-2.227160E-002	3.624987E-001	-6.511520E-002	3.627647E-001	-6.511632E-002	-8.789563E-002	8.233646E-003
4.600000E+008	8.080583E-002	-2.271485E-002	3.621308E-001	-6.648519E-002	3.623907E-001	-6.648388E-002	-8.776861E-002	8.562547E-003
4.700000E+008	8.057782E-002	-2.311137E-002	3.617630E-001	-6.781759E-002	3.619791E-001	-6.784685E-002	-8.769500E-002	8.840518E-003
4.800000E+008	8.030151E-002	-2.347596E-002	3.613975E-001	-6.911743E-002	3.615960E-001	-6.913133E-002	-8.763194E-002	9.104931E-003
4.900000E+008	8.001157E-002	-2.385610E-002	3.610411E-001	-7.045357E-002	3.611865E-001	-7.047057E-002	-8.758494E-002	9.369669E-003
5.000000E+008	7.974003E-002	-2.423929E-002	3.606632E-001	-7.179743E-002	3.608678E-001	-7.179476E-002	-8.749805E-002	9.607833E-003
5.100000E+008	7.946118E-002	-2.463252E-002	3.602958E-001	-7.311868E-002	3.605320E-001	-7.309297E-002	-8.737454E-002	9.839803E-003
5.200000E+008	7.917622E-002	-2.506510E-002	3.599090E-001	-7.448418E-002	3.601806E-001	-7.446108E-002	-8.725421E-002	1.006107E-002
5.300000E+008	7.888841E-002	-2.549370E-002	3.595276E-001	-7.582458E-002	3.598049E-001	-7.583085E-002	-8.705879E-002	1.026686E-002
5.400000E+008	7.857134E-002	-2.598138E-002	3.591050E-001	-7.715112E-002	3.594001E-001	-7.718065E-002	-8.688879E-002	1.047762E-002
5.500000E+008	7.827488E-002	-2.639119E-002	3.587285E-001	-7.845870E-002	3.589815E-001	-7.849716E-002	-8.676108E-002	1.072863E-002
5.600000E+008	7.797010E-002	-2.681079E-002	3.583027E-001	-7.976964E-002	3.585250E-001	-7.979150E-002	-8.662487E-002	1.100765E-002
5.700000E+008	7.770867E-002	-2.722204E-002	3.578966E-001	-8.104652E-002	3.581449E-001	-8.108657E-002	-8.656341E-002	1.132802E-002
5.800000E+008	7.745058E-002	-2.762262E-002	3.574926E-001	-8.237557E-002	3.577657E-001	-8.240555E-002	-8.647349E-002	1.162643E-002
5.900000E+008	7.718027E-002	-2.807262E-002	3.570728E-001	-8.372037E-002	3.573598E-001	-8.375982E-002	-8.642687E-002	1.195697E-002
6.000000E+008	7.696440E-002	-2.849129E-002	3.566494E-001	-8.502934E-002	3.569144E-001	-8.507784E-002	-8.630470E-002	1.224204E-002
6.100000E+008	7.674264E-002	-2.890770E-002	3.562192E-001	-8.629248E-002	3.564438E-001	-8.636574E-002	-8.626527E-002	1.252798E-002
6.200000E+008	7.653599E-002	-2.928063E-002	3.557681E-001	-8.756579E-002	3.560171E-001	-8.763543E-002	-8.618064E-002	1.279740E-002
6.300000E+008	7.634380E-002	-2.966308E-002	3.553059E-001	-8.885782E-002	3.555869E-001	-8.891021E-002	-8.607076E-002	1.307221E-002
6.400000E+008	7.614795E-002	-3.000959E-002	3.548941E-001	-9.013480E-002	3.551624E-001	-9.018512E-002	-8.595768E-002	1.335985E-002
6.500000E+008	7.594539E-002	-3.033190E-002	3.544764E-001	-9.138498E-002	3.547099E-001	-9.145562E-002	-8.586976E-002	1.367403E-002
6.600000E+008	7.571822E-002	-3.069608E-002	3.540492E-001	-9.271420E-002	3.542832E-001	-9.276339E-002	-8.575223E-002	1.398931E-002
6.700000E+008	7.541071E-002	-3.097638E-002	3.536040E-001	-9.397898E-002	3.538283E-001	-9.404329E-002	-8.568199E-002	1.431242E-002
6.800000E+008	7.509421E-002	-3.129143E-002	3.531194E-001	-9.524793E-002	3.533796E-001	-9.532372E-002	-8.560542E-002	1.468454E-002
6.900000E+008	7.477749E-002	-3.157038E-002	3.526523E-001	-9.653740E-002	3.528760E-001	-9.657846E-002	-8.555203E-002	1.505620E-002
7.000000E+008	7.448089E-002	-3.186980E-002	3.521865E-001	-9.778553E-002	3.524633E-001	-9.781906E-002	-8.552072E-002	1.537953E-002
7.100000E+008	7.418290E-002	-3.224285E-002	3.517409E-001	-9.902400E-002	3.520047E-001	-9.910629E-002	-8.549953E-002	1.569454E-002
7.200000E+008	7.387744E-002	-3.255990E-002	3.512900E-001	-1.002667E-001	3.515449E-001	-1.003636E-001	-8.546252E-002	1.596856E-002
7.300000E+008	7.354802E-002	-3.291339E-002	3.507931E-001	-1.015421E-001	3.510817E-001	-1.016434E-001	-8.545518E-002	1.621648E-002
7.400000E+008	7.323262E-002	-3.325069E-002	3.503066E-001	-1.028032E-001	3.506184E-001	-1.028801E-001	-8.544314E-002	1.647745E-002
7.500000E+008	7.295461E-002	-3.358947E-002	3.498374E-001	-1.040461E-001	3.501345E-001	-1.041549E-001	-8.540359E-002	1.669797E-002
7.600000E+008	7.263885E-002	-3.394520E-002	3.493509E-001	-1.053004E-001	3.496654E-001	-1.054070E-001	-8.536212E-002	1.695274E-002
7.700000E+008	7.232248E-002	-3.430525E-002	3.488791E-001	-1.065462E-001	3.491627E-001	-1.066481E-001	-8.529702E-002	1.715258E-002
7.800000E+008	7.199758E-002	-3.464909E-002	3.483928E-001	-1.077861E-001	3.487112E-001	-1.078885E-001	-8.525206E-002	1.736912E-002
7.900000E+008	7.169408E-002	-3.503821E-002	3.479066E-001	-1.090413E-001	3.482272E-001	-1.091614E-001	-8.518700E-002	1.764560E-002
8.000000E+008	7.137580E-002	-3.539906E-002	3.474028E-001	-1.102760E-001	3.476633E-001	-1.103856E-001	-8.509746E-002	1.791653E-002
8.100000E+008	7.107996E-002	-3.579382E-002	3.468832E-001	-1.114846E-001	3.471556E-001	-1.116202E-001	-8.496245E-002	1.820057E-002
8.200000E+008	7.083748E-002	-3.611992E-002	3.464055E-001	-1.127442E-001	3.466394E-001	-1.128203E-001	-8.486530E-002	1.846773E-002
8.300000E+008	7.061582E-002	-3.647297E-002	3.458712E-001	-1.139535E-001	3.461791E-001	-1.140629E-001	-8.478559E-002	1.876660E-002
8.400000E+008	7.038243E-002	-3.680973E-002	3.453556E-001	-1.151681E-001	3.456474E-001	-1.152885E-001	-8.468060E-002	1.903473E-002
8.500000E+008	7.015447E-002	-3.710933E-002	3.448712E-001	-1.163966E-001	3.451531E-001	-1.165246E-001	-8.466090E-002	1.933377E-002
8.600000E+008	6.989300E-002	-3.739918E-002	3.443417E-001	-1.175967E-001	3.445866E-001	-1.177357E-001	-8.459999E-002	1.964335E-002
8.700000E+008	6.965153E-002	-3.764473E-002	3.438387E-001	-1.188389E-001	3.440832E-001	-1.189323E-001	-8.453775E-002	1.991704E-002
8.800000E+008	6.936505E-002	-3.790125E-002	3.433008E-001	-1.200718E-001	3.435896E-001	-1.201531E-001	-8.451180E-002	2.020787E-002
8.900000E+008	6.903847E-002	-3.816905E-002	3.427751E-001	-1.212835E-001	3.430492E-001	-1.213826E-001	-8.447468E-002	2.046614E-002
9.000000E+008	6.873511E-002	-3.842897E-002	3.421822E-001	-1.224699E-001	3.425415E-001	-1.225918E-001	-8.438433E-002	2.074763E-002
9.100000E+008	6.838927E-002	-3.869974E-002	3.416711E-001	-1.236858E-001	3.420148E-001	-1.238124E-001	-8.426831E-002	2.099850E-002
9.200000E+008	6.806318E-002	-3.900233E-002	3.411274E-001	-1.248739E-001	3.414836E-001	-1.250251E-001	-8.411694E-002	2.124898E-002
9.300000E+008	6.776678E-002	-3.929674E-002	3.405933E-001	-1.260986E-001	3.408797E-001	-1.262473E-001	-8.396277E-002	2.152090E-002
9.400000E+008	6.747651E-002	-3.958722E-002	3.400474E-001	-1.272826E-001	3.403828E-001	-1.274174E-001	-8.376736E-002	2.183118E-002
9.500000E+008	6.718411E-002	-3.989337E-002	3.395232E-001	-1.284936E-001	3.398064E-001	-1.286461E-001	-8.355733E-002	2.217933E-002
9.600000E+008	6.689841E-002	-4.015263E-002	3.389421E-001	-1.296847E-001	3.392582E-001	-1.298386E-001	-8.334305E-002	2.252158E-002
9.700000E+008	6.667079E-002	-4.040762E-002	3.383717E-001	-1.308461E-001	3.387017E-001	-1.310065E-001	-8.315116E-002	2.287876E-002
9.800000E+008	6.641580E-002	-4.064918E-002	3.378453E-001	-1.320186E-001	3.381500E-001	-1.322060E-001	-8.297897E-002	2.324880E-002
9.900000E+008	6.617363E-002	-4.089217E-002	3.373149E-001	-1.332216E-001	3.376037E-001	-1.334201E-001	-8.284806E-002	2.359581E-002
1.000000E+009	6.592351E-002	-4.110372E-002	3.367595E-001	-1.344093E-001	3.370043E-001	-1.345950E-001	-8.276050E-002	2.396799E-002
1.010000E+009	6.559952E-002	-4.127361E-002	3.361985E-001	-1.355914E-001	3.364562E-001	-1.357554E-001	-8.264542E-002	2.438048E-002
1.020000E+009	6.529225E-002	-4.147394E-002	3.356205E-001	-1.367968E-001	3.358802E-001	-1.369614E-001	-8.256815E-002	2.478484E-002
1.030000E+009	6.501190E-002	-4.163794E-002	3.350040E-001	-1.379645E-001	3.352970E-001	-1.381283E-001	-8.248025E-002	2.516256E-002
1.040000E+009	6.469541E-002	-4.183940E-002	3.344231E-001	-1.391117E-001	3.347204E-001	-1.392758E-001	-8.238312E-002	2.552580E-002
1.050000E+009	6.436388E-002	-4.208197E-002	3.338800E-001	-1.402878E-001	3.341358E-001	-1.404488E-001	-8.226657E-002	2.590188E-002
1.060000E+009	6.406285E-002	-4.229655E-002	3.332641E-001	-1.414595E-001	3.335529E-001	-1.415978E-001	-8.213687E-002	2.627453E-002
1.070000E+009	6.373052E-002	-4.253802E-002	3.326745E-001	-1.425989E-001	3.329827E-001	-1.427489E-001	-8.200130E-002	2.661702E-002
1.080000E+009	6.345057E-002	-4.277072E-002	3.320847E-001	-1.438215E-001	3.324079E-001	-1.439326E-001	-8.186885E-002	2.699928E-002
1.090000E+009	6.315021E-002	-4.296729E-002	3.314791E-001	-1.449761E-001	3.318154E-001	-1.450797E-001	-8.172294E-002	2.736518E-002
1.100000E+009	6.288511E-002	-4.318468E-002	3.308213E-001	-1.461331E-001	3.312041E-001	-1.462442E-001	-8.160671E-002	2.775041E-002
1.110000E+009	6.259830E-002	-4.338085E-002	3.302612E-001	-1.472905E-001	3.306237E-001	-1.474079E-001	-8.150447E-002	2.809613E-002
1.120000E+009	6.231766E-002	-4.357405E-002	3.296657E-001	-1.484330E-001	3.299846E-001	-1.485987E-001	-8.143522E-002	2.845778E-002
1.130000E+009	6.200693E-002	-4.379604E-002	3.290527E-001	-1.495967E-001	3.293640E-001	-1.497230E-001	-8.136979E-002	2.880610E-002
1.140000E+009	6.167128E-002	-4.396047E-002	3.284267E-001	-1.507532E-001	3.287536E-001	-1.509005E-001	-8.127288E-002	2.919972E-002
1.150000E+009	6.135275E-002	-4.416522E-002	3.278038E-001	-1.519049E-001	3.281030E-001	-1.520241E-001	-8.116192E-002	2.957731E-002
1.160000E+009	6.105212E-002	-4.434980E-002	3.271852E-001	-1.530587E-001	3.275207E-001	-1.532170E-001	-8.106083E-002	2.992321E-002
1.170000E+009	6.071702E-002	-4.455737E-002	3.265416E-001	-1.542077E-001	3.268753E-001	-1.543262E-001	-8.090964E-002	3.031088E-002
1.180000E+009	6.043128E-002	-4.477362E-002	3.258811E-001	-1.553375E-001	3.262349E-001	-1.554866E-001	-8.076337E-002	3.066471E-002
1.190000E+009	6.010953E-002	-4.498289E-002	3.252590E-001	-1.564813E-001	3.255437E-001	-1.566379E-001	-8.062621E-002	3.107054E-002
1.200000E+009	5.980377E-002	-4.517938E-002	3.246259E-001	-1.576327E-001	3.249332E-001	-1.577454E-001	-8.045620E-002	3.146783E-002
1.210000E+009	5.952638E-002	-4.541759E-002	3.239583E-001	-1.587749E-001	3.242522E-001	-1.588986E-001	-8.034253E-002	3.187198E-002
1.220000E+009	5.922380E-002	-4.562675E-002	3.233029E-001	-1.598768E-001	3.236254E-001	-1.600181E-001	-8.023166E-002	3.227778E-002
1.230000E+009	5.895343E-002	-4.581769E-002	3.226527E-001	-1.610354E-001	3.229564E-001	-1.611532E-001	-8.014481E-002	3.264520E-002
1.240000E+009	5.867095E-002	-4.604989E-002	3.219965E-001	-1.621411E-001	3.222807E-001	-1.622764E-001	-8.006182E-002	3.302302E-002
1.250000E+009	5.836741E-002	-4.625812E-002	3.213268E-001	-1.632632E-001	3.216797E-001	-1.633853E-001	-7.997128E-002	3.338095E-002
1.260000E+009	5.806022E-002	-4.645165E-002	3.206541E-001	-1.643908E-001	3.209766E-001	-1.645688E-001	-7.987064E-002	3.369629E-002
1.270000E+009	5.781102E-002	-4.664995E-002	3.200103E-001	-1.655220E-001	3.202966E-001	-1.656404E-001	-7.974564E-002	3.403738E-002
1.280000E+009	5.751833E-002	-4.681994E-002	3.193489E-001	-1.666210E-001	3.196457E-001	-1.667638E-001	-7.961951E-002	3.433425E-002
1.290000E+009	5.723317E-002	-4.696052E-002	3.186530E-001	-1.677843E-001	3.189628E-001	-1.678827E-001	-7.941591E-002	3.463295E-002
1.300000E+009	5.696843E-002	-4.710076E-002	3.179337E-001	-1.688690E-001	3.182907E-001	-1.689981E-001	-7.919600E-002	3.498616E-002
1.310000E+009	5.669165E-002	-4.725030E-002	3.172447E-001	-1.699790E-001	3.175918E-001	-1.701250E-001	-7.899666E-002	3.532376E-002
1.320000E+009	5.637689E-002	-4.738049E-002	3.165546E-001	-1.711083E-001	3.169032E-001	-1.712453E-001	-7.872507E-002	3.574728E-002
1.330000E+009	5.609519E-002	-4.747347E-002	3.158777E-001	-1.722028E-001	3.162001E-001	-1.723685E-001	-7.843883E-002	3.621147E-002
1.340000E+009	5.580529E-002	-4.757386E-002	3.151643E-001	-1.732752E-001	3.154783E-001	-1.734471E-001	-7.818521E-002	3.670179E-002
1.350000E+009	5.548989E-002	-4.768656E-002	3.144680E-001	-1.744065E-001	3.147447E-001	-1.745592E-001	-7.795196E-002	3.720902E-002
1.360000E+009	5.522478E-002	-4.779454E-002	3.137194E-001	-1.754749E-001	3.140829E-001	-1.756451E-001	-7.771421E-002	3.775936E-002
1.370000E+009	5.491408E-002	-4.790697E-002	3.130354E-001	-1.765844E-001	3.133532E-001	-1.767319E-001	-7.754461E-002	3.829604E-002
1.380000E+009	5.461370E-002	-4.803355E-002	3.122990E-001	-1.776608E-001	3.126193E-001	-1.778322E-001	-7.738008E-002	3.880733E-002
1.390000E+009	5.434339E-002	-4.816815E-002	3.115917E-001	-1.787819E-001	3.118937E-001	-1.789233E-001	-7.726416E-002	3.937624E-002
1.400000E+009	5.402072E-002	-4.830909E-002	3.108484E-001	-1.798448E-001	3.111476E-001	-1.799584E-001	-7.713261E-002	3.988040E-002
1.410000E+009	5.367295E-002	-4.840016E-002	3.101260E-001	-1.809051E-001	3.104163E-001	-1.810490E-001	-7.701129E-002	4.037780E-002
1.420000E+009	5.339842E-002	-4.852038E-002	3.093537E-001	-1.819775E-001	3.097057E-001	-1.821162E-001	-7.686759E-002	4.086257E-002
1.430000E+009	5.313143E-002	-4.863585E-002	3.086242E-001	-1.830401E-001	3.089729E-001	-1.832236E-001	-7.670090E-002	4.131903E-002
1.440000E+009	5.280291E-002	-4.871881E-002	3.078807E-001	-1.841088E-001	3.082163E-001	-1.842606E-001	-7.654499E-002	4.177619E-002
1.450000E+009	5.249459E-002	-4.882847E-002	3.071032E-001	-1.851651E-001	3.074496E-001	-1.853410E-001	-7.636042E-002	4.224211E-002
1.460000E+009	5.214969E-002	-4.890745E-002	3.063413E-001	-1.862475E-001	3.066642E-001	-1.864100E-001	-7.618228E-002	4.274701E-002
1.470000E+009	5.185833E-002	-4.903827E-002	3.055899E-001	-1.873127E-001	3.059255E-001	-1.874501E-001	-7.598917E-002	4.326243E-002
1.480000E+009	5.153797E-002	-4.908873E-002	3.048226E-001	-1.883394E-001	3.051465E-001	-1.885035E-001	-7.579383E-002	4.382378E-002
1.490000E+009	5.123275E-002	-4.918694E-002	3.040763E-001	-1.893828E-001	3.043858E-001	-1.895151E-001	-7.558799E-002	4.438029E-002
1.500000E+009	5.093508E-002	-4.928924E-002	3.033064E-001	-1.904416E-001	3.036326E-001	-1.905688E-001	-7.534546E-002	4.490963E-002
