! Device ID: PE43711P
! File Path: z:\PE43711P\CHAR_NOM_04282014\AMB\3p300\LS_ATT_31p75dB\PE43711P_AMB_3p300V_3p000V_0p000V_LS_ATT_31p75dB_S2P_SN_5_A0137A.s2p
! Serial: 5
! Lot: A0137A
! Temp: 25C
! VDD: 3.300
! VSS: 0.000
! Control_Hi: 3.000
! Control_Lo: 0.000
! Attenuation Step: 31.75dB
! Port 1: RF1
! Port 2: RF2
! ThroughPath:1-2
! IDD: 0.0001281399
! ISS: -6.97e-008
!

#  Hz  S   RI  R   50

1.000000E+007	1.961876E-002	5.431541E-004	2.226985E-002	-9.372234E-005	2.230308E-002	-6.236969E-005	-1.071707E-001	8.806088E-004
2.000000E+007	1.985819E-002	7.403243E-004	2.228144E-002	-1.257775E-004	2.229955E-002	-1.269999E-004	-1.069305E-001	1.432047E-003
3.000000E+007	2.012743E-002	9.259705E-004	2.228226E-002	-1.794679E-004	2.229169E-002	-1.872910E-004	-1.066221E-001	1.893535E-003
4.000000E+007	2.030640E-002	1.123878E-003	2.227716E-002	-2.387765E-004	2.229647E-002	-2.486448E-004	-1.064353E-001	2.408610E-003
5.000000E+007	2.041653E-002	1.296967E-003	2.228041E-002	-3.255469E-004	2.230487E-002	-3.107615E-004	-1.064029E-001	2.942021E-003
6.000000E+007	2.057823E-002	1.402890E-003	2.226698E-002	-3.871978E-004	2.230796E-002	-3.772691E-004	-1.062597E-001	3.362525E-003
7.000000E+007	2.070940E-002	1.503566E-003	2.226585E-002	-4.431408E-004	2.228910E-002	-4.336146E-004	-1.060790E-001	3.776519E-003
8.000000E+007	2.087076E-002	1.606374E-003	2.227072E-002	-4.989093E-004	2.228934E-002	-4.879151E-004	-1.059292E-001	4.165845E-003
9.000000E+007	2.099121E-002	1.704775E-003	2.227813E-002	-5.576679E-004	2.229818E-002	-5.503619E-004	-1.058146E-001	4.516467E-003
1.000000E+008	2.115838E-002	1.800958E-003	2.227827E-002	-6.249033E-004	2.228560E-002	-6.051171E-004	-1.057418E-001	4.879937E-003
1.100000E+008	2.130423E-002	1.891744E-003	2.226059E-002	-6.861190E-004	2.228889E-002	-6.787600E-004	-1.056405E-001	5.211262E-003
1.200000E+008	2.145937E-002	1.930426E-003	2.225689E-002	-7.530293E-004	2.227673E-002	-7.462429E-004	-1.055318E-001	5.488504E-003
1.300000E+008	2.158728E-002	2.025521E-003	2.224832E-002	-8.048984E-004	2.226546E-002	-7.985963E-004	-1.054150E-001	5.798739E-003
1.400000E+008	2.169225E-002	2.152158E-003	2.225148E-002	-8.605332E-004	2.226611E-002	-8.691010E-004	-1.053106E-001	6.097402E-003
1.500000E+008	2.176561E-002	2.259078E-003	2.224022E-002	-9.206784E-004	2.225681E-002	-9.132403E-004	-1.052051E-001	6.384102E-003
1.600000E+008	2.184183E-002	2.392375E-003	2.223615E-002	-9.763805E-004	2.225383E-002	-9.856520E-004	-1.051321E-001	6.678828E-003
1.700000E+008	2.195150E-002	2.497219E-003	2.223256E-002	-1.048691E-003	2.226006E-002	-1.032887E-003	-1.050390E-001	6.996401E-003
1.800000E+008	2.202350E-002	2.594372E-003	2.223440E-002	-1.115356E-003	2.225650E-002	-1.110062E-003	-1.049336E-001	7.294440E-003
1.900000E+008	2.203489E-002	2.668049E-003	2.221374E-002	-1.167034E-003	2.224278E-002	-1.161654E-003	-1.048776E-001	7.501125E-003
2.000000E+008	2.202979E-002	2.715464E-003	2.221560E-002	-1.237319E-003	2.224377E-002	-1.224047E-003	-1.048134E-001	7.724621E-003
2.100000E+008	2.202365E-002	2.700722E-003	2.220294E-002	-1.278133E-003	2.223010E-002	-1.287307E-003	-1.047344E-001	7.875482E-003
2.200000E+008	2.205100E-002	2.725561E-003	2.220650E-002	-1.337470E-003	2.222360E-002	-1.336425E-003	-1.046177E-001	8.028016E-003
2.300000E+008	2.209256E-002	2.729480E-003	2.219481E-002	-1.402539E-003	2.221202E-002	-1.399151E-003	-1.044618E-001	8.201142E-003
2.400000E+008	2.215249E-002	2.736598E-003	2.219119E-002	-1.465842E-003	2.219871E-002	-1.465735E-003	-1.043056E-001	8.416546E-003
2.500000E+008	2.222741E-002	2.738887E-003	2.218054E-002	-1.531608E-003	2.219997E-002	-1.526537E-003	-1.040862E-001	8.603004E-003
2.600000E+008	2.233315E-002	2.781219E-003	2.217650E-002	-1.586593E-003	2.218738E-002	-1.585324E-003	-1.038589E-001	8.872661E-003
2.700000E+008	2.245328E-002	2.808839E-003	2.216310E-002	-1.650648E-003	2.217771E-002	-1.642959E-003	-1.036189E-001	9.164254E-003
2.800000E+008	2.257105E-002	2.860332E-003	2.215101E-002	-1.710844E-003	2.217935E-002	-1.695635E-003	-1.034048E-001	9.439288E-003
2.900000E+008	2.263408E-002	2.924430E-003	2.215348E-002	-1.763974E-003	2.217197E-002	-1.758195E-003	-1.032519E-001	9.730158E-003
3.000000E+008	2.270593E-002	3.031381E-003	2.214569E-002	-1.826167E-003	2.215986E-002	-1.816787E-003	-1.031038E-001	1.006507E-002
3.100000E+008	2.275347E-002	3.131249E-003	2.212192E-002	-1.888222E-003	2.215620E-002	-1.879011E-003	-1.029761E-001	1.037686E-002
3.200000E+008	2.279499E-002	3.261042E-003	2.212826E-002	-1.952450E-003	2.214049E-002	-1.935406E-003	-1.028769E-001	1.070015E-002
3.300000E+008	2.279421E-002	3.368451E-003	2.212457E-002	-2.001697E-003	2.213599E-002	-2.002294E-003	-1.027819E-001	1.097930E-002
3.400000E+008	2.276052E-002	3.450958E-003	2.209776E-002	-2.059734E-003	2.211264E-002	-2.065863E-003	-1.026250E-001	1.122202E-002
3.500000E+008	2.275321E-002	3.502940E-003	2.209706E-002	-2.126382E-003	2.211354E-002	-2.108461E-003	-1.024805E-001	1.142324E-002
3.600000E+008	2.271017E-002	3.568359E-003	2.209133E-002	-2.179010E-003	2.209104E-002	-2.172282E-003	-1.023129E-001	1.166052E-002
3.700000E+008	2.270335E-002	3.604615E-003	2.206884E-002	-2.234515E-003	2.208481E-002	-2.213677E-003	-1.020909E-001	1.186467E-002
3.800000E+008	2.269086E-002	3.625665E-003	2.205537E-002	-2.295374E-003	2.208283E-002	-2.279830E-003	-1.018909E-001	1.208819E-002
3.900000E+008	2.266394E-002	3.633876E-003	2.204713E-002	-2.363359E-003	2.207339E-002	-2.338810E-003	-1.016078E-001	1.239797E-002
4.000000E+008	2.270893E-002	3.629158E-003	2.203084E-002	-2.410618E-003	2.205356E-002	-2.398876E-003	-1.012976E-001	1.265594E-002
4.100000E+008	2.272492E-002	3.625279E-003	2.202899E-002	-2.465672E-003	2.204504E-002	-2.464324E-003	-1.009952E-001	1.294050E-002
4.200000E+008	2.275084E-002	3.626674E-003	2.202551E-002	-2.525352E-003	2.203619E-002	-2.519578E-003	-1.007735E-001	1.328512E-002
4.300000E+008	2.278057E-002	3.657290E-003	2.201921E-002	-2.575123E-003	2.203687E-002	-2.567247E-003	-1.005684E-001	1.363794E-002
4.400000E+008	2.281482E-002	3.697140E-003	2.199941E-002	-2.631983E-003	2.201896E-002	-2.628073E-003	-1.003643E-001	1.403077E-002
4.500000E+008	2.287114E-002	3.725375E-003	2.198546E-002	-2.687810E-003	2.200025E-002	-2.677768E-003	-1.001706E-001	1.442299E-002
4.600000E+008	2.291757E-002	3.746604E-003	2.196436E-002	-2.737717E-003	2.198601E-002	-2.745719E-003	-9.996680E-002	1.483766E-002
4.700000E+008	2.296376E-002	3.813359E-003	2.195871E-002	-2.815028E-003	2.197210E-002	-2.811467E-003	-9.978264E-002	1.518412E-002
4.800000E+008	2.297095E-002	3.884504E-003	2.195715E-002	-2.847450E-003	2.196014E-002	-2.862277E-003	-9.962739E-002	1.554713E-002
4.900000E+008	2.297014E-002	3.945750E-003	2.194759E-002	-2.908377E-003	2.195675E-002	-2.917465E-003	-9.947551E-002	1.588705E-002
5.000000E+008	2.297847E-002	4.010946E-003	2.191771E-002	-2.964536E-003	2.194153E-002	-2.966911E-003	-9.931039E-002	1.621808E-002
5.100000E+008	2.299358E-002	4.082069E-003	2.191880E-002	-3.036249E-003	2.193025E-002	-3.030071E-003	-9.911818E-002	1.655926E-002
5.200000E+008	2.296807E-002	4.118257E-003	2.190061E-002	-3.086209E-003	2.192222E-002	-3.085938E-003	-9.893919E-002	1.688922E-002
5.300000E+008	2.295856E-002	4.138377E-003	2.187326E-002	-3.155820E-003	2.190428E-002	-3.145690E-003	-9.870261E-002	1.721170E-002
5.400000E+008	2.292954E-002	4.121263E-003	2.187915E-002	-3.204394E-003	2.189482E-002	-3.195705E-003	-9.847895E-002	1.754018E-002
5.500000E+008	2.290932E-002	4.139524E-003	2.187725E-002	-3.246869E-003	2.186961E-002	-3.244831E-003	-9.827398E-002	1.788519E-002
5.600000E+008	2.290317E-002	4.095825E-003	2.184889E-002	-3.320277E-003	2.186387E-002	-3.304843E-003	-9.803871E-002	1.823644E-002
5.700000E+008	2.292830E-002	4.069220E-003	2.184243E-002	-3.374037E-003	2.185317E-002	-3.361787E-003	-9.788219E-002	1.862844E-002
5.800000E+008	2.293875E-002	4.048878E-003	2.183222E-002	-3.420396E-003	2.184100E-002	-3.405542E-003	-9.768529E-002	1.902975E-002
5.900000E+008	2.297490E-002	4.008031E-003	2.182089E-002	-3.483540E-003	2.183039E-002	-3.469953E-003	-9.747530E-002	1.945705E-002
6.000000E+008	2.306636E-002	3.997881E-003	2.180646E-002	-3.545872E-003	2.182374E-002	-3.528639E-003	-9.728225E-002	1.982583E-002
6.100000E+008	2.315737E-002	3.995464E-003	2.177971E-002	-3.581386E-003	2.178808E-002	-3.590448E-003	-9.709798E-002	2.021299E-002
6.200000E+008	2.323563E-002	4.032809E-003	2.175769E-002	-3.654485E-003	2.177896E-002	-3.654485E-003	-9.691083E-002	2.059960E-002
6.300000E+008	2.332479E-002	4.075606E-003	2.174757E-002	-3.695975E-003	2.177055E-002	-3.690346E-003	-9.675651E-002	2.097207E-002
6.400000E+008	2.341487E-002	4.129621E-003	2.173583E-002	-3.760271E-003	2.174591E-002	-3.745752E-003	-9.655811E-002	2.133912E-002
6.500000E+008	2.350625E-002	4.190546E-003	2.170231E-002	-3.802791E-003	2.174660E-002	-3.805055E-003	-9.638615E-002	2.172986E-002
6.600000E+008	2.354812E-002	4.238223E-003	2.170501E-002	-3.871740E-003	2.172803E-002	-3.859350E-003	-9.619166E-002	2.209305E-002
6.700000E+008	2.355928E-002	4.326730E-003	2.169911E-002	-3.910194E-003	2.169407E-002	-3.915874E-003	-9.602290E-002	2.248107E-002
6.800000E+008	2.357739E-002	4.387175E-003	2.167930E-002	-3.965486E-003	2.169923E-002	-3.969750E-003	-9.583000E-002	2.288755E-002
6.900000E+008	2.358993E-002	4.454557E-003	2.167378E-002	-4.026644E-003	2.167631E-002	-4.028201E-003	-9.564452E-002	2.331939E-002
7.000000E+008	2.360781E-002	4.531547E-003	2.165078E-002	-4.075269E-003	2.165907E-002	-4.088765E-003	-9.550843E-002	2.371787E-002
7.100000E+008	2.359830E-002	4.579908E-003	2.162817E-002	-4.128028E-003	2.164216E-002	-4.134981E-003	-9.538128E-002	2.410023E-002
7.200000E+008	2.359001E-002	4.625551E-003	2.160578E-002	-4.191639E-003	2.163739E-002	-4.186722E-003	-9.525050E-002	2.450090E-002
7.300000E+008	2.359719E-002	4.649022E-003	2.160976E-002	-4.244308E-003	2.162218E-002	-4.238545E-003	-9.512510E-002	2.486950E-002
7.400000E+008	2.359365E-002	4.678366E-003	2.158519E-002	-4.287543E-003	2.159945E-002	-4.296730E-003	-9.502207E-002	2.520231E-002
7.500000E+008	2.358343E-002	4.698807E-003	2.157541E-002	-4.348092E-003	2.158071E-002	-4.353717E-003	-9.490769E-002	2.552886E-002
7.600000E+008	2.359564E-002	4.697047E-003	2.155469E-002	-4.397050E-003	2.157955E-002	-4.414830E-003	-9.478072E-002	2.586232E-002
7.700000E+008	2.359606E-002	4.691163E-003	2.153077E-002	-4.459290E-003	2.155859E-002	-4.446878E-003	-9.463545E-002	2.615120E-002
7.800000E+008	2.362917E-002	4.701030E-003	2.151346E-002	-4.516860E-003	2.154421E-002	-4.501804E-003	-9.445226E-002	2.641578E-002
7.900000E+008	2.364349E-002	4.651577E-003	2.150377E-002	-4.569387E-003	2.152694E-002	-4.558616E-003	-9.428202E-002	2.673060E-002
8.000000E+008	2.368516E-002	4.632636E-003	2.150152E-002	-4.625533E-003	2.150779E-002	-4.626057E-003	-9.404674E-002	2.707099E-002
8.100000E+008	2.373001E-002	4.609295E-003	2.146662E-002	-4.666471E-003	2.148838E-002	-4.668201E-003	-9.380136E-002	2.742141E-002
8.200000E+008	2.382154E-002	4.613884E-003	2.146653E-002	-4.715976E-003	2.146415E-002	-4.724942E-003	-9.355943E-002	2.774797E-002
8.300000E+008	2.391666E-002	4.602886E-003	2.143035E-002	-4.770074E-003	2.145327E-002	-4.770926E-003	-9.336560E-002	2.812161E-002
8.400000E+008	2.401338E-002	4.619733E-003	2.141751E-002	-4.812317E-003	2.144495E-002	-4.829630E-003	-9.315374E-002	2.848081E-002
8.500000E+008	2.409433E-002	4.662545E-003	2.140303E-002	-4.871729E-003	2.142067E-002	-4.875630E-003	-9.299831E-002	2.884793E-002
8.600000E+008	2.415511E-002	4.712260E-003	2.139314E-002	-4.939360E-003	2.140523E-002	-4.931038E-003	-9.284133E-002	2.920433E-002
8.700000E+008	2.422796E-002	4.781385E-003	2.138268E-002	-4.982430E-003	2.138665E-002	-4.984070E-003	-9.268857E-002	2.953880E-002
8.800000E+008	2.430431E-002	4.851708E-003	2.136314E-002	-5.024145E-003	2.135453E-002	-5.043987E-003	-9.253702E-002	2.987020E-002
8.900000E+008	2.431591E-002	4.916834E-003	2.133279E-002	-5.088291E-003	2.135313E-002	-5.079641E-003	-9.237708E-002	3.016433E-002
9.000000E+008	2.435349E-002	4.964362E-003	2.130781E-002	-5.144478E-003	2.134560E-002	-5.147220E-003	-9.220144E-002	3.047031E-002
9.100000E+008	2.435311E-002	5.009368E-003	2.130078E-002	-5.187644E-003	2.131460E-002	-5.200791E-003	-9.197407E-002	3.075219E-002
9.200000E+008	2.436743E-002	5.021100E-003	2.128491E-002	-5.242998E-003	2.128892E-002	-5.245871E-003	-9.171139E-002	3.107196E-002
9.300000E+008	2.443122E-002	5.008885E-003	2.126464E-002	-5.305056E-003	2.128990E-002	-5.293519E-003	-9.142616E-002	3.138900E-002
9.400000E+008	2.448771E-002	5.039136E-003	2.123460E-002	-5.349093E-003	2.126086E-002	-5.343106E-003	-9.112310E-002	3.174087E-002
9.500000E+008	2.455735E-002	5.031325E-003	2.122715E-002	-5.413258E-003	2.124842E-002	-5.397670E-003	-9.080826E-002	3.214125E-002
9.600000E+008	2.461365E-002	5.067384E-003	2.120331E-002	-5.460205E-003	2.122129E-002	-5.458299E-003	-9.047351E-002	3.253261E-002
9.700000E+008	2.470028E-002	5.109112E-003	2.118855E-002	-5.490684E-003	2.121083E-002	-5.507925E-003	-9.019407E-002	3.292856E-002
9.800000E+008	2.476994E-002	5.180842E-003	2.118051E-002	-5.547789E-003	2.120189E-002	-5.567048E-003	-8.994223E-002	3.336994E-002
9.900000E+008	2.486138E-002	5.231007E-003	2.115297E-002	-5.607225E-003	2.116768E-002	-5.614366E-003	-8.967929E-002	3.380231E-002
1.000000E+009	2.491943E-002	5.306413E-003	2.113401E-002	-5.656515E-003	2.115243E-002	-5.667776E-003	-8.948247E-002	3.419357E-002
1.010000E+009	2.497270E-002	5.387797E-003	2.112089E-002	-5.707516E-003	2.114300E-002	-5.706879E-003	-8.926836E-002	3.461264E-002
1.020000E+009	2.502085E-002	5.442744E-003	2.112032E-002	-5.770735E-003	2.112184E-002	-5.771349E-003	-8.906315E-002	3.500014E-002
1.030000E+009	2.506290E-002	5.529870E-003	2.108097E-002	-5.801243E-003	2.108997E-002	-5.811402E-003	-8.886149E-002	3.540875E-002
1.040000E+009	2.509770E-002	5.598461E-003	2.107008E-002	-5.870307E-003	2.108370E-002	-5.873706E-003	-8.864417E-002	3.580499E-002
1.050000E+009	2.513144E-002	5.648844E-003	2.106125E-002	-5.906806E-003	2.107362E-002	-5.910987E-003	-8.841273E-002	3.621591E-002
1.060000E+009	2.517102E-002	5.714913E-003	2.103591E-002	-5.954545E-003	2.104637E-002	-5.960561E-003	-8.816052E-002	3.661721E-002
1.070000E+009	2.520325E-002	5.762298E-003	2.101965E-002	-6.015656E-003	2.102808E-002	-6.018069E-003	-8.790783E-002	3.704196E-002
1.080000E+009	2.523228E-002	5.812311E-003	2.098574E-002	-6.060516E-003	2.100739E-002	-6.078132E-003	-8.765802E-002	3.746519E-002
1.090000E+009	2.528365E-002	5.851778E-003	2.096980E-002	-6.102889E-003	2.099382E-002	-6.120691E-003	-8.742251E-002	3.787741E-002
1.100000E+009	2.531211E-002	5.923111E-003	2.096845E-002	-6.174611E-003	2.098487E-002	-6.173079E-003	-8.722860E-002	3.829199E-002
1.110000E+009	2.536428E-002	5.979084E-003	2.093647E-002	-6.237375E-003	2.095970E-002	-6.221678E-003	-8.701554E-002	3.866737E-002
1.120000E+009	2.538177E-002	6.012491E-003	2.091492E-002	-6.281980E-003	2.091561E-002	-6.291860E-003	-8.684172E-002	3.906431E-002
1.130000E+009	2.543713E-002	6.068752E-003	2.089324E-002	-6.317192E-003	2.091056E-002	-6.335977E-003	-8.663486E-002	3.944302E-002
1.140000E+009	2.545405E-002	6.118261E-003	2.088516E-002	-6.395360E-003	2.088564E-002	-6.375695E-003	-8.642470E-002	3.982682E-002
1.150000E+009	2.551619E-002	6.168962E-003	2.085002E-002	-6.425340E-003	2.086850E-002	-6.438734E-003	-8.616290E-002	4.021090E-002
1.160000E+009	2.552597E-002	6.238232E-003	2.083300E-002	-6.472726E-003	2.085194E-002	-6.486872E-003	-8.594250E-002	4.057774E-002
1.170000E+009	2.558212E-002	6.282719E-003	2.081647E-002	-6.527597E-003	2.084531E-002	-6.534521E-003	-8.570176E-002	4.100949E-002
1.180000E+009	2.562117E-002	6.341690E-003	2.078885E-002	-6.578560E-003	2.080639E-002	-6.582675E-003	-8.540348E-002	4.141040E-002
1.190000E+009	2.562223E-002	6.392233E-003	2.078117E-002	-6.639472E-003	2.077183E-002	-6.651752E-003	-8.515337E-002	4.183584E-002
1.200000E+009	2.566641E-002	6.442289E-003	2.074006E-002	-6.689783E-003	2.078703E-002	-6.686635E-003	-8.489110E-002	4.228184E-002
1.210000E+009	2.572291E-002	6.439961E-003	2.073545E-002	-6.725473E-003	2.074443E-002	-6.732390E-003	-8.465857E-002	4.270792E-002
1.220000E+009	2.573206E-002	6.452036E-003	2.070310E-002	-6.784539E-003	2.073692E-002	-6.796463E-003	-8.446763E-002	4.314438E-002
1.230000E+009	2.577317E-002	6.479798E-003	2.069506E-002	-6.836665E-003	2.072139E-002	-6.849894E-003	-8.425566E-002	4.351454E-002
1.240000E+009	2.585058E-002	6.492498E-003	2.066907E-002	-6.880251E-003	2.068753E-002	-6.889845E-003	-8.405921E-002	4.388912E-002
1.250000E+009	2.593901E-002	6.501955E-003	2.064560E-002	-6.932090E-003	2.066434E-002	-6.932323E-003	-8.385345E-002	4.424518E-002
1.260000E+009	2.597820E-002	6.521128E-003	2.062879E-002	-6.992253E-003	2.064216E-002	-6.995902E-003	-8.362910E-002	4.457687E-002
1.270000E+009	2.613606E-002	6.550185E-003	2.059703E-002	-7.047119E-003	2.062366E-002	-7.041598E-003	-8.335013E-002	4.488815E-002
1.280000E+009	2.620178E-002	6.597477E-003	2.059591E-002	-7.082375E-003	2.061807E-002	-7.099491E-003	-8.309620E-002	4.524046E-002
1.290000E+009	2.629887E-002	6.654197E-003	2.056464E-002	-7.151869E-003	2.056575E-002	-7.129370E-003	-8.275378E-002	4.556423E-002
1.300000E+009	2.638014E-002	6.747901E-003	2.053304E-002	-7.186786E-003	2.054965E-002	-7.183220E-003	-8.243609E-002	4.592185E-002
1.310000E+009	2.644860E-002	6.822593E-003	2.051531E-002	-7.250347E-003	2.052469E-002	-7.252174E-003	-8.208864E-002	4.630034E-002
1.320000E+009	2.650643E-002	6.908905E-003	2.050408E-002	-7.293312E-003	2.049572E-002	-7.294329E-003	-8.171794E-002	4.671201E-002
1.330000E+009	2.657137E-002	6.979395E-003	2.046205E-002	-7.353400E-003	2.048044E-002	-7.361747E-003	-8.132810E-002	4.717424E-002
1.340000E+009	2.660701E-002	7.089276E-003	2.045977E-002	-7.378719E-003	2.047246E-002	-7.393999E-003	-8.097694E-002	4.765746E-002
1.350000E+009	2.663789E-002	7.128533E-003	2.043223E-002	-7.436886E-003	2.044450E-002	-7.431655E-003	-8.064032E-002	4.817476E-002
1.360000E+009	2.671028E-002	7.211487E-003	2.039408E-002	-7.494590E-003	2.042001E-002	-7.488548E-003	-8.027984E-002	4.866561E-002
1.370000E+009	2.677494E-002	7.303401E-003	2.037023E-002	-7.552037E-003	2.038420E-002	-7.546373E-003	-7.999365E-002	4.919405E-002
1.380000E+009	2.684720E-002	7.337614E-003	2.034693E-002	-7.588308E-003	2.037373E-002	-7.606891E-003	-7.967816E-002	4.972083E-002
1.390000E+009	2.691241E-002	7.416248E-003	2.032077E-002	-7.634109E-003	2.034678E-002	-7.640316E-003	-7.942021E-002	5.024058E-002
1.400000E+009	2.697101E-002	7.471613E-003	2.030584E-002	-7.685254E-003	2.031152E-002	-7.680187E-003	-7.916927E-002	5.073448E-002
1.410000E+009	2.703186E-002	7.558060E-003	2.027681E-002	-7.752694E-003	2.028921E-002	-7.745141E-003	-7.890389E-002	5.122593E-002
1.420000E+009	2.705701E-002	7.643611E-003	2.025052E-002	-7.790603E-003	2.026276E-002	-7.798726E-003	-7.866448E-002	5.171497E-002
1.430000E+009	2.712348E-002	7.732110E-003	2.021022E-002	-7.850110E-003	2.023430E-002	-7.841339E-003	-7.840618E-002	5.216101E-002
1.440000E+009	2.713939E-002	7.800295E-003	2.018792E-002	-7.882878E-003	2.022178E-002	-7.881419E-003	-7.816050E-002	5.260417E-002
1.450000E+009	2.716558E-002	7.871410E-003	2.018030E-002	-7.940932E-003	2.019010E-002	-7.951018E-003	-7.781797E-002	5.304249E-002
1.460000E+009	2.719765E-002	7.920234E-003	2.014784E-002	-7.999189E-003	2.016517E-002	-8.003953E-003	-7.754988E-002	5.349892E-002
1.470000E+009	2.725391E-002	7.971924E-003	2.012785E-002	-8.027797E-003	2.013022E-002	-8.047194E-003	-7.721350E-002	5.398059E-002
1.480000E+009	2.727788E-002	8.034577E-003	2.009000E-002	-8.086555E-003	2.010664E-002	-8.070591E-003	-7.687709E-002	5.447142E-002
1.490000E+009	2.733590E-002	8.084912E-003	2.005600E-002	-8.124655E-003	2.007050E-002	-8.133629E-003	-7.654321E-002	5.498526E-002
1.500000E+009	2.740221E-002	8.135428E-003	2.002248E-002	-8.178238E-003	2.006129E-002	-8.166323E-003	-7.619436E-002	5.549163E-002
1.510000E+009	2.748247E-002	8.183950E-003	2.000721E-002	-8.210859E-003	2.005242E-002	-8.228269E-003	-7.585661E-002	5.601113E-002
