! Device ID: PE43711P
! File Path: z:\PE43711P\CHAR_NOM_04282014\AMB\3p300\LS_ATT_17p75dB\PE43711P_AMB_3p300V_3p000V_0p000V_LS_ATT_17p75dB_S2P_SN_5_A0137A.s2p
! Serial: 5
! Lot: A0137A
! Temp: 25C
! VDD: 3.300
! VSS: 0.000
! Control_Hi: 3.000
! Control_Lo: 0.000
! Attenuation Step: 17.75dB
! Port 1: RF1
! Port 2: RF2
! ThroughPath:1-2
! IDD: 0.0001273596
! ISS: -1.495e-007
!

#  Hz  S   RI  R   50

1.000000E+007	5.322241E-002	1.793984E-004	1.131237E-001	-4.915410E-004	1.132419E-001	-5.057814E-004	-1.354982E-001	9.683964E-004
2.000000E+007	5.344315E-002	1.453149E-004	1.131046E-001	-7.838338E-004	1.131660E-001	-8.145966E-004	-1.351848E-001	1.613865E-003
3.000000E+007	5.368978E-002	6.518310E-005	1.131070E-001	-1.197614E-003	1.131750E-001	-1.207807E-003	-1.348939E-001	2.167891E-003
4.000000E+007	5.385394E-002	-4.503293E-005	1.130972E-001	-1.588304E-003	1.131637E-001	-1.612326E-003	-1.347098E-001	2.774422E-003
5.000000E+007	5.394766E-002	-1.752154E-004	1.130789E-001	-2.036107E-003	1.131784E-001	-2.036556E-003	-1.346736E-001	3.408748E-003
6.000000E+007	5.410118E-002	-3.617357E-004	1.130554E-001	-2.432620E-003	1.131701E-001	-2.438738E-003	-1.345255E-001	3.908464E-003
7.000000E+007	5.421579E-002	-5.373508E-004	1.130424E-001	-2.818232E-003	1.131254E-001	-2.825942E-003	-1.343481E-001	4.384786E-003
8.000000E+007	5.433218E-002	-7.200392E-004	1.130181E-001	-3.198767E-003	1.131033E-001	-3.210313E-003	-1.341863E-001	4.870657E-003
9.000000E+007	5.444511E-002	-9.031238E-004	1.130031E-001	-3.593204E-003	1.130860E-001	-3.603782E-003	-1.340548E-001	5.292719E-003
1.000000E+008	5.454281E-002	-1.084978E-003	1.129829E-001	-3.986100E-003	1.130499E-001	-3.988408E-003	-1.340034E-001	5.751834E-003
1.100000E+008	5.465051E-002	-1.279541E-003	1.129440E-001	-4.412173E-003	1.130243E-001	-4.404404E-003	-1.339137E-001	6.172842E-003
1.200000E+008	5.476979E-002	-1.514600E-003	1.129016E-001	-4.797398E-003	1.130028E-001	-4.796758E-003	-1.338162E-001	6.549295E-003
1.300000E+008	5.486079E-002	-1.713565E-003	1.128685E-001	-5.183640E-003	1.129577E-001	-5.179933E-003	-1.337075E-001	6.930068E-003
1.400000E+008	5.490888E-002	-1.881940E-003	1.128373E-001	-5.569833E-003	1.129247E-001	-5.574978E-003	-1.335873E-001	7.319433E-003
1.500000E+008	5.490929E-002	-2.039189E-003	1.128055E-001	-5.943456E-003	1.128744E-001	-5.967532E-003	-1.334914E-001	7.699612E-003
1.600000E+008	5.493752E-002	-2.168911E-003	1.127812E-001	-6.324107E-003	1.128298E-001	-6.316973E-003	-1.334289E-001	8.071103E-003
1.700000E+008	5.499204E-002	-2.342185E-003	1.127456E-001	-6.741138E-003	1.128396E-001	-6.720036E-003	-1.333766E-001	8.458443E-003
1.800000E+008	5.499058E-002	-2.529914E-003	1.126688E-001	-7.162198E-003	1.128133E-001	-7.148159E-003	-1.332878E-001	8.850186E-003
1.900000E+008	5.492607E-002	-2.736890E-003	1.125987E-001	-7.531758E-003	1.127542E-001	-7.535873E-003	-1.332223E-001	9.156425E-003
2.000000E+008	5.486130E-002	-2.969540E-003	1.125490E-001	-7.896390E-003	1.126751E-001	-7.898751E-003	-1.331542E-001	9.454476E-003
2.100000E+008	5.480219E-002	-3.230684E-003	1.125137E-001	-8.263355E-003	1.126216E-001	-8.280195E-003	-1.330641E-001	9.713593E-003
2.200000E+008	5.473805E-002	-3.477090E-003	1.124761E-001	-8.637540E-003	1.125686E-001	-8.633046E-003	-1.329705E-001	9.953034E-003
2.300000E+008	5.471391E-002	-3.727017E-003	1.124404E-001	-9.017248E-003	1.125149E-001	-9.014590E-003	-1.328363E-001	1.021793E-002
2.400000E+008	5.469347E-002	-3.979125E-003	1.123862E-001	-9.392909E-003	1.124648E-001	-9.390427E-003	-1.326882E-001	1.051845E-002
2.500000E+008	5.468493E-002	-4.223675E-003	1.123295E-001	-9.781331E-003	1.124021E-001	-9.781311E-003	-1.324977E-001	1.080858E-002
2.600000E+008	5.470474E-002	-4.461956E-003	1.122442E-001	-1.017676E-002	1.123546E-001	-1.016894E-002	-1.322982E-001	1.115524E-002
2.700000E+008	5.471385E-002	-4.684494E-003	1.121871E-001	-1.055166E-002	1.122796E-001	-1.053605E-002	-1.320692E-001	1.153296E-002
2.800000E+008	5.475413E-002	-4.892465E-003	1.121185E-001	-1.090957E-002	1.122341E-001	-1.090184E-002	-1.318520E-001	1.188922E-002
2.900000E+008	5.474194E-002	-5.074074E-003	1.120808E-001	-1.126982E-002	1.121638E-001	-1.124649E-002	-1.317125E-001	1.226820E-002
3.000000E+008	5.473353E-002	-5.209322E-003	1.120294E-001	-1.165154E-002	1.121056E-001	-1.163860E-002	-1.315717E-001	1.267654E-002
3.100000E+008	5.468509E-002	-5.350125E-003	1.119594E-001	-1.203379E-002	1.120433E-001	-1.202188E-002	-1.314558E-001	1.310910E-002
3.200000E+008	5.464319E-002	-5.470615E-003	1.119007E-001	-1.241809E-002	1.119860E-001	-1.240066E-002	-1.313627E-001	1.353641E-002
3.300000E+008	5.456476E-002	-5.594997E-003	1.118322E-001	-1.278804E-002	1.119183E-001	-1.279745E-002	-1.312660E-001	1.393420E-002
3.400000E+008	5.442517E-002	-5.747006E-003	1.117608E-001	-1.315899E-002	1.118209E-001	-1.319356E-002	-1.311406E-001	1.427952E-002
3.500000E+008	5.428919E-002	-5.922525E-003	1.116869E-001	-1.354531E-002	1.117119E-001	-1.354004E-002	-1.310108E-001	1.458122E-002
3.600000E+008	5.415684E-002	-6.090417E-003	1.115962E-001	-1.391850E-002	1.116334E-001	-1.387169E-002	-1.308344E-001	1.491225E-002
3.700000E+008	5.403326E-002	-6.281719E-003	1.115244E-001	-1.427735E-002	1.115751E-001	-1.421030E-002	-1.306559E-001	1.519804E-002
3.800000E+008	5.394052E-002	-6.475189E-003	1.114466E-001	-1.464048E-002	1.115346E-001	-1.458993E-002	-1.304691E-001	1.555648E-002
3.900000E+008	5.381778E-002	-6.722571E-003	1.113446E-001	-1.501070E-002	1.114727E-001	-1.496731E-002	-1.301785E-001	1.593345E-002
4.000000E+008	5.374884E-002	-6.961821E-003	1.112595E-001	-1.535803E-002	1.113695E-001	-1.535415E-002	-1.298834E-001	1.629256E-002
4.100000E+008	5.366093E-002	-7.176770E-003	1.111756E-001	-1.568874E-002	1.112894E-001	-1.571111E-002	-1.296016E-001	1.667022E-002
4.200000E+008	5.357154E-002	-7.405487E-003	1.111396E-001	-1.604696E-002	1.112152E-001	-1.605156E-002	-1.293973E-001	1.710873E-002
4.300000E+008	5.351934E-002	-7.602702E-003	1.110660E-001	-1.641026E-002	1.111419E-001	-1.641029E-002	-1.291713E-001	1.758033E-002
4.400000E+008	5.344924E-002	-7.753257E-003	1.109899E-001	-1.678268E-002	1.110599E-001	-1.678372E-002	-1.289900E-001	1.808951E-002
4.500000E+008	5.338820E-002	-7.940067E-003	1.109004E-001	-1.714988E-002	1.110032E-001	-1.714202E-002	-1.288089E-001	1.861461E-002
4.600000E+008	5.333308E-002	-8.125883E-003	1.108116E-001	-1.752663E-002	1.108881E-001	-1.753069E-002	-1.286094E-001	1.912980E-002
4.700000E+008	5.324398E-002	-8.275645E-003	1.107186E-001	-1.786861E-002	1.107915E-001	-1.788445E-002	-1.284487E-001	1.960134E-002
4.800000E+008	5.314581E-002	-8.420616E-003	1.106333E-001	-1.821137E-002	1.107059E-001	-1.822507E-002	-1.283159E-001	2.006421E-002
4.900000E+008	5.301465E-002	-8.553334E-003	1.105560E-001	-1.857052E-002	1.106096E-001	-1.858812E-002	-1.281903E-001	2.051203E-002
5.000000E+008	5.291452E-002	-8.687334E-003	1.104672E-001	-1.894068E-002	1.105388E-001	-1.893436E-002	-1.280223E-001	2.095512E-002
5.100000E+008	5.282409E-002	-8.840527E-003	1.103784E-001	-1.927825E-002	1.104544E-001	-1.927427E-002	-1.278600E-001	2.140392E-002
5.200000E+008	5.269084E-002	-9.014996E-003	1.102823E-001	-1.964629E-002	1.103791E-001	-1.964596E-002	-1.276814E-001	2.182816E-002
5.300000E+008	5.256408E-002	-9.190890E-003	1.101971E-001	-1.999950E-002	1.102706E-001	-2.001676E-002	-1.274378E-001	2.226287E-002
5.400000E+008	5.241531E-002	-9.424137E-003	1.100925E-001	-2.035899E-002	1.101873E-001	-2.036584E-002	-1.271929E-001	2.269087E-002
5.500000E+008	5.227840E-002	-9.601823E-003	1.100008E-001	-2.071094E-002	1.100678E-001	-2.071551E-002	-1.269960E-001	2.315867E-002
5.600000E+008	5.217147E-002	-9.810642E-003	1.099012E-001	-2.105279E-002	1.099741E-001	-2.105987E-002	-1.267919E-001	2.363069E-002
5.700000E+008	5.205687E-002	-1.005045E-002	1.097973E-001	-2.138555E-002	1.098873E-001	-2.141064E-002	-1.266064E-001	2.415393E-002
5.800000E+008	5.196639E-002	-1.024044E-002	1.097038E-001	-2.174287E-002	1.097794E-001	-2.174868E-002	-1.264335E-001	2.467797E-002
5.900000E+008	5.189529E-002	-1.047592E-002	1.096065E-001	-2.211390E-002	1.097007E-001	-2.212694E-002	-1.262671E-001	2.522000E-002
6.000000E+008	5.184007E-002	-1.068891E-002	1.095051E-001	-2.245326E-002	1.096087E-001	-2.247808E-002	-1.260786E-001	2.569489E-002
6.100000E+008	5.179470E-002	-1.089118E-002	1.094030E-001	-2.281348E-002	1.094742E-001	-2.281952E-002	-1.259108E-001	2.620549E-002
6.200000E+008	5.176520E-002	-1.102714E-002	1.092997E-001	-2.315329E-002	1.093860E-001	-2.317039E-002	-1.257269E-001	2.668858E-002
6.300000E+008	5.173756E-002	-1.118109E-002	1.091862E-001	-2.349182E-002	1.092578E-001	-2.350640E-002	-1.255585E-001	2.717800E-002
6.400000E+008	5.171279E-002	-1.131500E-002	1.090820E-001	-2.382911E-002	1.091521E-001	-2.384406E-002	-1.253629E-001	2.763813E-002
6.500000E+008	5.168236E-002	-1.143907E-002	1.089844E-001	-2.416785E-002	1.090597E-001	-2.418282E-002	-1.251774E-001	2.815302E-002
6.600000E+008	5.161092E-002	-1.156848E-002	1.088888E-001	-2.451873E-002	1.089601E-001	-2.453943E-002	-1.249802E-001	2.864980E-002
6.700000E+008	5.151540E-002	-1.165029E-002	1.087826E-001	-2.486661E-002	1.088538E-001	-2.489297E-002	-1.248107E-001	2.915812E-002
6.800000E+008	5.137440E-002	-1.177036E-002	1.086704E-001	-2.520575E-002	1.087393E-001	-2.521252E-002	-1.246389E-001	2.971256E-002
6.900000E+008	5.126664E-002	-1.185753E-002	1.085528E-001	-2.555667E-002	1.086170E-001	-2.554965E-002	-1.244373E-001	3.025152E-002
7.000000E+008	5.115941E-002	-1.197107E-002	1.084400E-001	-2.588661E-002	1.085121E-001	-2.588854E-002	-1.243036E-001	3.079623E-002
7.100000E+008	5.103911E-002	-1.210665E-002	1.083442E-001	-2.620928E-002	1.084087E-001	-2.622558E-002	-1.241934E-001	3.129531E-002
7.200000E+008	5.091050E-002	-1.223085E-002	1.082175E-001	-2.653434E-002	1.083127E-001	-2.657328E-002	-1.240487E-001	3.178871E-002
7.300000E+008	5.078611E-002	-1.239313E-002	1.081110E-001	-2.688598E-002	1.081973E-001	-2.690769E-002	-1.239416E-001	3.225943E-002
7.400000E+008	5.064231E-002	-1.252913E-002	1.079779E-001	-2.722673E-002	1.080949E-001	-2.724651E-002	-1.238467E-001	3.273163E-002
7.500000E+008	5.053751E-002	-1.268803E-002	1.078711E-001	-2.755815E-002	1.079682E-001	-2.759294E-002	-1.237240E-001	3.316568E-002
7.600000E+008	5.041866E-002	-1.285757E-002	1.077721E-001	-2.790692E-002	1.078529E-001	-2.792798E-002	-1.235688E-001	3.360825E-002
7.700000E+008	5.029525E-002	-1.301596E-002	1.076473E-001	-2.822934E-002	1.077450E-001	-2.825639E-002	-1.234032E-001	3.400535E-002
7.800000E+008	5.020506E-002	-1.318724E-002	1.075429E-001	-2.857364E-002	1.076448E-001	-2.859329E-002	-1.232327E-001	3.441496E-002
7.900000E+008	5.009242E-002	-1.338187E-002	1.074294E-001	-2.890915E-002	1.075128E-001	-2.893745E-002	-1.230765E-001	3.487982E-002
8.000000E+008	4.999254E-002	-1.355749E-002	1.073241E-001	-2.924189E-002	1.073850E-001	-2.926312E-002	-1.228508E-001	3.534381E-002
8.100000E+008	4.992941E-002	-1.376250E-002	1.071906E-001	-2.956246E-002	1.072475E-001	-2.960341E-002	-1.226063E-001	3.581475E-002
8.200000E+008	4.988007E-002	-1.392444E-002	1.070582E-001	-2.990434E-002	1.071382E-001	-2.992207E-002	-1.223451E-001	3.628424E-002
8.300000E+008	4.983832E-002	-1.406909E-002	1.069306E-001	-3.023168E-002	1.070248E-001	-3.025684E-002	-1.221542E-001	3.676110E-002
8.400000E+008	4.980011E-002	-1.423781E-002	1.068179E-001	-3.054189E-002	1.069046E-001	-3.058069E-002	-1.219458E-001	3.723293E-002
8.500000E+008	4.976764E-002	-1.435944E-002	1.067095E-001	-3.087945E-002	1.067864E-001	-3.092008E-002	-1.217870E-001	3.771177E-002
8.600000E+008	4.970238E-002	-1.447919E-002	1.065840E-001	-3.121346E-002	1.066458E-001	-3.125510E-002	-1.216216E-001	3.820099E-002
8.700000E+008	4.963273E-002	-1.455153E-002	1.064531E-001	-3.154775E-002	1.065268E-001	-3.157509E-002	-1.214604E-001	3.866934E-002
8.800000E+008	4.957207E-002	-1.465222E-002	1.063315E-001	-3.187433E-002	1.064212E-001	-3.189877E-002	-1.212893E-001	3.913867E-002
8.900000E+008	4.948532E-002	-1.474566E-002	1.062080E-001	-3.219681E-002	1.062993E-001	-3.223931E-002	-1.211238E-001	3.955434E-002
9.000000E+008	4.938406E-002	-1.484715E-002	1.060671E-001	-3.253817E-002	1.061694E-001	-3.256448E-002	-1.209311E-001	4.000499E-002
9.100000E+008	4.925965E-002	-1.494915E-002	1.059575E-001	-3.286174E-002	1.060394E-001	-3.288535E-002	-1.206962E-001	4.042109E-002
9.200000E+008	4.913773E-002	-1.510028E-002	1.058259E-001	-3.318386E-002	1.059216E-001	-3.321871E-002	-1.204359E-001	4.086738E-002
9.300000E+008	4.903904E-002	-1.522935E-002	1.056838E-001	-3.348769E-002	1.057623E-001	-3.354750E-002	-1.201373E-001	4.133870E-002
9.400000E+008	4.896864E-002	-1.537763E-002	1.055651E-001	-3.381217E-002	1.056632E-001	-3.386038E-002	-1.198351E-001	4.182320E-002
9.500000E+008	4.891063E-002	-1.553058E-002	1.054290E-001	-3.415671E-002	1.055255E-001	-3.419610E-002	-1.195012E-001	4.232300E-002
9.600000E+008	4.883625E-002	-1.564239E-002	1.052955E-001	-3.447742E-002	1.053852E-001	-3.449895E-002	-1.191804E-001	4.283524E-002
9.700000E+008	4.880333E-002	-1.575654E-002	1.051636E-001	-3.478842E-002	1.052490E-001	-3.483179E-002	-1.188602E-001	4.336284E-002
9.800000E+008	4.875438E-002	-1.584119E-002	1.050468E-001	-3.510778E-002	1.051434E-001	-3.517341E-002	-1.185625E-001	4.393306E-002
9.900000E+008	4.871330E-002	-1.594078E-002	1.049226E-001	-3.543722E-002	1.049946E-001	-3.547927E-002	-1.183032E-001	4.449318E-002
1.000000E+009	4.863882E-002	-1.599643E-002	1.047790E-001	-3.575296E-002	1.048653E-001	-3.581184E-002	-1.180776E-001	4.500934E-002
1.010000E+009	4.857044E-002	-1.605590E-002	1.046575E-001	-3.608264E-002	1.047263E-001	-3.612415E-002	-1.178349E-001	4.556746E-002
1.020000E+009	4.848287E-002	-1.612519E-002	1.045242E-001	-3.638670E-002	1.045999E-001	-3.644374E-002	-1.176422E-001	4.613798E-002
1.030000E+009	4.839404E-002	-1.618650E-002	1.043798E-001	-3.672313E-002	1.044502E-001	-3.675445E-002	-1.174170E-001	4.665792E-002
1.040000E+009	4.829240E-002	-1.625791E-002	1.042350E-001	-3.703260E-002	1.043079E-001	-3.707919E-002	-1.171886E-001	4.718422E-002
1.050000E+009	4.818802E-002	-1.635285E-002	1.041145E-001	-3.735980E-002	1.041821E-001	-3.739411E-002	-1.169354E-001	4.775401E-002
1.060000E+009	4.810828E-002	-1.642500E-002	1.039672E-001	-3.767171E-002	1.040432E-001	-3.771240E-002	-1.167028E-001	4.825894E-002
1.070000E+009	4.799094E-002	-1.652376E-002	1.038215E-001	-3.798322E-002	1.039149E-001	-3.801018E-002	-1.163905E-001	4.880517E-002
1.080000E+009	4.789793E-002	-1.660684E-002	1.036836E-001	-3.831464E-002	1.037918E-001	-3.834926E-002	-1.161052E-001	4.936897E-002
1.090000E+009	4.781584E-002	-1.670300E-002	1.035486E-001	-3.862215E-002	1.036323E-001	-3.865854E-002	-1.158620E-001	4.986192E-002
1.100000E+009	4.774650E-002	-1.679078E-002	1.033923E-001	-3.896931E-002	1.035024E-001	-3.897557E-002	-1.156059E-001	5.043120E-002
1.110000E+009	4.765078E-002	-1.685194E-002	1.032736E-001	-3.926503E-002	1.033564E-001	-3.929217E-002	-1.153648E-001	5.094473E-002
1.120000E+009	4.753542E-002	-1.694970E-002	1.031163E-001	-3.957956E-002	1.032037E-001	-3.962549E-002	-1.151835E-001	5.146402E-002
1.130000E+009	4.746363E-002	-1.702604E-002	1.029684E-001	-3.990076E-002	1.030653E-001	-3.993168E-002	-1.149554E-001	5.198346E-002
1.140000E+009	4.733777E-002	-1.711604E-002	1.028287E-001	-4.022363E-002	1.029024E-001	-4.025039E-002	-1.147135E-001	5.251380E-002
1.150000E+009	4.723480E-002	-1.719645E-002	1.026807E-001	-4.052901E-002	1.027625E-001	-4.056459E-002	-1.144799E-001	5.303544E-002
1.160000E+009	4.714209E-002	-1.728674E-002	1.025339E-001	-4.086126E-002	1.026071E-001	-4.090247E-002	-1.142158E-001	5.351677E-002
1.170000E+009	4.703849E-002	-1.736190E-002	1.023766E-001	-4.117445E-002	1.024590E-001	-4.120030E-002	-1.139484E-001	5.408214E-002
1.180000E+009	4.694205E-002	-1.744472E-002	1.022108E-001	-4.147443E-002	1.023208E-001	-4.151840E-002	-1.136480E-001	5.460972E-002
1.190000E+009	4.681912E-002	-1.751222E-002	1.020592E-001	-4.179657E-002	1.021490E-001	-4.182274E-002	-1.133648E-001	5.516597E-002
1.200000E+009	4.672316E-002	-1.759597E-002	1.019186E-001	-4.211670E-002	1.019966E-001	-4.212913E-002	-1.130746E-001	5.572268E-002
1.210000E+009	4.666379E-002	-1.773719E-002	1.017619E-001	-4.240046E-002	1.018384E-001	-4.245922E-002	-1.127790E-001	5.628378E-002
1.220000E+009	4.655157E-002	-1.785810E-002	1.015955E-001	-4.273143E-002	1.016884E-001	-4.276529E-002	-1.125532E-001	5.683616E-002
1.230000E+009	4.645404E-002	-1.795484E-002	1.014439E-001	-4.303992E-002	1.015335E-001	-4.307793E-002	-1.123071E-001	5.737826E-002
1.240000E+009	4.639702E-002	-1.807554E-002	1.013011E-001	-4.335429E-002	1.013545E-001	-4.338322E-002	-1.120847E-001	5.787653E-002
1.250000E+009	4.633438E-002	-1.820313E-002	1.011422E-001	-4.367050E-002	1.012394E-001	-4.368585E-002	-1.118687E-001	5.839542E-002
1.260000E+009	4.625256E-002	-1.827767E-002	1.009884E-001	-4.397308E-002	1.010516E-001	-4.399934E-002	-1.115803E-001	5.886334E-002
1.270000E+009	4.624022E-002	-1.839477E-002	1.008276E-001	-4.428291E-002	1.009022E-001	-4.429821E-002	-1.113250E-001	5.932137E-002
1.280000E+009	4.616076E-002	-1.844990E-002	1.006605E-001	-4.459440E-002	1.007430E-001	-4.461287E-002	-1.110190E-001	5.978104E-002
1.290000E+009	4.611781E-002	-1.854373E-002	1.005032E-001	-4.493033E-002	1.005762E-001	-4.492355E-002	-1.106732E-001	6.023056E-002
1.300000E+009	4.608449E-002	-1.856790E-002	1.003249E-001	-4.521013E-002	1.004168E-001	-4.524395E-002	-1.103086E-001	6.071845E-002
1.310000E+009	4.600934E-002	-1.864580E-002	1.001697E-001	-4.551784E-002	1.002522E-001	-4.554751E-002	-1.099425E-001	6.122388E-002
1.320000E+009	4.593464E-002	-1.867501E-002	9.998296E-002	-4.583806E-002	1.000990E-001	-4.586630E-002	-1.095358E-001	6.177155E-002
1.330000E+009	4.586042E-002	-1.869755E-002	9.984476E-002	-4.612397E-002	9.992871E-002	-4.618117E-002	-1.091020E-001	6.238047E-002
1.340000E+009	4.576969E-002	-1.873262E-002	9.966439E-002	-4.644378E-002	9.975251E-002	-4.648187E-002	-1.086969E-001	6.298850E-002
1.350000E+009	4.565979E-002	-1.877832E-002	9.948595E-002	-4.675114E-002	9.957507E-002	-4.678389E-002	-1.083054E-001	6.360665E-002
1.360000E+009	4.560734E-002	-1.883525E-002	9.931576E-002	-4.705051E-002	9.940508E-002	-4.709474E-002	-1.079213E-001	6.428515E-002
1.370000E+009	4.549527E-002	-1.885639E-002	9.915246E-002	-4.734960E-002	9.925430E-002	-4.739100E-002	-1.075919E-001	6.495884E-002
1.380000E+009	4.543680E-002	-1.893995E-002	9.895911E-002	-4.766304E-002	9.906471E-002	-4.769664E-002	-1.072689E-001	6.562148E-002
1.390000E+009	4.536338E-002	-1.897554E-002	9.879377E-002	-4.796550E-002	9.888871E-002	-4.800456E-002	-1.069906E-001	6.629232E-002
1.400000E+009	4.526382E-002	-1.905133E-002	9.861171E-002	-4.824559E-002	9.870057E-002	-4.829803E-002	-1.066961E-001	6.691323E-002
1.410000E+009	4.517922E-002	-1.907730E-002	9.843285E-002	-4.855794E-002	9.851247E-002	-4.857820E-002	-1.063933E-001	6.755360E-002
1.420000E+009	4.507063E-002	-1.912114E-002	9.825824E-002	-4.885835E-002	9.834290E-002	-4.889510E-002	-1.060958E-001	6.815962E-002
1.430000E+009	4.500137E-002	-1.914553E-002	9.807646E-002	-4.915158E-002	9.818375E-002	-4.918755E-002	-1.057934E-001	6.873312E-002
1.440000E+009	4.489118E-002	-1.920284E-002	9.788602E-002	-4.945243E-002	9.797454E-002	-4.949351E-002	-1.054931E-001	6.929218E-002
1.450000E+009	4.476682E-002	-1.923279E-002	9.772167E-002	-4.976290E-002	9.781172E-002	-4.979241E-002	-1.051218E-001	6.989913E-002
1.460000E+009	4.463986E-002	-1.929769E-002	9.754832E-002	-5.005751E-002	9.761544E-002	-5.009755E-002	-1.047940E-001	7.050101E-002
1.470000E+009	4.456299E-002	-1.935620E-002	9.734494E-002	-5.034916E-002	9.744431E-002	-5.040444E-002	-1.044355E-001	7.111390E-002
1.480000E+009	4.446356E-002	-1.939424E-002	9.714923E-002	-5.062571E-002	9.722991E-002	-5.068157E-002	-1.040642E-001	7.177118E-002
1.490000E+009	4.435903E-002	-1.945656E-002	9.697233E-002	-5.092888E-002	9.706356E-002	-5.096556E-002	-1.036699E-001	7.241086E-002
1.500000E+009	4.426455E-002	-1.950934E-002	9.678566E-002	-5.122915E-002	9.685302E-002	-5.125117E-002	-1.033028E-001	7.307389E-002
