! Device ID: PE43711P
! File Path: z:\PE43711P\CHAR_NOM_04282014\AMB\3p300\LS_ATT_27p25dB\PE43711P_AMB_3p300V_3p000V_0p000V_LS_ATT_27p25dB_S2P_SN_5_A0137A.s2p
! Serial: 5
! Lot: A0137A
! Temp: 25C
! VDD: 3.300
! VSS: 0.000
! Control_Hi: 3.000
! Control_Lo: 0.000
! Attenuation Step: 27.25dB
! Port 1: RF1
! Port 2: RF2
! ThroughPath:1-2
! IDD: 0.0001278083
! ISS: -5.98e-008
!

#  Hz  S   RI  R   50

1.000000E+007	3.112214E-002	4.484083E-004	3.756532E-002	-1.527253E-004	3.761164E-002	-1.567742E-004	-1.202244E-001	9.148437E-004
2.000000E+007	3.136844E-002	5.521603E-004	3.756583E-002	-2.305456E-004	3.759046E-002	-2.207345E-004	-1.199558E-001	1.509116E-003
3.000000E+007	3.163006E-002	6.544383E-004	3.757944E-002	-3.378719E-004	3.759006E-002	-3.406883E-004	-1.196465E-001	1.996583E-003
4.000000E+007	3.180462E-002	7.379824E-004	3.757884E-002	-4.557987E-004	3.758775E-002	-4.584952E-004	-1.194904E-001	2.550060E-003
5.000000E+007	3.190186E-002	8.242006E-004	3.757022E-002	-5.808158E-004	3.759368E-002	-5.820028E-004	-1.194441E-001	3.127158E-003
6.000000E+007	3.205816E-002	8.452108E-004	3.755841E-002	-6.947073E-004	3.760171E-002	-6.908294E-004	-1.193140E-001	3.587397E-003
7.000000E+007	3.220983E-002	8.545112E-004	3.755212E-002	-8.115792E-004	3.758028E-002	-8.070898E-004	-1.191211E-001	4.024766E-003
8.000000E+007	3.234377E-002	8.744487E-004	3.755484E-002	-9.076917E-004	3.758654E-002	-9.159821E-004	-1.189628E-001	4.438665E-003
9.000000E+007	3.246525E-002	8.838129E-004	3.755522E-002	-1.024219E-003	3.758520E-002	-1.026008E-003	-1.188403E-001	4.816672E-003
1.000000E+008	3.260057E-002	8.845261E-004	3.754990E-002	-1.142491E-003	3.756694E-002	-1.135055E-003	-1.187774E-001	5.219580E-003
1.100000E+008	3.272178E-002	8.752518E-004	3.754414E-002	-1.253982E-003	3.756885E-002	-1.249037E-003	-1.186750E-001	5.585404E-003
1.200000E+008	3.286658E-002	8.435074E-004	3.751803E-002	-1.371147E-003	3.755997E-002	-1.371459E-003	-1.185758E-001	5.893841E-003
1.300000E+008	3.299250E-002	8.292974E-004	3.751498E-002	-1.494763E-003	3.755184E-002	-1.485722E-003	-1.184570E-001	6.227951E-003
1.400000E+008	3.308625E-002	8.697801E-004	3.751031E-002	-1.601235E-003	3.753876E-002	-1.601859E-003	-1.183405E-001	6.574987E-003
1.500000E+008	3.314669E-002	8.968074E-004	3.749075E-002	-1.700327E-003	3.752354E-002	-1.702109E-003	-1.182355E-001	6.893180E-003
1.600000E+008	3.319829E-002	9.467209E-004	3.750286E-002	-1.808707E-003	3.750881E-002	-1.816100E-003	-1.181605E-001	7.218933E-003
1.700000E+008	3.328590E-002	9.562078E-004	3.748852E-002	-1.928430E-003	3.753302E-002	-1.921425E-003	-1.180658E-001	7.562365E-003
1.800000E+008	3.333760E-002	9.800376E-004	3.746398E-002	-2.054048E-003	3.750675E-002	-2.047924E-003	-1.179605E-001	7.888511E-003
1.900000E+008	3.332659E-002	9.520095E-004	3.745330E-002	-2.165453E-003	3.748477E-002	-2.159743E-003	-1.178952E-001	8.139581E-003
2.000000E+008	3.329552E-002	9.222817E-004	3.742381E-002	-2.273624E-003	3.746428E-002	-2.261756E-003	-1.178323E-001	8.382268E-003
2.100000E+008	3.327521E-002	8.329633E-004	3.742112E-002	-2.373229E-003	3.746444E-002	-2.371020E-003	-1.177464E-001	8.580746E-003
2.200000E+008	3.327694E-002	7.554557E-004	3.741187E-002	-2.485110E-003	3.744320E-002	-2.472501E-003	-1.176422E-001	8.754694E-003
2.300000E+008	3.328202E-002	6.714847E-004	3.740430E-002	-2.585126E-003	3.743090E-002	-2.595025E-003	-1.174910E-001	8.963093E-003
2.400000E+008	3.333573E-002	6.064030E-004	3.739604E-002	-2.709488E-003	3.741566E-002	-2.694033E-003	-1.173127E-001	9.201543E-003
2.500000E+008	3.337213E-002	5.580309E-004	3.737094E-002	-2.814901E-003	3.739979E-002	-2.798005E-003	-1.171045E-001	9.424904E-003
2.600000E+008	3.346220E-002	4.810599E-004	3.735960E-002	-2.924427E-003	3.739565E-002	-2.923151E-003	-1.168802E-001	9.719020E-003
2.700000E+008	3.354807E-002	4.390629E-004	3.734502E-002	-3.037210E-003	3.738295E-002	-3.029689E-003	-1.166467E-001	1.004261E-002
2.800000E+008	3.363471E-002	4.119851E-004	3.733481E-002	-3.131785E-003	3.735617E-002	-3.130241E-003	-1.164278E-001	1.035072E-002
2.900000E+008	3.367310E-002	4.073357E-004	3.730627E-002	-3.248189E-003	3.733893E-002	-3.226135E-003	-1.162706E-001	1.067883E-002
3.000000E+008	3.371906E-002	4.321126E-004	3.728607E-002	-3.357062E-003	3.732365E-002	-3.341513E-003	-1.161199E-001	1.104321E-002
3.100000E+008	3.372788E-002	4.486874E-004	3.728256E-002	-3.468115E-003	3.731210E-002	-3.463296E-003	-1.159961E-001	1.139672E-002
3.200000E+008	3.375316E-002	4.897623E-004	3.727015E-002	-3.584722E-003	3.729873E-002	-3.556778E-003	-1.159117E-001	1.173636E-002
3.300000E+008	3.373055E-002	5.422890E-004	3.725053E-002	-3.689629E-003	3.728762E-002	-3.682662E-003	-1.157931E-001	1.205306E-002
3.400000E+008	3.367056E-002	5.301150E-004	3.722964E-002	-3.785299E-003	3.724410E-002	-3.795202E-003	-1.156575E-001	1.233631E-002
3.500000E+008	3.360356E-002	5.304857E-004	3.721156E-002	-3.893771E-003	3.721922E-002	-3.901179E-003	-1.155068E-001	1.257040E-002
3.600000E+008	3.355455E-002	5.134919E-004	3.719416E-002	-4.006119E-003	3.718593E-002	-3.997216E-003	-1.153341E-001	1.284040E-002
3.700000E+008	3.349045E-002	4.787651E-004	3.716258E-002	-4.117559E-003	3.717164E-002	-4.085290E-003	-1.151045E-001	1.307969E-002
3.800000E+008	3.345643E-002	4.270299E-004	3.714225E-002	-4.221273E-003	3.716897E-002	-4.187614E-003	-1.149023E-001	1.333766E-002
3.900000E+008	3.342761E-002	3.516705E-004	3.711817E-002	-4.330726E-003	3.715081E-002	-4.306597E-003	-1.146187E-001	1.366101E-002
4.000000E+008	3.341144E-002	2.799777E-004	3.709507E-002	-4.429052E-003	3.713819E-002	-4.419232E-003	-1.142993E-001	1.397269E-002
4.100000E+008	3.341357E-002	2.054849E-004	3.707004E-002	-4.522806E-003	3.710022E-002	-4.507597E-003	-1.140148E-001	1.428237E-002
4.200000E+008	3.340775E-002	1.378048E-004	3.706240E-002	-4.609402E-003	3.709795E-002	-4.622517E-003	-1.137895E-001	1.465284E-002
4.300000E+008	3.339819E-002	9.168007E-005	3.704009E-002	-4.725201E-003	3.706688E-002	-4.731104E-003	-1.135707E-001	1.504381E-002
4.400000E+008	3.339864E-002	7.112755E-005	3.702154E-002	-4.831422E-003	3.705108E-002	-4.837538E-003	-1.133727E-001	1.547325E-002
4.500000E+008	3.343318E-002	3.648746E-005	3.699932E-002	-4.952545E-003	3.703558E-002	-4.932720E-003	-1.131792E-001	1.591210E-002
4.600000E+008	3.343997E-002	5.999794E-006	3.698538E-002	-5.052570E-003	3.699994E-002	-5.064243E-003	-1.129569E-001	1.635249E-002
4.700000E+008	3.344301E-002	-2.447416E-005	3.695220E-002	-5.156699E-003	3.697870E-002	-5.152725E-003	-1.127902E-001	1.673814E-002
4.800000E+008	3.341747E-002	-1.487858E-005	3.692658E-002	-5.259086E-003	3.694878E-002	-5.257418E-003	-1.126412E-001	1.712735E-002
4.900000E+008	3.338958E-002	-1.255261E-005	3.690294E-002	-5.365108E-003	3.692607E-002	-5.361238E-003	-1.124741E-001	1.750995E-002
5.000000E+008	3.336513E-002	-1.050526E-005	3.688184E-002	-5.455208E-003	3.690068E-002	-5.451315E-003	-1.123125E-001	1.785393E-002
5.100000E+008	3.334002E-002	-4.492215E-006	3.686703E-002	-5.571698E-003	3.688270E-002	-5.552399E-003	-1.121317E-001	1.823784E-002
5.200000E+008	3.329278E-002	-3.930349E-005	3.683067E-002	-5.675408E-003	3.687184E-002	-5.667115E-003	-1.119556E-001	1.859433E-002
5.300000E+008	3.322782E-002	-7.638335E-005	3.681071E-002	-5.772953E-003	3.685119E-002	-5.781997E-003	-1.117037E-001	1.896053E-002
5.400000E+008	3.316999E-002	-1.814081E-004	3.679487E-002	-5.875367E-003	3.681318E-002	-5.877578E-003	-1.114792E-001	1.931633E-002
5.500000E+008	3.310911E-002	-2.195334E-004	3.676032E-002	-5.987088E-003	3.677325E-002	-5.979081E-003	-1.112616E-001	1.968921E-002
5.600000E+008	3.308435E-002	-3.044821E-004	3.673543E-002	-6.082953E-003	3.675894E-002	-6.079550E-003	-1.110404E-001	2.009040E-002
5.700000E+008	3.306696E-002	-4.086212E-004	3.669818E-002	-6.182737E-003	3.673481E-002	-6.186325E-003	-1.108577E-001	2.051040E-002
5.800000E+008	3.304762E-002	-4.707961E-004	3.668277E-002	-6.278136E-003	3.670726E-002	-6.282901E-003	-1.106668E-001	2.094839E-002
5.900000E+008	3.304710E-002	-5.902364E-004	3.665559E-002	-6.385440E-003	3.669301E-002	-6.385630E-003	-1.104803E-001	2.143288E-002
6.000000E+008	3.309205E-002	-6.717197E-004	3.662898E-002	-6.493745E-003	3.666009E-002	-6.494186E-003	-1.102787E-001	2.181990E-002
6.100000E+008	3.314947E-002	-7.374883E-004	3.660316E-002	-6.587148E-003	3.662989E-002	-6.585821E-003	-1.100976E-001	2.224533E-002
6.200000E+008	3.319016E-002	-7.274516E-004	3.657600E-002	-6.696192E-003	3.660874E-002	-6.682457E-003	-1.099223E-001	2.265363E-002
6.300000E+008	3.325544E-002	-7.593347E-004	3.654717E-002	-6.789784E-003	3.657780E-002	-6.798981E-003	-1.097365E-001	2.306158E-002
6.400000E+008	3.330360E-002	-7.634236E-004	3.650521E-002	-6.892649E-003	3.654038E-002	-6.899806E-003	-1.095459E-001	2.346148E-002
6.500000E+008	3.334047E-002	-7.571717E-004	3.649377E-002	-6.989460E-003	3.650754E-002	-6.982069E-003	-1.093728E-001	2.389233E-002
6.600000E+008	3.335791E-002	-7.645636E-004	3.646570E-002	-7.096034E-003	3.649114E-002	-7.088857E-003	-1.091814E-001	2.427654E-002
6.700000E+008	3.333503E-002	-7.468381E-004	3.642768E-002	-7.197964E-003	3.645274E-002	-7.200305E-003	-1.089733E-001	2.472327E-002
6.800000E+008	3.331184E-002	-7.323579E-004	3.640365E-002	-7.291670E-003	3.642886E-002	-7.294830E-003	-1.088016E-001	2.516708E-002
6.900000E+008	3.326584E-002	-7.200777E-004	3.637056E-002	-7.383572E-003	3.638963E-002	-7.395082E-003	-1.086110E-001	2.561644E-002
7.000000E+008	3.325731E-002	-7.029768E-004	3.634266E-002	-7.480809E-003	3.636858E-002	-7.478614E-003	-1.084849E-001	2.605205E-002
7.100000E+008	3.324039E-002	-7.294463E-004	3.631770E-002	-7.587362E-003	3.634004E-002	-7.585383E-003	-1.083341E-001	2.648495E-002
7.200000E+008	3.318524E-002	-7.282476E-004	3.628879E-002	-7.680223E-003	3.631775E-002	-7.676265E-003	-1.082015E-001	2.690735E-002
7.300000E+008	3.314159E-002	-7.580835E-004	3.625152E-002	-7.789330E-003	3.628557E-002	-7.777741E-003	-1.080904E-001	2.729729E-002
7.400000E+008	3.310740E-002	-7.847171E-004	3.623066E-002	-7.880075E-003	3.625810E-002	-7.890622E-003	-1.079853E-001	2.768272E-002
7.500000E+008	3.307596E-002	-8.155853E-004	3.619684E-002	-7.973917E-003	3.622002E-002	-7.982000E-003	-1.078726E-001	2.803857E-002
7.600000E+008	3.304258E-002	-8.700171E-004	3.615791E-002	-8.066622E-003	3.620053E-002	-8.083253E-003	-1.077170E-001	2.839888E-002
7.700000E+008	3.300535E-002	-9.297519E-004	3.613545E-002	-8.155564E-003	3.616128E-002	-8.179144E-003	-1.075736E-001	2.872111E-002
7.800000E+008	3.299484E-002	-9.764801E-004	3.611367E-002	-8.279381E-003	3.613742E-002	-8.269386E-003	-1.073960E-001	2.904238E-002
7.900000E+008	3.298000E-002	-1.073165E-003	3.606951E-002	-8.374839E-003	3.610325E-002	-8.375018E-003	-1.072267E-001	2.938456E-002
8.000000E+008	3.297549E-002	-1.142390E-003	3.604785E-002	-8.477816E-003	3.606215E-002	-8.476484E-003	-1.069829E-001	2.974731E-002
8.100000E+008	3.300313E-002	-1.237897E-003	3.601305E-002	-8.557011E-003	3.603341E-002	-8.576388E-003	-1.067295E-001	3.014359E-002
8.200000E+008	3.305629E-002	-1.291418E-003	3.598025E-002	-8.664870E-003	3.600358E-002	-8.665982E-003	-1.064921E-001	3.051418E-002
8.300000E+008	3.309174E-002	-1.328836E-003	3.594736E-002	-8.759765E-003	3.596861E-002	-8.775278E-003	-1.063012E-001	3.091914E-002
8.400000E+008	3.313293E-002	-1.372201E-003	3.591402E-002	-8.841443E-003	3.593882E-002	-8.857362E-003	-1.060905E-001	3.130589E-002
8.500000E+008	3.318126E-002	-1.384946E-003	3.588396E-002	-8.954008E-003	3.591617E-002	-8.956786E-003	-1.059359E-001	3.170375E-002
8.600000E+008	3.323475E-002	-1.394175E-003	3.584115E-002	-9.045401E-003	3.586916E-002	-9.058164E-003	-1.057649E-001	3.210584E-002
8.700000E+008	3.326794E-002	-1.372197E-003	3.581431E-002	-9.137394E-003	3.584706E-002	-9.142033E-003	-1.056216E-001	3.247991E-002
8.800000E+008	3.328599E-002	-1.342833E-003	3.577620E-002	-9.229461E-003	3.581276E-002	-9.240146E-003	-1.054693E-001	3.284688E-002
8.900000E+008	3.327244E-002	-1.344514E-003	3.574639E-002	-9.330833E-003	3.578291E-002	-9.334777E-003	-1.052995E-001	3.318287E-002
9.000000E+008	3.327112E-002	-1.345781E-003	3.572158E-002	-9.435193E-003	3.574630E-002	-9.437726E-003	-1.050922E-001	3.351954E-002
9.100000E+008	3.323567E-002	-1.340036E-003	3.567311E-002	-9.544628E-003	3.570881E-002	-9.525816E-003	-1.048781E-001	3.383844E-002
9.200000E+008	3.320476E-002	-1.382299E-003	3.564563E-002	-9.624858E-003	3.566869E-002	-9.617045E-003	-1.046157E-001	3.418405E-002
9.300000E+008	3.323003E-002	-1.420883E-003	3.561559E-002	-9.717058E-003	3.563617E-002	-9.717792E-003	-1.043334E-001	3.454854E-002
9.400000E+008	3.324402E-002	-1.461441E-003	3.558740E-002	-9.791577E-003	3.562044E-002	-9.822381E-003	-1.039967E-001	3.493287E-002
9.500000E+008	3.328585E-002	-1.514762E-003	3.554481E-002	-9.904898E-003	3.557595E-002	-9.900388E-003	-1.036934E-001	3.537613E-002
9.600000E+008	3.328799E-002	-1.535463E-003	3.549632E-002	-9.997261E-003	3.552891E-002	-1.000962E-002	-1.033763E-001	3.579136E-002
9.700000E+008	3.333426E-002	-1.528905E-003	3.546785E-002	-1.007642E-002	3.551738E-002	-1.009393E-002	-1.030672E-001	3.625844E-002
9.800000E+008	3.336943E-002	-1.513680E-003	3.543594E-002	-1.016959E-002	3.548123E-002	-1.018489E-002	-1.028142E-001	3.672576E-002
9.900000E+008	3.341801E-002	-1.513996E-003	3.540996E-002	-1.028057E-002	3.545197E-002	-1.029472E-002	-1.025369E-001	3.716778E-002
1.000000E+009	3.344102E-002	-1.470417E-003	3.537131E-002	-1.035389E-002	3.540861E-002	-1.037587E-002	-1.023425E-001	3.760396E-002
1.010000E+009	3.344892E-002	-1.434910E-003	3.535135E-002	-1.045678E-002	3.537932E-002	-1.047950E-002	-1.021173E-001	3.807992E-002
1.020000E+009	3.346940E-002	-1.428356E-003	3.530293E-002	-1.056090E-002	3.533251E-002	-1.056787E-002	-1.019310E-001	3.851201E-002
1.030000E+009	3.346091E-002	-1.403305E-003	3.526205E-002	-1.064604E-002	3.530240E-002	-1.066192E-002	-1.017194E-001	3.893634E-002
1.040000E+009	3.346414E-002	-1.378166E-003	3.523376E-002	-1.074818E-002	3.526108E-002	-1.076539E-002	-1.014989E-001	3.937612E-002
1.050000E+009	3.347476E-002	-1.369473E-003	3.518499E-002	-1.084657E-002	3.521758E-002	-1.084598E-002	-1.012679E-001	3.982996E-002
1.060000E+009	3.347486E-002	-1.352390E-003	3.516413E-002	-1.093436E-002	3.519410E-002	-1.094180E-002	-1.009847E-001	4.026141E-002
1.070000E+009	3.344788E-002	-1.354457E-003	3.511831E-002	-1.102716E-002	3.515498E-002	-1.103793E-002	-1.007308E-001	4.071346E-002
1.080000E+009	3.347419E-002	-1.331589E-003	3.508675E-002	-1.111501E-002	3.512295E-002	-1.112978E-002	-1.004700E-001	4.118320E-002
1.090000E+009	3.344881E-002	-1.334146E-003	3.504237E-002	-1.120562E-002	3.507214E-002	-1.121237E-002	-1.002495E-001	4.162039E-002
1.100000E+009	3.346775E-002	-1.321036E-003	3.500351E-002	-1.130724E-002	3.504644E-002	-1.130868E-002	-1.000128E-001	4.206031E-002
1.110000E+009	3.345729E-002	-1.326121E-003	3.496400E-002	-1.140477E-002	3.501654E-002	-1.140574E-002	-9.981441E-002	4.250978E-002
1.120000E+009	3.345231E-002	-1.310427E-003	3.494226E-002	-1.148931E-002	3.496766E-002	-1.150611E-002	-9.965871E-002	4.292137E-002
1.130000E+009	3.345812E-002	-1.306678E-003	3.490610E-002	-1.159067E-002	3.493983E-002	-1.159571E-002	-9.944497E-002	4.333871E-002
1.140000E+009	3.343718E-002	-1.321758E-003	3.485949E-002	-1.167688E-002	3.489460E-002	-1.169305E-002	-9.922415E-002	4.378069E-002
1.150000E+009	3.344604E-002	-1.319243E-003	3.482004E-002	-1.177733E-002	3.485599E-002	-1.179234E-002	-9.897407E-002	4.418500E-002
1.160000E+009	3.343237E-002	-1.300179E-003	3.478522E-002	-1.186462E-002	3.480703E-002	-1.186989E-002	-9.874344E-002	4.458730E-002
1.170000E+009	3.344301E-002	-1.279198E-003	3.475117E-002	-1.197216E-002	3.478355E-002	-1.196329E-002	-9.845859E-002	4.505477E-002
1.180000E+009	3.344725E-002	-1.284329E-003	3.470212E-002	-1.205190E-002	3.472551E-002	-1.204651E-002	-9.817828E-002	4.549792E-002
1.190000E+009	3.340027E-002	-1.256780E-003	3.465753E-002	-1.214858E-002	3.468957E-002	-1.216225E-002	-9.792084E-002	4.598106E-002
1.200000E+009	3.341699E-002	-1.254314E-003	3.462092E-002	-1.223278E-002	3.465590E-002	-1.223787E-002	-9.765082E-002	4.641623E-002
1.210000E+009	3.342560E-002	-1.283615E-003	3.459065E-002	-1.233786E-002	3.462310E-002	-1.234126E-002	-9.739692E-002	4.690821E-002
1.220000E+009	3.339164E-002	-1.336010E-003	3.454762E-002	-1.241830E-002	3.456992E-002	-1.241425E-002	-9.720647E-002	4.737412E-002
1.230000E+009	3.341202E-002	-1.342199E-003	3.449283E-002	-1.251538E-002	3.452870E-002	-1.252383E-002	-9.696873E-002	4.780624E-002
1.240000E+009	3.343555E-002	-1.379092E-003	3.446507E-002	-1.260472E-002	3.448819E-002	-1.259966E-002	-9.679286E-002	4.819017E-002
1.250000E+009	3.346431E-002	-1.416671E-003	3.443007E-002	-1.270097E-002	3.444891E-002	-1.270450E-002	-9.656993E-002	4.860767E-002
1.260000E+009	3.348527E-002	-1.439514E-003	3.437114E-002	-1.278962E-002	3.440727E-002	-1.279493E-002	-9.631934E-002	4.896820E-002
1.270000E+009	3.359103E-002	-1.439832E-003	3.434950E-002	-1.288677E-002	3.435825E-002	-1.289047E-002	-9.604864E-002	4.934323E-002
1.280000E+009	3.362065E-002	-1.450096E-003	3.430088E-002	-1.298921E-002	3.431681E-002	-1.299579E-002	-9.577795E-002	4.969507E-002
1.290000E+009	3.367864E-002	-1.428748E-003	3.425453E-002	-1.307738E-002	3.428940E-002	-1.307383E-002	-9.546228E-002	5.007307E-002
1.300000E+009	3.370744E-002	-1.358427E-003	3.419560E-002	-1.315571E-002	3.422965E-002	-1.317718E-002	-9.510084E-002	5.045074E-002
1.310000E+009	3.373913E-002	-1.342836E-003	3.415861E-002	-1.326908E-002	3.418238E-002	-1.324763E-002	-9.477834E-002	5.089921E-002
1.320000E+009	3.378120E-002	-1.336833E-003	3.410223E-002	-1.334687E-002	3.414427E-002	-1.334910E-002	-9.440680E-002	5.134756E-002
1.330000E+009	3.379146E-002	-1.269137E-003	3.409242E-002	-1.343754E-002	3.410680E-002	-1.346274E-002	-9.399560E-002	5.184130E-002
1.340000E+009	3.381631E-002	-1.210616E-003	3.403418E-002	-1.352795E-002	3.406439E-002	-1.353686E-002	-9.362526E-002	5.236910E-002
1.350000E+009	3.378547E-002	-1.184243E-003	3.399984E-002	-1.362279E-002	3.399818E-002	-1.362185E-002	-9.328624E-002	5.289492E-002
1.360000E+009	3.380989E-002	-1.159162E-003	3.393021E-002	-1.369464E-002	3.398248E-002	-1.372298E-002	-9.291141E-002	5.344624E-002
1.370000E+009	3.381526E-002	-1.124426E-003	3.390392E-002	-1.378667E-002	3.391158E-002	-1.380552E-002	-9.262524E-002	5.401907E-002
1.380000E+009	3.385616E-002	-1.123775E-003	3.384548E-002	-1.388187E-002	3.388007E-002	-1.390449E-002	-9.232001E-002	5.456024E-002
1.390000E+009	3.389095E-002	-1.092717E-003	3.380739E-002	-1.398751E-002	3.383156E-002	-1.399136E-002	-9.202209E-002	5.513122E-002
1.400000E+009	3.389066E-002	-1.086491E-003	3.374146E-002	-1.407424E-002	3.378418E-002	-1.407414E-002	-9.177413E-002	5.567846E-002
1.410000E+009	3.389786E-002	-1.012638E-003	3.370694E-002	-1.415220E-002	3.373056E-002	-1.417521E-002	-9.149398E-002	5.622280E-002
1.420000E+009	3.389703E-002	-9.910595E-004	3.364564E-002	-1.425540E-002	3.369493E-002	-1.426102E-002	-9.123518E-002	5.673384E-002
1.430000E+009	3.392634E-002	-9.253084E-004	3.361501E-002	-1.434391E-002	3.364047E-002	-1.434222E-002	-9.097530E-002	5.721665E-002
1.440000E+009	3.389107E-002	-8.976501E-004	3.355527E-002	-1.441704E-002	3.357418E-002	-1.442482E-002	-9.070599E-002	5.769885E-002
1.450000E+009	3.388521E-002	-8.689695E-004	3.350452E-002	-1.452863E-002	3.354258E-002	-1.451920E-002	-9.039568E-002	5.819374E-002
1.460000E+009	3.388649E-002	-8.538519E-004	3.345945E-002	-1.459249E-002	3.348486E-002	-1.460517E-002	-9.009193E-002	5.866754E-002
1.470000E+009	3.387328E-002	-8.490821E-004	3.341667E-002	-1.470926E-002	3.344138E-002	-1.469770E-002	-8.974560E-002	5.918986E-002
1.480000E+009	3.386935E-002	-8.126073E-004	3.336846E-002	-1.478610E-002	3.337370E-002	-1.476871E-002	-8.942238E-002	5.971835E-002
1.490000E+009	3.390522E-002	-8.228232E-004	3.330554E-002	-1.487444E-002	3.333584E-002	-1.487639E-002	-8.905024E-002	6.028058E-002
1.500000E+009	3.390427E-002	-8.045048E-004	3.325662E-002	-1.495170E-002	3.329310E-002	-1.495532E-002	-8.871013E-002	6.083540E-002
1.510000E+009	3.393216E-002	-7.943818E-004	3.320348E-002	-1.503222E-002	3.324852E-002	-1.503751E-002	-8.836155E-002	6.140617E-002
