! Device ID: PE43711P
! File Path: z:\PE43711P\CHAR_NOM_04282014\AMB\3p300\LS_ATT_3p00dB\PE43711P_AMB_3p300V_3p000V_0p000V_LS_ATT_3p00dB_S2P_SN_5_A0137A.s2p
! Serial: 5
! Lot: A0137A
! Temp: 25C
! VDD: 3.300
! VSS: 0.000
! Control_Hi: 3.000
! Control_Lo: 0.000
! Attenuation Step: 3.00dB
! Port 1: RF1
! Port 2: RF2
! ThroughPath:1-2
! IDD: 0.0001279595
! ISS: -1.395e-007
!

#  Hz  S   RI  R   50

1.000000E+007	1.038861E-001	-5.313549E-004	6.272518E-001	-3.269620E-003	6.275525E-001	-3.376853E-003	6.295095E-003	1.844994E-005
2.000000E+007	1.039619E-001	-8.023144E-004	6.271332E-001	-5.338148E-003	6.270992E-001	-5.401278E-003	6.406650E-003	1.828001E-004
3.000000E+007	1.042698E-001	-1.439878E-003	6.271299E-001	-8.052016E-003	6.271273E-001	-8.111645E-003	6.690576E-003	1.470479E-004
4.000000E+007	1.043206E-001	-2.021913E-003	6.271026E-001	-1.077085E-002	6.270680E-001	-1.082352E-002	7.153394E-003	7.145232E-005
5.000000E+007	1.045996E-001	-2.744490E-003	6.270734E-001	-1.369485E-002	6.270185E-001	-1.365549E-002	7.378508E-003	-1.843637E-004
6.000000E+007	1.048642E-001	-3.539410E-003	6.269355E-001	-1.640591E-002	6.269522E-001	-1.636564E-002	7.525361E-003	-5.700928E-004
7.000000E+007	1.049579E-001	-4.394635E-003	6.267681E-001	-1.909802E-002	6.267532E-001	-1.908862E-002	7.547891E-003	-9.252450E-004
8.000000E+007	1.051433E-001	-5.210275E-003	6.266093E-001	-2.170488E-002	6.265968E-001	-2.172243E-002	7.568239E-003	-1.166050E-003
9.000000E+007	1.052272E-001	-5.971699E-003	6.264533E-001	-2.439740E-002	6.264007E-001	-2.440685E-002	7.701010E-003	-1.467703E-003
1.000000E+008	1.052829E-001	-6.713574E-003	6.263100E-001	-2.710643E-002	6.262266E-001	-2.709351E-002	7.959964E-003	-1.826634E-003
1.100000E+008	1.053526E-001	-7.439478E-003	6.260908E-001	-2.984790E-002	6.260411E-001	-2.976373E-002	8.021196E-003	-2.191427E-003
1.200000E+008	1.054630E-001	-8.178760E-003	6.257553E-001	-3.251530E-002	6.257463E-001	-3.247059E-002	7.861425E-003	-2.520828E-003
1.300000E+008	1.055741E-001	-9.069009E-003	6.255414E-001	-3.514766E-002	6.255322E-001	-3.515821E-002	7.962565E-003	-3.000755E-003
1.400000E+008	1.055859E-001	-1.007861E-002	6.253367E-001	-3.785078E-002	6.252655E-001	-3.785753E-002	8.435716E-003	-3.533228E-003
1.500000E+008	1.054364E-001	-1.098795E-002	6.250510E-001	-4.042210E-002	6.249000E-001	-4.047487E-002	8.819239E-003	-3.962535E-003
1.600000E+008	1.051438E-001	-1.155869E-002	6.248081E-001	-4.303394E-002	6.245278E-001	-4.300247E-002	8.548955E-003	-4.235088E-003
1.700000E+008	1.047817E-001	-1.207471E-002	6.245205E-001	-4.581283E-002	6.244175E-001	-4.559162E-002	7.841424E-003	-4.604247E-003
1.800000E+008	1.044684E-001	-1.274944E-002	6.238909E-001	-4.856686E-002	6.240368E-001	-4.840751E-002	7.262084E-003	-5.079375E-003
1.900000E+008	1.043326E-001	-1.364046E-002	6.234267E-001	-5.109584E-002	6.236181E-001	-5.100952E-002	7.245289E-003	-5.550115E-003
2.000000E+008	1.043344E-001	-1.464701E-002	6.231386E-001	-5.366472E-002	6.232411E-001	-5.360034E-002	7.594875E-003	-5.916388E-003
2.100000E+008	1.043393E-001	-1.566043E-002	6.228214E-001	-5.620905E-002	6.228324E-001	-5.619448E-002	8.010187E-003	-6.252003E-003
2.200000E+008	1.042794E-001	-1.657030E-002	6.225268E-001	-5.870963E-002	6.224753E-001	-5.872122E-002	8.211072E-003	-6.587502E-003
2.300000E+008	1.040564E-001	-1.740063E-002	6.220940E-001	-6.128275E-002	6.220415E-001	-6.129347E-002	8.239598E-003	-7.004606E-003
2.400000E+008	1.038104E-001	-1.824278E-002	6.216863E-001	-6.388788E-002	6.215741E-001	-6.384444E-002	8.170118E-003	-7.501605E-003
2.500000E+008	1.035470E-001	-1.905068E-002	6.211967E-001	-6.651541E-002	6.211122E-001	-6.645395E-002	8.073604E-003	-8.065486E-003
2.600000E+008	1.033234E-001	-1.995459E-002	6.206890E-001	-6.912905E-002	6.206757E-001	-6.903381E-002	8.072671E-003	-8.591673E-003
2.700000E+008	1.031096E-001	-2.076777E-002	6.201508E-001	-7.163982E-002	6.201662E-001	-7.161232E-002	8.144418E-003	-8.992738E-003
2.800000E+008	1.029384E-001	-2.153758E-002	6.196659E-001	-7.412127E-002	6.196837E-001	-7.405966E-002	8.210049E-003	-9.318005E-003
2.900000E+008	1.026914E-001	-2.219018E-002	6.191739E-001	-7.658527E-002	6.191400E-001	-7.651349E-002	8.220010E-003	-9.602797E-003
3.000000E+008	1.025342E-001	-2.281240E-002	6.187579E-001	-7.910435E-002	6.187487E-001	-7.903732E-002	8.243577E-003	-9.863478E-003
3.100000E+008	1.023200E-001	-2.340922E-002	6.182555E-001	-8.162652E-002	6.182811E-001	-8.155030E-002	8.275009E-003	-1.010288E-002
3.200000E+008	1.021082E-001	-2.408338E-002	6.177059E-001	-8.417578E-002	6.178164E-001	-8.409442E-002	8.272464E-003	-1.040982E-002
3.300000E+008	1.018037E-001	-2.472171E-002	6.172058E-001	-8.665221E-002	6.172788E-001	-8.672420E-002	8.206169E-003	-1.071651E-002
3.400000E+008	1.013740E-001	-2.536628E-002	6.166143E-001	-8.919430E-002	6.164843E-001	-8.934312E-002	8.196934E-003	-1.111857E-002
3.500000E+008	1.009372E-001	-2.601639E-002	6.160428E-001	-9.173880E-002	6.157618E-001	-9.169037E-002	8.161379E-003	-1.156923E-002
3.600000E+008	1.005701E-001	-2.661679E-002	6.154315E-001	-9.424022E-002	6.151932E-001	-9.396791E-002	8.145517E-003	-1.188019E-002
3.700000E+008	1.002387E-001	-2.725902E-002	6.147841E-001	-9.657463E-002	6.147081E-001	-9.625170E-002	8.262608E-003	-1.219221E-002
3.800000E+008	9.988692E-002	-2.794385E-002	6.142231E-001	-9.901911E-002	6.142999E-001	-9.876740E-002	8.355130E-003	-1.258044E-002
3.900000E+008	9.946120E-002	-2.861652E-002	6.135501E-001	-1.015443E-001	6.137015E-001	-1.012911E-001	8.450691E-003	-1.296908E-002
4.000000E+008	9.913727E-002	-2.935275E-002	6.128537E-001	-1.038372E-001	6.130721E-001	-1.038090E-001	8.528964E-003	-1.330809E-002
4.100000E+008	9.865318E-002	-3.006717E-002	6.122697E-001	-1.061152E-001	6.123928E-001	-1.062218E-001	8.577114E-003	-1.360979E-002
4.200000E+008	9.813472E-002	-3.070881E-002	6.117390E-001	-1.085684E-001	6.117544E-001	-1.085691E-001	8.565260E-003	-1.387499E-002
4.300000E+008	9.779809E-002	-3.128810E-002	6.111210E-001	-1.110271E-001	6.110928E-001	-1.110432E-001	8.583382E-003	-1.416352E-002
4.400000E+008	9.748513E-002	-3.185147E-002	6.104747E-001	-1.134497E-001	6.105140E-001	-1.134113E-001	8.579457E-003	-1.432795E-002
4.500000E+008	9.718124E-002	-3.248633E-002	6.098342E-001	-1.158733E-001	6.098978E-001	-1.158271E-001	8.593208E-003	-1.452198E-002
4.600000E+008	9.684069E-002	-3.310887E-002	6.091763E-001	-1.183002E-001	6.091639E-001	-1.182544E-001	8.559720E-003	-1.468651E-002
4.700000E+008	9.644116E-002	-3.365880E-002	6.084861E-001	-1.206360E-001	6.084528E-001	-1.206195E-001	8.474793E-003	-1.485285E-002
4.800000E+008	9.601085E-002	-3.414813E-002	6.077934E-001	-1.229501E-001	6.077596E-001	-1.229132E-001	8.344931E-003	-1.497401E-002
4.900000E+008	9.554408E-002	-3.464256E-002	6.070942E-001	-1.253195E-001	6.070204E-001	-1.252754E-001	8.236459E-003	-1.511745E-002
5.000000E+008	9.513994E-002	-3.510096E-002	6.063763E-001	-1.276802E-001	6.063594E-001	-1.275730E-001	8.163470E-003	-1.528479E-002
5.100000E+008	9.477845E-002	-3.568797E-002	6.057046E-001	-1.300122E-001	6.057192E-001	-1.298873E-001	8.174541E-003	-1.549998E-002
5.200000E+008	9.433303E-002	-3.633571E-002	6.049960E-001	-1.324034E-001	6.050110E-001	-1.323255E-001	8.181198E-003	-1.578373E-002
5.300000E+008	9.387915E-002	-3.695888E-002	6.042830E-001	-1.347589E-001	6.043151E-001	-1.347246E-001	8.248444E-003	-1.606562E-002
5.400000E+008	9.336926E-002	-3.762869E-002	6.034904E-001	-1.371288E-001	6.035778E-001	-1.370848E-001	8.221466E-003	-1.638730E-002
5.500000E+008	9.290758E-002	-3.811736E-002	6.027734E-001	-1.394457E-001	6.027611E-001	-1.394153E-001	8.191135E-003	-1.656233E-002
5.600000E+008	9.246506E-002	-3.861954E-002	6.019516E-001	-1.417587E-001	6.019615E-001	-1.417025E-001	8.142415E-003	-1.673548E-002
5.700000E+008	9.211001E-002	-3.912859E-002	6.012017E-001	-1.440086E-001	6.012568E-001	-1.439915E-001	8.016590E-003	-1.682359E-002
5.800000E+008	9.171198E-002	-3.961761E-002	6.004352E-001	-1.463035E-001	6.005140E-001	-1.462831E-001	7.918358E-003	-1.699130E-002
5.900000E+008	9.130477E-002	-4.019308E-002	5.996558E-001	-1.486845E-001	5.997891E-001	-1.486552E-001	7.760692E-003	-1.714831E-002
6.000000E+008	9.093228E-002	-4.072897E-002	5.988751E-001	-1.509354E-001	5.990167E-001	-1.509639E-001	7.674381E-003	-1.736768E-002
6.100000E+008	9.056345E-002	-4.124115E-002	5.980711E-001	-1.532061E-001	5.981367E-001	-1.532573E-001	7.498287E-003	-1.751675E-002
6.200000E+008	9.019738E-002	-4.174853E-002	5.972229E-001	-1.554604E-001	5.973524E-001	-1.554877E-001	7.381242E-003	-1.767672E-002
6.300000E+008	8.989129E-002	-4.221328E-002	5.964295E-001	-1.577157E-001	5.965178E-001	-1.577368E-001	7.291044E-003	-1.783353E-002
6.400000E+008	8.957329E-002	-4.274020E-002	5.956061E-001	-1.599703E-001	5.957178E-001	-1.600200E-001	7.268426E-003	-1.796203E-002
6.500000E+008	8.925710E-002	-4.318776E-002	5.948000E-001	-1.622261E-001	5.949013E-001	-1.622426E-001	7.162922E-003	-1.807433E-002
6.600000E+008	8.885274E-002	-4.372357E-002	5.940358E-001	-1.644983E-001	5.940571E-001	-1.645239E-001	7.088972E-003	-1.820622E-002
6.700000E+008	8.833850E-002	-4.411827E-002	5.931890E-001	-1.667597E-001	5.932158E-001	-1.667716E-001	6.908854E-003	-1.831081E-002
6.800000E+008	8.785820E-002	-4.452686E-002	5.923260E-001	-1.689737E-001	5.923758E-001	-1.690061E-001	6.735038E-003	-1.833970E-002
6.900000E+008	8.735028E-002	-4.488603E-002	5.913920E-001	-1.712012E-001	5.914437E-001	-1.711962E-001	6.562872E-003	-1.834756E-002
7.000000E+008	8.692370E-002	-4.528300E-002	5.905534E-001	-1.734308E-001	5.906608E-001	-1.733694E-001	6.396641E-003	-1.845615E-002
7.100000E+008	8.650420E-002	-4.577587E-002	5.897005E-001	-1.755809E-001	5.897705E-001	-1.756314E-001	6.212152E-003	-1.857289E-002
7.200000E+008	8.605976E-002	-4.624508E-002	5.888409E-001	-1.777993E-001	5.889318E-001	-1.778313E-001	6.075873E-003	-1.879123E-002
7.300000E+008	8.557900E-002	-4.672332E-002	5.879278E-001	-1.800042E-001	5.881215E-001	-1.800579E-001	5.847872E-003	-1.901089E-002
7.400000E+008	8.505788E-002	-4.713066E-002	5.870117E-001	-1.822265E-001	5.872114E-001	-1.822480E-001	5.635282E-003	-1.919591E-002
7.500000E+008	8.462673E-002	-4.755325E-002	5.861492E-001	-1.844155E-001	5.863488E-001	-1.844857E-001	5.452920E-003	-1.936414E-002
7.600000E+008	8.412288E-002	-4.800166E-002	5.852472E-001	-1.866426E-001	5.854282E-001	-1.866851E-001	5.281353E-003	-1.956652E-002
7.700000E+008	8.363528E-002	-4.848466E-002	5.843594E-001	-1.888109E-001	5.845281E-001	-1.888465E-001	5.134319E-003	-1.978385E-002
7.800000E+008	8.309554E-002	-4.890492E-002	5.834178E-001	-1.909795E-001	5.836308E-001	-1.910169E-001	4.941677E-003	-2.000850E-002
7.900000E+008	8.259954E-002	-4.943541E-002	5.825234E-001	-1.931537E-001	5.827592E-001	-1.932466E-001	4.722352E-003	-2.020549E-002
8.000000E+008	8.208542E-002	-4.990609E-002	5.815437E-001	-1.953367E-001	5.817493E-001	-1.953710E-001	4.543281E-003	-2.037425E-002
8.100000E+008	8.162541E-002	-5.036607E-002	5.806004E-001	-1.974354E-001	5.807896E-001	-1.975462E-001	4.401372E-003	-2.048799E-002
8.200000E+008	8.119345E-002	-5.078843E-002	5.796990E-001	-1.996443E-001	5.798463E-001	-1.996657E-001	4.262810E-003	-2.061286E-002
8.300000E+008	8.083546E-002	-5.120952E-002	5.787100E-001	-2.017592E-001	5.789480E-001	-2.018262E-001	4.124303E-003	-2.073692E-002
8.400000E+008	8.048779E-002	-5.159033E-002	5.777721E-001	-2.038959E-001	5.779704E-001	-2.039607E-001	3.980547E-003	-2.082992E-002
8.500000E+008	8.011045E-002	-5.200152E-002	5.768299E-001	-2.060379E-001	5.770174E-001	-2.061412E-001	3.777705E-003	-2.094802E-002
8.600000E+008	7.965054E-002	-5.240042E-002	5.758380E-001	-2.081223E-001	5.759861E-001	-2.082174E-001	3.553040E-003	-2.104957E-002
8.700000E+008	7.917838E-002	-5.273855E-002	5.748935E-001	-2.103001E-001	5.750316E-001	-2.103520E-001	3.328781E-003	-2.117007E-002
8.800000E+008	7.866558E-002	-5.304205E-002	5.739166E-001	-2.124580E-001	5.740966E-001	-2.124424E-001	3.068023E-003	-2.124393E-002
8.900000E+008	7.817645E-002	-5.338622E-002	5.729228E-001	-2.145480E-001	5.730966E-001	-2.145973E-001	2.885088E-003	-2.137485E-002
9.000000E+008	7.770398E-002	-5.372623E-002	5.718730E-001	-2.166795E-001	5.721228E-001	-2.166966E-001	2.702395E-003	-2.145828E-002
9.100000E+008	7.716059E-002	-5.411901E-002	5.708769E-001	-2.187973E-001	5.711054E-001	-2.188233E-001	2.606630E-003	-2.162989E-002
9.200000E+008	7.665595E-002	-5.451775E-002	5.698755E-001	-2.208637E-001	5.701134E-001	-2.209534E-001	2.492916E-003	-2.182106E-002
9.300000E+008	7.613912E-002	-5.485507E-002	5.688777E-001	-2.229267E-001	5.690618E-001	-2.230642E-001	2.387379E-003	-2.196399E-002
9.400000E+008	7.566052E-002	-5.519761E-002	5.678733E-001	-2.250009E-001	5.681246E-001	-2.251298E-001	2.309208E-003	-2.204875E-002
9.500000E+008	7.516170E-002	-5.551629E-002	5.668439E-001	-2.271300E-001	5.670536E-001	-2.272553E-001	2.234087E-003	-2.206888E-002
9.600000E+008	7.471407E-002	-5.577724E-002	5.657951E-001	-2.292035E-001	5.660131E-001	-2.292901E-001	2.203485E-003	-2.205877E-002
9.700000E+008	7.433823E-002	-5.608927E-002	5.647230E-001	-2.312317E-001	5.649826E-001	-2.313671E-001	2.169221E-003	-2.210857E-002
9.800000E+008	7.390712E-002	-5.640399E-002	5.637316E-001	-2.332735E-001	5.639523E-001	-2.334229E-001	2.084193E-003	-2.213624E-002
9.900000E+008	7.348996E-002	-5.670960E-002	5.626980E-001	-2.353678E-001	5.629167E-001	-2.355159E-001	1.879436E-003	-2.217366E-002
1.000000E+009	7.301146E-002	-5.697245E-002	5.616824E-001	-2.373979E-001	5.618158E-001	-2.375607E-001	1.703790E-003	-2.215435E-002
1.010000E+009	7.249544E-002	-5.717727E-002	5.606075E-001	-2.395219E-001	5.607752E-001	-2.395878E-001	1.503850E-003	-2.211730E-002
1.020000E+009	7.200571E-002	-5.737407E-002	5.595562E-001	-2.415748E-001	5.596673E-001	-2.416321E-001	1.338744E-003	-2.204741E-002
1.030000E+009	7.158046E-002	-5.757398E-002	5.584182E-001	-2.435654E-001	5.586431E-001	-2.436775E-001	1.184572E-003	-2.201480E-002
1.040000E+009	7.113153E-002	-5.780908E-002	5.573504E-001	-2.455675E-001	5.575453E-001	-2.457034E-001	1.043805E-003	-2.203494E-002
1.050000E+009	7.060949E-002	-5.814784E-002	5.563141E-001	-2.476381E-001	5.564827E-001	-2.477341E-001	8.506694E-004	-2.206024E-002
1.060000E+009	7.007775E-002	-5.841310E-002	5.552188E-001	-2.496475E-001	5.553957E-001	-2.497306E-001	6.711939E-004	-2.205284E-002
1.070000E+009	6.954378E-002	-5.863519E-002	5.540723E-001	-2.516544E-001	5.543484E-001	-2.517168E-001	4.885855E-004	-2.204403E-002
1.080000E+009	6.909944E-002	-5.888064E-002	5.529573E-001	-2.537183E-001	5.532922E-001	-2.537598E-001	3.282239E-004	-2.199351E-002
1.090000E+009	6.867448E-002	-5.912362E-002	5.518657E-001	-2.557356E-001	5.522124E-001	-2.557734E-001	2.040906E-004	-2.200865E-002
1.100000E+009	6.828184E-002	-5.936277E-002	5.506914E-001	-2.577658E-001	5.510502E-001	-2.577813E-001	5.460379E-005	-2.193941E-002
1.110000E+009	6.786999E-002	-5.960950E-002	5.495965E-001	-2.597461E-001	5.499423E-001	-2.598144E-001	-1.072614E-004	-2.200349E-002
1.120000E+009	6.740009E-002	-5.981872E-002	5.485060E-001	-2.617191E-001	5.487989E-001	-2.618495E-001	-3.309040E-004	-2.200066E-002
1.130000E+009	6.692258E-002	-6.007614E-002	5.473506E-001	-2.637210E-001	5.476700E-001	-2.638360E-001	-5.914224E-004	-2.197861E-002
1.140000E+009	6.638538E-002	-6.025352E-002	5.462273E-001	-2.657110E-001	5.465357E-001	-2.658056E-001	-8.133197E-004	-2.193786E-002
1.150000E+009	6.589606E-002	-6.045120E-002	5.450894E-001	-2.677341E-001	5.453451E-001	-2.677735E-001	-9.841015E-004	-2.190870E-002
1.160000E+009	6.545262E-002	-6.062719E-002	5.439098E-001	-2.697153E-001	5.442421E-001	-2.698067E-001	-1.162222E-003	-2.191017E-002
1.170000E+009	6.497361E-002	-6.087657E-002	5.427401E-001	-2.716880E-001	5.430512E-001	-2.717371E-001	-1.283649E-003	-2.186671E-002
1.180000E+009	6.451245E-002	-6.117661E-002	5.415279E-001	-2.736320E-001	5.418961E-001	-2.737587E-001	-1.474752E-003	-2.188119E-002
1.190000E+009	6.404987E-002	-6.137421E-002	5.403477E-001	-2.756203E-001	5.406199E-001	-2.757294E-001	-1.605759E-003	-2.181519E-002
1.200000E+009	6.351714E-002	-6.156099E-002	5.391809E-001	-2.775690E-001	5.394943E-001	-2.776613E-001	-1.787242E-003	-2.176377E-002
1.210000E+009	6.310782E-002	-6.179413E-002	5.379466E-001	-2.795303E-001	5.382843E-001	-2.796592E-001	-1.957579E-003	-2.166433E-002
1.220000E+009	6.265950E-002	-6.198965E-002	5.367922E-001	-2.814733E-001	5.371256E-001	-2.815717E-001	-2.156403E-003	-2.158188E-002
1.230000E+009	6.224587E-002	-6.218463E-002	5.355384E-001	-2.834285E-001	5.358861E-001	-2.835156E-001	-2.370883E-003	-2.154413E-002
1.240000E+009	6.181198E-002	-6.245200E-002	5.343419E-001	-2.853695E-001	5.346558E-001	-2.854544E-001	-2.599343E-003	-2.148610E-002
1.250000E+009	6.130442E-002	-6.267418E-002	5.331141E-001	-2.873237E-001	5.334856E-001	-2.873689E-001	-2.823804E-003	-2.147789E-002
1.260000E+009	6.083109E-002	-6.287484E-002	5.318464E-001	-2.892356E-001	5.321906E-001	-2.893806E-001	-3.069892E-003	-2.151768E-002
1.270000E+009	6.039526E-002	-6.305114E-002	5.306518E-001	-2.911653E-001	5.309482E-001	-2.912399E-001	-3.282168E-003	-2.149623E-002
1.280000E+009	5.988455E-002	-6.317865E-002	5.294131E-001	-2.930902E-001	5.297600E-001	-2.931300E-001	-3.484141E-003	-2.150627E-002
1.290000E+009	5.944108E-002	-6.330740E-002	5.281272E-001	-2.950418E-001	5.284980E-001	-2.950735E-001	-3.573071E-003	-2.153000E-002
1.300000E+009	5.901276E-002	-6.344176E-002	5.268447E-001	-2.968799E-001	5.272498E-001	-2.970076E-001	-3.637793E-003	-2.149036E-002
1.310000E+009	5.854680E-002	-6.354974E-002	5.255642E-001	-2.988278E-001	5.259710E-001	-2.989109E-001	-3.787247E-003	-2.145118E-002
1.320000E+009	5.802902E-002	-6.364284E-002	5.242891E-001	-3.007337E-001	5.247184E-001	-3.008315E-001	-3.842802E-003	-2.136981E-002
1.330000E+009	5.761003E-002	-6.368473E-002	5.230551E-001	-3.025632E-001	5.234391E-001	-3.027561E-001	-3.862584E-003	-2.118653E-002
1.340000E+009	5.713044E-002	-6.371944E-002	5.217323E-001	-3.044532E-001	5.221135E-001	-3.045975E-001	-3.951042E-003	-2.097410E-002
1.350000E+009	5.664411E-002	-6.377423E-002	5.204578E-001	-3.063565E-001	5.207637E-001	-3.064742E-001	-4.029368E-003	-2.075483E-002
1.360000E+009	5.628533E-002	-6.384250E-002	5.191139E-001	-3.081795E-001	5.195243E-001	-3.083544E-001	-4.110847E-003	-2.047808E-002
1.370000E+009	5.584263E-002	-6.392617E-002	5.178374E-001	-3.100752E-001	5.181929E-001	-3.101935E-001	-4.257579E-003	-2.024867E-002
1.380000E+009	5.536765E-002	-6.403144E-002	5.164795E-001	-3.119281E-001	5.168639E-001	-3.120580E-001	-4.408217E-003	-2.004572E-002
1.390000E+009	5.492758E-002	-6.415940E-002	5.151816E-001	-3.138157E-001	5.155490E-001	-3.139519E-001	-4.631444E-003	-1.978431E-002
1.400000E+009	5.447715E-002	-6.423316E-002	5.138346E-001	-3.156411E-001	5.141857E-001	-3.157233E-001	-4.820889E-003	-1.953352E-002
1.410000E+009	5.399581E-002	-6.427357E-002	5.125032E-001	-3.174473E-001	5.128314E-001	-3.175923E-001	-5.044385E-003	-1.926805E-002
1.420000E+009	5.355723E-002	-6.432702E-002	5.111198E-001	-3.192715E-001	5.115294E-001	-3.194020E-001	-5.248156E-003	-1.904046E-002
1.430000E+009	5.317963E-002	-6.440709E-002	5.097929E-001	-3.210809E-001	5.101963E-001	-3.212579E-001	-5.392030E-003	-1.885777E-002
1.440000E+009	5.271021E-002	-6.447020E-002	5.084168E-001	-3.228889E-001	5.088233E-001	-3.230586E-001	-5.537102E-003	-1.867606E-002
1.450000E+009	5.225168E-002	-6.449691E-002	5.070371E-001	-3.247128E-001	5.074602E-001	-3.248689E-001	-5.737418E-003	-1.847193E-002
1.460000E+009	5.180746E-002	-6.454730E-002	5.056596E-001	-3.265390E-001	5.060470E-001	-3.267129E-001	-5.894856E-003	-1.825551E-002
1.470000E+009	5.136165E-002	-6.455981E-002	5.042973E-001	-3.283511E-001	5.046771E-001	-3.285081E-001	-6.090847E-003	-1.794789E-002
1.480000E+009	5.090927E-002	-6.453037E-002	5.028951E-001	-3.300878E-001	5.032497E-001	-3.302540E-001	-6.220285E-003	-1.761859E-002
1.490000E+009	5.048777E-002	-6.455402E-002	5.015234E-001	-3.318618E-001	5.019104E-001	-3.319893E-001	-6.378894E-003	-1.729276E-002
1.500000E+009	5.011192E-002	-6.462230E-002	5.001225E-001	-3.336311E-001	5.004698E-001	-3.337819E-001	-6.448263E-003	-1.700656E-002
