! Device ID: PE43711P
! File Path: z:\PE43711P\CHAR_NOM_04282014\AMB\3p300\LS_ATT_20p25dB\PE43711P_AMB_3p300V_3p000V_0p000V_LS_ATT_20p25dB_S2P_SN_5_A0137A.s2p
! Serial: 5
! Lot: A0137A
! Temp: 25C
! VDD: 3.300
! VSS: 0.000
! Control_Hi: 3.000
! Control_Lo: 0.000
! Attenuation Step: 20.25dB
! Port 1: RF1
! Port 2: RF2
! ThroughPath:1-2
! IDD: 0.0001272719
! ISS: -1.171e-007
!

#  Hz  S   RI  R   50

1.000000E+007	5.321207E-002	1.746050E-004	8.454922E-002	-3.879056E-004	8.462869E-002	-4.020278E-004	-1.188710E-001	9.605654E-004
2.000000E+007	5.345095E-002	1.510669E-004	8.453045E-002	-5.737680E-004	8.458455E-002	-6.051134E-004	-1.185272E-001	1.505420E-003
3.000000E+007	5.371173E-002	6.176181E-005	8.453464E-002	-8.822271E-004	8.459006E-002	-8.814854E-004	-1.182261E-001	1.980105E-003
4.000000E+007	5.385995E-002	-5.354338E-005	8.454067E-002	-1.191721E-003	8.457727E-002	-1.183076E-003	-1.180452E-001	2.526638E-003
5.000000E+007	5.396267E-002	-1.827498E-004	8.452016E-002	-1.504214E-003	8.458678E-002	-1.490184E-003	-1.180178E-001	3.087754E-003
6.000000E+007	5.411607E-002	-3.517825E-004	8.450699E-002	-1.798612E-003	8.457861E-002	-1.800444E-003	-1.178698E-001	3.513091E-003
7.000000E+007	5.424038E-002	-5.328285E-004	8.447904E-002	-2.082227E-003	8.455974E-002	-2.077234E-003	-1.176945E-001	3.958881E-003
8.000000E+007	5.434587E-002	-7.259118E-004	8.447249E-002	-2.356655E-003	8.453537E-002	-2.353777E-003	-1.175225E-001	4.384927E-003
9.000000E+007	5.444756E-002	-9.025847E-004	8.445938E-002	-2.657464E-003	8.453731E-002	-2.649371E-003	-1.173986E-001	4.753109E-003
1.000000E+008	5.455920E-002	-1.091743E-003	8.445668E-002	-2.957675E-003	8.450890E-002	-2.947513E-003	-1.173393E-001	5.142227E-003
1.100000E+008	5.466751E-002	-1.284846E-003	8.442678E-002	-3.252588E-003	8.449338E-002	-3.237372E-003	-1.172355E-001	5.485870E-003
1.200000E+008	5.477599E-002	-1.513872E-003	8.438848E-002	-3.541942E-003	8.446186E-002	-3.529752E-003	-1.171255E-001	5.808025E-003
1.300000E+008	5.486626E-002	-1.710755E-003	8.436979E-002	-3.828672E-003	8.443944E-002	-3.830784E-003	-1.170085E-001	6.141145E-003
1.400000E+008	5.490080E-002	-1.885050E-003	8.434373E-002	-4.116745E-003	8.441021E-002	-4.115367E-003	-1.168983E-001	6.465801E-003
1.500000E+008	5.491307E-002	-2.046566E-003	8.431189E-002	-4.386816E-003	8.436800E-002	-4.398388E-003	-1.167978E-001	6.776020E-003
1.600000E+008	5.493522E-002	-2.171106E-003	8.431439E-002	-4.666567E-003	8.433594E-002	-4.665693E-003	-1.167188E-001	7.088326E-003
1.700000E+008	5.499900E-002	-2.343991E-003	8.428259E-002	-4.968485E-003	8.435629E-002	-4.951600E-003	-1.166486E-001	7.411285E-003
1.800000E+008	5.499954E-002	-2.515772E-003	8.423040E-002	-5.280761E-003	8.432979E-002	-5.263838E-003	-1.165434E-001	7.739191E-003
1.900000E+008	5.494555E-002	-2.721085E-003	8.416242E-002	-5.549416E-003	8.427369E-002	-5.560919E-003	-1.164763E-001	7.973806E-003
2.000000E+008	5.485834E-002	-2.955053E-003	8.413445E-002	-5.837084E-003	8.423238E-002	-5.851146E-003	-1.164194E-001	8.211306E-003
2.100000E+008	5.478176E-002	-3.213217E-003	8.411084E-002	-6.107394E-003	8.419483E-002	-6.102738E-003	-1.163149E-001	8.409282E-003
2.200000E+008	5.475130E-002	-3.454666E-003	8.408959E-002	-6.383304E-003	8.416381E-002	-6.377681E-003	-1.161994E-001	8.577177E-003
2.300000E+008	5.472180E-002	-3.706801E-003	8.404577E-002	-6.666516E-003	8.411913E-002	-6.653381E-003	-1.160602E-001	8.786502E-003
2.400000E+008	5.469644E-002	-3.966203E-003	8.401778E-002	-6.945299E-003	8.408623E-002	-6.941855E-003	-1.159005E-001	9.008143E-003
2.500000E+008	5.467438E-002	-4.206954E-003	8.397322E-002	-7.236753E-003	8.404049E-002	-7.224094E-003	-1.156856E-001	9.237556E-003
2.600000E+008	5.470225E-002	-4.438879E-003	8.390628E-002	-7.515627E-003	8.399340E-002	-7.501486E-003	-1.154644E-001	9.523374E-003
2.700000E+008	5.473372E-002	-4.668769E-003	8.387839E-002	-7.788310E-003	8.395010E-002	-7.794673E-003	-1.152276E-001	9.821359E-003
2.800000E+008	5.476149E-002	-4.864078E-003	8.382728E-002	-8.064974E-003	8.391085E-002	-8.054539E-003	-1.150074E-001	1.012167E-002
2.900000E+008	5.473495E-002	-5.027904E-003	8.380854E-002	-8.334625E-003	8.384486E-002	-8.326296E-003	-1.148606E-001	1.042259E-002
3.000000E+008	5.474771E-002	-5.194571E-003	8.376341E-002	-8.601869E-003	8.382747E-002	-8.597610E-003	-1.147029E-001	1.077735E-002
3.100000E+008	5.471100E-002	-5.321736E-003	8.370947E-002	-8.893995E-003	8.377319E-002	-8.896832E-003	-1.145537E-001	1.114419E-002
3.200000E+008	5.463915E-002	-5.434700E-003	8.366992E-002	-9.180076E-003	8.373152E-002	-9.165982E-003	-1.144628E-001	1.146938E-002
3.300000E+008	5.456440E-002	-5.560635E-003	8.361519E-002	-9.454761E-003	8.368203E-002	-9.466564E-003	-1.143563E-001	1.178831E-002
3.400000E+008	5.441460E-002	-5.718071E-003	8.355454E-002	-9.732842E-003	8.361684E-002	-9.755630E-003	-1.142193E-001	1.206437E-002
3.500000E+008	5.428897E-002	-5.910584E-003	8.351514E-002	-1.000676E-002	8.353320E-002	-1.001854E-002	-1.140699E-001	1.229620E-002
3.600000E+008	5.417615E-002	-6.046490E-003	8.345800E-002	-1.029272E-002	8.348362E-002	-1.025965E-002	-1.138950E-001	1.255703E-002
3.700000E+008	5.403972E-002	-6.235711E-003	8.337830E-002	-1.055284E-002	8.341774E-002	-1.051854E-002	-1.136905E-001	1.277411E-002
3.800000E+008	5.394541E-002	-6.447497E-003	8.332745E-002	-1.084064E-002	8.338757E-002	-1.078314E-002	-1.134847E-001	1.304244E-002
3.900000E+008	5.382498E-002	-6.679387E-003	8.325762E-002	-1.109319E-002	8.333237E-002	-1.107227E-002	-1.132028E-001	1.335319E-002
4.000000E+008	5.375151E-002	-6.930004E-003	8.319311E-002	-1.135499E-002	8.328983E-002	-1.135152E-002	-1.128821E-001	1.364170E-002
4.100000E+008	5.365468E-002	-7.141612E-003	8.314468E-002	-1.160771E-002	8.321094E-002	-1.161484E-002	-1.126025E-001	1.394361E-002
4.200000E+008	5.357245E-002	-7.368349E-003	8.309123E-002	-1.186590E-002	8.315346E-002	-1.187383E-002	-1.123668E-001	1.430598E-002
4.300000E+008	5.352256E-002	-7.551095E-003	8.305268E-002	-1.214471E-002	8.310809E-002	-1.215681E-002	-1.121517E-001	1.469534E-002
4.400000E+008	5.345865E-002	-7.725615E-003	8.298266E-002	-1.241754E-002	8.303997E-002	-1.241749E-002	-1.119493E-001	1.512555E-002
4.500000E+008	5.339121E-002	-7.906220E-003	8.293324E-002	-1.268456E-002	8.300058E-002	-1.268077E-002	-1.117435E-001	1.555913E-002
4.600000E+008	5.333238E-002	-8.080884E-003	8.286783E-002	-1.296680E-002	8.292555E-002	-1.297622E-002	-1.115403E-001	1.599261E-002
4.700000E+008	5.324855E-002	-8.247840E-003	8.280334E-002	-1.321933E-002	8.285060E-002	-1.324000E-002	-1.113754E-001	1.637545E-002
4.800000E+008	5.315903E-002	-8.377798E-003	8.273686E-002	-1.347996E-002	8.278302E-002	-1.348789E-002	-1.112344E-001	1.675418E-002
4.900000E+008	5.303605E-002	-8.526960E-003	8.266748E-002	-1.374100E-002	8.272220E-002	-1.375440E-002	-1.110870E-001	1.712108E-002
5.000000E+008	5.293439E-002	-8.655438E-003	8.260836E-002	-1.400409E-002	8.267712E-002	-1.400893E-002	-1.109060E-001	1.747537E-002
5.100000E+008	5.283581E-002	-8.807823E-003	8.254383E-002	-1.428326E-002	8.260743E-002	-1.426066E-002	-1.107397E-001	1.782737E-002
5.200000E+008	5.270077E-002	-8.964832E-003	8.248268E-002	-1.453913E-002	8.254150E-002	-1.452974E-002	-1.105343E-001	1.819576E-002
5.300000E+008	5.256774E-002	-9.157787E-003	8.240946E-002	-1.481324E-002	8.249064E-002	-1.481429E-002	-1.102896E-001	1.853124E-002
5.400000E+008	5.242709E-002	-9.373348E-003	8.234313E-002	-1.507016E-002	8.240376E-002	-1.508350E-002	-1.100670E-001	1.889141E-002
5.500000E+008	5.229524E-002	-9.562568E-003	8.227214E-002	-1.533635E-002	8.232291E-002	-1.532892E-002	-1.098362E-001	1.926066E-002
5.600000E+008	5.217833E-002	-9.781359E-003	8.219247E-002	-1.559138E-002	8.224667E-002	-1.558950E-002	-1.096217E-001	1.965180E-002
5.700000E+008	5.207147E-002	-1.000793E-002	8.212044E-002	-1.583280E-002	8.218972E-002	-1.584529E-002	-1.094574E-001	2.006625E-002
5.800000E+008	5.197094E-002	-1.020943E-002	8.205840E-002	-1.611350E-002	8.211865E-002	-1.610255E-002	-1.092649E-001	2.050016E-002
5.900000E+008	5.188443E-002	-1.043047E-002	8.199169E-002	-1.637549E-002	8.205842E-002	-1.637119E-002	-1.090743E-001	2.097114E-002
6.000000E+008	5.185200E-002	-1.066510E-002	8.190308E-002	-1.662872E-002	8.197987E-002	-1.663793E-002	-1.088718E-001	2.136247E-002
6.100000E+008	5.181574E-002	-1.083508E-002	8.183281E-002	-1.686898E-002	8.188242E-002	-1.691270E-002	-1.087117E-001	2.175506E-002
6.200000E+008	5.178569E-002	-1.098938E-002	8.175216E-002	-1.713013E-002	8.181570E-002	-1.714516E-002	-1.085131E-001	2.216467E-002
6.300000E+008	5.175241E-002	-1.113879E-002	8.166748E-002	-1.739255E-002	8.174587E-002	-1.739735E-002	-1.083463E-001	2.255469E-002
6.400000E+008	5.173456E-002	-1.126843E-002	8.160176E-002	-1.765223E-002	8.166829E-002	-1.765615E-002	-1.081719E-001	2.294653E-002
6.500000E+008	5.167698E-002	-1.138739E-002	8.151507E-002	-1.789667E-002	8.158292E-002	-1.790608E-002	-1.079793E-001	2.335346E-002
6.600000E+008	5.162793E-002	-1.152393E-002	8.143928E-002	-1.816131E-002	8.150223E-002	-1.815799E-002	-1.077687E-001	2.377596E-002
6.700000E+008	5.151323E-002	-1.160442E-002	8.137202E-002	-1.841482E-002	8.142471E-002	-1.841552E-002	-1.076036E-001	2.419639E-002
6.800000E+008	5.139963E-002	-1.172535E-002	8.129451E-002	-1.865988E-002	8.133864E-002	-1.866373E-002	-1.074231E-001	2.462456E-002
6.900000E+008	5.129160E-002	-1.181270E-002	8.120531E-002	-1.890475E-002	8.125372E-002	-1.891784E-002	-1.072327E-001	2.508616E-002
7.000000E+008	5.118095E-002	-1.194244E-002	8.111791E-002	-1.914645E-002	8.117661E-002	-1.916249E-002	-1.070910E-001	2.551735E-002
7.100000E+008	5.106240E-002	-1.206017E-002	8.103427E-002	-1.939763E-002	8.110315E-002	-1.941753E-002	-1.069782E-001	2.593820E-002
7.200000E+008	5.093440E-002	-1.219583E-002	8.097043E-002	-1.965470E-002	8.102371E-002	-1.966948E-002	-1.068427E-001	2.635113E-002
7.300000E+008	5.081696E-002	-1.234021E-002	8.089234E-002	-1.991122E-002	8.094247E-002	-1.993022E-002	-1.067316E-001	2.672775E-002
7.400000E+008	5.068447E-002	-1.248522E-002	8.080339E-002	-2.016270E-002	8.087145E-002	-2.018287E-002	-1.066106E-001	2.710431E-002
7.500000E+008	5.056374E-002	-1.263367E-002	8.071931E-002	-2.041207E-002	8.077631E-002	-2.042803E-002	-1.064965E-001	2.743137E-002
7.600000E+008	5.045515E-002	-1.279408E-002	8.063941E-002	-2.066667E-002	8.068670E-002	-2.068581E-002	-1.063572E-001	2.780489E-002
7.700000E+008	5.033260E-002	-1.296847E-002	8.053644E-002	-2.090233E-002	8.061157E-002	-2.092503E-002	-1.062052E-001	2.809974E-002
7.800000E+008	5.023523E-002	-1.313412E-002	8.046746E-002	-2.115240E-002	8.053423E-002	-2.117707E-002	-1.060234E-001	2.843105E-002
7.900000E+008	5.011946E-002	-1.333888E-002	8.037992E-002	-2.141696E-002	8.044256E-002	-2.142922E-002	-1.058600E-001	2.878546E-002
8.000000E+008	5.003262E-002	-1.353136E-002	8.029214E-002	-2.164900E-002	8.036005E-002	-2.167468E-002	-1.056429E-001	2.913614E-002
8.100000E+008	4.994487E-002	-1.371282E-002	8.018783E-002	-2.189779E-002	8.025458E-002	-2.192225E-002	-1.053829E-001	2.952010E-002
8.200000E+008	4.992282E-002	-1.387344E-002	8.011981E-002	-2.214546E-002	8.016291E-002	-2.216281E-002	-1.051711E-001	2.989250E-002
8.300000E+008	4.986277E-002	-1.403907E-002	8.000643E-002	-2.239247E-002	8.007500E-002	-2.240901E-002	-1.049580E-001	3.027804E-002
8.400000E+008	4.982517E-002	-1.418846E-002	7.992891E-002	-2.262898E-002	7.999057E-002	-2.264710E-002	-1.047617E-001	3.065205E-002
8.500000E+008	4.980002E-002	-1.431814E-002	7.985182E-002	-2.289219E-002	7.990257E-002	-2.290071E-002	-1.046084E-001	3.104862E-002
8.600000E+008	4.974684E-002	-1.442811E-002	7.974740E-002	-2.312806E-002	7.981785E-002	-2.315959E-002	-1.044420E-001	3.143958E-002
8.700000E+008	4.969271E-002	-1.451413E-002	7.966380E-002	-2.337546E-002	7.971146E-002	-2.338570E-002	-1.042940E-001	3.180825E-002
8.800000E+008	4.963299E-002	-1.460902E-002	7.955564E-002	-2.363484E-002	7.961719E-002	-2.362785E-002	-1.041286E-001	3.216543E-002
8.900000E+008	4.952144E-002	-1.468841E-002	7.948146E-002	-2.386495E-002	7.955634E-002	-2.388807E-002	-1.039782E-001	3.248887E-002
9.000000E+008	4.942823E-002	-1.478502E-002	7.936812E-002	-2.409590E-002	7.944481E-002	-2.410936E-002	-1.037864E-001	3.284262E-002
9.100000E+008	4.930119E-002	-1.490792E-002	7.926827E-002	-2.434233E-002	7.935546E-002	-2.436262E-002	-1.035615E-001	3.314843E-002
9.200000E+008	4.918987E-002	-1.502549E-002	7.919096E-002	-2.458426E-002	7.925812E-002	-2.460842E-002	-1.033021E-001	3.350111E-002
9.300000E+008	4.910789E-002	-1.517061E-002	7.909406E-002	-2.481278E-002	7.915498E-002	-2.484388E-002	-1.030319E-001	3.385062E-002
9.400000E+008	4.901962E-002	-1.532007E-002	7.901180E-002	-2.505689E-002	7.905859E-002	-2.507728E-002	-1.027218E-001	3.423051E-002
9.500000E+008	4.897743E-002	-1.547532E-002	7.890152E-002	-2.529590E-002	7.896071E-002	-2.532581E-002	-1.023984E-001	3.464441E-002
9.600000E+008	4.889182E-002	-1.558862E-002	7.880575E-002	-2.554269E-002	7.887930E-002	-2.556752E-002	-1.020811E-001	3.506740E-002
9.700000E+008	4.885172E-002	-1.571324E-002	7.869843E-002	-2.576847E-002	7.876022E-002	-2.581705E-002	-1.017992E-001	3.549155E-002
9.800000E+008	4.880205E-002	-1.580312E-002	7.861656E-002	-2.601134E-002	7.868411E-002	-2.605295E-002	-1.015259E-001	3.597302E-002
9.900000E+008	4.878349E-002	-1.588291E-002	7.852504E-002	-2.625628E-002	7.859642E-002	-2.628274E-002	-1.012635E-001	3.641038E-002
1.000000E+009	4.870016E-002	-1.594909E-002	7.842705E-002	-2.648157E-002	7.848208E-002	-2.651816E-002	-1.010576E-001	3.685543E-002
1.010000E+009	4.862956E-002	-1.600646E-002	7.833034E-002	-2.672503E-002	7.840344E-002	-2.677839E-002	-1.008321E-001	3.731873E-002
1.020000E+009	4.853529E-002	-1.608027E-002	7.823168E-002	-2.697597E-002	7.828757E-002	-2.699739E-002	-1.006574E-001	3.775652E-002
1.030000E+009	4.846164E-002	-1.613748E-002	7.811921E-002	-2.721454E-002	7.819004E-002	-2.725008E-002	-1.004360E-001	3.818704E-002
1.040000E+009	4.833978E-002	-1.620955E-002	7.801579E-002	-2.744860E-002	7.808237E-002	-2.748902E-002	-1.002403E-001	3.860437E-002
1.050000E+009	4.826214E-002	-1.630063E-002	7.792476E-002	-2.767177E-002	7.796803E-002	-2.770537E-002	-9.999434E-002	3.907759E-002
1.060000E+009	4.817608E-002	-1.636595E-002	7.781770E-002	-2.792024E-002	7.787708E-002	-2.793234E-002	-9.975682E-002	3.948041E-002
1.070000E+009	4.806030E-002	-1.647103E-002	7.771178E-002	-2.815628E-002	7.778789E-002	-2.817157E-002	-9.949504E-002	3.993155E-002
1.080000E+009	4.797150E-002	-1.655276E-002	7.760739E-002	-2.839997E-002	7.767789E-002	-2.840317E-002	-9.923919E-002	4.039541E-002
1.090000E+009	4.788250E-002	-1.664822E-002	7.751356E-002	-2.861210E-002	7.757463E-002	-2.864879E-002	-9.901138E-002	4.080956E-002
1.100000E+009	4.782451E-002	-1.674191E-002	7.739613E-002	-2.885904E-002	7.745888E-002	-2.888259E-002	-9.877883E-002	4.125153E-002
1.110000E+009	4.770667E-002	-1.681430E-002	7.729932E-002	-2.909864E-002	7.736650E-002	-2.911946E-002	-9.856177E-002	4.170168E-002
1.120000E+009	4.760896E-002	-1.688915E-002	7.719249E-002	-2.934195E-002	7.725783E-002	-2.935675E-002	-9.840085E-002	4.209389E-002
1.130000E+009	4.752888E-002	-1.698561E-002	7.707365E-002	-2.958673E-002	7.715863E-002	-2.958428E-002	-9.819253E-002	4.251657E-002
1.140000E+009	4.740062E-002	-1.704752E-002	7.698261E-002	-2.981832E-002	7.703933E-002	-2.983627E-002	-9.798479E-002	4.294131E-002
1.150000E+009	4.730930E-002	-1.714637E-002	7.686361E-002	-3.004053E-002	7.693681E-002	-3.006078E-002	-9.774081E-002	4.336756E-002
1.160000E+009	4.721290E-002	-1.722414E-002	7.675637E-002	-3.026516E-002	7.682722E-002	-3.029217E-002	-9.750884E-002	4.375585E-002
1.170000E+009	4.712963E-002	-1.730980E-002	7.664235E-002	-3.052139E-002	7.670447E-002	-3.053465E-002	-9.727280E-002	4.421592E-002
1.180000E+009	4.702383E-002	-1.739408E-002	7.652898E-002	-3.073668E-002	7.658676E-002	-3.074996E-002	-9.698785E-002	4.463006E-002
1.190000E+009	4.692673E-002	-1.747213E-002	7.640259E-002	-3.097651E-002	7.646646E-002	-3.099603E-002	-9.672266E-002	4.509664E-002
1.200000E+009	4.680900E-002	-1.757244E-002	7.629886E-002	-3.121640E-002	7.636076E-002	-3.122103E-002	-9.645608E-002	4.555982E-002
1.210000E+009	4.673719E-002	-1.769837E-002	7.618328E-002	-3.142926E-002	7.624760E-002	-3.145767E-002	-9.622636E-002	4.603671E-002
1.220000E+009	4.665910E-002	-1.779695E-002	7.607144E-002	-3.166003E-002	7.613810E-002	-3.168294E-002	-9.601473E-002	4.648720E-002
1.230000E+009	4.655166E-002	-1.791399E-002	7.595274E-002	-3.190997E-002	7.602235E-002	-3.191643E-002	-9.579116E-002	4.691239E-002
1.240000E+009	4.647556E-002	-1.802341E-002	7.582739E-002	-3.212249E-002	7.589465E-002	-3.215895E-002	-9.559618E-002	4.731847E-002
1.250000E+009	4.642325E-002	-1.813477E-002	7.572538E-002	-3.236899E-002	7.579360E-002	-3.237813E-002	-9.539434E-002	4.771473E-002
1.260000E+009	4.632821E-002	-1.824842E-002	7.561204E-002	-3.259310E-002	7.567340E-002	-3.260922E-002	-9.515370E-002	4.807095E-002
1.270000E+009	4.634180E-002	-1.833978E-002	7.548038E-002	-3.282325E-002	7.554512E-002	-3.283525E-002	-9.489930E-002	4.844239E-002
1.280000E+009	4.626740E-002	-1.841896E-002	7.537455E-002	-3.305385E-002	7.546097E-002	-3.306993E-002	-9.462668E-002	4.879441E-002
1.290000E+009	4.622745E-002	-1.848882E-002	7.526217E-002	-3.328389E-002	7.531267E-002	-3.330921E-002	-9.430257E-002	4.916324E-002
1.300000E+009	4.619511E-002	-1.853080E-002	7.512219E-002	-3.352624E-002	7.520002E-002	-3.351518E-002	-9.399067E-002	4.956050E-002
1.310000E+009	4.612757E-002	-1.859387E-002	7.501445E-002	-3.374100E-002	7.507424E-002	-3.376270E-002	-9.364983E-002	4.997033E-002
1.320000E+009	4.604149E-002	-1.864358E-002	7.487248E-002	-3.396760E-002	7.495240E-002	-3.399897E-002	-9.324812E-002	5.043030E-002
1.330000E+009	4.598499E-002	-1.866490E-002	7.475149E-002	-3.418493E-002	7.482807E-002	-3.422122E-002	-9.286691E-002	5.090479E-002
1.340000E+009	4.587802E-002	-1.869903E-002	7.461939E-002	-3.441043E-002	7.469550E-002	-3.444174E-002	-9.248276E-002	5.141953E-002
1.350000E+009	4.576356E-002	-1.875669E-002	7.451693E-002	-3.465381E-002	7.456651E-002	-3.467022E-002	-9.214623E-002	5.194716E-002
1.360000E+009	4.572216E-002	-1.878568E-002	7.436364E-002	-3.487057E-002	7.445614E-002	-3.490047E-002	-9.180626E-002	5.252216E-002
1.370000E+009	4.562103E-002	-1.884789E-002	7.424191E-002	-3.510398E-002	7.432626E-002	-3.514513E-002	-9.150121E-002	5.307074E-002
1.380000E+009	4.554246E-002	-1.889579E-002	7.413277E-002	-3.530712E-002	7.417886E-002	-3.536037E-002	-9.119686E-002	5.363558E-002
1.390000E+009	4.547419E-002	-1.897286E-002	7.399657E-002	-3.555919E-002	7.404374E-002	-3.558265E-002	-9.093153E-002	5.420902E-002
1.400000E+009	4.537984E-002	-1.903307E-002	7.387526E-002	-3.579020E-002	7.392744E-002	-3.579078E-002	-9.068949E-002	5.472542E-002
1.410000E+009	4.528536E-002	-1.906105E-002	7.372226E-002	-3.600486E-002	7.378967E-002	-3.603108E-002	-9.042399E-002	5.526587E-002
1.420000E+009	4.520464E-002	-1.908348E-002	7.358087E-002	-3.621234E-002	7.367640E-002	-3.623092E-002	-9.016246E-002	5.574673E-002
1.430000E+009	4.512249E-002	-1.913691E-002	7.345275E-002	-3.643462E-002	7.353341E-002	-3.646024E-002	-8.989522E-002	5.622001E-002
1.440000E+009	4.500075E-002	-1.918164E-002	7.333074E-002	-3.664593E-002	7.338853E-002	-3.667753E-002	-8.961990E-002	5.672334E-002
1.450000E+009	4.490273E-002	-1.921667E-002	7.318989E-002	-3.687184E-002	7.325546E-002	-3.688965E-002	-8.929549E-002	5.720042E-002
1.460000E+009	4.477664E-002	-1.925154E-002	7.305265E-002	-3.711625E-002	7.311705E-002	-3.713757E-002	-8.901651E-002	5.769011E-002
1.470000E+009	4.469256E-002	-1.933594E-002	7.292431E-002	-3.732448E-002	7.297147E-002	-3.734235E-002	-8.870002E-002	5.821735E-002
1.480000E+009	4.458413E-002	-1.937250E-002	7.278633E-002	-3.753244E-002	7.283109E-002	-3.757870E-002	-8.835653E-002	5.875727E-002
1.490000E+009	4.448150E-002	-1.943321E-002	7.262541E-002	-3.774455E-002	7.269967E-002	-3.776510E-002	-8.801381E-002	5.931148E-002
1.500000E+009	4.438609E-002	-1.950724E-002	7.250556E-002	-3.796027E-002	7.258016E-002	-3.798884E-002	-8.765796E-002	5.987127E-002
