! Device ID: PE43711P
! File Path: z:\PE43711P\CHAR_NOM_04282014\AMB\3p300\LS_ATT_10p25dB\PE43711P_AMB_3p300V_3p000V_0p000V_LS_ATT_10p25dB_S2P_SN_5_A0137A.s2p
! Serial: 5
! Lot: A0137A
! Temp: 25C
! VDD: 3.300
! VSS: 0.000
! Control_Hi: 3.000
! Control_Lo: 0.000
! Attenuation Step: 10.25dB
! Port 1: RF1
! Port 2: RF2
! ThroughPath:1-2
! IDD: 0.0001274816
! ISS: -3.49e-008
!

#  Hz  S   RI  R   50

1.000000E+007	8.432300E-002	-2.194051E-004	2.696131E-001	-1.316088E-003	2.699390E-001	-1.337712E-003	-9.375310E-002	7.672489E-004
2.000000E+007	8.450550E-002	-4.850053E-004	2.696617E-001	-2.193016E-003	2.698013E-001	-2.218761E-003	-9.350779E-002	1.275954E-003
3.000000E+007	8.477506E-002	-9.150463E-004	2.696527E-001	-3.277375E-003	2.698341E-001	-3.304977E-003	-9.322229E-002	1.669234E-003
4.000000E+007	8.486642E-002	-1.341464E-003	2.696455E-001	-4.394532E-003	2.697877E-001	-4.407645E-003	-9.299837E-002	2.126296E-003
5.000000E+007	8.499641E-002	-1.803971E-003	2.696492E-001	-5.580762E-003	2.698602E-001	-5.541558E-003	-9.293007E-002	2.521616E-003
6.000000E+007	8.513436E-002	-2.326216E-003	2.695656E-001	-6.658709E-003	2.698207E-001	-6.645185E-003	-9.279400E-002	2.820825E-003
7.000000E+007	8.523169E-002	-2.852363E-003	2.695005E-001	-7.723057E-003	2.697319E-001	-7.731046E-003	-9.264118E-002	3.130085E-003
8.000000E+007	8.533358E-002	-3.366930E-003	2.694337E-001	-8.767401E-003	2.696745E-001	-8.778029E-003	-9.248804E-002	3.442612E-003
9.000000E+007	8.540972E-002	-3.882769E-003	2.694001E-001	-9.848805E-003	2.695975E-001	-9.858756E-003	-9.234100E-002	3.693726E-003
1.000000E+008	8.549790E-002	-4.383395E-003	2.693468E-001	-1.095487E-002	2.695315E-001	-1.094052E-002	-9.224899E-002	3.953800E-003
1.100000E+008	8.554154E-002	-4.897782E-003	2.692486E-001	-1.206099E-002	2.694632E-001	-1.202127E-002	-9.215291E-002	4.186605E-003
1.200000E+008	8.561150E-002	-5.441321E-003	2.691029E-001	-1.313816E-002	2.693519E-001	-1.311912E-002	-9.210717E-002	4.399830E-003
1.300000E+008	8.565748E-002	-5.986509E-003	2.690139E-001	-1.418627E-002	2.692665E-001	-1.419281E-002	-9.198761E-002	4.595815E-003
1.400000E+008	8.566189E-002	-6.506929E-003	2.689256E-001	-1.526246E-002	2.691515E-001	-1.529578E-002	-9.180189E-002	4.771739E-003
1.500000E+008	8.559076E-002	-7.011245E-003	2.688183E-001	-1.630158E-002	2.689826E-001	-1.631597E-002	-9.164206E-002	4.969236E-003
1.600000E+008	8.551025E-002	-7.452379E-003	2.687584E-001	-1.732778E-002	2.688592E-001	-1.733004E-002	-9.163731E-002	5.173539E-003
1.700000E+008	8.547186E-002	-7.904325E-003	2.686363E-001	-1.846005E-002	2.688726E-001	-1.839317E-002	-9.169454E-002	5.367058E-003
1.800000E+008	8.534514E-002	-8.401371E-003	2.684004E-001	-1.959334E-002	2.687566E-001	-1.954404E-002	-9.169887E-002	5.540289E-003
1.900000E+008	8.522147E-002	-8.951077E-003	2.681933E-001	-2.060377E-002	2.685603E-001	-2.059844E-002	-9.165186E-002	5.678534E-003
2.000000E+008	8.511348E-002	-9.491085E-003	2.680788E-001	-2.162930E-002	2.683967E-001	-2.161067E-002	-9.153326E-002	5.811570E-003
2.100000E+008	8.498351E-002	-1.009661E-002	2.679745E-001	-2.264328E-002	2.682308E-001	-2.264127E-002	-9.136771E-002	5.931144E-003
2.200000E+008	8.487725E-002	-1.066156E-002	2.678459E-001	-2.362564E-002	2.680767E-001	-2.365420E-002	-9.122023E-002	6.022046E-003
2.300000E+008	8.474623E-002	-1.121970E-002	2.676996E-001	-2.468860E-002	2.679301E-001	-2.469162E-002	-9.109556E-002	6.119072E-003
2.400000E+008	8.461515E-002	-1.177539E-002	2.675609E-001	-2.573330E-002	2.677537E-001	-2.573208E-002	-9.097675E-002	6.218396E-003
2.500000E+008	8.448326E-002	-1.229770E-002	2.673702E-001	-2.678635E-002	2.675815E-001	-2.676384E-002	-9.082780E-002	6.303208E-003
2.600000E+008	8.438702E-002	-1.286508E-002	2.671629E-001	-2.784816E-002	2.674086E-001	-2.781037E-002	-9.064387E-002	6.458985E-003
2.700000E+008	8.428284E-002	-1.341236E-002	2.669526E-001	-2.884209E-002	2.672253E-001	-2.885494E-002	-9.043130E-002	6.636734E-003
2.800000E+008	8.421169E-002	-1.390406E-002	2.667601E-001	-2.983680E-002	2.670249E-001	-2.982886E-002	-9.022490E-002	6.810301E-003
2.900000E+008	8.407584E-002	-1.435146E-002	2.666170E-001	-3.084185E-002	2.668203E-001	-3.082001E-002	-9.008856E-002	7.019076E-003
3.000000E+008	8.397732E-002	-1.478835E-002	2.664719E-001	-3.188476E-002	2.666889E-001	-3.184194E-002	-8.994580E-002	7.247912E-003
3.100000E+008	8.383064E-002	-1.520121E-002	2.662704E-001	-3.290388E-002	2.664972E-001	-3.286410E-002	-8.982936E-002	7.506001E-003
3.200000E+008	8.368116E-002	-1.560225E-002	2.660788E-001	-3.394407E-002	2.663132E-001	-3.390256E-002	-8.975187E-002	7.733490E-003
3.300000E+008	8.348060E-002	-1.601946E-002	2.658792E-001	-3.495962E-002	2.661301E-001	-3.497800E-002	-8.965810E-002	7.953178E-003
3.400000E+008	8.320532E-002	-1.643954E-002	2.656476E-001	-3.598627E-002	2.658210E-001	-3.604718E-002	-8.953906E-002	8.119055E-003
3.500000E+008	8.292910E-002	-1.687617E-002	2.654515E-001	-3.701806E-002	2.655339E-001	-3.699610E-002	-8.940495E-002	8.236027E-003
3.600000E+008	8.268975E-002	-1.729618E-002	2.652175E-001	-3.801306E-002	2.653131E-001	-3.791575E-002	-8.926342E-002	8.382079E-003
3.700000E+008	8.244117E-002	-1.773613E-002	2.649593E-001	-3.896117E-002	2.651483E-001	-3.882677E-002	-8.907968E-002	8.508816E-003
3.800000E+008	8.218046E-002	-1.821260E-002	2.647471E-001	-3.994731E-002	2.649929E-001	-3.985739E-002	-8.891515E-002	8.652970E-003
3.900000E+008	8.195400E-002	-1.871434E-002	2.644789E-001	-4.097328E-002	2.647610E-001	-4.089694E-002	-8.864467E-002	8.839351E-003
4.000000E+008	8.173791E-002	-1.921587E-002	2.642009E-001	-4.190275E-002	2.645228E-001	-4.192067E-002	-8.837180E-002	9.031538E-003
4.100000E+008	8.149685E-002	-1.970224E-002	2.639845E-001	-4.282813E-002	2.642617E-001	-4.289322E-002	-8.811143E-002	9.233863E-003
4.200000E+008	8.125085E-002	-2.018078E-002	2.638075E-001	-4.382264E-002	2.640008E-001	-4.384864E-002	-8.791352E-002	9.460864E-003
4.300000E+008	8.105304E-002	-2.061107E-002	2.635926E-001	-4.481521E-002	2.637691E-001	-4.483196E-002	-8.770550E-002	9.739939E-003
4.400000E+008	8.085146E-002	-2.101806E-002	2.633487E-001	-4.582318E-002	2.635438E-001	-4.581050E-002	-8.753242E-002	1.005599E-002
4.500000E+008	8.065627E-002	-2.144599E-002	2.631047E-001	-4.678544E-002	2.633164E-001	-4.680566E-002	-8.735310E-002	1.041418E-002
4.600000E+008	8.044523E-002	-2.187283E-002	2.628432E-001	-4.779348E-002	2.630475E-001	-4.779858E-002	-8.720992E-002	1.075198E-002
4.700000E+008	8.020452E-002	-2.225714E-002	2.625721E-001	-4.874744E-002	2.627581E-001	-4.878364E-002	-8.707418E-002	1.102092E-002
4.800000E+008	7.995290E-002	-2.261722E-002	2.623182E-001	-4.968802E-002	2.624907E-001	-4.970424E-002	-8.697682E-002	1.131844E-002
4.900000E+008	7.966748E-002	-2.298137E-002	2.620583E-001	-5.065679E-002	2.622123E-001	-5.067308E-002	-8.685698E-002	1.159501E-002
5.000000E+008	7.941846E-002	-2.334723E-002	2.617888E-001	-5.160599E-002	2.619697E-001	-5.161761E-002	-8.673242E-002	1.184606E-002
5.100000E+008	7.918095E-002	-2.373569E-002	2.615352E-001	-5.258119E-002	2.617406E-001	-5.255675E-002	-8.657513E-002	1.208995E-002
5.200000E+008	7.888908E-002	-2.416278E-002	2.612604E-001	-5.353820E-002	2.614986E-001	-5.354712E-002	-8.641236E-002	1.234276E-002
5.300000E+008	7.861458E-002	-2.456973E-002	2.609846E-001	-5.450071E-002	2.612131E-001	-5.453391E-002	-8.616950E-002	1.257959E-002
5.400000E+008	7.832664E-002	-2.504011E-002	2.606882E-001	-5.546578E-002	2.609146E-001	-5.549704E-002	-8.596982E-002	1.280671E-002
5.500000E+008	7.801758E-002	-2.542906E-002	2.604159E-001	-5.640882E-002	2.606031E-001	-5.644584E-002	-8.579113E-002	1.307541E-002
5.600000E+008	7.773916E-002	-2.583925E-002	2.601269E-001	-5.736254E-002	2.602875E-001	-5.737920E-002	-8.559343E-002	1.337237E-002
5.700000E+008	7.748008E-002	-2.628122E-002	2.598190E-001	-5.827986E-002	2.600074E-001	-5.832079E-002	-8.548015E-002	1.371570E-002
5.800000E+008	7.723524E-002	-2.666106E-002	2.595329E-001	-5.923510E-002	2.597418E-001	-5.925918E-002	-8.535312E-002	1.403132E-002
5.900000E+008	7.699269E-002	-2.710685E-002	2.592207E-001	-6.020165E-002	2.594511E-001	-6.024978E-002	-8.522812E-002	1.438779E-002
6.000000E+008	7.678249E-002	-2.752893E-002	2.589473E-001	-6.114036E-002	2.591315E-001	-6.120142E-002	-8.506336E-002	1.467566E-002
6.100000E+008	7.656982E-002	-2.792213E-002	2.586313E-001	-6.206043E-002	2.587977E-001	-6.212820E-002	-8.495448E-002	1.498585E-002
6.200000E+008	7.638184E-002	-2.829743E-002	2.582995E-001	-6.296826E-002	2.584975E-001	-6.303316E-002	-8.481590E-002	1.527824E-002
6.300000E+008	7.619168E-002	-2.864966E-002	2.579708E-001	-6.390376E-002	2.581795E-001	-6.396073E-002	-8.467757E-002	1.554741E-002
6.400000E+008	7.602911E-002	-2.900633E-002	2.576812E-001	-6.482302E-002	2.578595E-001	-6.488317E-002	-8.450973E-002	1.584844E-002
6.500000E+008	7.583803E-002	-2.930305E-002	2.573756E-001	-6.573877E-002	2.575690E-001	-6.580426E-002	-8.435539E-002	1.617971E-002
6.600000E+008	7.560616E-002	-2.964655E-002	2.570729E-001	-6.667676E-002	2.572572E-001	-6.673832E-002	-8.418854E-002	1.649503E-002
6.700000E+008	7.532049E-002	-2.992638E-002	2.567470E-001	-6.761453E-002	2.569177E-001	-6.766697E-002	-8.406991E-002	1.682889E-002
6.800000E+008	7.503571E-002	-3.022546E-002	2.564106E-001	-6.852159E-002	2.565928E-001	-6.859742E-002	-8.393879E-002	1.719213E-002
6.900000E+008	7.473701E-002	-3.049827E-002	2.560755E-001	-6.944249E-002	2.562434E-001	-6.947685E-002	-8.382448E-002	1.755401E-002
7.000000E+008	7.446097E-002	-3.081183E-002	2.557375E-001	-7.034628E-002	2.559462E-001	-7.038741E-002	-8.374460E-002	1.789494E-002
7.100000E+008	7.416253E-002	-3.112796E-002	2.554112E-001	-7.122161E-002	2.556213E-001	-7.130286E-002	-8.366907E-002	1.821072E-002
7.200000E+008	7.386323E-002	-3.146724E-002	2.550897E-001	-7.214167E-002	2.553006E-001	-7.222614E-002	-8.358225E-002	1.850874E-002
7.300000E+008	7.358059E-002	-3.181525E-002	2.547434E-001	-7.305602E-002	2.549837E-001	-7.314675E-002	-8.352361E-002	1.878650E-002
7.400000E+008	7.326558E-002	-3.213680E-002	2.544010E-001	-7.396968E-002	2.546181E-001	-7.402230E-002	-8.344861E-002	1.903972E-002
7.500000E+008	7.300327E-002	-3.247048E-002	2.540670E-001	-7.487838E-002	2.542771E-001	-7.496525E-002	-8.337581E-002	1.928101E-002
7.600000E+008	7.269348E-002	-3.281880E-002	2.537314E-001	-7.577743E-002	2.539414E-001	-7.584966E-002	-8.327311E-002	1.953284E-002
7.700000E+008	7.239650E-002	-3.315660E-002	2.533626E-001	-7.666075E-002	2.535854E-001	-7.673536E-002	-8.315633E-002	1.974891E-002
7.800000E+008	7.212153E-002	-3.350945E-002	2.530091E-001	-7.756613E-002	2.532559E-001	-7.765285E-002	-8.303399E-002	1.998104E-002
7.900000E+008	7.183928E-002	-3.387901E-002	2.526881E-001	-7.844662E-002	2.529058E-001	-7.856752E-002	-8.292266E-002	2.025466E-002
8.000000E+008	7.155711E-002	-3.424014E-002	2.523255E-001	-7.935592E-002	2.525090E-001	-7.944498E-002	-8.276862E-002	2.050414E-002
8.100000E+008	7.128761E-002	-3.461327E-002	2.519418E-001	-8.023621E-002	2.521384E-001	-8.034115E-002	-8.258172E-002	2.080417E-002
8.200000E+008	7.105965E-002	-3.493913E-002	2.515912E-001	-8.113398E-002	2.517860E-001	-8.120366E-002	-8.242356E-002	2.108635E-002
8.300000E+008	7.086219E-002	-3.527299E-002	2.512215E-001	-8.202110E-002	2.514545E-001	-8.210928E-002	-8.228996E-002	2.138337E-002
8.400000E+008	7.064293E-002	-3.559907E-002	2.508606E-001	-8.290422E-002	2.510645E-001	-8.301508E-002	-8.213947E-002	2.165991E-002
8.500000E+008	7.043907E-002	-3.590013E-002	2.505080E-001	-8.377176E-002	2.506942E-001	-8.388121E-002	-8.205119E-002	2.194884E-002
8.600000E+008	7.018168E-002	-3.619025E-002	2.501244E-001	-8.465480E-002	2.503225E-001	-8.475763E-002	-8.192787E-002	2.225499E-002
8.700000E+008	6.997473E-002	-3.642405E-002	2.497633E-001	-8.554953E-002	2.499359E-001	-8.564286E-002	-8.181003E-002	2.251416E-002
8.800000E+008	6.971794E-002	-3.668786E-002	2.493895E-001	-8.644042E-002	2.495967E-001	-8.650581E-002	-8.172292E-002	2.279676E-002
8.900000E+008	6.941186E-002	-3.693667E-002	2.489895E-001	-8.730473E-002	2.492035E-001	-8.739156E-002	-8.160241E-002	2.304770E-002
9.000000E+008	6.914726E-002	-3.720244E-002	2.486003E-001	-8.815716E-002	2.488285E-001	-8.827380E-002	-8.148198E-002	2.330643E-002
9.100000E+008	6.883027E-002	-3.746098E-002	2.482145E-001	-8.903787E-002	2.484511E-001	-8.914096E-002	-8.130030E-002	2.354656E-002
9.200000E+008	6.852182E-002	-3.774663E-002	2.478402E-001	-8.990373E-002	2.480804E-001	-9.002751E-002	-8.111632E-002	2.381354E-002
9.300000E+008	6.823825E-002	-3.803238E-002	2.474405E-001	-9.076578E-002	2.476521E-001	-9.089882E-002	-8.089997E-002	2.407343E-002
9.400000E+008	6.795984E-002	-3.834430E-002	2.470576E-001	-9.162181E-002	2.472665E-001	-9.174620E-002	-8.065740E-002	2.436238E-002
9.500000E+008	6.770472E-002	-3.862465E-002	2.466774E-001	-9.250232E-002	2.468624E-001	-9.262374E-002	-8.041598E-002	2.468134E-002
9.600000E+008	6.745236E-002	-3.888968E-002	2.462588E-001	-9.336772E-002	2.464658E-001	-9.348876E-002	-8.014914E-002	2.501600E-002
9.700000E+008	6.723765E-002	-3.915317E-002	2.458362E-001	-9.422031E-002	2.460753E-001	-9.433470E-002	-7.989037E-002	2.535698E-002
9.800000E+008	6.700819E-002	-3.939217E-002	2.454709E-001	-9.505860E-002	2.456784E-001	-9.520916E-002	-7.966944E-002	2.572752E-002
9.900000E+008	6.679624E-002	-3.963201E-002	2.450879E-001	-9.592061E-002	2.452899E-001	-9.607966E-002	-7.948300E-002	2.609069E-002
1.000000E+009	6.655047E-002	-3.983153E-002	2.446821E-001	-9.676288E-002	2.448675E-001	-9.692171E-002	-7.932374E-002	2.644773E-002
1.010000E+009	6.628815E-002	-4.001266E-002	2.442720E-001	-9.766227E-002	2.444783E-001	-9.777345E-002	-7.915722E-002	2.683194E-002
1.020000E+009	6.600192E-002	-4.019878E-002	2.438642E-001	-9.849683E-002	2.440379E-001	-9.862942E-002	-7.904972E-002	2.722219E-002
1.030000E+009	6.573394E-002	-4.039094E-002	2.434149E-001	-9.934868E-002	2.436446E-001	-9.948855E-002	-7.888134E-002	2.757087E-002
1.040000E+009	6.543800E-002	-4.058814E-002	2.430174E-001	-1.001973E-001	2.432154E-001	-1.003202E-001	-7.875727E-002	2.790722E-002
1.050000E+009	6.515308E-002	-4.084130E-002	2.426058E-001	-1.010308E-001	2.428103E-001	-1.011532E-001	-7.858072E-002	2.827517E-002
1.060000E+009	6.488371E-002	-4.107534E-002	2.421864E-001	-1.018764E-001	2.423805E-001	-1.019760E-001	-7.839789E-002	2.862985E-002
1.070000E+009	6.454858E-002	-4.128054E-002	2.417501E-001	-1.027105E-001	2.419629E-001	-1.028034E-001	-7.819968E-002	2.897095E-002
1.080000E+009	6.430587E-002	-4.152988E-002	2.413306E-001	-1.035731E-001	2.415485E-001	-1.036646E-001	-7.801647E-002	2.932965E-002
1.090000E+009	6.403517E-002	-4.173094E-002	2.408952E-001	-1.044144E-001	2.411283E-001	-1.045165E-001	-7.784792E-002	2.965376E-002
1.100000E+009	6.379414E-002	-4.195148E-002	2.404358E-001	-1.052363E-001	2.406744E-001	-1.053407E-001	-7.767926E-002	3.003233E-002
1.110000E+009	6.353964E-002	-4.215891E-002	2.400143E-001	-1.060737E-001	2.402548E-001	-1.061965E-001	-7.749492E-002	3.037764E-002
1.120000E+009	6.323811E-002	-4.235916E-002	2.396122E-001	-1.069183E-001	2.397945E-001	-1.070494E-001	-7.739671E-002	3.071635E-002
1.130000E+009	6.296639E-002	-4.256497E-002	2.391543E-001	-1.077397E-001	2.393742E-001	-1.078659E-001	-7.725749E-002	3.108156E-002
1.140000E+009	6.266329E-002	-4.274776E-002	2.387144E-001	-1.085948E-001	2.389350E-001	-1.086997E-001	-7.710865E-002	3.142714E-002
1.150000E+009	6.237564E-002	-4.295893E-002	2.382603E-001	-1.094218E-001	2.384517E-001	-1.095303E-001	-7.694403E-002	3.176627E-002
1.160000E+009	6.204585E-002	-4.315094E-002	2.377988E-001	-1.102660E-001	2.380237E-001	-1.103678E-001	-7.678797E-002	3.207918E-002
1.170000E+009	6.177682E-002	-4.337336E-002	2.373556E-001	-1.110814E-001	2.375659E-001	-1.111753E-001	-7.662140E-002	3.246906E-002
1.180000E+009	6.151761E-002	-4.358237E-002	2.368682E-001	-1.118963E-001	2.371096E-001	-1.120103E-001	-7.639623E-002	3.280856E-002
1.190000E+009	6.120309E-002	-4.380111E-002	2.364149E-001	-1.127444E-001	2.366279E-001	-1.128378E-001	-7.622702E-002	3.319640E-002
1.200000E+009	6.091343E-002	-4.397338E-002	2.359793E-001	-1.135504E-001	2.361638E-001	-1.136519E-001	-7.601517E-002	3.356779E-002
1.210000E+009	6.065844E-002	-4.421571E-002	2.354915E-001	-1.143785E-001	2.356855E-001	-1.144661E-001	-7.583740E-002	3.396769E-002
1.220000E+009	6.039277E-002	-4.445921E-002	2.350424E-001	-1.151898E-001	2.352245E-001	-1.152816E-001	-7.567650E-002	3.432747E-002
1.230000E+009	6.011834E-002	-4.465612E-002	2.345491E-001	-1.160172E-001	2.347509E-001	-1.160910E-001	-7.551292E-002	3.467367E-002
1.240000E+009	5.985092E-002	-4.488868E-002	2.340833E-001	-1.168045E-001	2.342782E-001	-1.168997E-001	-7.537485E-002	3.500535E-002
1.250000E+009	5.958893E-002	-4.510355E-002	2.336099E-001	-1.176259E-001	2.338302E-001	-1.177394E-001	-7.526692E-002	3.535356E-002
1.260000E+009	5.931366E-002	-4.532247E-002	2.331027E-001	-1.184353E-001	2.333255E-001	-1.185674E-001	-7.509357E-002	3.566407E-002
1.270000E+009	5.911786E-002	-4.550765E-002	2.326502E-001	-1.192438E-001	2.328470E-001	-1.193390E-001	-7.489431E-002	3.595218E-002
1.280000E+009	5.883389E-002	-4.569202E-002	2.321637E-001	-1.200648E-001	2.323690E-001	-1.201612E-001	-7.473428E-002	3.623861E-002
1.290000E+009	5.858837E-002	-4.586868E-002	2.316550E-001	-1.208907E-001	2.318809E-001	-1.209818E-001	-7.447582E-002	3.651012E-002
1.300000E+009	5.834264E-002	-4.603261E-002	2.311521E-001	-1.216676E-001	2.313958E-001	-1.217736E-001	-7.422593E-002	3.683298E-002
1.310000E+009	5.809638E-002	-4.619175E-002	2.306494E-001	-1.224712E-001	2.308747E-001	-1.225924E-001	-7.396494E-002	3.716634E-002
1.320000E+009	5.779692E-002	-4.632709E-002	2.301646E-001	-1.232875E-001	2.303930E-001	-1.233861E-001	-7.364397E-002	3.753876E-002
1.330000E+009	5.756902E-002	-4.646263E-002	2.296845E-001	-1.240693E-001	2.298958E-001	-1.242140E-001	-7.330432E-002	3.796413E-002
1.340000E+009	5.726637E-002	-4.656318E-002	2.291635E-001	-1.248574E-001	2.293803E-001	-1.249745E-001	-7.300446E-002	3.843100E-002
1.350000E+009	5.697049E-002	-4.670673E-002	2.286483E-001	-1.256615E-001	2.288297E-001	-1.257856E-001	-7.273909E-002	3.888813E-002
1.360000E+009	5.672082E-002	-4.683523E-002	2.281193E-001	-1.264423E-001	2.283621E-001	-1.265894E-001	-7.243256E-002	3.941547E-002
1.370000E+009	5.644462E-002	-4.696633E-002	2.276191E-001	-1.272292E-001	2.278370E-001	-1.273484E-001	-7.220853E-002	3.990199E-002
1.380000E+009	5.616215E-002	-4.711595E-002	2.271031E-001	-1.280277E-001	2.273088E-001	-1.281405E-001	-7.198718E-002	4.040259E-002
1.390000E+009	5.587860E-002	-4.726406E-002	2.265591E-001	-1.287992E-001	2.267694E-001	-1.289481E-001	-7.182304E-002	4.089472E-002
1.400000E+009	5.559928E-002	-4.740511E-002	2.260333E-001	-1.295799E-001	2.262467E-001	-1.296991E-001	-7.163047E-002	4.136490E-002
1.410000E+009	5.531222E-002	-4.753689E-002	2.255126E-001	-1.303735E-001	2.257134E-001	-1.304775E-001	-7.144720E-002	4.182597E-002
1.420000E+009	5.500518E-002	-4.766110E-002	2.249587E-001	-1.311347E-001	2.252157E-001	-1.312419E-001	-7.127845E-002	4.228041E-002
1.430000E+009	5.474635E-002	-4.779852E-002	2.244584E-001	-1.319023E-001	2.246728E-001	-1.320220E-001	-7.106682E-002	4.269195E-002
1.440000E+009	5.445115E-002	-4.792076E-002	2.239105E-001	-1.326615E-001	2.241319E-001	-1.327932E-001	-7.086929E-002	4.309679E-002
1.450000E+009	5.415742E-002	-4.803556E-002	2.233474E-001	-1.334378E-001	2.235809E-001	-1.335567E-001	-7.062998E-002	4.352874E-002
1.460000E+009	5.384204E-002	-4.815945E-002	2.228205E-001	-1.342018E-001	2.230137E-001	-1.343384E-001	-7.038273E-002	4.396196E-002
1.470000E+009	5.356282E-002	-4.828525E-002	2.222613E-001	-1.349845E-001	2.224737E-001	-1.351156E-001	-7.015643E-002	4.445480E-002
1.480000E+009	5.324133E-002	-4.839579E-002	2.216898E-001	-1.357229E-001	2.219025E-001	-1.358351E-001	-6.990368E-002	4.496557E-002
1.490000E+009	5.295642E-002	-4.849655E-002	2.211476E-001	-1.364727E-001	2.213743E-001	-1.365928E-001	-6.963803E-002	4.547898E-002
1.500000E+009	5.267336E-002	-4.864781E-002	2.206052E-001	-1.372153E-001	2.208164E-001	-1.373584E-001	-6.935682E-002	4.596515E-002
