! Device ID: PE43711P
! File Path: z:\PE43711P\CHAR_NOM_04282014\AMB\3p300\LS_ATT_27p00dB\PE43711P_AMB_3p300V_3p000V_0p000V_LS_ATT_27p00dB_S2P_SN_5_A0137A.s2p
! Serial: 5
! Lot: A0137A
! Temp: 25C
! VDD: 3.300
! VSS: 0.000
! Control_Hi: 3.000
! Control_Lo: 0.000
! Attenuation Step: 27.00dB
! Port 1: RF1
! Port 2: RF2
! ThroughPath:1-2
! IDD: 0.0001278814
! ISS: -1.52e-007
!

#  Hz  S   RI  R   50

1.000000E+007	3.111707E-002	4.496496E-004	3.871133E-002	-1.470977E-004	3.877433E-002	-1.709916E-004	-1.258315E-001	9.460901E-004
2.000000E+007	3.136574E-002	5.494449E-004	3.873797E-002	-2.247541E-004	3.874955E-002	-2.343589E-004	-1.255705E-001	1.539858E-003
3.000000E+007	3.162814E-002	6.537906E-004	3.873339E-002	-3.416841E-004	3.875819E-002	-3.477168E-004	-1.252570E-001	2.050628E-003
4.000000E+007	3.178803E-002	7.378911E-004	3.873438E-002	-4.644249E-004	3.876661E-002	-4.614752E-004	-1.250890E-001	2.625420E-003
5.000000E+007	3.190381E-002	8.298725E-004	3.872324E-002	-5.987842E-004	3.876131E-002	-5.937105E-004	-1.250531E-001	3.204117E-003
6.000000E+007	3.206096E-002	8.467155E-004	3.871695E-002	-7.212441E-004	3.874587E-002	-7.227353E-004	-1.249129E-001	3.671950E-003
7.000000E+007	3.219435E-002	8.492552E-004	3.870418E-002	-8.263680E-004	3.873490E-002	-8.239106E-004	-1.247294E-001	4.138849E-003
8.000000E+007	3.232596E-002	8.690579E-004	3.871282E-002	-9.399233E-004	3.873995E-002	-9.412723E-004	-1.245677E-001	4.584654E-003
9.000000E+007	3.245425E-002	8.740841E-004	3.869587E-002	-1.056016E-003	3.872871E-002	-1.056737E-003	-1.244426E-001	4.981300E-003
1.000000E+008	3.257328E-002	8.857064E-004	3.870056E-002	-1.165622E-003	3.872502E-002	-1.167401E-003	-1.243987E-001	5.400041E-003
1.100000E+008	3.271563E-002	8.813121E-004	3.870048E-002	-1.292090E-003	3.872357E-002	-1.286075E-003	-1.242999E-001	5.779910E-003
1.200000E+008	3.286330E-002	8.473605E-004	3.867864E-002	-1.410677E-003	3.870090E-002	-1.409906E-003	-1.241866E-001	6.098855E-003
1.300000E+008	3.297556E-002	8.333522E-004	3.867926E-002	-1.524418E-003	3.870655E-002	-1.527503E-003	-1.240713E-001	6.459505E-003
1.400000E+008	3.306873E-002	8.663741E-004	3.867324E-002	-1.624777E-003	3.869692E-002	-1.635738E-003	-1.239590E-001	6.814891E-003
1.500000E+008	3.311909E-002	8.929078E-004	3.864987E-002	-1.739479E-003	3.867711E-002	-1.752922E-003	-1.238576E-001	7.149585E-003
1.600000E+008	3.319976E-002	9.448606E-004	3.864663E-002	-1.845615E-003	3.866644E-002	-1.860394E-003	-1.237766E-001	7.487458E-003
1.700000E+008	3.328175E-002	9.657973E-004	3.863320E-002	-1.972798E-003	3.867579E-002	-1.967454E-003	-1.236968E-001	7.854110E-003
1.800000E+008	3.332829E-002	9.791527E-004	3.862298E-002	-2.102414E-003	3.867090E-002	-2.092906E-003	-1.235857E-001	8.189079E-003
1.900000E+008	3.331478E-002	9.566768E-004	3.860007E-002	-2.199846E-003	3.863998E-002	-2.218332E-003	-1.235262E-001	8.470514E-003
2.000000E+008	3.328213E-002	9.223062E-004	3.858796E-002	-2.321793E-003	3.862806E-002	-2.319334E-003	-1.234590E-001	8.732511E-003
2.100000E+008	3.326801E-002	8.311156E-004	3.858033E-002	-2.428154E-003	3.860069E-002	-2.423423E-003	-1.233772E-001	8.937187E-003
2.200000E+008	3.326451E-002	7.642411E-004	3.856662E-002	-2.536592E-003	3.859798E-002	-2.532984E-003	-1.232680E-001	9.148041E-003
2.300000E+008	3.328533E-002	6.929101E-004	3.854664E-002	-2.643987E-003	3.857966E-002	-2.636950E-003	-1.231206E-001	9.362516E-003
2.400000E+008	3.332780E-002	5.970651E-004	3.854191E-002	-2.758222E-003	3.856852E-002	-2.748361E-003	-1.229690E-001	9.609135E-003
2.500000E+008	3.334863E-002	5.457261E-004	3.851673E-002	-2.856623E-003	3.855389E-002	-2.861591E-003	-1.227317E-001	9.867883E-003
2.600000E+008	3.343522E-002	4.742400E-004	3.850032E-002	-2.986705E-003	3.853305E-002	-2.979495E-003	-1.225146E-001	1.017398E-002
2.700000E+008	3.352779E-002	4.276949E-004	3.847350E-002	-3.092564E-003	3.851919E-002	-3.096359E-003	-1.222775E-001	1.049685E-002
2.800000E+008	3.362100E-002	3.995455E-004	3.846707E-002	-3.199923E-003	3.849727E-002	-3.190413E-003	-1.220713E-001	1.083977E-002
2.900000E+008	3.366283E-002	3.971399E-004	3.846158E-002	-3.320178E-003	3.849129E-002	-3.305316E-003	-1.219168E-001	1.117509E-002
3.000000E+008	3.372009E-002	4.179106E-004	3.844105E-002	-3.422556E-003	3.847284E-002	-3.410659E-003	-1.217743E-001	1.155778E-002
3.100000E+008	3.372975E-002	4.542647E-004	3.842269E-002	-3.546726E-003	3.846003E-002	-3.534563E-003	-1.216448E-001	1.193348E-002
3.200000E+008	3.373444E-002	4.999024E-004	3.840440E-002	-3.660915E-003	3.843529E-002	-3.639614E-003	-1.215516E-001	1.230398E-002
3.300000E+008	3.371448E-002	5.319836E-004	3.838947E-002	-3.772955E-003	3.842642E-002	-3.763045E-003	-1.214440E-001	1.263676E-002
3.400000E+008	3.366767E-002	5.507705E-004	3.837347E-002	-3.873247E-003	3.839572E-002	-3.886237E-003	-1.213145E-001	1.295169E-002
3.500000E+008	3.359717E-002	5.235049E-004	3.835638E-002	-3.979059E-003	3.836275E-002	-3.994148E-003	-1.211543E-001	1.320171E-002
3.600000E+008	3.354370E-002	5.186721E-004	3.832417E-002	-4.085761E-003	3.833384E-002	-4.077049E-003	-1.209808E-001	1.348679E-002
3.700000E+008	3.349168E-002	4.816592E-004	3.830727E-002	-4.205268E-003	3.832168E-002	-4.181225E-003	-1.207670E-001	1.374234E-002
3.800000E+008	3.346414E-002	4.354584E-004	3.829355E-002	-4.313536E-003	3.831726E-002	-4.287928E-003	-1.205661E-001	1.402027E-002
3.900000E+008	3.341254E-002	3.614092E-004	3.825763E-002	-4.422952E-003	3.829239E-002	-4.386462E-003	-1.202846E-001	1.436398E-002
4.000000E+008	3.342043E-002	2.718689E-004	3.823594E-002	-4.513375E-003	3.826832E-002	-4.507195E-003	-1.199532E-001	1.469871E-002
4.100000E+008	3.340177E-002	2.094584E-004	3.821552E-002	-4.620099E-003	3.824826E-002	-4.613004E-003	-1.196752E-001	1.502136E-002
4.200000E+008	3.338796E-002	1.339237E-004	3.819331E-002	-4.722092E-003	3.823274E-002	-4.723939E-003	-1.194502E-001	1.540572E-002
4.300000E+008	3.338878E-002	8.991180E-005	3.817444E-002	-4.828639E-003	3.819714E-002	-4.830474E-003	-1.192263E-001	1.582600E-002
4.400000E+008	3.339722E-002	7.156752E-005	3.814718E-002	-4.931991E-003	3.818527E-002	-4.940176E-003	-1.190280E-001	1.626963E-002
4.500000E+008	3.342551E-002	4.319387E-005	3.813595E-002	-5.052481E-003	3.817666E-002	-5.050810E-003	-1.188352E-001	1.673796E-002
4.600000E+008	3.344417E-002	-3.899188E-006	3.811584E-002	-5.160028E-003	3.813443E-002	-5.144341E-003	-1.186476E-001	1.719174E-002
4.700000E+008	3.344502E-002	-1.804880E-005	3.808502E-002	-5.266286E-003	3.811553E-002	-5.268769E-003	-1.184628E-001	1.760554E-002
4.800000E+008	3.341212E-002	-1.585589E-005	3.806858E-002	-5.359426E-003	3.809378E-002	-5.356749E-003	-1.183112E-001	1.801040E-002
4.900000E+008	3.338942E-002	-2.097919E-005	3.804207E-002	-5.473752E-003	3.806738E-002	-5.479089E-003	-1.181520E-001	1.841121E-002
5.000000E+008	3.335795E-002	1.828127E-006	3.802209E-002	-5.576206E-003	3.804123E-002	-5.569186E-003	-1.179696E-001	1.879480E-002
5.100000E+008	3.333323E-002	-1.534721E-005	3.799017E-002	-5.690887E-003	3.802770E-002	-5.667734E-003	-1.178083E-001	1.919426E-002
5.200000E+008	3.327412E-002	-3.071551E-005	3.796993E-002	-5.790678E-003	3.800187E-002	-5.781820E-003	-1.176272E-001	1.956523E-002
5.300000E+008	3.322474E-002	-8.294637E-005	3.795180E-002	-5.900171E-003	3.796866E-002	-5.900369E-003	-1.173836E-001	1.994276E-002
5.400000E+008	3.316038E-002	-1.721125E-004	3.792345E-002	-6.003220E-003	3.795068E-002	-5.995324E-003	-1.171352E-001	2.032289E-002
5.500000E+008	3.311388E-002	-2.185767E-004	3.790365E-002	-6.107914E-003	3.790929E-002	-6.104473E-003	-1.169306E-001	2.073198E-002
5.600000E+008	3.306431E-002	-3.018737E-004	3.785103E-002	-6.221782E-003	3.788054E-002	-6.199646E-003	-1.167071E-001	2.115270E-002
5.700000E+008	3.305205E-002	-3.985018E-004	3.783274E-002	-6.307463E-003	3.786411E-002	-6.296244E-003	-1.165258E-001	2.159799E-002
5.800000E+008	3.303392E-002	-4.762581E-004	3.780012E-002	-6.418414E-003	3.783625E-002	-6.401276E-003	-1.163417E-001	2.203692E-002
5.900000E+008	3.303665E-002	-5.746612E-004	3.779025E-002	-6.524114E-003	3.781345E-002	-6.510647E-003	-1.161463E-001	2.253123E-002
6.000000E+008	3.308427E-002	-6.606324E-004	3.775694E-002	-6.627920E-003	3.778127E-002	-6.627962E-003	-1.159379E-001	2.297139E-002
6.100000E+008	3.313654E-002	-7.158208E-004	3.772690E-002	-6.722495E-003	3.774879E-002	-6.725150E-003	-1.157658E-001	2.340994E-002
6.200000E+008	3.317740E-002	-7.305379E-004	3.769336E-002	-6.831268E-003	3.772129E-002	-6.825437E-003	-1.155721E-001	2.384405E-002
6.300000E+008	3.325668E-002	-7.552979E-004	3.767326E-002	-6.936713E-003	3.768159E-002	-6.930578E-003	-1.153923E-001	2.427688E-002
6.400000E+008	3.329863E-002	-7.611175E-004	3.763163E-002	-7.035968E-003	3.767387E-002	-7.031024E-003	-1.152074E-001	2.468998E-002
6.500000E+008	3.333495E-002	-7.326973E-004	3.760776E-002	-7.129476E-003	3.764166E-002	-7.121659E-003	-1.150342E-001	2.513808E-002
6.600000E+008	3.335223E-002	-7.605489E-004	3.759028E-002	-7.228078E-003	3.760656E-002	-7.240479E-003	-1.148449E-001	2.556274E-002
6.700000E+008	3.332531E-002	-7.435013E-004	3.757090E-002	-7.336469E-003	3.758751E-002	-7.336852E-003	-1.146693E-001	2.600769E-002
6.800000E+008	3.329574E-002	-7.437310E-004	3.752709E-002	-7.430550E-003	3.755145E-002	-7.437622E-003	-1.144628E-001	2.647650E-002
6.900000E+008	3.327943E-002	-7.154790E-004	3.749744E-002	-7.530161E-003	3.752349E-002	-7.530623E-003	-1.142644E-001	2.695528E-002
7.000000E+008	3.325386E-002	-7.031245E-004	3.745937E-002	-7.630456E-003	3.748831E-002	-7.631908E-003	-1.141358E-001	2.742237E-002
7.100000E+008	3.323212E-002	-7.224407E-004	3.743217E-002	-7.738130E-003	3.747956E-002	-7.731031E-003	-1.139963E-001	2.784703E-002
7.200000E+008	3.319094E-002	-7.330558E-004	3.740117E-002	-7.839382E-003	3.743131E-002	-7.837161E-003	-1.138668E-001	2.830562E-002
7.300000E+008	3.314674E-002	-7.568352E-004	3.738188E-002	-7.932134E-003	3.739103E-002	-7.933667E-003	-1.137280E-001	2.873285E-002
7.400000E+008	3.309799E-002	-7.777432E-004	3.734010E-002	-8.033705E-003	3.738103E-002	-8.038233E-003	-1.136332E-001	2.914361E-002
7.500000E+008	3.306193E-002	-8.113766E-004	3.732229E-002	-8.129278E-003	3.734286E-002	-8.148124E-003	-1.135146E-001	2.952442E-002
7.600000E+008	3.303821E-002	-8.667285E-004	3.727990E-002	-8.240300E-003	3.732514E-002	-8.246433E-003	-1.133677E-001	2.988907E-002
7.700000E+008	3.299256E-002	-9.263545E-004	3.725246E-002	-8.332858E-003	3.728127E-002	-8.341515E-003	-1.132282E-001	3.023932E-002
7.800000E+008	3.299109E-002	-9.748591E-004	3.721475E-002	-8.421431E-003	3.725147E-002	-8.441825E-003	-1.130454E-001	3.058629E-002
7.900000E+008	3.297291E-002	-1.064195E-003	3.719156E-002	-8.536062E-003	3.723042E-002	-8.543306E-003	-1.128669E-001	3.095595E-002
8.000000E+008	3.296749E-002	-1.153889E-003	3.715936E-002	-8.636418E-003	3.719074E-002	-8.637501E-003	-1.126274E-001	3.133697E-002
8.100000E+008	3.299982E-002	-1.230650E-003	3.711502E-002	-8.726547E-003	3.715530E-002	-8.741322E-003	-1.123782E-001	3.176109E-002
8.200000E+008	3.303708E-002	-1.271957E-003	3.708577E-002	-8.829057E-003	3.711589E-002	-8.836044E-003	-1.121450E-001	3.213900E-002
8.300000E+008	3.309086E-002	-1.349765E-003	3.703707E-002	-8.937017E-003	3.708996E-002	-8.923957E-003	-1.119132E-001	3.256629E-002
8.400000E+008	3.315382E-002	-1.367055E-003	3.701749E-002	-9.018656E-003	3.705448E-002	-9.032149E-003	-1.117227E-001	3.298374E-002
8.500000E+008	3.319577E-002	-1.378407E-003	3.699389E-002	-9.118249E-003	3.702839E-002	-9.120499E-003	-1.115479E-001	3.340445E-002
8.600000E+008	3.321941E-002	-1.395529E-003	3.696979E-002	-9.222765E-003	3.698429E-002	-9.209825E-003	-1.113975E-001	3.382668E-002
8.700000E+008	3.325647E-002	-1.357119E-003	3.693605E-002	-9.319978E-003	3.694312E-002	-9.323969E-003	-1.112266E-001	3.422239E-002
8.800000E+008	3.327739E-002	-1.336255E-003	3.690583E-002	-9.400477E-003	3.693652E-002	-9.406427E-003	-1.110681E-001	3.460059E-002
8.900000E+008	3.326895E-002	-1.325285E-003	3.685868E-002	-9.514192E-003	3.688515E-002	-9.514379E-003	-1.109124E-001	3.496360E-002
9.000000E+008	3.325467E-002	-1.330413E-003	3.682220E-002	-9.617837E-003	3.685763E-002	-9.608132E-003	-1.107325E-001	3.531146E-002
9.100000E+008	3.323015E-002	-1.345617E-003	3.678422E-002	-9.685774E-003	3.681685E-002	-9.707916E-003	-1.104752E-001	3.566885E-002
9.200000E+008	3.320598E-002	-1.384491E-003	3.676496E-002	-9.796748E-003	3.678679E-002	-9.812109E-003	-1.102096E-001	3.603762E-002
9.300000E+008	3.322030E-002	-1.425126E-003	3.671992E-002	-9.884889E-003	3.674433E-002	-9.901090E-003	-1.099191E-001	3.641933E-002
9.400000E+008	3.323910E-002	-1.462637E-003	3.667805E-002	-9.985692E-003	3.670988E-002	-9.993230E-003	-1.096070E-001	3.683353E-002
9.500000E+008	3.325917E-002	-1.516659E-003	3.665619E-002	-1.008689E-002	3.667561E-002	-1.011571E-002	-1.092950E-001	3.730322E-002
9.600000E+008	3.329322E-002	-1.508535E-003	3.661763E-002	-1.018282E-002	3.665529E-002	-1.019209E-002	-1.089489E-001	3.774069E-002
9.700000E+008	3.333068E-002	-1.537310E-003	3.656707E-002	-1.027211E-002	3.660729E-002	-1.028494E-002	-1.086574E-001	3.820671E-002
9.800000E+008	3.338054E-002	-1.508171E-003	3.654409E-002	-1.037035E-002	3.657591E-002	-1.037224E-002	-1.084071E-001	3.870539E-002
9.900000E+008	3.342739E-002	-1.507873E-003	3.651500E-002	-1.047692E-002	3.653576E-002	-1.046908E-002	-1.081470E-001	3.919718E-002
1.000000E+009	3.345354E-002	-1.477812E-003	3.648132E-002	-1.056588E-002	3.650820E-002	-1.058969E-002	-1.079058E-001	3.963756E-002
1.010000E+009	3.344319E-002	-1.455073E-003	3.645407E-002	-1.066047E-002	3.647331E-002	-1.067701E-002	-1.076799E-001	4.012788E-002
1.020000E+009	3.347278E-002	-1.438568E-003	3.640422E-002	-1.076027E-002	3.645072E-002	-1.077927E-002	-1.074829E-001	4.059916E-002
1.030000E+009	3.347198E-002	-1.413543E-003	3.637323E-002	-1.085612E-002	3.640900E-002	-1.086417E-002	-1.072832E-001	4.104685E-002
1.040000E+009	3.346224E-002	-1.384815E-003	3.632468E-002	-1.094639E-002	3.636671E-002	-1.095781E-002	-1.070614E-001	4.150154E-002
1.050000E+009	3.347542E-002	-1.365404E-003	3.629473E-002	-1.103805E-002	3.631639E-002	-1.103833E-002	-1.068002E-001	4.197852E-002
1.060000E+009	3.348731E-002	-1.351956E-003	3.625656E-002	-1.112136E-002	3.629137E-002	-1.112254E-002	-1.065393E-001	4.246335E-002
1.070000E+009	3.346031E-002	-1.351334E-003	3.621764E-002	-1.123451E-002	3.624943E-002	-1.123556E-002	-1.062862E-001	4.290654E-002
1.080000E+009	3.345628E-002	-1.336432E-003	3.618958E-002	-1.132157E-002	3.623069E-002	-1.133033E-002	-1.060035E-001	4.340179E-002
1.090000E+009	3.344694E-002	-1.332610E-003	3.614947E-002	-1.141766E-002	3.617700E-002	-1.143218E-002	-1.057816E-001	4.386710E-002
1.100000E+009	3.345513E-002	-1.324047E-003	3.611140E-002	-1.151962E-002	3.615280E-002	-1.151878E-002	-1.055583E-001	4.433920E-002
1.110000E+009	3.346560E-002	-1.308315E-003	3.606466E-002	-1.159972E-002	3.611849E-002	-1.161794E-002	-1.053245E-001	4.480547E-002
1.120000E+009	3.343534E-002	-1.314555E-003	3.604937E-002	-1.169931E-002	3.606434E-002	-1.170048E-002	-1.051637E-001	4.524231E-002
1.130000E+009	3.343420E-002	-1.297211E-003	3.600763E-002	-1.180605E-002	3.602139E-002	-1.180472E-002	-1.049509E-001	4.566991E-002
1.140000E+009	3.342019E-002	-1.306774E-003	3.596374E-002	-1.188496E-002	3.598259E-002	-1.191167E-002	-1.047208E-001	4.613216E-002
1.150000E+009	3.344479E-002	-1.292945E-003	3.592485E-002	-1.199275E-002	3.595527E-002	-1.199307E-002	-1.044728E-001	4.656290E-002
1.160000E+009	3.342652E-002	-1.281138E-003	3.588142E-002	-1.209049E-002	3.592454E-002	-1.209183E-002	-1.042137E-001	4.699165E-002
1.170000E+009	3.342788E-002	-1.291824E-003	3.583352E-002	-1.218289E-002	3.586345E-002	-1.217582E-002	-1.039543E-001	4.749619E-002
1.180000E+009	3.345424E-002	-1.281147E-003	3.579786E-002	-1.227632E-002	3.584257E-002	-1.228500E-002	-1.036602E-001	4.795595E-002
1.190000E+009	3.342223E-002	-1.256789E-003	3.576691E-002	-1.237897E-002	3.579369E-002	-1.236803E-002	-1.033921E-001	4.843452E-002
1.200000E+009	3.341183E-002	-1.248923E-003	3.571140E-002	-1.247021E-002	3.575093E-002	-1.248044E-002	-1.031135E-001	4.894789E-002
1.210000E+009	3.342056E-002	-1.290373E-003	3.567159E-002	-1.255544E-002	3.569894E-002	-1.257109E-002	-1.028687E-001	4.943168E-002
1.220000E+009	3.339603E-002	-1.319664E-003	3.562937E-002	-1.264943E-002	3.565978E-002	-1.265504E-002	-1.026621E-001	4.991294E-002
1.230000E+009	3.341791E-002	-1.336535E-003	3.558291E-002	-1.273983E-002	3.564311E-002	-1.274826E-002	-1.024248E-001	5.034530E-002
1.240000E+009	3.342952E-002	-1.369084E-003	3.555126E-002	-1.283893E-002	3.558796E-002	-1.283688E-002	-1.022205E-001	5.077935E-002
1.250000E+009	3.346547E-002	-1.429301E-003	3.551267E-002	-1.293587E-002	3.554289E-002	-1.293789E-002	-1.020236E-001	5.119736E-002
1.260000E+009	3.348058E-002	-1.438259E-003	3.547629E-002	-1.302230E-002	3.549507E-002	-1.302463E-002	-1.017363E-001	5.158638E-002
1.270000E+009	3.358003E-002	-1.448697E-003	3.543069E-002	-1.311858E-002	3.546152E-002	-1.312627E-002	-1.014594E-001	5.198344E-002
1.280000E+009	3.359958E-002	-1.435322E-003	3.538904E-002	-1.321938E-002	3.539622E-002	-1.321981E-002	-1.011971E-001	5.236281E-002
1.290000E+009	3.367167E-002	-1.411556E-003	3.534360E-002	-1.330873E-002	3.536733E-002	-1.330759E-002	-1.008652E-001	5.274878E-002
1.300000E+009	3.372237E-002	-1.369994E-003	3.530263E-002	-1.340126E-002	3.534040E-002	-1.340036E-002	-1.005043E-001	5.317804E-002
1.310000E+009	3.375064E-002	-1.338279E-003	3.526110E-002	-1.350723E-002	3.528582E-002	-1.349940E-002	-1.001670E-001	5.362723E-002
1.320000E+009	3.376921E-002	-1.307907E-003	3.518758E-002	-1.359074E-002	3.525097E-002	-1.360533E-002	-9.977669E-002	5.411195E-002
1.330000E+009	3.378476E-002	-1.241783E-003	3.515943E-002	-1.367749E-002	3.521349E-002	-1.369307E-002	-9.938248E-002	5.463126E-002
1.340000E+009	3.379320E-002	-1.192899E-003	3.511472E-002	-1.376569E-002	3.514909E-002	-1.377726E-002	-9.899578E-002	5.517781E-002
1.350000E+009	3.376347E-002	-1.184533E-003	3.507615E-002	-1.386703E-002	3.511692E-002	-1.387606E-002	-9.864194E-002	5.572954E-002
1.360000E+009	3.380989E-002	-1.150064E-003	3.501074E-002	-1.395314E-002	3.505716E-002	-1.397320E-002	-9.827425E-002	5.630465E-002
1.370000E+009	3.381505E-002	-1.109294E-003	3.498757E-002	-1.404690E-002	3.501992E-002	-1.405783E-002	-9.796128E-002	5.689571E-002
1.380000E+009	3.385901E-002	-1.115528E-003	3.495309E-002	-1.413332E-002	3.496169E-002	-1.414439E-002	-9.765212E-002	5.746901E-002
1.390000E+009	3.388009E-002	-1.096274E-003	3.489075E-002	-1.421699E-002	3.491416E-002	-1.424500E-002	-9.736910E-002	5.805767E-002
1.400000E+009	3.388630E-002	-1.065216E-003	3.482366E-002	-1.432115E-002	3.485603E-002	-1.432621E-002	-9.707792E-002	5.862741E-002
1.410000E+009	3.389805E-002	-1.025849E-003	3.479358E-002	-1.440991E-002	3.482524E-002	-1.442402E-002	-9.679170E-002	5.920258E-002
1.420000E+009	3.391265E-002	-9.724414E-004	3.473773E-002	-1.448860E-002	3.476268E-002	-1.451945E-002	-9.654271E-002	5.971260E-002
1.430000E+009	3.392330E-002	-9.336392E-004	3.470207E-002	-1.459774E-002	3.471077E-002	-1.459591E-002	-9.627874E-002	6.023846E-002
1.440000E+009	3.389161E-002	-9.039979E-004	3.464813E-002	-1.468015E-002	3.467511E-002	-1.468780E-002	-9.598582E-002	6.072851E-002
1.450000E+009	3.390128E-002	-8.816378E-004	3.458561E-002	-1.476700E-002	3.463278E-002	-1.478464E-002	-9.566533E-002	6.123613E-002
1.460000E+009	3.386360E-002	-8.374256E-004	3.453031E-002	-1.485103E-002	3.458066E-002	-1.487161E-002	-9.535061E-002	6.174393E-002
1.470000E+009	3.385857E-002	-8.426231E-004	3.449527E-002	-1.496433E-002	3.453137E-002	-1.496789E-002	-9.500624E-002	6.229226E-002
1.480000E+009	3.385588E-002	-8.116928E-004	3.444754E-002	-1.504625E-002	3.447824E-002	-1.506203E-002	-9.467022E-002	6.285292E-002
1.490000E+009	3.388161E-002	-8.210666E-004	3.440077E-002	-1.512660E-002	3.441803E-002	-1.513383E-002	-9.428877E-002	6.344022E-002
1.500000E+009	3.389351E-002	-7.924708E-004	3.434920E-002	-1.523151E-002	3.436498E-002	-1.521734E-002	-9.393067E-002	6.400179E-002
1.510000E+009	3.391690E-002	-7.731173E-004	3.429536E-002	-1.531039E-002	3.431660E-002	-1.531844E-002	-9.358418E-002	6.457239E-002
