! Device ID: PE43711P
! File Path: z:\PE43711P\CHAR_NOM_04282014\AMB\3p300\LS_ATT_17p50dB\PE43711P_AMB_3p300V_3p000V_0p000V_LS_ATT_17p50dB_S2P_SN_5_A0137A.s2p
! Serial: 5
! Lot: A0137A
! Temp: 25C
! VDD: 3.300
! VSS: 0.000
! Control_Hi: 3.000
! Control_Lo: 0.000
! Attenuation Step: 17.50dB
! Port 1: RF1
! Port 2: RF2
! ThroughPath:1-2
! IDD: 0.0001273743
! ISS: -7.5e-009
!

#  Hz  S   RI  R   50

1.000000E+007	5.322313E-002	1.848990E-004	1.165952E-001	-4.779967E-004	1.167308E-001	-5.065136E-004	-1.453766E-001	9.938304E-004
2.000000E+007	5.342994E-002	1.589285E-004	1.165914E-001	-8.209770E-004	1.166634E-001	-8.285053E-004	-1.450812E-001	1.682374E-003
3.000000E+007	5.366882E-002	6.538622E-005	1.165856E-001	-1.221474E-003	1.166651E-001	-1.249715E-003	-1.447793E-001	2.249166E-003
4.000000E+007	5.382592E-002	-4.539937E-005	1.165865E-001	-1.644254E-003	1.166578E-001	-1.656571E-003	-1.445969E-001	2.875548E-003
5.000000E+007	5.391980E-002	-1.698567E-004	1.165732E-001	-2.083870E-003	1.166605E-001	-2.072404E-003	-1.445635E-001	3.543695E-003
6.000000E+007	5.408499E-002	-3.612546E-004	1.165435E-001	-2.479594E-003	1.166508E-001	-2.481422E-003	-1.444322E-001	4.066360E-003
7.000000E+007	5.419357E-002	-5.378117E-004	1.165173E-001	-2.871293E-003	1.166057E-001	-2.890819E-003	-1.442458E-001	4.572992E-003
8.000000E+007	5.431469E-002	-7.278372E-004	1.164921E-001	-3.266578E-003	1.165908E-001	-3.288220E-003	-1.440766E-001	5.084372E-003
9.000000E+007	5.442688E-002	-9.098338E-004	1.164889E-001	-3.669181E-003	1.165793E-001	-3.674758E-003	-1.439651E-001	5.524952E-003
1.000000E+008	5.453998E-002	-1.078912E-003	1.164701E-001	-4.082145E-003	1.165504E-001	-4.082310E-003	-1.439163E-001	6.012505E-003
1.100000E+008	5.464081E-002	-1.285430E-003	1.164381E-001	-4.505113E-003	1.165206E-001	-4.489772E-003	-1.438166E-001	6.475389E-003
1.200000E+008	5.475783E-002	-1.517837E-003	1.163717E-001	-4.909037E-003	1.164780E-001	-4.909980E-003	-1.437265E-001	6.863349E-003
1.300000E+008	5.484527E-002	-1.714882E-003	1.163346E-001	-5.297190E-003	1.164418E-001	-5.311297E-003	-1.436159E-001	7.272229E-003
1.400000E+008	5.489076E-002	-1.884417E-003	1.163030E-001	-5.692865E-003	1.164010E-001	-5.703387E-003	-1.435112E-001	7.694615E-003
1.500000E+008	5.490180E-002	-2.041464E-003	1.162708E-001	-6.076218E-003	1.163481E-001	-6.093595E-003	-1.434019E-001	8.080157E-003
1.600000E+008	5.490970E-002	-2.166210E-003	1.162499E-001	-6.463396E-003	1.162992E-001	-6.455975E-003	-1.433418E-001	8.486951E-003
1.700000E+008	5.497977E-002	-2.336904E-003	1.162201E-001	-6.883556E-003	1.163199E-001	-6.863718E-003	-1.433027E-001	8.919702E-003
1.800000E+008	5.497492E-002	-2.522799E-003	1.161347E-001	-7.301328E-003	1.162844E-001	-7.301264E-003	-1.432079E-001	9.312318E-003
1.900000E+008	5.490629E-002	-2.749479E-003	1.160516E-001	-7.699430E-003	1.162149E-001	-7.696491E-003	-1.431580E-001	9.665856E-003
2.000000E+008	5.484389E-002	-2.957625E-003	1.160104E-001	-8.066212E-003	1.161482E-001	-8.069011E-003	-1.430928E-001	9.984967E-003
2.100000E+008	5.476716E-002	-3.223688E-003	1.159816E-001	-8.448292E-003	1.160763E-001	-8.449690E-003	-1.430042E-001	1.026735E-002
2.200000E+008	5.473547E-002	-3.478864E-003	1.159440E-001	-8.818779E-003	1.160378E-001	-8.829580E-003	-1.428924E-001	1.054449E-002
2.300000E+008	5.469544E-002	-3.726986E-003	1.158857E-001	-9.201095E-003	1.159853E-001	-9.206870E-003	-1.427635E-001	1.083217E-002
2.400000E+008	5.470046E-002	-3.984902E-003	1.158396E-001	-9.621965E-003	1.159122E-001	-9.589801E-003	-1.426283E-001	1.116390E-002
2.500000E+008	5.466060E-002	-4.226374E-003	1.157667E-001	-1.000002E-002	1.158630E-001	-9.989022E-003	-1.424519E-001	1.147019E-002
2.600000E+008	5.467915E-002	-4.450108E-003	1.157039E-001	-1.038293E-002	1.158131E-001	-1.036145E-002	-1.422348E-001	1.185885E-002
2.700000E+008	5.470524E-002	-4.690855E-003	1.156300E-001	-1.076392E-002	1.157367E-001	-1.076263E-002	-1.420175E-001	1.224886E-002
2.800000E+008	5.473143E-002	-4.887019E-003	1.155677E-001	-1.112907E-002	1.156662E-001	-1.113953E-002	-1.418113E-001	1.263931E-002
2.900000E+008	5.472040E-002	-5.066462E-003	1.155282E-001	-1.150626E-002	1.156090E-001	-1.150577E-002	-1.416815E-001	1.305658E-002
3.000000E+008	5.471639E-002	-5.206438E-003	1.154730E-001	-1.189823E-002	1.155506E-001	-1.188867E-002	-1.415413E-001	1.350744E-002
3.100000E+008	5.467285E-002	-5.347849E-003	1.154120E-001	-1.229015E-002	1.154986E-001	-1.227038E-002	-1.414326E-001	1.396142E-002
3.200000E+008	5.462524E-002	-5.471582E-003	1.153305E-001	-1.267134E-002	1.154362E-001	-1.265873E-002	-1.413273E-001	1.441741E-002
3.300000E+008	5.454156E-002	-5.602132E-003	1.152732E-001	-1.306012E-002	1.153636E-001	-1.306067E-002	-1.412628E-001	1.484854E-002
3.400000E+008	5.441090E-002	-5.745374E-003	1.151879E-001	-1.343878E-002	1.152436E-001	-1.347561E-002	-1.411196E-001	1.523254E-002
3.500000E+008	5.427005E-002	-5.923533E-003	1.151130E-001	-1.381832E-002	1.151550E-001	-1.382724E-002	-1.409866E-001	1.555177E-002
3.600000E+008	5.415499E-002	-6.081566E-003	1.150385E-001	-1.420428E-002	1.150713E-001	-1.415814E-002	-1.408445E-001	1.592520E-002
3.700000E+008	5.402142E-002	-6.268092E-003	1.149366E-001	-1.456764E-002	1.150018E-001	-1.450208E-002	-1.406606E-001	1.625157E-002
3.800000E+008	5.392508E-002	-6.477852E-003	1.148787E-001	-1.493756E-002	1.149580E-001	-1.488760E-002	-1.404652E-001	1.660989E-002
3.900000E+008	5.380937E-002	-6.713289E-003	1.147793E-001	-1.532692E-002	1.148911E-001	-1.527002E-002	-1.401980E-001	1.703440E-002
4.000000E+008	5.373329E-002	-6.969677E-003	1.146672E-001	-1.565819E-002	1.147991E-001	-1.565482E-002	-1.398822E-001	1.742283E-002
4.100000E+008	5.362652E-002	-7.191536E-003	1.146011E-001	-1.600902E-002	1.147131E-001	-1.602044E-002	-1.396066E-001	1.783726E-002
4.200000E+008	5.355909E-002	-7.403214E-003	1.145455E-001	-1.638526E-002	1.146336E-001	-1.638314E-002	-1.393956E-001	1.831337E-002
4.300000E+008	5.348557E-002	-7.604237E-003	1.144811E-001	-1.675327E-002	1.145548E-001	-1.676046E-002	-1.391960E-001	1.880889E-002
4.400000E+008	5.343310E-002	-7.755382E-003	1.144059E-001	-1.712516E-002	1.144843E-001	-1.712160E-002	-1.390123E-001	1.936270E-002
4.500000E+008	5.336928E-002	-7.945222E-003	1.143150E-001	-1.749887E-002	1.144004E-001	-1.748730E-002	-1.388257E-001	1.991254E-002
4.600000E+008	5.331118E-002	-8.122814E-003	1.142240E-001	-1.788816E-002	1.143039E-001	-1.787049E-002	-1.386530E-001	2.047978E-002
4.700000E+008	5.322878E-002	-8.276907E-003	1.141246E-001	-1.823518E-002	1.142062E-001	-1.824567E-002	-1.385004E-001	2.096286E-002
4.800000E+008	5.312179E-002	-8.402821E-003	1.140371E-001	-1.858089E-002	1.141145E-001	-1.858793E-002	-1.383560E-001	2.147164E-002
4.900000E+008	5.300122E-002	-8.550807E-003	1.139593E-001	-1.893552E-002	1.140125E-001	-1.895809E-002	-1.382350E-001	2.196197E-002
5.000000E+008	5.289642E-002	-8.676806E-003	1.138625E-001	-1.930733E-002	1.139320E-001	-1.930583E-002	-1.380717E-001	2.241970E-002
5.100000E+008	5.280298E-002	-8.835924E-003	1.137752E-001	-1.966726E-002	1.138644E-001	-1.965043E-002	-1.378975E-001	2.289992E-002
5.200000E+008	5.266175E-002	-8.998914E-003	1.136734E-001	-2.003295E-002	1.137791E-001	-2.003871E-002	-1.377318E-001	2.336951E-002
5.300000E+008	5.253348E-002	-9.198287E-003	1.135955E-001	-2.039114E-002	1.136879E-001	-2.041441E-002	-1.375015E-001	2.383873E-002
5.400000E+008	5.239424E-002	-9.428024E-003	1.134913E-001	-2.076664E-002	1.135808E-001	-2.076005E-002	-1.372550E-001	2.430008E-002
5.500000E+008	5.225317E-002	-9.600338E-003	1.133935E-001	-2.111446E-002	1.134623E-001	-2.112751E-002	-1.370636E-001	2.481220E-002
5.600000E+008	5.213852E-002	-9.813247E-003	1.132927E-001	-2.145962E-002	1.133664E-001	-2.148368E-002	-1.368343E-001	2.531680E-002
5.700000E+008	5.203487E-002	-1.003403E-002	1.131848E-001	-2.181928E-002	1.132757E-001	-2.182053E-002	-1.366625E-001	2.587523E-002
5.800000E+008	5.194834E-002	-1.023742E-002	1.130967E-001	-2.216490E-002	1.131851E-001	-2.218249E-002	-1.364951E-001	2.640797E-002
5.900000E+008	5.187025E-002	-1.047095E-002	1.129913E-001	-2.254933E-002	1.130938E-001	-2.255931E-002	-1.363300E-001	2.701373E-002
6.000000E+008	5.181930E-002	-1.068737E-002	1.129040E-001	-2.290392E-002	1.129890E-001	-2.291889E-002	-1.361385E-001	2.754298E-002
6.100000E+008	5.178701E-002	-1.087354E-002	1.127824E-001	-2.325240E-002	1.128570E-001	-2.326679E-002	-1.359778E-001	2.805864E-002
6.200000E+008	5.175331E-002	-1.102590E-002	1.126804E-001	-2.359814E-002	1.127520E-001	-2.362155E-002	-1.357975E-001	2.859008E-002
6.300000E+008	5.172066E-002	-1.117389E-002	1.125547E-001	-2.393824E-002	1.126321E-001	-2.397315E-002	-1.356276E-001	2.909916E-002
6.400000E+008	5.170107E-002	-1.130810E-002	1.124526E-001	-2.427762E-002	1.125334E-001	-2.431540E-002	-1.354421E-001	2.960751E-002
6.500000E+008	5.164736E-002	-1.142579E-002	1.123556E-001	-2.463477E-002	1.124327E-001	-2.464371E-002	-1.352646E-001	3.016309E-002
6.600000E+008	5.158436E-002	-1.155755E-002	1.122693E-001	-2.499801E-002	1.123259E-001	-2.500956E-002	-1.350749E-001	3.067937E-002
6.700000E+008	5.148726E-002	-1.163420E-002	1.121593E-001	-2.535363E-002	1.122300E-001	-2.536270E-002	-1.348856E-001	3.123637E-002
6.800000E+008	5.135030E-002	-1.174437E-002	1.120271E-001	-2.568336E-002	1.121095E-001	-2.571200E-002	-1.347137E-001	3.181233E-002
6.900000E+008	5.124434E-002	-1.185339E-002	1.119175E-001	-2.603748E-002	1.119927E-001	-2.604943E-002	-1.345194E-001	3.240255E-002
7.000000E+008	5.114173E-002	-1.195822E-002	1.118130E-001	-2.636548E-002	1.118851E-001	-2.637324E-002	-1.343976E-001	3.297919E-002
7.100000E+008	5.102502E-002	-1.209173E-002	1.116972E-001	-2.669211E-002	1.117919E-001	-2.673200E-002	-1.342748E-001	3.351095E-002
7.200000E+008	5.088228E-002	-1.222963E-002	1.115896E-001	-2.705492E-002	1.116667E-001	-2.707317E-002	-1.341362E-001	3.405763E-002
7.300000E+008	5.076679E-002	-1.239009E-002	1.114705E-001	-2.740571E-002	1.115553E-001	-2.742121E-002	-1.340216E-001	3.454614E-002
7.400000E+008	5.063082E-002	-1.251732E-002	1.113593E-001	-2.774436E-002	1.114381E-001	-2.776101E-002	-1.339085E-001	3.504064E-002
7.500000E+008	5.051073E-002	-1.267991E-002	1.112507E-001	-2.808245E-002	1.113198E-001	-2.810937E-002	-1.337966E-001	3.551788E-002
7.600000E+008	5.040034E-002	-1.282734E-002	1.111147E-001	-2.842346E-002	1.112093E-001	-2.845982E-002	-1.336538E-001	3.600858E-002
7.700000E+008	5.028019E-002	-1.302402E-002	1.110111E-001	-2.875737E-002	1.110880E-001	-2.879985E-002	-1.334787E-001	3.645096E-002
7.800000E+008	5.018337E-002	-1.317054E-002	1.108926E-001	-2.909737E-002	1.109825E-001	-2.912857E-002	-1.333208E-001	3.689460E-002
7.900000E+008	5.006391E-002	-1.337994E-002	1.107707E-001	-2.944588E-002	1.108587E-001	-2.947170E-002	-1.331433E-001	3.738326E-002
8.000000E+008	4.998010E-002	-1.355097E-002	1.106527E-001	-2.978013E-002	1.107328E-001	-2.981738E-002	-1.329187E-001	3.789036E-002
8.100000E+008	4.989850E-002	-1.374409E-002	1.105281E-001	-3.012018E-002	1.106068E-001	-3.016088E-002	-1.326664E-001	3.840403E-002
8.200000E+008	4.985701E-002	-1.390709E-002	1.104152E-001	-3.044481E-002	1.104778E-001	-3.047667E-002	-1.324394E-001	3.891513E-002
8.300000E+008	4.982513E-002	-1.407371E-002	1.102852E-001	-3.078176E-002	1.103682E-001	-3.081931E-002	-1.322149E-001	3.943777E-002
8.400000E+008	4.977058E-002	-1.422054E-002	1.101529E-001	-3.111084E-002	1.102440E-001	-3.116201E-002	-1.320060E-001	3.992665E-002
8.500000E+008	4.975528E-002	-1.435324E-002	1.100395E-001	-3.146671E-002	1.101254E-001	-3.148629E-002	-1.318392E-001	4.044907E-002
8.600000E+008	4.968225E-002	-1.447520E-002	1.099242E-001	-3.179811E-002	1.099948E-001	-3.182155E-002	-1.317010E-001	4.097404E-002
8.700000E+008	4.961885E-002	-1.455169E-002	1.098073E-001	-3.214022E-002	1.098681E-001	-3.217120E-002	-1.315192E-001	4.147785E-002
8.800000E+008	4.956814E-002	-1.462246E-002	1.096807E-001	-3.245962E-002	1.097596E-001	-3.248208E-002	-1.313408E-001	4.198126E-002
8.900000E+008	4.944985E-002	-1.474815E-002	1.095442E-001	-3.279484E-002	1.096189E-001	-3.283413E-002	-1.311863E-001	4.243643E-002
9.000000E+008	4.935771E-002	-1.482862E-002	1.093983E-001	-3.312896E-002	1.095120E-001	-3.315755E-002	-1.309697E-001	4.292766E-002
9.100000E+008	4.923814E-002	-1.492638E-002	1.092734E-001	-3.346139E-002	1.093627E-001	-3.348795E-002	-1.307490E-001	4.338186E-002
9.200000E+008	4.910872E-002	-1.508311E-002	1.091420E-001	-3.379694E-002	1.092334E-001	-3.381811E-002	-1.304862E-001	4.388742E-002
9.300000E+008	4.902201E-002	-1.522022E-002	1.090252E-001	-3.411540E-002	1.090928E-001	-3.416291E-002	-1.301937E-001	4.436571E-002
9.400000E+008	4.895033E-002	-1.535527E-002	1.088829E-001	-3.443724E-002	1.089838E-001	-3.447661E-002	-1.298530E-001	4.487549E-002
9.500000E+008	4.887887E-002	-1.550960E-002	1.087630E-001	-3.477346E-002	1.088491E-001	-3.482484E-002	-1.295243E-001	4.545651E-002
9.600000E+008	4.880706E-002	-1.562365E-002	1.086237E-001	-3.509069E-002	1.087218E-001	-3.514658E-002	-1.292054E-001	4.599863E-002
9.700000E+008	4.877904E-002	-1.574588E-002	1.084783E-001	-3.541335E-002	1.085786E-001	-3.547191E-002	-1.288671E-001	4.655184E-002
9.800000E+008	4.873308E-002	-1.585402E-002	1.083672E-001	-3.573181E-002	1.084558E-001	-3.578607E-002	-1.285867E-001	4.717537E-002
9.900000E+008	4.867937E-002	-1.592291E-002	1.082432E-001	-3.607655E-002	1.083339E-001	-3.612424E-002	-1.283116E-001	4.775923E-002
1.000000E+009	4.862603E-002	-1.599928E-002	1.080976E-001	-3.640595E-002	1.081901E-001	-3.646738E-002	-1.280811E-001	4.831475E-002
1.010000E+009	4.854325E-002	-1.603103E-002	1.079837E-001	-3.673206E-002	1.080330E-001	-3.678587E-002	-1.278555E-001	4.894116E-002
1.020000E+009	4.845353E-002	-1.611017E-002	1.078229E-001	-3.706009E-002	1.079086E-001	-3.710430E-002	-1.276520E-001	4.950458E-002
1.030000E+009	4.836992E-002	-1.617139E-002	1.076882E-001	-3.739419E-002	1.077670E-001	-3.742641E-002	-1.274024E-001	5.008927E-002
1.040000E+009	4.825247E-002	-1.623959E-002	1.075564E-001	-3.771755E-002	1.076169E-001	-3.775672E-002	-1.271948E-001	5.066532E-002
1.050000E+009	4.818439E-002	-1.631776E-002	1.074109E-001	-3.803639E-002	1.075018E-001	-3.807810E-002	-1.269207E-001	5.125304E-002
1.060000E+009	4.808597E-002	-1.640596E-002	1.072694E-001	-3.835858E-002	1.073661E-001	-3.840289E-002	-1.266660E-001	5.180910E-002
1.070000E+009	4.796851E-002	-1.652269E-002	1.071352E-001	-3.867097E-002	1.072350E-001	-3.869813E-002	-1.263592E-001	5.237674E-002
1.080000E+009	4.789060E-002	-1.660196E-002	1.069910E-001	-3.901090E-002	1.071006E-001	-3.904197E-002	-1.260954E-001	5.296507E-002
1.090000E+009	4.780136E-002	-1.668699E-002	1.068523E-001	-3.933306E-002	1.069627E-001	-3.937708E-002	-1.258183E-001	5.352326E-002
1.100000E+009	4.771664E-002	-1.677420E-002	1.067019E-001	-3.966387E-002	1.067945E-001	-3.967961E-002	-1.255787E-001	5.411426E-002
1.110000E+009	4.763186E-002	-1.684787E-002	1.065527E-001	-3.996417E-002	1.066615E-001	-4.000900E-002	-1.253344E-001	5.469643E-002
1.120000E+009	4.751801E-002	-1.692620E-002	1.064213E-001	-4.028161E-002	1.065272E-001	-4.033914E-002	-1.251298E-001	5.523420E-002
1.130000E+009	4.742443E-002	-1.700609E-002	1.062736E-001	-4.062042E-002	1.063640E-001	-4.065709E-002	-1.248980E-001	5.578533E-002
1.140000E+009	4.731564E-002	-1.709767E-002	1.061224E-001	-4.094624E-002	1.062100E-001	-4.098217E-002	-1.246880E-001	5.638277E-002
1.150000E+009	4.723876E-002	-1.717642E-002	1.059798E-001	-4.125652E-002	1.060616E-001	-4.130242E-002	-1.243912E-001	5.692370E-002
1.160000E+009	4.710357E-002	-1.724510E-002	1.058261E-001	-4.158277E-002	1.059151E-001	-4.162715E-002	-1.241468E-001	5.745713E-002
1.170000E+009	4.701280E-002	-1.732464E-002	1.056797E-001	-4.191669E-002	1.057586E-001	-4.195266E-002	-1.238623E-001	5.805666E-002
1.180000E+009	4.691195E-002	-1.743140E-002	1.055160E-001	-4.222069E-002	1.056378E-001	-4.225339E-002	-1.235547E-001	5.863155E-002
1.190000E+009	4.680895E-002	-1.749603E-002	1.053654E-001	-4.254643E-002	1.054525E-001	-4.258610E-002	-1.232779E-001	5.921563E-002
1.200000E+009	4.670248E-002	-1.759348E-002	1.052296E-001	-4.286223E-002	1.053014E-001	-4.288932E-002	-1.229680E-001	5.981665E-002
1.210000E+009	4.663980E-002	-1.770068E-002	1.050561E-001	-4.317619E-002	1.051418E-001	-4.320757E-002	-1.226756E-001	6.042140E-002
1.220000E+009	4.654093E-002	-1.782542E-002	1.049049E-001	-4.348651E-002	1.049845E-001	-4.352012E-002	-1.224279E-001	6.100702E-002
1.230000E+009	4.644291E-002	-1.793005E-002	1.047338E-001	-4.380790E-002	1.048276E-001	-4.385034E-002	-1.221818E-001	6.157187E-002
1.240000E+009	4.636910E-002	-1.803764E-002	1.046030E-001	-4.412151E-002	1.046581E-001	-4.415400E-002	-1.219429E-001	6.211912E-002
1.250000E+009	4.630060E-002	-1.816878E-002	1.044333E-001	-4.444465E-002	1.045107E-001	-4.445648E-002	-1.217056E-001	6.267020E-002
1.260000E+009	4.621671E-002	-1.826873E-002	1.042655E-001	-4.476691E-002	1.043550E-001	-4.478030E-002	-1.214421E-001	6.317900E-002
1.270000E+009	4.621300E-002	-1.836031E-002	1.041167E-001	-4.507170E-002	1.041930E-001	-4.510085E-002	-1.211409E-001	6.367901E-002
1.280000E+009	4.614026E-002	-1.842117E-002	1.039559E-001	-4.540382E-002	1.040397E-001	-4.541900E-002	-1.208584E-001	6.418563E-002
1.290000E+009	4.609991E-002	-1.849897E-002	1.037764E-001	-4.571678E-002	1.038873E-001	-4.575500E-002	-1.204971E-001	6.467063E-002
1.300000E+009	4.604904E-002	-1.852980E-002	1.036126E-001	-4.601346E-002	1.037186E-001	-4.604994E-002	-1.201281E-001	6.519702E-002
1.310000E+009	4.597944E-002	-1.861248E-002	1.034374E-001	-4.633915E-002	1.035509E-001	-4.636634E-002	-1.197517E-001	6.573635E-002
1.320000E+009	4.589445E-002	-1.865615E-002	1.032674E-001	-4.665718E-002	1.033752E-001	-4.668438E-002	-1.193087E-001	6.635721E-002
1.330000E+009	4.583715E-002	-1.866372E-002	1.031125E-001	-4.695587E-002	1.032209E-001	-4.699895E-002	-1.188959E-001	6.695774E-002
1.340000E+009	4.575559E-002	-1.870559E-002	1.029384E-001	-4.725935E-002	1.030433E-001	-4.729615E-002	-1.184544E-001	6.763569E-002
1.350000E+009	4.563454E-002	-1.874634E-002	1.027872E-001	-4.758473E-002	1.028517E-001	-4.762396E-002	-1.180567E-001	6.831325E-002
1.360000E+009	4.557859E-002	-1.880131E-002	1.025884E-001	-4.789817E-002	1.026946E-001	-4.793837E-002	-1.176693E-001	6.902057E-002
1.370000E+009	4.549453E-002	-1.883906E-002	1.024451E-001	-4.820219E-002	1.025215E-001	-4.823881E-002	-1.173365E-001	6.972514E-002
1.380000E+009	4.540303E-002	-1.889286E-002	1.022543E-001	-4.852394E-002	1.023418E-001	-4.854930E-002	-1.169958E-001	7.041894E-002
1.390000E+009	4.532955E-002	-1.894819E-002	1.020826E-001	-4.882743E-002	1.021642E-001	-4.885817E-002	-1.167013E-001	7.114053E-002
1.400000E+009	4.525637E-002	-1.902310E-002	1.018799E-001	-4.912966E-002	1.019993E-001	-4.915978E-002	-1.164210E-001	7.179581E-002
1.410000E+009	4.515720E-002	-1.903671E-002	1.017160E-001	-4.944571E-002	1.018099E-001	-4.947662E-002	-1.161134E-001	7.248264E-002
1.420000E+009	4.504247E-002	-1.908536E-002	1.015329E-001	-4.972970E-002	1.016157E-001	-4.977068E-002	-1.157957E-001	7.311520E-002
1.430000E+009	4.497620E-002	-1.912129E-002	1.013540E-001	-5.004055E-002	1.014446E-001	-5.007451E-002	-1.154731E-001	7.374402E-002
1.440000E+009	4.487164E-002	-1.915761E-002	1.011821E-001	-5.033227E-002	1.012616E-001	-5.037093E-002	-1.151535E-001	7.432378E-002
1.450000E+009	4.475700E-002	-1.921016E-002	1.009857E-001	-5.063449E-002	1.010727E-001	-5.067038E-002	-1.147909E-001	7.498891E-002
1.460000E+009	4.462893E-002	-1.925397E-002	1.008023E-001	-5.095909E-002	1.008856E-001	-5.099593E-002	-1.144274E-001	7.561743E-002
1.470000E+009	4.454342E-002	-1.932054E-002	1.006152E-001	-5.124698E-002	1.007008E-001	-5.127952E-002	-1.140566E-001	7.625354E-002
1.480000E+009	4.442515E-002	-1.935608E-002	1.004307E-001	-5.153531E-002	1.005243E-001	-5.158442E-002	-1.136818E-001	7.695889E-002
1.490000E+009	4.433044E-002	-1.940611E-002	1.002409E-001	-5.183703E-002	1.003237E-001	-5.187652E-002	-1.132663E-001	7.766895E-002
1.500000E+009	4.424876E-002	-1.947517E-002	1.000443E-001	-5.214905E-002	1.001491E-001	-5.216722E-002	-1.128858E-001	7.835734E-002
