! Device ID: PE43711P
! File Path: z:\PE43711P\CHAR_NOM_04282014\AMB\3p300\LS_ATT_12p25dB\PE43711P_AMB_3p300V_3p000V_0p000V_LS_ATT_12p25dB_S2P_SN_5_A0137A.s2p
! Serial: 5
! Lot: A0137A
! Temp: 25C
! VDD: 3.300
! VSS: 0.000
! Control_Hi: 3.000
! Control_Lo: 0.000
! Attenuation Step: 12.25dB
! Port 1: RF1
! Port 2: RF2
! ThroughPath:1-2
! IDD: 0.000127623
! ISS: -9.22e-008
!

#  Hz  S   RI  R   50

1.000000E+007	7.425210E-002	-8.521870E-005	2.135871E-001	-1.050036E-003	2.137384E-001	-1.159648E-003	-9.066496E-002	7.707782E-004
2.000000E+007	7.444252E-002	-2.575534E-004	2.135229E-001	-1.692316E-003	2.136688E-001	-1.713962E-003	-9.036386E-002	1.292524E-003
3.000000E+007	7.470281E-002	-5.776502E-004	2.135167E-001	-2.531361E-003	2.136852E-001	-2.550230E-003	-9.007409E-002	1.685046E-003
4.000000E+007	7.482869E-002	-8.799928E-004	2.135298E-001	-3.375106E-003	2.136575E-001	-3.401421E-003	-8.988169E-002	2.144504E-003
5.000000E+007	7.492900E-002	-1.245362E-003	2.135099E-001	-4.314125E-003	2.136906E-001	-4.290766E-003	-8.981707E-002	2.577085E-003
6.000000E+007	7.508132E-002	-1.643679E-003	2.134550E-001	-5.137219E-003	2.136757E-001	-5.133561E-003	-8.969539E-002	2.906369E-003
7.000000E+007	7.517233E-002	-2.054421E-003	2.134001E-001	-5.939026E-003	2.135930E-001	-5.972698E-003	-8.952912E-002	3.233170E-003
8.000000E+007	7.528960E-002	-2.457591E-003	2.133483E-001	-6.738819E-003	2.135453E-001	-6.778445E-003	-8.937136E-002	3.563110E-003
9.000000E+007	7.538440E-002	-2.847413E-003	2.133267E-001	-7.587885E-003	2.135016E-001	-7.599442E-003	-8.923999E-002	3.828209E-003
1.000000E+008	7.546847E-002	-3.238201E-003	2.133050E-001	-8.432493E-003	2.134482E-001	-8.429647E-003	-8.916008E-002	4.115790E-003
1.100000E+008	7.554539E-002	-3.642661E-003	2.132136E-001	-9.300943E-003	2.133979E-001	-9.266368E-003	-8.907952E-002	4.378098E-003
1.200000E+008	7.562212E-002	-4.078366E-003	2.131166E-001	-1.012466E-002	2.133117E-001	-1.012247E-002	-8.900053E-002	4.595881E-003
1.300000E+008	7.567751E-002	-4.506053E-003	2.130569E-001	-1.092919E-002	2.132446E-001	-1.096490E-002	-8.889500E-002	4.821523E-003
1.400000E+008	7.570493E-002	-4.900143E-003	2.129814E-001	-1.176272E-002	2.131546E-001	-1.179945E-002	-8.875226E-002	5.032539E-003
1.500000E+008	7.565437E-002	-5.271215E-003	2.128973E-001	-1.255834E-002	2.130331E-001	-1.259300E-002	-8.862824E-002	5.248707E-003
1.600000E+008	7.562492E-002	-5.605701E-003	2.128475E-001	-1.335546E-002	2.129238E-001	-1.336204E-002	-8.859936E-002	5.480436E-003
1.700000E+008	7.560805E-002	-5.971581E-003	2.127715E-001	-1.423067E-002	2.129530E-001	-1.417602E-002	-8.861253E-002	5.694922E-003
1.800000E+008	7.553140E-002	-6.350010E-003	2.125805E-001	-1.509935E-002	2.128595E-001	-1.508478E-002	-8.858096E-002	5.895824E-003
1.900000E+008	7.542960E-002	-6.778691E-003	2.124257E-001	-1.588441E-002	2.127243E-001	-1.591007E-002	-8.853517E-002	6.045006E-003
2.000000E+008	7.533216E-002	-7.226155E-003	2.123572E-001	-1.667305E-002	2.125975E-001	-1.668680E-002	-8.843704E-002	6.191736E-003
2.100000E+008	7.523211E-002	-7.703664E-003	2.122558E-001	-1.746493E-002	2.124759E-001	-1.749166E-002	-8.832663E-002	6.315139E-003
2.200000E+008	7.513798E-002	-8.148213E-003	2.121832E-001	-1.821864E-002	2.123567E-001	-1.825464E-002	-8.819527E-002	6.424488E-003
2.300000E+008	7.503632E-002	-8.607141E-003	2.120834E-001	-1.902857E-002	2.122406E-001	-1.906179E-002	-8.805917E-002	6.539291E-003
2.400000E+008	7.496436E-002	-9.053019E-003	2.119692E-001	-1.985157E-002	2.121088E-001	-1.985561E-002	-8.792166E-002	6.672702E-003
2.500000E+008	7.486938E-002	-9.479483E-003	2.118255E-001	-2.066483E-002	2.119842E-001	-2.065409E-002	-8.777199E-002	6.779437E-003
2.600000E+008	7.481770E-002	-9.934160E-003	2.116804E-001	-2.148481E-002	2.118659E-001	-2.146078E-002	-8.758682E-002	6.957715E-003
2.700000E+008	7.474961E-002	-1.035584E-002	2.115192E-001	-2.226836E-002	2.117236E-001	-2.227595E-002	-8.737284E-002	7.172148E-003
2.800000E+008	7.472507E-002	-1.075451E-002	2.113723E-001	-2.302315E-002	2.115684E-001	-2.303472E-002	-8.718241E-002	7.357965E-003
2.900000E+008	7.464758E-002	-1.111010E-002	2.112630E-001	-2.379694E-002	2.114078E-001	-2.379613E-002	-8.704001E-002	7.589895E-003
3.000000E+008	7.456813E-002	-1.144480E-002	2.111477E-001	-2.460384E-002	2.113129E-001	-2.459184E-002	-8.690264E-002	7.842683E-003
3.100000E+008	7.446145E-002	-1.176960E-002	2.110259E-001	-2.541232E-002	2.111914E-001	-2.538505E-002	-8.679232E-002	8.114660E-003
3.200000E+008	7.434906E-002	-1.208717E-002	2.108609E-001	-2.621340E-002	2.110516E-001	-2.620064E-002	-8.669571E-002	8.386700E-003
3.300000E+008	7.419844E-002	-1.238967E-002	2.107124E-001	-2.699071E-002	2.109031E-001	-2.703261E-002	-8.662163E-002	8.608565E-003
3.400000E+008	7.397161E-002	-1.271308E-002	2.105546E-001	-2.778327E-002	2.106705E-001	-2.786608E-002	-8.649907E-002	8.795545E-003
3.500000E+008	7.374160E-002	-1.306389E-002	2.103932E-001	-2.858135E-002	2.104439E-001	-2.859126E-002	-8.637221E-002	8.943922E-003
3.600000E+008	7.353893E-002	-1.337141E-002	2.102228E-001	-2.936090E-002	2.102937E-001	-2.930001E-002	-8.622912E-002	9.109305E-003
3.700000E+008	7.332816E-002	-1.374313E-002	2.100249E-001	-3.010238E-002	2.101599E-001	-3.000914E-002	-8.605114E-002	9.252862E-003
3.800000E+008	7.314695E-002	-1.412840E-002	2.098578E-001	-3.087602E-002	2.100422E-001	-3.080401E-002	-8.588800E-002	9.425623E-003
3.900000E+008	7.293877E-002	-1.453023E-002	2.096603E-001	-3.166794E-002	2.098768E-001	-3.160391E-002	-8.562136E-002	9.635026E-003
4.000000E+008	7.278874E-002	-1.494606E-002	2.094411E-001	-3.236723E-002	2.096992E-001	-3.242302E-002	-8.534372E-002	9.849896E-003
4.100000E+008	7.258885E-002	-1.535304E-002	2.092792E-001	-3.309351E-002	2.094949E-001	-3.316650E-002	-8.508105E-002	1.007320E-002
4.200000E+008	7.240453E-002	-1.573581E-002	2.091532E-001	-3.385141E-002	2.093150E-001	-3.390234E-002	-8.487788E-002	1.033686E-002
4.300000E+008	7.225076E-002	-1.608257E-002	2.089963E-001	-3.464022E-002	2.091392E-001	-3.466598E-002	-8.467334E-002	1.065378E-002
4.400000E+008	7.211521E-002	-1.640382E-002	2.088033E-001	-3.540119E-002	2.089541E-001	-3.542113E-002	-8.449571E-002	1.098724E-002
4.500000E+008	7.197045E-002	-1.675215E-002	2.086197E-001	-3.617661E-002	2.087941E-001	-3.619189E-002	-8.432327E-002	1.135447E-002
4.600000E+008	7.181099E-002	-1.709112E-002	2.084292E-001	-3.695191E-002	2.085924E-001	-3.696075E-002	-8.417418E-002	1.171628E-002
4.700000E+008	7.162835E-002	-1.740283E-002	2.082216E-001	-3.767395E-002	2.083718E-001	-3.772393E-002	-8.403192E-002	1.203663E-002
4.800000E+008	7.143453E-002	-1.769256E-002	2.080404E-001	-3.842771E-002	2.081637E-001	-3.844736E-002	-8.391946E-002	1.232800E-002
4.900000E+008	7.121127E-002	-1.797992E-002	2.078301E-001	-3.916866E-002	2.079512E-001	-3.920589E-002	-8.381937E-002	1.262198E-002
5.000000E+008	7.101821E-002	-1.827173E-002	2.076409E-001	-3.991411E-002	2.077749E-001	-3.992366E-002	-8.368488E-002	1.288965E-002
5.100000E+008	7.081395E-002	-1.857624E-002	2.074469E-001	-4.066296E-002	2.076123E-001	-4.065451E-002	-8.351593E-002	1.318604E-002
5.200000E+008	7.061297E-002	-1.891587E-002	2.072378E-001	-4.141012E-002	2.074076E-001	-4.142414E-002	-8.333858E-002	1.345102E-002
5.300000E+008	7.037833E-002	-1.925946E-002	2.070285E-001	-4.215520E-002	2.072110E-001	-4.219397E-002	-8.311981E-002	1.370814E-002
5.400000E+008	7.012926E-002	-1.963224E-002	2.068017E-001	-4.290672E-002	2.069902E-001	-4.293425E-002	-8.291971E-002	1.398002E-002
5.500000E+008	6.990316E-002	-1.995277E-002	2.065943E-001	-4.364276E-002	2.067338E-001	-4.369393E-002	-8.273081E-002	1.428898E-002
5.600000E+008	6.968381E-002	-2.029599E-002	2.063664E-001	-4.436282E-002	2.064981E-001	-4.441085E-002	-8.253710E-002	1.459646E-002
5.700000E+008	6.948348E-002	-2.066517E-002	2.061390E-001	-4.508606E-002	2.063106E-001	-4.511581E-002	-8.239625E-002	1.496856E-002
5.800000E+008	6.929745E-002	-2.099148E-002	2.059300E-001	-4.584219E-002	2.060917E-001	-4.586395E-002	-8.225768E-002	1.531409E-002
5.900000E+008	6.910602E-002	-2.136581E-002	2.057138E-001	-4.658432E-002	2.058789E-001	-4.661850E-002	-8.212888E-002	1.568780E-002
6.000000E+008	6.893965E-002	-2.171361E-002	2.054817E-001	-4.731489E-002	2.056306E-001	-4.737136E-002	-8.195183E-002	1.603741E-002
6.100000E+008	6.880899E-002	-2.204681E-002	2.052476E-001	-4.802790E-002	2.053746E-001	-4.808494E-002	-8.183450E-002	1.633949E-002
6.200000E+008	6.867043E-002	-2.232191E-002	2.049989E-001	-4.874788E-002	2.051529E-001	-4.880452E-002	-8.169930E-002	1.666501E-002
6.300000E+008	6.854675E-002	-2.262009E-002	2.047611E-001	-4.946552E-002	2.049125E-001	-4.952337E-002	-8.154469E-002	1.698840E-002
6.400000E+008	6.842923E-002	-2.289751E-002	2.045244E-001	-5.018610E-002	2.046927E-001	-5.023821E-002	-8.137030E-002	1.731543E-002
6.500000E+008	6.830092E-002	-2.313804E-002	2.043101E-001	-5.089766E-002	2.044627E-001	-5.094769E-002	-8.120985E-002	1.766623E-002
6.600000E+008	6.812021E-002	-2.341178E-002	2.040876E-001	-5.162941E-002	2.042089E-001	-5.169142E-002	-8.106281E-002	1.798249E-002
6.700000E+008	6.789448E-002	-2.363705E-002	2.038313E-001	-5.234784E-002	2.039691E-001	-5.239932E-002	-8.091640E-002	1.835714E-002
6.800000E+008	6.768322E-002	-2.386124E-002	2.036040E-001	-5.306307E-002	2.037102E-001	-5.311065E-002	-8.076569E-002	1.873994E-002
6.900000E+008	6.744424E-002	-2.407609E-002	2.033139E-001	-5.378102E-002	2.034483E-001	-5.381442E-002	-8.062925E-002	1.912480E-002
7.000000E+008	6.722679E-002	-2.431359E-002	2.030808E-001	-5.449881E-002	2.032185E-001	-5.450317E-002	-8.054219E-002	1.948579E-002
7.100000E+008	6.700285E-002	-2.458452E-002	2.028191E-001	-5.517734E-002	2.029725E-001	-5.523061E-002	-8.046212E-002	1.983588E-002
7.200000E+008	6.675314E-002	-2.484903E-002	2.025903E-001	-5.587719E-002	2.027256E-001	-5.593917E-002	-8.035885E-002	2.019784E-002
7.300000E+008	6.652565E-002	-2.513661E-002	2.023230E-001	-5.657761E-002	2.024746E-001	-5.666753E-002	-8.028642E-002	2.046693E-002
7.400000E+008	6.628573E-002	-2.540531E-002	2.020451E-001	-5.730157E-002	2.022220E-001	-5.736506E-002	-8.020290E-002	2.076690E-002
7.500000E+008	6.607164E-002	-2.567515E-002	2.018160E-001	-5.800185E-002	2.019615E-001	-5.807295E-002	-8.012283E-002	2.104300E-002
7.600000E+008	6.584144E-002	-2.595251E-002	2.015392E-001	-5.872251E-002	2.016920E-001	-5.876364E-002	-8.001581E-002	2.131280E-002
7.700000E+008	6.562466E-002	-2.624397E-002	2.012752E-001	-5.942213E-002	2.014408E-001	-5.947456E-002	-7.988303E-002	2.155623E-002
7.800000E+008	6.540904E-002	-2.652363E-002	2.010201E-001	-6.011878E-002	2.011940E-001	-6.017245E-002	-7.974285E-002	2.182441E-002
7.900000E+008	6.517374E-002	-2.684938E-002	2.007675E-001	-6.082058E-002	2.009255E-001	-6.090298E-002	-7.962729E-002	2.211296E-002
8.000000E+008	6.496888E-002	-2.716157E-002	2.004937E-001	-6.150316E-002	2.006231E-001	-6.156942E-002	-7.945078E-002	2.241188E-002
8.100000E+008	6.476144E-002	-2.745414E-002	2.002053E-001	-6.218803E-002	2.003347E-001	-6.226944E-002	-7.923801E-002	2.272564E-002
8.200000E+008	6.461074E-002	-2.775090E-002	1.999338E-001	-6.290599E-002	2.000662E-001	-6.295380E-002	-7.906234E-002	2.301658E-002
8.300000E+008	6.444514E-002	-2.802688E-002	1.996460E-001	-6.357966E-002	1.998018E-001	-6.364613E-002	-7.889829E-002	2.334243E-002
8.400000E+008	6.431741E-002	-2.828197E-002	1.993753E-001	-6.425450E-002	1.995250E-001	-6.434098E-002	-7.873808E-002	2.365830E-002
8.500000E+008	6.417608E-002	-2.853495E-002	1.991117E-001	-6.496175E-002	1.992483E-001	-6.502710E-002	-7.863321E-002	2.397013E-002
8.600000E+008	6.398694E-002	-2.875134E-002	1.988249E-001	-6.564393E-002	1.989528E-001	-6.570368E-002	-7.848992E-002	2.430992E-002
8.700000E+008	6.383341E-002	-2.895142E-002	1.985422E-001	-6.633258E-002	1.986646E-001	-6.641366E-002	-7.836252E-002	2.459691E-002
8.800000E+008	6.365541E-002	-2.913419E-002	1.982654E-001	-6.702981E-002	1.984143E-001	-6.707969E-002	-7.825228E-002	2.490524E-002
8.900000E+008	6.343863E-002	-2.936011E-002	1.979628E-001	-6.771263E-002	1.981216E-001	-6.779021E-002	-7.813187E-002	2.517532E-002
9.000000E+008	6.321332E-002	-2.955793E-002	1.976536E-001	-6.838853E-002	1.978408E-001	-6.845835E-002	-7.798208E-002	2.547320E-002
9.100000E+008	6.297284E-002	-2.975584E-002	1.973680E-001	-6.906893E-002	1.975494E-001	-6.914409E-002	-7.780047E-002	2.573235E-002
9.200000E+008	6.273581E-002	-3.001968E-002	1.970665E-001	-6.973917E-002	1.972468E-001	-6.982846E-002	-7.757633E-002	2.601063E-002
9.300000E+008	6.252874E-002	-3.023805E-002	1.967860E-001	-7.040719E-002	1.969360E-001	-7.049769E-002	-7.734724E-002	2.630981E-002
9.400000E+008	6.233272E-002	-3.051444E-002	1.964799E-001	-7.108128E-002	1.966462E-001	-7.117816E-002	-7.708456E-002	2.662589E-002
9.500000E+008	6.213218E-002	-3.077066E-002	1.961925E-001	-7.176831E-002	1.963406E-001	-7.186092E-002	-7.680148E-002	2.699716E-002
9.600000E+008	6.195025E-002	-3.097372E-002	1.958710E-001	-7.244267E-002	1.960555E-001	-7.252513E-002	-7.652685E-002	2.734655E-002
9.700000E+008	6.180144E-002	-3.119146E-002	1.955681E-001	-7.308590E-002	1.957309E-001	-7.319433E-002	-7.626008E-002	2.770259E-002
9.800000E+008	6.164631E-002	-3.139279E-002	1.952930E-001	-7.375647E-002	1.954505E-001	-7.386563E-002	-7.600809E-002	2.810174E-002
9.900000E+008	6.149343E-002	-3.155776E-002	1.950048E-001	-7.444560E-002	1.951361E-001	-7.455463E-002	-7.579301E-002	2.847983E-002
1.000000E+009	6.132468E-002	-3.172919E-002	1.946905E-001	-7.510256E-002	1.948207E-001	-7.521686E-002	-7.561412E-002	2.886358E-002
1.010000E+009	6.110821E-002	-3.188497E-002	1.943809E-001	-7.578945E-002	1.945251E-001	-7.587424E-002	-7.543645E-002	2.926641E-002
1.020000E+009	6.090558E-002	-3.203176E-002	1.940674E-001	-7.646475E-002	1.941928E-001	-7.655842E-002	-7.528475E-002	2.967200E-002
1.030000E+009	6.069711E-002	-3.217206E-002	1.937301E-001	-7.711338E-002	1.938845E-001	-7.719678E-002	-7.511310E-002	3.004288E-002
1.040000E+009	6.047634E-002	-3.232609E-002	1.934152E-001	-7.775594E-002	1.935646E-001	-7.784542E-002	-7.495417E-002	3.040852E-002
1.050000E+009	6.026340E-002	-3.251813E-002	1.931104E-001	-7.842814E-002	1.932533E-001	-7.853255E-002	-7.476959E-002	3.081412E-002
1.060000E+009	6.004236E-002	-3.270680E-002	1.927948E-001	-7.909096E-002	1.929125E-001	-7.916757E-002	-7.456528E-002	3.116705E-002
1.070000E+009	5.981025E-002	-3.287879E-002	1.924710E-001	-7.973196E-002	1.926168E-001	-7.981641E-002	-7.435611E-002	3.153472E-002
1.080000E+009	5.960378E-002	-3.309565E-002	1.921431E-001	-8.041659E-002	1.922951E-001	-8.048100E-002	-7.411191E-002	3.193227E-002
1.090000E+009	5.940383E-002	-3.326448E-002	1.918269E-001	-8.106480E-002	1.919875E-001	-8.114923E-002	-7.392520E-002	3.228877E-002
1.100000E+009	5.921410E-002	-3.343559E-002	1.914488E-001	-8.173331E-002	1.916540E-001	-8.179599E-002	-7.372443E-002	3.268287E-002
1.110000E+009	5.900480E-002	-3.361467E-002	1.911536E-001	-8.238428E-002	1.913286E-001	-8.246405E-002	-7.355076E-002	3.305437E-002
1.120000E+009	5.879323E-002	-3.376802E-002	1.908291E-001	-8.302596E-002	1.910016E-001	-8.311766E-002	-7.342278E-002	3.341206E-002
1.130000E+009	5.858109E-002	-3.393983E-002	1.904862E-001	-8.368898E-002	1.906372E-001	-8.377437E-002	-7.325139E-002	3.378041E-002
1.140000E+009	5.833900E-002	-3.408578E-002	1.901553E-001	-8.432954E-002	1.903019E-001	-8.442876E-002	-7.307304E-002	3.415352E-002
1.150000E+009	5.814740E-002	-3.427741E-002	1.898061E-001	-8.500178E-002	1.899570E-001	-8.507017E-002	-7.288048E-002	3.452127E-002
1.160000E+009	5.790452E-002	-3.443000E-002	1.894647E-001	-8.564973E-002	1.896473E-001	-8.573424E-002	-7.270921E-002	3.486668E-002
1.170000E+009	5.769417E-002	-3.459000E-002	1.891102E-001	-8.629370E-002	1.892811E-001	-8.637810E-002	-7.250132E-002	3.526972E-002
1.180000E+009	5.748984E-002	-3.476266E-002	1.887525E-001	-8.693461E-002	1.889301E-001	-8.703042E-002	-7.227731E-002	3.564655E-002
1.190000E+009	5.723774E-002	-3.493025E-002	1.884046E-001	-8.757922E-002	1.885537E-001	-8.766857E-002	-7.203930E-002	3.602729E-002
1.200000E+009	5.701930E-002	-3.511542E-002	1.880710E-001	-8.823424E-002	1.882189E-001	-8.830882E-002	-7.181656E-002	3.642242E-002
1.210000E+009	5.683890E-002	-3.530826E-002	1.876960E-001	-8.888064E-002	1.878593E-001	-8.896241E-002	-7.161530E-002	3.683801E-002
1.220000E+009	5.661351E-002	-3.550574E-002	1.873471E-001	-8.949849E-002	1.875129E-001	-8.959537E-002	-7.144067E-002	3.724502E-002
1.230000E+009	5.640309E-002	-3.569859E-002	1.869939E-001	-9.014607E-002	1.871370E-001	-9.023882E-002	-7.126888E-002	3.760194E-002
1.240000E+009	5.622657E-002	-3.588129E-002	1.866214E-001	-9.078760E-002	1.867681E-001	-9.086623E-002	-7.108841E-002	3.795860E-002
1.250000E+009	5.604797E-002	-3.605735E-002	1.862600E-001	-9.143413E-002	1.864417E-001	-9.151689E-002	-7.093283E-002	3.833020E-002
1.260000E+009	5.582543E-002	-3.624349E-002	1.858907E-001	-9.205708E-002	1.860473E-001	-9.215523E-002	-7.073031E-002	3.863393E-002
1.270000E+009	5.567749E-002	-3.640325E-002	1.855276E-001	-9.268911E-002	1.856603E-001	-9.277326E-002	-7.053921E-002	3.896661E-002
1.280000E+009	5.548691E-002	-3.656895E-002	1.851782E-001	-9.334193E-002	1.853255E-001	-9.341740E-002	-7.032598E-002	3.926104E-002
1.290000E+009	5.531576E-002	-3.671150E-002	1.847845E-001	-9.399158E-002	1.849524E-001	-9.404040E-002	-7.004076E-002	3.955381E-002
1.300000E+009	5.514566E-002	-3.683073E-002	1.843987E-001	-9.459480E-002	1.846003E-001	-9.467706E-002	-6.973904E-002	3.989589E-002
1.310000E+009	5.496452E-002	-3.695942E-002	1.839951E-001	-9.524527E-002	1.841906E-001	-9.532365E-002	-6.946226E-002	4.024637E-002
1.320000E+009	5.475303E-002	-3.707853E-002	1.836340E-001	-9.588322E-002	1.838044E-001	-9.595913E-002	-6.908931E-002	4.062603E-002
1.330000E+009	5.457708E-002	-3.719214E-002	1.832601E-001	-9.648153E-002	1.834166E-001	-9.658680E-002	-6.874758E-002	4.107152E-002
1.340000E+009	5.435214E-002	-3.727201E-002	1.828544E-001	-9.711613E-002	1.830284E-001	-9.719257E-002	-6.841396E-002	4.155298E-002
1.350000E+009	5.411777E-002	-3.737560E-002	1.824788E-001	-9.772742E-002	1.826314E-001	-9.783175E-002	-6.811098E-002	4.204799E-002
1.360000E+009	5.394085E-002	-3.747479E-002	1.820746E-001	-9.834019E-002	1.822528E-001	-9.847793E-002	-6.779786E-002	4.255696E-002
1.370000E+009	5.373170E-002	-3.760546E-002	1.817093E-001	-9.898266E-002	1.818469E-001	-9.907080E-002	-6.755343E-002	4.308206E-002
1.380000E+009	5.351926E-002	-3.770628E-002	1.813039E-001	-9.958532E-002	1.814563E-001	-9.968467E-002	-6.729458E-002	4.356568E-002
1.390000E+009	5.329680E-002	-3.783366E-002	1.808879E-001	-1.002084E-001	1.810597E-001	-1.003044E-001	-6.709110E-002	4.411020E-002
1.400000E+009	5.310691E-002	-3.796925E-002	1.804961E-001	-1.008184E-001	1.806485E-001	-1.009060E-001	-6.685583E-002	4.457828E-002
1.410000E+009	5.285173E-002	-3.807358E-002	1.800913E-001	-1.014406E-001	1.802407E-001	-1.015103E-001	-6.663840E-002	4.506670E-002
1.420000E+009	5.263922E-002	-3.818010E-002	1.796590E-001	-1.020332E-001	1.798399E-001	-1.021234E-001	-6.645611E-002	4.551538E-002
1.430000E+009	5.244993E-002	-3.826580E-002	1.792712E-001	-1.026405E-001	1.794504E-001	-1.027506E-001	-6.621019E-002	4.594763E-002
1.440000E+009	5.222608E-002	-3.837763E-002	1.788464E-001	-1.032579E-001	1.790035E-001	-1.033323E-001	-6.596047E-002	4.637493E-002
1.450000E+009	5.199679E-002	-3.848052E-002	1.784238E-001	-1.038497E-001	1.786043E-001	-1.039368E-001	-6.570047E-002	4.681547E-002
1.460000E+009	5.175977E-002	-3.859221E-002	1.780195E-001	-1.044543E-001	1.781613E-001	-1.045567E-001	-6.544419E-002	4.725382E-002
1.470000E+009	5.153522E-002	-3.869923E-002	1.775920E-001	-1.050515E-001	1.777492E-001	-1.051415E-001	-6.515893E-002	4.776518E-002
1.480000E+009	5.130756E-002	-3.877165E-002	1.771725E-001	-1.056449E-001	1.773068E-001	-1.057456E-001	-6.489576E-002	4.825158E-002
1.490000E+009	5.108269E-002	-3.889444E-002	1.767413E-001	-1.062313E-001	1.769076E-001	-1.063283E-001	-6.458940E-002	4.879909E-002
1.500000E+009	5.087049E-002	-3.899679E-002	1.763416E-001	-1.068257E-001	1.764669E-001	-1.069227E-001	-6.429340E-002	4.927706E-002
