! Device ID: PE43711P
! File Path: z:\PE43711P\CHAR_NOM_04282014\AMB\3p300\LS_ATT_7p75dB\PE43711P_AMB_3p300V_3p000V_0p000V_LS_ATT_7p75dB_S2P_SN_5_A0137A.s2p
! Serial: 5
! Lot: A0137A
! Temp: 25C
! VDD: 3.300
! VSS: 0.000
! Control_Hi: 3.000
! Control_Lo: 0.000
! Attenuation Step: 7.75dB
! Port 1: RF1
! Port 2: RF2
! ThroughPath:1-2
! IDD: 0.0001279351
! ISS: -5.23e-008
!

#  Hz  S   RI  R   50

1.000000E+007	8.487834E-002	-1.947979E-004	3.606981E-001	-1.792174E-003	3.609363E-001	-1.842980E-003	-8.658724E-002	6.647770E-004
2.000000E+007	8.502945E-002	-4.745933E-004	3.606245E-001	-2.975659E-003	3.606753E-001	-2.996255E-003	-8.632250E-002	1.122153E-003
3.000000E+007	8.529512E-002	-9.010605E-004	3.606238E-001	-4.448744E-003	3.607091E-001	-4.491605E-003	-8.602466E-002	1.481480E-003
4.000000E+007	8.540287E-002	-1.330147E-003	3.605952E-001	-5.957522E-003	3.606836E-001	-5.979543E-003	-8.577231E-002	1.856688E-003
5.000000E+007	8.554427E-002	-1.821911E-003	3.605957E-001	-7.572512E-003	3.607682E-001	-7.540847E-003	-8.567568E-002	2.187705E-003
6.000000E+007	8.571555E-002	-2.354748E-003	3.604937E-001	-9.051645E-003	3.607392E-001	-9.043995E-003	-8.554762E-002	2.387299E-003
7.000000E+007	8.582008E-002	-2.914166E-003	3.604062E-001	-1.050934E-002	3.606246E-001	-1.053333E-002	-8.541049E-002	2.609567E-003
8.000000E+007	8.594172E-002	-3.442936E-003	3.603248E-001	-1.195039E-002	3.605506E-001	-1.197006E-002	-8.527948E-002	2.851799E-003
9.000000E+007	8.604234E-002	-3.972566E-003	3.602749E-001	-1.339569E-002	3.604634E-001	-1.341820E-002	-8.515152E-002	3.027665E-003
1.000000E+008	8.611211E-002	-4.492464E-003	3.601973E-001	-1.490888E-002	3.603444E-001	-1.487314E-002	-8.502015E-002	3.215025E-003
1.100000E+008	8.617600E-002	-5.012384E-003	3.600734E-001	-1.642729E-002	3.602593E-001	-1.634233E-002	-8.494739E-002	3.376081E-003
1.200000E+008	8.626195E-002	-5.566155E-003	3.598678E-001	-1.787001E-002	3.601112E-001	-1.785840E-002	-8.492991E-002	3.517685E-003
1.300000E+008	8.632389E-002	-6.131638E-003	3.597643E-001	-1.930535E-002	3.599986E-001	-1.932089E-002	-8.482791E-002	3.630674E-003
1.400000E+008	8.633858E-002	-6.707453E-003	3.596330E-001	-2.076723E-002	3.598380E-001	-2.080661E-002	-8.457820E-002	3.719652E-003
1.500000E+008	8.626296E-002	-7.275711E-003	3.594899E-001	-2.216426E-002	3.596271E-001	-2.218809E-002	-8.438480E-002	3.818446E-003
1.600000E+008	8.615155E-002	-7.698658E-003	3.593898E-001	-2.358595E-002	3.594455E-001	-2.359068E-002	-8.443939E-002	3.969210E-003
1.700000E+008	8.606987E-002	-8.153003E-003	3.592427E-001	-2.513052E-002	3.594908E-001	-2.502689E-002	-8.461851E-002	4.088218E-003
1.800000E+008	8.591404E-002	-8.651346E-003	3.588933E-001	-2.667366E-002	3.593066E-001	-2.658393E-002	-8.472282E-002	4.185452E-003
1.900000E+008	8.578695E-002	-9.224394E-003	3.586477E-001	-2.804360E-002	3.590706E-001	-2.803739E-002	-8.471100E-002	4.232696E-003
2.000000E+008	8.572121E-002	-9.832054E-003	3.584770E-001	-2.943124E-002	3.588477E-001	-2.941791E-002	-8.453920E-002	4.322232E-003
2.100000E+008	8.564238E-002	-1.048256E-002	3.583290E-001	-3.082176E-002	3.586152E-001	-3.082368E-002	-8.433235E-002	4.375026E-003
2.200000E+008	8.554730E-002	-1.106212E-002	3.581862E-001	-3.216369E-002	3.584103E-001	-3.219579E-002	-8.418034E-002	4.432758E-003
2.300000E+008	8.541741E-002	-1.164831E-002	3.579712E-001	-3.361038E-002	3.581812E-001	-3.359623E-002	-8.407510E-002	4.460634E-003
2.400000E+008	8.528996E-002	-1.225063E-002	3.577807E-001	-3.504729E-002	3.579500E-001	-3.501348E-002	-8.398991E-002	4.485471E-003
2.500000E+008	8.512585E-002	-1.279435E-002	3.575085E-001	-3.647099E-002	3.577351E-001	-3.642106E-002	-8.390838E-002	4.485875E-003
2.600000E+008	8.501555E-002	-1.338239E-002	3.572466E-001	-3.790535E-002	3.575186E-001	-3.784847E-002	-8.377279E-002	4.555772E-003
2.700000E+008	8.490640E-002	-1.396017E-002	3.569495E-001	-3.927473E-002	3.572444E-001	-3.925847E-002	-8.357092E-002	4.673510E-003
2.800000E+008	8.482531E-002	-1.447480E-002	3.566892E-001	-4.063633E-002	3.569858E-001	-4.060858E-002	-8.340176E-002	4.784204E-003
2.900000E+008	8.470280E-002	-1.495483E-002	3.564888E-001	-4.199186E-002	3.567020E-001	-4.194545E-002	-8.330113E-002	4.924036E-003
3.000000E+008	8.460580E-002	-1.540687E-002	3.562747E-001	-4.341174E-002	3.565178E-001	-4.333805E-002	-8.317982E-002	5.101762E-003
3.100000E+008	8.445769E-002	-1.584156E-002	3.560193E-001	-4.478323E-002	3.562968E-001	-4.473621E-002	-8.308939E-002	5.298230E-003
3.200000E+008	8.429845E-002	-1.626917E-002	3.557261E-001	-4.621421E-002	3.560131E-001	-4.615533E-002	-8.303747E-002	5.479884E-003
3.300000E+008	8.410859E-002	-1.666895E-002	3.554714E-001	-4.758201E-002	3.557482E-001	-4.761907E-002	-8.296724E-002	5.644777E-003
3.400000E+008	8.382067E-002	-1.711778E-002	3.551608E-001	-4.894630E-002	3.553317E-001	-4.904360E-002	-8.288920E-002	5.736852E-003
3.500000E+008	8.353886E-002	-1.757596E-002	3.548857E-001	-5.037634E-002	3.549400E-001	-5.035113E-002	-8.279450E-002	5.789207E-003
3.600000E+008	8.327087E-002	-1.800807E-002	3.545783E-001	-5.174602E-002	3.546416E-001	-5.159445E-002	-8.267747E-002	5.880274E-003
3.700000E+008	8.302227E-002	-1.847496E-002	3.542144E-001	-5.303951E-002	3.543944E-001	-5.284420E-002	-8.251799E-002	5.953167E-003
3.800000E+008	8.276986E-002	-1.897298E-002	3.539330E-001	-5.438418E-002	3.542011E-001	-5.424531E-002	-8.236015E-002	6.040579E-003
3.900000E+008	8.250872E-002	-1.947720E-002	3.535580E-001	-5.578058E-002	3.539009E-001	-5.565547E-002	-8.214864E-002	6.159225E-003
4.000000E+008	8.229736E-002	-2.000071E-002	3.531965E-001	-5.704417E-002	3.535691E-001	-5.704724E-002	-8.189789E-002	6.301455E-003
4.100000E+008	8.203132E-002	-2.051015E-002	3.529003E-001	-5.829072E-002	3.532145E-001	-5.839207E-002	-8.168104E-002	6.434347E-003
4.200000E+008	8.176685E-002	-2.100596E-002	3.526652E-001	-5.964518E-002	3.528902E-001	-5.966373E-002	-8.152336E-002	6.632226E-003
4.300000E+008	8.155295E-002	-2.144899E-002	3.523368E-001	-6.100834E-002	3.525539E-001	-6.102363E-002	-8.136581E-002	6.839614E-003
4.400000E+008	8.133264E-002	-2.187471E-002	3.520108E-001	-6.236557E-002	3.522463E-001	-6.235074E-002	-8.123819E-002	7.109821E-003
4.500000E+008	8.113714E-002	-2.230121E-002	3.516911E-001	-6.370566E-002	3.519391E-001	-6.370915E-002	-8.111016E-002	7.386998E-003
4.600000E+008	8.092313E-002	-2.274820E-002	3.513281E-001	-6.506775E-002	3.515619E-001	-6.506422E-002	-8.098596E-002	7.699553E-003
4.700000E+008	8.066709E-002	-2.314056E-002	3.509526E-001	-6.634478E-002	3.511698E-001	-6.637968E-002	-8.090664E-002	7.934149E-003
4.800000E+008	8.041045E-002	-2.351723E-002	3.506113E-001	-6.765120E-002	3.508125E-001	-6.764944E-002	-8.083672E-002	8.186621E-003
4.900000E+008	8.010762E-002	-2.391198E-002	3.502562E-001	-6.895932E-002	3.504282E-001	-6.895011E-002	-8.078221E-002	8.412401E-003
5.000000E+008	7.982824E-002	-2.428349E-002	3.498891E-001	-7.025145E-002	3.500851E-001	-7.024847E-002	-8.068853E-002	8.626863E-003
5.100000E+008	7.956216E-002	-2.468612E-002	3.495354E-001	-7.156789E-002	3.497646E-001	-7.152774E-002	-8.057128E-002	8.844157E-003
5.200000E+008	7.928085E-002	-2.512263E-002	3.491697E-001	-7.289219E-002	3.494283E-001	-7.288291E-002	-8.044693E-002	9.016020E-003
5.300000E+008	7.899052E-002	-2.555698E-002	3.487849E-001	-7.419474E-002	3.490418E-001	-7.422079E-002	-8.024856E-002	9.217294E-003
5.400000E+008	7.868821E-002	-2.604523E-002	3.483725E-001	-7.552022E-002	3.486627E-001	-7.551943E-002	-8.008443E-002	9.394014E-003
5.500000E+008	7.838494E-002	-2.644456E-002	3.480093E-001	-7.679923E-002	3.482317E-001	-7.682276E-002	-7.994643E-002	9.637845E-003
5.600000E+008	7.808528E-002	-2.686203E-002	3.475821E-001	-7.808264E-002	3.477909E-001	-7.810933E-002	-7.980617E-002	9.865156E-003
5.700000E+008	7.782872E-002	-2.730172E-002	3.471843E-001	-7.934320E-002	3.474417E-001	-7.936539E-002	-7.973970E-002	1.018785E-002
5.800000E+008	7.755034E-002	-2.769426E-002	3.467827E-001	-8.063831E-002	3.470608E-001	-8.063959E-002	-7.965350E-002	1.045538E-002
5.900000E+008	7.729588E-002	-2.814316E-002	3.463693E-001	-8.194781E-002	3.466755E-001	-8.197604E-002	-7.958193E-002	1.075445E-002
6.000000E+008	7.707879E-002	-2.856659E-002	3.459597E-001	-8.321936E-002	3.462388E-001	-8.328189E-002	-7.947023E-002	1.100162E-002
6.100000E+008	7.685484E-002	-2.898910E-002	3.455512E-001	-8.447889E-002	3.457743E-001	-8.456425E-002	-7.941954E-002	1.126939E-002
6.200000E+008	7.665189E-002	-2.937561E-002	3.451052E-001	-8.574415E-002	3.453705E-001	-8.578748E-002	-7.932749E-002	1.151087E-002
6.300000E+008	7.646645E-002	-2.974532E-002	3.446727E-001	-8.698636E-002	3.449361E-001	-8.705206E-002	-7.922836E-002	1.176590E-002
6.400000E+008	7.626974E-002	-3.010517E-002	3.442551E-001	-8.824527E-002	3.444961E-001	-8.830308E-002	-7.911992E-002	1.202697E-002
6.500000E+008	7.607566E-002	-3.041425E-002	3.438400E-001	-8.949627E-002	3.440904E-001	-8.955201E-002	-7.900470E-002	1.231502E-002
6.600000E+008	7.582452E-002	-3.078213E-002	3.434493E-001	-9.077536E-002	3.436352E-001	-9.083230E-002	-7.889313E-002	1.259809E-002
6.700000E+008	7.552082E-002	-3.106479E-002	3.429822E-001	-9.202942E-002	3.432014E-001	-9.209731E-002	-7.882643E-002	1.290875E-002
6.800000E+008	7.522421E-002	-3.138330E-002	3.425236E-001	-9.329274E-002	3.427615E-001	-9.335222E-002	-7.873725E-002	1.323182E-002
6.900000E+008	7.489020E-002	-3.166866E-002	3.420576E-001	-9.453741E-002	3.422668E-001	-9.456172E-002	-7.868995E-002	1.356568E-002
7.000000E+008	7.459729E-002	-3.198811E-002	3.416100E-001	-9.577491E-002	3.418528E-001	-9.578953E-002	-7.865993E-002	1.387167E-002
7.100000E+008	7.430071E-002	-3.233492E-002	3.411485E-001	-9.696109E-002	3.414075E-001	-9.706194E-002	-7.862959E-002	1.415539E-002
7.200000E+008	7.397923E-002	-3.266867E-002	3.407112E-001	-9.821757E-002	3.409700E-001	-9.829714E-002	-7.859512E-002	1.442018E-002
7.300000E+008	7.367107E-002	-3.303986E-002	3.402225E-001	-9.945012E-002	3.405282E-001	-9.956257E-002	-7.859082E-002	1.462830E-002
7.400000E+008	7.335007E-002	-3.336883E-002	3.397532E-001	-1.006750E-001	3.400427E-001	-1.007808E-001	-7.856136E-002	1.485151E-002
7.500000E+008	7.306924E-002	-3.370827E-002	3.392878E-001	-1.019069E-001	3.395757E-001	-1.020153E-001	-7.853685E-002	1.506442E-002
7.600000E+008	7.274792E-002	-3.407184E-002	3.388292E-001	-1.031535E-001	3.390991E-001	-1.032379E-001	-7.848344E-002	1.527416E-002
7.700000E+008	7.242631E-002	-3.443475E-002	3.383538E-001	-1.043711E-001	3.386443E-001	-1.044615E-001	-7.842698E-002	1.546072E-002
7.800000E+008	7.211278E-002	-3.478657E-002	3.378708E-001	-1.055794E-001	3.381748E-001	-1.056761E-001	-7.835759E-002	1.566093E-002
7.900000E+008	7.181278E-002	-3.518524E-002	3.374014E-001	-1.068181E-001	3.376895E-001	-1.069130E-001	-7.832736E-002	1.589824E-002
8.000000E+008	7.150403E-002	-3.553374E-002	3.368993E-001	-1.080167E-001	3.371690E-001	-1.081236E-001	-7.822459E-002	1.612112E-002
8.100000E+008	7.120628E-002	-3.592164E-002	3.364104E-001	-1.092285E-001	3.366588E-001	-1.093430E-001	-7.808370E-002	1.639137E-002
8.200000E+008	7.096100E-002	-3.626455E-002	3.359185E-001	-1.104473E-001	3.361391E-001	-1.105361E-001	-7.797354E-002	1.663088E-002
8.300000E+008	7.072432E-002	-3.661850E-002	3.353966E-001	-1.116477E-001	3.356823E-001	-1.117466E-001	-7.789433E-002	1.690227E-002
8.400000E+008	7.050405E-002	-3.694295E-002	3.349099E-001	-1.128375E-001	3.351796E-001	-1.129514E-001	-7.780330E-002	1.716367E-002
8.500000E+008	7.029331E-002	-3.725142E-002	3.344127E-001	-1.140363E-001	3.346745E-001	-1.141654E-001	-7.775473E-002	1.741471E-002
8.600000E+008	7.001942E-002	-3.755365E-002	3.338869E-001	-1.152262E-001	3.341303E-001	-1.153673E-001	-7.770635E-002	1.769477E-002
8.700000E+008	6.977031E-002	-3.780890E-002	3.334011E-001	-1.164483E-001	3.336139E-001	-1.165450E-001	-7.764838E-002	1.794350E-002
8.800000E+008	6.948407E-002	-3.806051E-002	3.328834E-001	-1.176575E-001	3.331388E-001	-1.177274E-001	-7.762997E-002	1.820114E-002
8.900000E+008	6.917001E-002	-3.831463E-002	3.323351E-001	-1.188343E-001	3.326179E-001	-1.189349E-001	-7.756814E-002	1.842451E-002
9.000000E+008	6.884412E-002	-3.860213E-002	3.317877E-001	-1.200231E-001	3.321146E-001	-1.201322E-001	-7.749351E-002	1.867640E-002
9.100000E+008	6.852294E-002	-3.887617E-002	3.312734E-001	-1.212065E-001	3.315932E-001	-1.213118E-001	-7.737482E-002	1.889816E-002
9.200000E+008	6.819625E-002	-3.916670E-002	3.307328E-001	-1.223797E-001	3.310644E-001	-1.225285E-001	-7.723905E-002	1.913463E-002
9.300000E+008	6.788470E-002	-3.945114E-002	3.302081E-001	-1.235667E-001	3.304723E-001	-1.237096E-001	-7.707793E-002	1.936669E-002
9.400000E+008	6.761182E-002	-3.977709E-002	3.296741E-001	-1.247293E-001	3.299859E-001	-1.248740E-001	-7.687481E-002	1.965471E-002
9.500000E+008	6.729168E-002	-4.006789E-002	3.291386E-001	-1.259070E-001	3.294270E-001	-1.260674E-001	-7.667891E-002	1.996809E-002
9.600000E+008	6.701199E-002	-4.033097E-002	3.285895E-001	-1.270964E-001	3.288779E-001	-1.272234E-001	-7.646926E-002	2.027604E-002
9.700000E+008	6.676805E-002	-4.058057E-002	3.280099E-001	-1.282292E-001	3.283232E-001	-1.284046E-001	-7.627451E-002	2.059584E-002
9.800000E+008	6.655338E-002	-4.084683E-002	3.274853E-001	-1.293988E-001	3.277883E-001	-1.295624E-001	-7.609863E-002	2.095155E-002
9.900000E+008	6.629439E-002	-4.107175E-002	3.269602E-001	-1.305981E-001	3.272284E-001	-1.307608E-001	-7.595879E-002	2.128828E-002
1.000000E+009	6.602063E-002	-4.128952E-002	3.264031E-001	-1.317257E-001	3.266396E-001	-1.319106E-001	-7.586957E-002	2.163240E-002
1.010000E+009	6.572411E-002	-4.146305E-002	3.258537E-001	-1.329114E-001	3.260973E-001	-1.330573E-001	-7.576956E-002	2.198570E-002
1.020000E+009	6.541666E-002	-4.167694E-002	3.252916E-001	-1.340802E-001	3.255234E-001	-1.342242E-001	-7.569274E-002	2.234904E-002
1.030000E+009	6.513364E-002	-4.185022E-002	3.246868E-001	-1.352252E-001	3.249547E-001	-1.353714E-001	-7.560127E-002	2.271173E-002
1.040000E+009	6.481562E-002	-4.206539E-002	3.241014E-001	-1.363535E-001	3.243954E-001	-1.365299E-001	-7.551729E-002	2.304060E-002
1.050000E+009	6.449382E-002	-4.229334E-002	3.235703E-001	-1.375134E-001	3.238199E-001	-1.376716E-001	-7.539841E-002	2.339077E-002
1.060000E+009	6.417643E-002	-4.251773E-002	3.229854E-001	-1.386640E-001	3.232338E-001	-1.387860E-001	-7.528097E-002	2.372592E-002
1.070000E+009	6.384228E-002	-4.274562E-002	3.223721E-001	-1.397942E-001	3.226466E-001	-1.399159E-001	-7.514908E-002	2.404196E-002
1.080000E+009	6.356228E-002	-4.298427E-002	3.218007E-001	-1.409680E-001	3.221133E-001	-1.410929E-001	-7.499425E-002	2.440982E-002
1.090000E+009	6.326656E-002	-4.319831E-002	3.211965E-001	-1.421141E-001	3.215293E-001	-1.422224E-001	-7.488392E-002	2.472666E-002
1.100000E+009	6.300006E-002	-4.342806E-002	3.205819E-001	-1.432555E-001	3.209033E-001	-1.433461E-001	-7.476244E-002	2.508655E-002
1.110000E+009	6.273505E-002	-4.362327E-002	3.199989E-001	-1.443734E-001	3.203091E-001	-1.445194E-001	-7.465055E-002	2.541075E-002
1.120000E+009	6.241970E-002	-4.382537E-002	3.194058E-001	-1.455030E-001	3.196930E-001	-1.456588E-001	-7.458321E-002	2.573784E-002
1.130000E+009	6.211784E-002	-4.403285E-002	3.188058E-001	-1.466471E-001	3.190904E-001	-1.468037E-001	-7.452464E-002	2.606348E-002
1.140000E+009	6.179144E-002	-4.419870E-002	3.181977E-001	-1.477923E-001	3.184909E-001	-1.479088E-001	-7.444352E-002	2.642420E-002
1.150000E+009	6.147472E-002	-4.441204E-002	3.175656E-001	-1.489256E-001	3.178505E-001	-1.490382E-001	-7.432226E-002	2.675256E-002
1.160000E+009	6.115588E-002	-4.460365E-002	3.169734E-001	-1.500533E-001	3.172456E-001	-1.501775E-001	-7.422894E-002	2.707428E-002
1.170000E+009	6.084850E-002	-4.481124E-002	3.163341E-001	-1.511697E-001	3.166295E-001	-1.512966E-001	-7.409907E-002	2.743027E-002
1.180000E+009	6.053961E-002	-4.505256E-002	3.156766E-001	-1.522813E-001	3.160039E-001	-1.524324E-001	-7.396390E-002	2.777909E-002
1.190000E+009	6.020532E-002	-4.522513E-002	3.150652E-001	-1.534287E-001	3.153259E-001	-1.535570E-001	-7.380933E-002	2.814148E-002
1.200000E+009	5.990927E-002	-4.545071E-002	3.144195E-001	-1.545459E-001	3.146934E-001	-1.546437E-001	-7.367436E-002	2.848848E-002
1.210000E+009	5.962688E-002	-4.567350E-002	3.137930E-001	-1.556467E-001	3.140392E-001	-1.557900E-001	-7.352999E-002	2.888067E-002
1.220000E+009	5.933025E-002	-4.590097E-002	3.131284E-001	-1.567490E-001	3.134133E-001	-1.568848E-001	-7.342941E-002	2.926545E-002
1.230000E+009	5.904328E-002	-4.607924E-002	3.124805E-001	-1.578631E-001	3.127696E-001	-1.580043E-001	-7.335430E-002	2.960850E-002
1.240000E+009	5.876001E-002	-4.630586E-002	3.118456E-001	-1.589659E-001	3.120980E-001	-1.590925E-001	-7.327028E-002	2.993290E-002
1.250000E+009	5.846576E-002	-4.654210E-002	3.111848E-001	-1.600742E-001	3.115056E-001	-1.602001E-001	-7.320758E-002	3.028107E-002
1.260000E+009	5.815070E-002	-4.673247E-002	3.105200E-001	-1.611770E-001	3.107950E-001	-1.613362E-001	-7.309648E-002	3.055724E-002
1.270000E+009	5.791992E-002	-4.691669E-002	3.098511E-001	-1.622687E-001	3.101094E-001	-1.624074E-001	-7.297705E-002	3.085944E-002
1.280000E+009	5.760102E-002	-4.708766E-002	3.092089E-001	-1.633696E-001	3.094788E-001	-1.635074E-001	-7.285356E-002	3.112696E-002
1.290000E+009	5.734620E-002	-4.727710E-002	3.085143E-001	-1.645044E-001	3.087951E-001	-1.645752E-001	-7.266143E-002	3.141398E-002
1.300000E+009	5.707153E-002	-4.739483E-002	3.078211E-001	-1.655596E-001	3.081321E-001	-1.656874E-001	-7.244217E-002	3.172909E-002
1.310000E+009	5.679502E-002	-4.757430E-002	3.071370E-001	-1.666619E-001	3.074507E-001	-1.667973E-001	-7.225864E-002	3.203722E-002
1.320000E+009	5.647209E-002	-4.769491E-002	3.064588E-001	-1.677556E-001	3.067693E-001	-1.679081E-001	-7.199919E-002	3.240545E-002
1.330000E+009	5.619500E-002	-4.779255E-002	3.057667E-001	-1.688236E-001	3.060775E-001	-1.690112E-001	-7.170704E-002	3.285332E-002
1.340000E+009	5.590953E-002	-4.789758E-002	3.050604E-001	-1.698844E-001	3.053540E-001	-1.700661E-001	-7.147395E-002	3.331590E-002
1.350000E+009	5.556736E-002	-4.800052E-002	3.043785E-001	-1.709853E-001	3.046400E-001	-1.711343E-001	-7.123047E-002	3.380230E-002
1.360000E+009	5.531676E-002	-4.810155E-002	3.036340E-001	-1.720398E-001	3.039555E-001	-1.722143E-001	-7.101004E-002	3.429577E-002
1.370000E+009	5.502046E-002	-4.821887E-002	3.029612E-001	-1.731222E-001	3.032460E-001	-1.732878E-001	-7.084255E-002	3.482445E-002
1.380000E+009	5.470888E-002	-4.836302E-002	3.022367E-001	-1.741836E-001	3.025379E-001	-1.743522E-001	-7.066912E-002	3.530589E-002
1.390000E+009	5.439427E-002	-4.851430E-002	3.015214E-001	-1.752452E-001	3.018070E-001	-1.754240E-001	-7.055489E-002	3.581222E-002
1.400000E+009	5.410915E-002	-4.863399E-002	3.007950E-001	-1.763166E-001	3.010747E-001	-1.764481E-001	-7.043504E-002	3.630401E-002
1.410000E+009	5.379298E-002	-4.874229E-002	3.000630E-001	-1.773684E-001	3.003366E-001	-1.775153E-001	-7.031840E-002	3.678312E-002
1.420000E+009	5.347206E-002	-4.886539E-002	2.993127E-001	-1.784106E-001	2.996493E-001	-1.785744E-001	-7.019059E-002	3.724107E-002
1.430000E+009	5.318805E-002	-4.896669E-002	2.985774E-001	-1.794545E-001	2.989037E-001	-1.796286E-001	-7.005156E-002	3.764758E-002
1.440000E+009	5.286782E-002	-4.909601E-002	2.978489E-001	-1.805045E-001	2.981576E-001	-1.806653E-001	-6.989562E-002	3.808696E-002
1.450000E+009	5.255940E-002	-4.918542E-002	2.970901E-001	-1.815546E-001	2.974011E-001	-1.817090E-001	-6.972764E-002	3.850665E-002
1.460000E+009	5.223479E-002	-4.929920E-002	2.963572E-001	-1.825948E-001	2.966285E-001	-1.827784E-001	-6.954114E-002	3.897635E-002
1.470000E+009	5.193603E-002	-4.940653E-002	2.956186E-001	-1.836301E-001	2.958707E-001	-1.837974E-001	-6.936382E-002	3.948162E-002
1.480000E+009	5.161738E-002	-4.947664E-002	2.948336E-001	-1.846370E-001	2.951218E-001	-1.848160E-001	-6.917265E-002	3.999449E-002
1.490000E+009	5.129877E-002	-4.957933E-002	2.940754E-001	-1.856762E-001	2.943804E-001	-1.858250E-001	-6.897429E-002	4.050500E-002
1.500000E+009	5.099895E-002	-4.968687E-002	2.933460E-001	-1.866913E-001	2.935881E-001	-1.868332E-001	-6.875287E-002	4.102987E-002
