! Device ID: PE43711P
! File Path: z:\PE43711P\CHAR_NOM_04282014\AMB\3p300\LS_ATT_12p75dB\PE43711P_AMB_3p300V_3p000V_0p000V_LS_ATT_12p75dB_S2P_SN_5_A0137A.s2p
! Serial: 5
! Lot: A0137A
! Temp: 25C
! VDD: 3.300
! VSS: 0.000
! Control_Hi: 3.000
! Control_Lo: 0.000
! Attenuation Step: 12.75dB
! Port 1: RF1
! Port 2: RF2
! ThroughPath:1-2
! IDD: 0.0001276669
! ISS: -2.24e-008
!

#  Hz  S   RI  R   50

1.000000E+007	7.434481E-002	-9.673069E-005	2.020872E-001	-9.057867E-004	2.023763E-001	-1.055531E-003	-1.185282E-001	8.680076E-004
2.000000E+007	7.453963E-002	-2.731941E-004	2.020673E-001	-1.577193E-003	2.022158E-001	-1.595686E-003	-1.182429E-001	1.460114E-003
3.000000E+007	7.480158E-002	-5.824587E-004	2.020796E-001	-2.350514E-003	2.022243E-001	-2.379456E-003	-1.179376E-001	1.939446E-003
4.000000E+007	7.492020E-002	-9.126077E-004	2.020687E-001	-3.151602E-003	2.022061E-001	-3.158299E-003	-1.177473E-001	2.475235E-003
5.000000E+007	7.501881E-002	-1.259693E-003	2.020618E-001	-3.997192E-003	2.022367E-001	-3.976366E-003	-1.176850E-001	2.990460E-003
6.000000E+007	7.515756E-002	-1.666774E-003	2.020051E-001	-4.753197E-003	2.021994E-001	-4.773272E-003	-1.175427E-001	3.405401E-003
7.000000E+007	7.526480E-002	-2.073476E-003	2.019522E-001	-5.528572E-003	2.021273E-001	-5.543224E-003	-1.173760E-001	3.814246E-003
8.000000E+007	7.538007E-002	-2.479062E-003	2.019105E-001	-6.283998E-003	2.020864E-001	-6.289481E-003	-1.172162E-001	4.218831E-003
9.000000E+007	7.546620E-002	-2.882701E-003	2.018753E-001	-7.048135E-003	2.020383E-001	-7.065688E-003	-1.170715E-001	4.550973E-003
1.000000E+008	7.553550E-002	-3.271046E-003	2.018568E-001	-7.846221E-003	2.019866E-001	-7.847099E-003	-1.169872E-001	4.917738E-003
1.100000E+008	7.561361E-002	-3.685542E-003	2.017721E-001	-8.644370E-003	2.019384E-001	-8.609865E-003	-1.168872E-001	5.262477E-003
1.200000E+008	7.569915E-002	-4.117661E-003	2.016787E-001	-9.400933E-003	2.018619E-001	-9.393900E-003	-1.168218E-001	5.543222E-003
1.300000E+008	7.575654E-002	-4.550859E-003	2.016154E-001	-1.014411E-002	2.018002E-001	-1.018339E-002	-1.167070E-001	5.854718E-003
1.400000E+008	7.576806E-002	-4.947349E-003	2.015423E-001	-1.091849E-002	2.017123E-001	-1.095108E-002	-1.165497E-001	6.148253E-003
1.500000E+008	7.572391E-002	-5.334750E-003	2.014818E-001	-1.164768E-002	2.015905E-001	-1.168997E-002	-1.164153E-001	6.433808E-003
1.600000E+008	7.568830E-002	-5.671889E-003	2.014217E-001	-1.240085E-002	2.015117E-001	-1.240957E-002	-1.163846E-001	6.717625E-003
1.700000E+008	7.567549E-002	-6.035003E-003	2.013597E-001	-1.321370E-002	2.015372E-001	-1.317257E-002	-1.163708E-001	7.033166E-003
1.800000E+008	7.560255E-002	-6.429761E-003	2.011836E-001	-1.401704E-002	2.014524E-001	-1.399573E-002	-1.163147E-001	7.306507E-003
1.900000E+008	7.550971E-002	-6.856707E-003	2.010324E-001	-1.473295E-002	2.013134E-001	-1.476753E-002	-1.162648E-001	7.522743E-003
2.000000E+008	7.539438E-002	-7.284834E-003	2.009526E-001	-1.547746E-002	2.011899E-001	-1.548284E-002	-1.161691E-001	7.744474E-003
2.100000E+008	7.529788E-002	-7.764145E-003	2.008652E-001	-1.620170E-002	2.010767E-001	-1.620979E-002	-1.160307E-001	7.932456E-003
2.200000E+008	7.519966E-002	-8.214624E-003	2.007969E-001	-1.690925E-002	2.009631E-001	-1.693391E-002	-1.159062E-001	8.115498E-003
2.300000E+008	7.509043E-002	-8.671870E-003	2.007075E-001	-1.766232E-002	2.008632E-001	-1.766556E-002	-1.157568E-001	8.283541E-003
2.400000E+008	7.500998E-002	-9.123236E-003	2.006001E-001	-1.841081E-002	2.007395E-001	-1.840845E-002	-1.156128E-001	8.507661E-003
2.500000E+008	7.490784E-002	-9.544321E-003	2.004697E-001	-1.916370E-002	2.006180E-001	-1.915290E-002	-1.154402E-001	8.679203E-003
2.600000E+008	7.485921E-002	-1.000962E-002	2.003223E-001	-1.992621E-002	2.005012E-001	-1.991263E-002	-1.152446E-001	8.931161E-003
2.700000E+008	7.481046E-002	-1.043071E-002	2.001821E-001	-2.063367E-002	2.003707E-001	-2.064901E-002	-1.150222E-001	9.212241E-003
2.800000E+008	7.476396E-002	-1.082957E-002	2.000536E-001	-2.136064E-002	2.002213E-001	-2.136055E-002	-1.148037E-001	9.484740E-003
2.900000E+008	7.467774E-002	-1.119178E-002	1.999415E-001	-2.207421E-002	2.000867E-001	-2.204931E-002	-1.146479E-001	9.776565E-003
3.000000E+008	7.460974E-002	-1.151767E-002	1.998432E-001	-2.281477E-002	2.000000E-001	-2.277857E-002	-1.145044E-001	1.011106E-002
3.100000E+008	7.449861E-002	-1.184514E-002	1.997124E-001	-2.353658E-002	1.998705E-001	-2.353138E-002	-1.143777E-001	1.046263E-002
3.200000E+008	7.438239E-002	-1.216147E-002	1.995589E-001	-2.429783E-002	1.997453E-001	-2.428210E-002	-1.142812E-001	1.077727E-002
3.300000E+008	7.422575E-002	-1.247205E-002	1.994275E-001	-2.502426E-002	1.996101E-001	-2.505690E-002	-1.141925E-001	1.108076E-002
3.400000E+008	7.400650E-002	-1.280528E-002	1.992583E-001	-2.575667E-002	1.993823E-001	-2.582588E-002	-1.140447E-001	1.133893E-002
3.500000E+008	7.377231E-002	-1.314442E-002	1.991228E-001	-2.649222E-002	1.991882E-001	-2.649441E-002	-1.139219E-001	1.155481E-002
3.600000E+008	7.356108E-002	-1.347630E-002	1.989643E-001	-2.722043E-002	1.990321E-001	-2.715212E-002	-1.137675E-001	1.179004E-002
3.700000E+008	7.336522E-002	-1.382735E-002	1.987832E-001	-2.790078E-002	1.989016E-001	-2.780849E-002	-1.135649E-001	1.199425E-002
3.800000E+008	7.316568E-002	-1.420902E-002	1.986336E-001	-2.860199E-002	1.988120E-001	-2.854622E-002	-1.133744E-001	1.224685E-002
3.900000E+008	7.296718E-002	-1.463195E-002	1.984505E-001	-2.934646E-002	1.986595E-001	-2.928093E-002	-1.130993E-001	1.252668E-002
4.000000E+008	7.280147E-002	-1.504119E-002	1.982563E-001	-3.000101E-002	1.984888E-001	-3.003307E-002	-1.127931E-001	1.278839E-002
4.100000E+008	7.261054E-002	-1.544476E-002	1.981090E-001	-3.066351E-002	1.983095E-001	-3.071582E-002	-1.125134E-001	1.307819E-002
4.200000E+008	7.243669E-002	-1.582709E-002	1.979981E-001	-3.136832E-002	1.981410E-001	-3.139447E-002	-1.122964E-001	1.342409E-002
4.300000E+008	7.228008E-002	-1.619575E-002	1.978371E-001	-3.208224E-002	1.979591E-001	-3.211770E-002	-1.120768E-001	1.377717E-002
4.400000E+008	7.213317E-002	-1.651461E-002	1.976721E-001	-3.279506E-002	1.978003E-001	-3.281277E-002	-1.118956E-001	1.420312E-002
4.500000E+008	7.199386E-002	-1.685773E-002	1.974999E-001	-3.351429E-002	1.976581E-001	-3.352800E-002	-1.117089E-001	1.462044E-002
4.600000E+008	7.184062E-002	-1.719690E-002	1.973108E-001	-3.423522E-002	1.974435E-001	-3.423996E-002	-1.115149E-001	1.506519E-002
4.700000E+008	7.165090E-002	-1.751109E-002	1.971367E-001	-3.491412E-002	1.972633E-001	-3.495018E-002	-1.113832E-001	1.542662E-002
4.800000E+008	7.144484E-002	-1.779447E-002	1.969540E-001	-3.558953E-002	1.970828E-001	-3.560677E-002	-1.112433E-001	1.579706E-002
4.900000E+008	7.121608E-002	-1.806708E-002	1.967680E-001	-3.627771E-002	1.968913E-001	-3.631040E-002	-1.111218E-001	1.616847E-002
5.000000E+008	7.101819E-002	-1.837623E-002	1.965984E-001	-3.696204E-002	1.967149E-001	-3.697427E-002	-1.109742E-001	1.649379E-002
5.100000E+008	7.081526E-002	-1.868126E-002	1.964143E-001	-3.765665E-002	1.965746E-001	-3.766043E-002	-1.107962E-001	1.683641E-002
5.200000E+008	7.060922E-002	-1.901520E-002	1.962219E-001	-3.835113E-002	1.963892E-001	-3.837112E-002	-1.106180E-001	1.717279E-002
5.300000E+008	7.037191E-002	-1.936127E-002	1.960237E-001	-3.904123E-002	1.962072E-001	-3.907303E-002	-1.103752E-001	1.751003E-002
5.400000E+008	7.012921E-002	-1.974346E-002	1.958220E-001	-3.973823E-002	1.959966E-001	-3.976718E-002	-1.101531E-001	1.783440E-002
5.500000E+008	6.989988E-002	-2.006491E-002	1.956458E-001	-4.041816E-002	1.957738E-001	-4.044742E-002	-1.099379E-001	1.819743E-002
5.600000E+008	6.967221E-002	-2.042123E-002	1.954426E-001	-4.109253E-002	1.955477E-001	-4.112831E-002	-1.097278E-001	1.856775E-002
5.700000E+008	6.946961E-002	-2.077565E-002	1.952177E-001	-4.175993E-002	1.953677E-001	-4.179598E-002	-1.095825E-001	1.899690E-002
5.800000E+008	6.927159E-002	-2.111671E-002	1.950334E-001	-4.245189E-002	1.951640E-001	-4.248086E-002	-1.094311E-001	1.940643E-002
5.900000E+008	6.909255E-002	-2.148688E-002	1.948123E-001	-4.314407E-002	1.949715E-001	-4.317102E-002	-1.092677E-001	1.985918E-002
6.000000E+008	6.894645E-002	-2.182421E-002	1.946198E-001	-4.381711E-002	1.947546E-001	-4.386667E-002	-1.090770E-001	2.022422E-002
6.100000E+008	6.879836E-002	-2.216339E-002	1.943932E-001	-4.447722E-002	1.945059E-001	-4.453136E-002	-1.089357E-001	2.063438E-002
6.200000E+008	6.866574E-002	-2.244683E-002	1.941648E-001	-4.513731E-002	1.943046E-001	-4.519657E-002	-1.087758E-001	2.100287E-002
6.300000E+008	6.852673E-002	-2.274273E-002	1.939399E-001	-4.581855E-002	1.940930E-001	-4.585724E-002	-1.086036E-001	2.137971E-002
6.400000E+008	6.841437E-002	-2.301522E-002	1.937379E-001	-4.646862E-002	1.938632E-001	-4.650880E-002	-1.084305E-001	2.176602E-002
6.500000E+008	6.827171E-002	-2.326375E-002	1.935208E-001	-4.712915E-002	1.936529E-001	-4.717931E-002	-1.082481E-001	2.217192E-002
6.600000E+008	6.809608E-002	-2.352534E-002	1.933204E-001	-4.779538E-002	1.934413E-001	-4.785576E-002	-1.080611E-001	2.257418E-002
6.700000E+008	6.787487E-002	-2.375150E-002	1.931021E-001	-4.845482E-002	1.932185E-001	-4.852395E-002	-1.079079E-001	2.300007E-002
6.800000E+008	6.765843E-002	-2.399727E-002	1.928709E-001	-4.913562E-002	1.929927E-001	-4.917367E-002	-1.077440E-001	2.344400E-002
6.900000E+008	6.743078E-002	-2.421471E-002	1.926408E-001	-4.978489E-002	1.927338E-001	-4.981748E-002	-1.075783E-001	2.387853E-002
7.000000E+008	6.720566E-002	-2.445272E-002	1.924241E-001	-5.043374E-002	1.925194E-001	-5.046841E-002	-1.074616E-001	2.431029E-002
7.100000E+008	6.698134E-002	-2.470678E-002	1.921812E-001	-5.108266E-002	1.923104E-001	-5.113862E-002	-1.073834E-001	2.469980E-002
7.200000E+008	6.673896E-002	-2.498037E-002	1.919728E-001	-5.172650E-002	1.920781E-001	-5.180748E-002	-1.072707E-001	2.510389E-002
7.300000E+008	6.651154E-002	-2.525940E-002	1.916941E-001	-5.238690E-002	1.918761E-001	-5.246373E-002	-1.071783E-001	2.545892E-002
7.400000E+008	6.626579E-002	-2.553013E-002	1.914676E-001	-5.304413E-002	1.916287E-001	-5.309785E-002	-1.070713E-001	2.581170E-002
7.500000E+008	6.604041E-002	-2.579712E-002	1.912371E-001	-5.369761E-002	1.913897E-001	-5.376127E-002	-1.069749E-001	2.615074E-002
7.600000E+008	6.582032E-002	-2.607159E-002	1.909946E-001	-5.434412E-002	1.911596E-001	-5.440720E-002	-1.068471E-001	2.648814E-002
7.700000E+008	6.558001E-002	-2.638153E-002	1.907517E-001	-5.499363E-002	1.909156E-001	-5.504767E-002	-1.066953E-001	2.677551E-002
7.800000E+008	6.538309E-002	-2.665779E-002	1.905178E-001	-5.563575E-002	1.906740E-001	-5.570220E-002	-1.065329E-001	2.710180E-002
7.900000E+008	6.514076E-002	-2.699086E-002	1.902853E-001	-5.629063E-002	1.904310E-001	-5.636441E-002	-1.063969E-001	2.744659E-002
8.000000E+008	6.493603E-002	-2.726600E-002	1.900263E-001	-5.692041E-002	1.901558E-001	-5.699323E-002	-1.061960E-001	2.779655E-002
8.100000E+008	6.473908E-002	-2.758606E-002	1.897668E-001	-5.756687E-002	1.899041E-001	-5.764747E-002	-1.059899E-001	2.819153E-002
8.200000E+008	6.457957E-002	-2.786283E-002	1.895285E-001	-5.821010E-002	1.896671E-001	-5.826392E-002	-1.057785E-001	2.853979E-002
8.300000E+008	6.441120E-002	-2.815554E-002	1.892724E-001	-5.885179E-002	1.894104E-001	-5.891134E-002	-1.056078E-001	2.891836E-002
8.400000E+008	6.428979E-002	-2.841242E-002	1.890234E-001	-5.946052E-002	1.891715E-001	-5.954172E-002	-1.054264E-001	2.928222E-002
8.500000E+008	6.413783E-002	-2.866206E-002	1.887703E-001	-6.012421E-002	1.889088E-001	-6.020319E-002	-1.052942E-001	2.966094E-002
8.600000E+008	6.395153E-002	-2.889697E-002	1.885173E-001	-6.074715E-002	1.886321E-001	-6.083082E-002	-1.051474E-001	3.004926E-002
8.700000E+008	6.379179E-002	-2.908759E-002	1.882659E-001	-6.137874E-002	1.883806E-001	-6.146965E-002	-1.049996E-001	3.039886E-002
8.800000E+008	6.359939E-002	-2.928502E-002	1.879903E-001	-6.202459E-002	1.881284E-001	-6.208462E-002	-1.048738E-001	3.075449E-002
8.900000E+008	6.338598E-002	-2.948390E-002	1.877294E-001	-6.266118E-002	1.878752E-001	-6.272775E-002	-1.047362E-001	3.108339E-002
9.000000E+008	6.317143E-002	-2.968250E-002	1.874518E-001	-6.328131E-002	1.876244E-001	-6.335494E-002	-1.045500E-001	3.143972E-002
9.100000E+008	6.292880E-002	-2.989076E-002	1.871830E-001	-6.391407E-002	1.873686E-001	-6.398446E-002	-1.043638E-001	3.175737E-002
9.200000E+008	6.268199E-002	-3.014964E-002	1.869158E-001	-6.454053E-002	1.871004E-001	-6.462612E-002	-1.041363E-001	3.209943E-002
9.300000E+008	6.247919E-002	-3.038164E-002	1.866459E-001	-6.516131E-002	1.867944E-001	-6.525302E-002	-1.038821E-001	3.244568E-002
9.400000E+008	6.226992E-002	-3.063136E-002	1.864047E-001	-6.577256E-002	1.865253E-001	-6.587650E-002	-1.036057E-001	3.281055E-002
9.500000E+008	6.209392E-002	-3.089908E-002	1.861262E-001	-6.641714E-002	1.862562E-001	-6.651958E-002	-1.033087E-001	3.322742E-002
9.600000E+008	6.190912E-002	-3.110633E-002	1.858441E-001	-6.703357E-002	1.859864E-001	-6.712320E-002	-1.030096E-001	3.364086E-002
9.700000E+008	6.176656E-002	-3.131127E-002	1.855448E-001	-6.762726E-002	1.857199E-001	-6.775397E-002	-1.027157E-001	3.405793E-002
9.800000E+008	6.159072E-002	-3.151937E-002	1.852911E-001	-6.825937E-002	1.854482E-001	-6.836408E-002	-1.024738E-001	3.451371E-002
9.900000E+008	6.143582E-002	-3.170953E-002	1.850416E-001	-6.889833E-002	1.851814E-001	-6.898020E-002	-1.022372E-001	3.495741E-002
1.000000E+009	6.126230E-002	-3.185255E-002	1.847609E-001	-6.950448E-002	1.848909E-001	-6.960938E-002	-1.020557E-001	3.539249E-002
1.010000E+009	6.105633E-002	-3.201465E-002	1.844707E-001	-7.013389E-002	1.846179E-001	-7.023230E-002	-1.018407E-001	3.587038E-002
1.020000E+009	6.086602E-002	-3.217034E-002	1.842069E-001	-7.074140E-002	1.843175E-001	-7.084368E-002	-1.016864E-001	3.630645E-002
1.030000E+009	6.064823E-002	-3.230333E-002	1.838841E-001	-7.136161E-002	1.840233E-001	-7.145223E-002	-1.014954E-001	3.675009E-002
1.040000E+009	6.040846E-002	-3.246393E-002	1.835926E-001	-7.196654E-002	1.837374E-001	-7.205401E-002	-1.013233E-001	3.717580E-002
1.050000E+009	6.019939E-002	-3.266261E-002	1.833200E-001	-7.259264E-002	1.834857E-001	-7.265379E-002	-1.011042E-001	3.762692E-002
1.060000E+009	5.999609E-002	-3.285017E-002	1.830275E-001	-7.317022E-002	1.831491E-001	-7.327703E-002	-1.008698E-001	3.805087E-002
1.070000E+009	5.976474E-002	-3.302390E-002	1.827296E-001	-7.379974E-002	1.828681E-001	-7.387051E-002	-1.006501E-001	3.846951E-002
1.080000E+009	5.954544E-002	-3.322033E-002	1.824373E-001	-7.441895E-002	1.825928E-001	-7.448722E-002	-1.004081E-001	3.892159E-002
1.090000E+009	5.935913E-002	-3.340976E-002	1.821555E-001	-7.501697E-002	1.822909E-001	-7.508948E-002	-1.001934E-001	3.933089E-002
1.100000E+009	5.917202E-002	-3.357956E-002	1.818118E-001	-7.563703E-002	1.820063E-001	-7.569894E-002	-9.999671E-002	3.978333E-002
1.110000E+009	5.897406E-002	-3.372926E-002	1.815248E-001	-7.624075E-002	1.817048E-001	-7.632159E-002	-9.977886E-002	4.020271E-002
1.120000E+009	5.875386E-002	-3.392292E-002	1.812420E-001	-7.683936E-002	1.813929E-001	-7.693323E-002	-9.963433E-002	4.062637E-002
1.130000E+009	5.853309E-002	-3.407077E-002	1.809459E-001	-7.744437E-002	1.810887E-001	-7.752608E-002	-9.945472E-002	4.104366E-002
1.140000E+009	5.828707E-002	-3.422185E-002	1.806175E-001	-7.807074E-002	1.807696E-001	-7.813273E-002	-9.927503E-002	4.149790E-002
1.150000E+009	5.808473E-002	-3.439981E-002	1.803140E-001	-7.867232E-002	1.804822E-001	-7.873373E-002	-9.905939E-002	4.190901E-002
1.160000E+009	5.786382E-002	-3.458115E-002	1.800109E-001	-7.925355E-002	1.801655E-001	-7.934978E-002	-9.886014E-002	4.231536E-002
1.170000E+009	5.763621E-002	-3.472477E-002	1.796856E-001	-7.987231E-002	1.798369E-001	-7.993434E-002	-9.863664E-002	4.276868E-002
1.180000E+009	5.742882E-002	-3.491343E-002	1.793480E-001	-8.046189E-002	1.795432E-001	-8.054044E-002	-9.838198E-002	4.318820E-002
1.190000E+009	5.717519E-002	-3.507627E-002	1.790560E-001	-8.106220E-002	1.791830E-001	-8.113552E-002	-9.814643E-002	4.363346E-002
1.200000E+009	5.697041E-002	-3.525862E-002	1.787350E-001	-8.165134E-002	1.788684E-001	-8.173833E-002	-9.789370E-002	4.409537E-002
1.210000E+009	5.678513E-002	-3.544912E-002	1.783962E-001	-8.225498E-002	1.785588E-001	-8.232956E-002	-9.767032E-002	4.456023E-002
1.220000E+009	5.657282E-002	-3.564856E-002	1.780786E-001	-8.284234E-002	1.782408E-001	-8.292917E-002	-9.747176E-002	4.502007E-002
1.230000E+009	5.635398E-002	-3.581564E-002	1.777449E-001	-8.344308E-002	1.779033E-001	-8.351704E-002	-9.727212E-002	4.543637E-002
1.240000E+009	5.617188E-002	-3.601853E-002	1.774158E-001	-8.402095E-002	1.775606E-001	-8.409638E-002	-9.709650E-002	4.585195E-002
1.250000E+009	5.596972E-002	-3.622590E-002	1.770976E-001	-8.462455E-002	1.772541E-001	-8.470240E-002	-9.691962E-002	4.626741E-002
1.260000E+009	5.575755E-002	-3.638936E-002	1.767525E-001	-8.520469E-002	1.769043E-001	-8.529539E-002	-9.669034E-002	4.665139E-002
1.270000E+009	5.561813E-002	-3.655611E-002	1.764359E-001	-8.578802E-002	1.765716E-001	-8.586388E-002	-9.650939E-002	4.701868E-002
1.280000E+009	5.542591E-002	-3.671803E-002	1.761007E-001	-8.638976E-002	1.762679E-001	-8.645768E-002	-9.625794E-002	4.738279E-002
1.290000E+009	5.525349E-002	-3.687709E-002	1.757491E-001	-8.701179E-002	1.759147E-001	-8.705100E-002	-9.594929E-002	4.772267E-002
1.300000E+009	5.508209E-002	-3.697234E-002	1.754139E-001	-8.755679E-002	1.755884E-001	-8.763737E-002	-9.563661E-002	4.811899E-002
1.310000E+009	5.490238E-002	-3.711639E-002	1.750591E-001	-8.816620E-002	1.752318E-001	-8.823056E-002	-9.532286E-002	4.852423E-002
1.320000E+009	5.471822E-002	-3.724764E-002	1.747175E-001	-8.873358E-002	1.748971E-001	-8.882173E-002	-9.495852E-002	4.897179E-002
1.330000E+009	5.450571E-002	-3.734013E-002	1.743796E-001	-8.932288E-002	1.745383E-001	-8.942727E-002	-9.457868E-002	4.947676E-002
1.340000E+009	5.431268E-002	-3.742655E-002	1.740269E-001	-8.987624E-002	1.741869E-001	-8.999313E-002	-9.423333E-002	5.001038E-002
1.350000E+009	5.406123E-002	-3.752752E-002	1.736566E-001	-9.047193E-002	1.737983E-001	-9.055732E-002	-9.389441E-002	5.054505E-002
1.360000E+009	5.389660E-002	-3.766218E-002	1.732996E-001	-9.105030E-002	1.734607E-001	-9.113110E-002	-9.356889E-002	5.112956E-002
1.370000E+009	5.366576E-002	-3.776410E-002	1.729412E-001	-9.163570E-002	1.731110E-001	-9.170478E-002	-9.331853E-002	5.171794E-002
1.380000E+009	5.343928E-002	-3.787732E-002	1.725895E-001	-9.220186E-002	1.727360E-001	-9.229906E-002	-9.304848E-002	5.226828E-002
1.390000E+009	5.326895E-002	-3.801447E-002	1.722288E-001	-9.277675E-002	1.723675E-001	-9.286660E-002	-9.281963E-002	5.284155E-002
1.400000E+009	5.303677E-002	-3.814434E-002	1.718470E-001	-9.333211E-002	1.720125E-001	-9.340993E-002	-9.257597E-002	5.337600E-002
1.410000E+009	5.280781E-002	-3.823716E-002	1.714963E-001	-9.390588E-002	1.716390E-001	-9.398364E-002	-9.233713E-002	5.392187E-002
1.420000E+009	5.257809E-002	-3.834665E-002	1.711032E-001	-9.445912E-002	1.712872E-001	-9.453220E-002	-9.211370E-002	5.442159E-002
1.430000E+009	5.238249E-002	-3.845836E-002	1.707363E-001	-9.503021E-002	1.709043E-001	-9.511319E-002	-9.186880E-002	5.490541E-002
1.440000E+009	5.216349E-002	-3.857149E-002	1.703706E-001	-9.557938E-002	1.705313E-001	-9.567463E-002	-9.161596E-002	5.539864E-002
1.450000E+009	5.193719E-002	-3.866444E-002	1.699977E-001	-9.615459E-002	1.701667E-001	-9.623374E-002	-9.131230E-002	5.588865E-002
1.460000E+009	5.168336E-002	-3.876379E-002	1.696222E-001	-9.673038E-002	1.697574E-001	-9.681263E-002	-9.103209E-002	5.641778E-002
1.470000E+009	5.146481E-002	-3.888413E-002	1.692315E-001	-9.728180E-002	1.693798E-001	-9.733753E-002	-9.073406E-002	5.694151E-002
1.480000E+009	5.123442E-002	-3.896168E-002	1.688446E-001	-9.782423E-002	1.689886E-001	-9.791042E-002	-9.044108E-002	5.751987E-002
1.490000E+009	5.100506E-002	-3.908342E-002	1.684582E-001	-9.836289E-002	1.686196E-001	-9.844968E-002	-9.010493E-002	5.807703E-002
1.500000E+009	5.078785E-002	-3.919784E-002	1.680747E-001	-9.893879E-002	1.682143E-001	-9.900437E-002	-8.978117E-002	5.864495E-002
