! Device ID: PE43711P
! File Path: z:\PE43711P\CHAR_NOM_04282014\AMB\3p300\LS_ATT_1p25dB\PE43711P_AMB_3p300V_3p000V_0p000V_LS_ATT_1p25dB_S2P_SN_5_A0137A.s2p
! Serial: 5
! Lot: A0137A
! Temp: 25C
! VDD: 3.300
! VSS: 0.000
! Control_Hi: 3.000
! Control_Lo: 0.000
! Attenuation Step: 1.25dB
! Port 1: RF1
! Port 2: RF2
! ThroughPath:1-2
! IDD: 0.0001275596
! ISS: -9.22e-008
!

#  Hz  S   RI  R   50

1.000000E+007	1.038148E-001	-5.366943E-004	7.675871E-001	-3.670235E-003	7.677737E-001	-3.836919E-003	7.367198E-002	-5.982339E-004
2.000000E+007	1.038975E-001	-6.669480E-004	7.675507E-001	-6.609423E-003	7.674962E-001	-6.663690E-003	7.369752E-002	-5.775265E-004
3.000000E+007	1.042619E-001	-1.301559E-003	7.675581E-001	-9.943015E-003	7.675283E-001	-1.001707E-002	7.399884E-002	-8.764287E-004
4.000000E+007	1.042791E-001	-1.853230E-003	7.675310E-001	-1.331732E-002	7.674446E-001	-1.338446E-002	7.457660E-002	-1.297643E-003
5.000000E+007	1.046739E-001	-2.576230E-003	7.674800E-001	-1.692069E-002	7.674160E-001	-1.692027E-002	7.493579E-002	-2.004602E-003
6.000000E+007	1.050249E-001	-3.407605E-003	7.673356E-001	-2.030126E-002	7.673348E-001	-2.029454E-002	7.507885E-002	-2.832674E-003
7.000000E+007	1.051355E-001	-4.293630E-003	7.671571E-001	-2.365681E-002	7.671156E-001	-2.367856E-002	7.501410E-002	-3.651409E-003
8.000000E+007	1.053924E-001	-5.138645E-003	7.669694E-001	-2.694832E-002	7.669602E-001	-2.700353E-002	7.494875E-002	-4.241454E-003
9.000000E+007	1.055378E-001	-5.908854E-003	7.667929E-001	-3.027312E-002	7.667274E-001	-3.037132E-002	7.507479E-002	-4.897493E-003
1.000000E+008	1.056195E-001	-6.683475E-003	7.666348E-001	-3.366813E-002	7.664649E-001	-3.366951E-002	7.542839E-002	-5.660091E-003
1.100000E+008	1.057338E-001	-7.401988E-003	7.663400E-001	-3.709282E-002	7.662552E-001	-3.700547E-002	7.546329E-002	-6.431410E-003
1.200000E+008	1.058998E-001	-8.131587E-003	7.659725E-001	-4.037845E-002	7.659319E-001	-4.036184E-002	7.517914E-002	-7.143008E-003
1.300000E+008	1.060614E-001	-9.086831E-003	7.657056E-001	-4.370623E-002	7.656802E-001	-4.372851E-002	7.528475E-002	-8.088481E-003
1.400000E+008	1.061272E-001	-1.026142E-002	7.654565E-001	-4.707104E-002	7.653837E-001	-4.712918E-002	7.594985E-002	-9.095448E-003
1.500000E+008	1.059849E-001	-1.125943E-002	7.651396E-001	-5.034209E-002	7.649311E-001	-5.042303E-002	7.646481E-002	-9.908872E-003
1.600000E+008	1.056358E-001	-1.182260E-002	7.647932E-001	-5.357291E-002	7.644544E-001	-5.360522E-002	7.597212E-002	-1.050045E-002
1.700000E+008	1.051443E-001	-1.224540E-002	7.644342E-001	-5.701093E-002	7.642612E-001	-5.680797E-002	7.486994E-002	-1.124875E-002
1.800000E+008	1.047376E-001	-1.287907E-002	7.636616E-001	-6.047283E-002	7.637358E-001	-6.023446E-002	7.397230E-002	-1.217444E-002
1.900000E+008	1.046247E-001	-1.387377E-002	7.631500E-001	-6.361996E-002	7.632453E-001	-6.352649E-002	7.390362E-002	-1.305509E-002
2.000000E+008	1.047385E-001	-1.502216E-002	7.627996E-001	-6.683600E-002	7.628301E-001	-6.681184E-002	7.436499E-002	-1.377568E-002
2.100000E+008	1.048906E-001	-1.617287E-002	7.624072E-001	-7.006545E-002	7.623576E-001	-7.006813E-002	7.491373E-002	-1.441187E-002
2.200000E+008	1.049285E-001	-1.716815E-002	7.619985E-001	-7.317574E-002	7.619145E-001	-7.325638E-002	7.514157E-002	-1.501215E-002
2.300000E+008	1.047352E-001	-1.807038E-002	7.614698E-001	-7.642171E-002	7.614302E-001	-7.648996E-002	7.510445E-002	-1.577027E-002
2.400000E+008	1.044829E-001	-1.898719E-002	7.609659E-001	-7.967526E-002	7.607986E-001	-7.971762E-002	7.491211E-002	-1.665901E-002
2.500000E+008	1.041988E-001	-1.985689E-002	7.603928E-001	-8.294484E-002	7.602357E-001	-8.294019E-002	7.465668E-002	-1.770796E-002
2.600000E+008	1.039345E-001	-2.083926E-002	7.597540E-001	-8.620616E-002	7.596494E-001	-8.617804E-002	7.453231E-002	-1.863978E-002
2.700000E+008	1.036972E-001	-2.169550E-002	7.590730E-001	-8.937448E-002	7.590590E-001	-8.939633E-002	7.449487E-002	-1.944148E-002
2.800000E+008	1.035484E-001	-2.254223E-002	7.584541E-001	-9.251109E-002	7.584310E-001	-9.251056E-002	7.447019E-002	-2.011750E-002
2.900000E+008	1.032895E-001	-2.319895E-002	7.578575E-001	-9.558984E-002	7.577445E-001	-9.557599E-002	7.439765E-002	-2.069880E-002
3.000000E+008	1.031840E-001	-2.382933E-002	7.573102E-001	-9.874629E-002	7.572608E-001	-9.870490E-002	7.435081E-002	-2.131540E-002
3.100000E+008	1.029781E-001	-2.447738E-002	7.566579E-001	-1.018713E-001	7.566570E-001	-1.018603E-001	7.431136E-002	-2.188982E-002
3.200000E+008	1.027967E-001	-2.522260E-002	7.559778E-001	-1.050453E-001	7.560681E-001	-1.050339E-001	7.422859E-002	-2.255169E-002
3.300000E+008	1.024803E-001	-2.590705E-002	7.553822E-001	-1.081532E-001	7.554348E-001	-1.083330E-001	7.407312E-002	-2.324425E-002
3.400000E+008	1.020261E-001	-2.657084E-002	7.546743E-001	-1.113319E-001	7.544633E-001	-1.115924E-001	7.394334E-002	-2.399110E-002
3.500000E+008	1.015712E-001	-2.723557E-002	7.539572E-001	-1.145285E-001	7.535831E-001	-1.145137E-001	7.381702E-002	-2.482152E-002
3.600000E+008	1.012120E-001	-2.787186E-002	7.531622E-001	-1.176502E-001	7.528884E-001	-1.173953E-001	7.367466E-002	-2.543224E-002
3.700000E+008	1.009104E-001	-2.858036E-002	7.523451E-001	-1.205905E-001	7.522711E-001	-1.202556E-001	7.374273E-002	-2.606817E-002
3.800000E+008	1.005383E-001	-2.931132E-002	7.516636E-001	-1.236199E-001	7.516907E-001	-1.233995E-001	7.378399E-002	-2.678679E-002
3.900000E+008	1.000889E-001	-3.002261E-002	7.508025E-001	-1.267576E-001	7.509736E-001	-1.265367E-001	7.376438E-002	-2.758379E-002
4.000000E+008	9.974312E-002	-3.077137E-002	7.499758E-001	-1.296570E-001	7.501786E-001	-1.296642E-001	7.366583E-002	-2.826074E-002
4.100000E+008	9.918709E-002	-3.154250E-002	7.492363E-001	-1.325519E-001	7.493137E-001	-1.327331E-001	7.353820E-002	-2.890484E-002
4.200000E+008	9.861982E-002	-3.218587E-002	7.485758E-001	-1.356026E-001	7.484997E-001	-1.356459E-001	7.343904E-002	-2.948508E-002
4.300000E+008	9.824797E-002	-3.278871E-002	7.478031E-001	-1.386596E-001	7.476542E-001	-1.386952E-001	7.331387E-002	-3.011963E-002
4.400000E+008	9.794389E-002	-3.339903E-002	7.469813E-001	-1.417032E-001	7.468775E-001	-1.416887E-001	7.318225E-002	-3.064552E-002
4.500000E+008	9.763080E-002	-3.409168E-002	7.461655E-001	-1.447119E-001	7.461008E-001	-1.447325E-001	7.309952E-002	-3.120312E-002
4.600000E+008	9.727785E-002	-3.475045E-002	7.453005E-001	-1.477431E-001	7.452266E-001	-1.477481E-001	7.290848E-002	-3.169528E-002
4.700000E+008	9.684879E-002	-3.532123E-002	7.444323E-001	-1.506897E-001	7.443397E-001	-1.507207E-001	7.265564E-002	-3.216966E-002
4.800000E+008	9.639626E-002	-3.580026E-002	7.435776E-001	-1.536158E-001	7.434735E-001	-1.535679E-001	7.237949E-002	-3.254780E-002
4.900000E+008	9.590311E-002	-3.630688E-002	7.426979E-001	-1.565584E-001	7.425520E-001	-1.565635E-001	7.212344E-002	-3.295116E-002
5.000000E+008	9.550833E-002	-3.678128E-002	7.417903E-001	-1.595188E-001	7.417159E-001	-1.594402E-001	7.191391E-002	-3.343393E-002
5.100000E+008	9.512290E-002	-3.741415E-002	7.409172E-001	-1.624622E-001	7.408745E-001	-1.623616E-001	7.183014E-002	-3.392994E-002
5.200000E+008	9.465160E-002	-3.812690E-002	7.400327E-001	-1.654482E-001	7.400272E-001	-1.653621E-001	7.173267E-002	-3.456758E-002
5.300000E+008	9.415944E-002	-3.882518E-002	7.391476E-001	-1.683827E-001	7.391427E-001	-1.683655E-001	7.164834E-002	-3.523606E-002
5.400000E+008	9.358768E-002	-3.954723E-002	7.381492E-001	-1.713637E-001	7.381813E-001	-1.713451E-001	7.143584E-002	-3.588297E-002
5.500000E+008	9.311470E-002	-4.004640E-002	7.372592E-001	-1.742875E-001	7.371576E-001	-1.742540E-001	7.124627E-002	-3.635833E-002
5.600000E+008	9.264868E-002	-4.052469E-002	7.362156E-001	-1.771457E-001	7.361252E-001	-1.771490E-001	7.104398E-002	-3.681422E-002
5.700000E+008	9.229816E-002	-4.103491E-002	7.352476E-001	-1.799746E-001	7.352648E-001	-1.799819E-001	7.077964E-002	-3.720809E-002
5.800000E+008	9.186954E-002	-4.152201E-002	7.342834E-001	-1.828657E-001	7.343211E-001	-1.828323E-001	7.053414E-002	-3.772325E-002
5.900000E+008	9.144125E-002	-4.212554E-002	7.332936E-001	-1.857818E-001	7.333747E-001	-1.857783E-001	7.015785E-002	-3.824593E-002
6.000000E+008	9.104272E-002	-4.266952E-002	7.323110E-001	-1.886396E-001	7.323567E-001	-1.886216E-001	6.987122E-002	-3.876804E-002
6.100000E+008	9.064885E-002	-4.320233E-002	7.313553E-001	-1.914862E-001	7.312695E-001	-1.915111E-001	6.948809E-002	-3.921643E-002
6.200000E+008	9.026356E-002	-4.374984E-002	7.302591E-001	-1.943006E-001	7.302922E-001	-1.943171E-001	6.920641E-002	-3.963376E-002
6.300000E+008	8.995867E-002	-4.428156E-002	7.292208E-001	-1.971541E-001	7.292392E-001	-1.971595E-001	6.898587E-002	-4.010315E-002
6.400000E+008	8.961933E-002	-4.481848E-002	7.281982E-001	-1.999814E-001	7.281980E-001	-1.999893E-001	6.881593E-002	-4.050605E-002
6.500000E+008	8.932139E-002	-4.532911E-002	7.271885E-001	-2.027694E-001	7.271740E-001	-2.028031E-001	6.855431E-002	-4.093262E-002
6.600000E+008	8.882654E-002	-4.590263E-002	7.262349E-001	-2.056119E-001	7.261109E-001	-2.056543E-001	6.828946E-002	-4.134384E-002
6.700000E+008	8.826912E-002	-4.634524E-002	7.251549E-001	-2.084535E-001	7.250465E-001	-2.084400E-001	6.787878E-002	-4.173055E-002
6.800000E+008	8.773819E-002	-4.672613E-002	7.240529E-001	-2.112266E-001	7.240128E-001	-2.112655E-001	6.750315E-002	-4.199027E-002
6.900000E+008	8.716805E-002	-4.712323E-002	7.228925E-001	-2.140445E-001	7.228351E-001	-2.140258E-001	6.712753E-002	-4.226479E-002
7.000000E+008	8.672517E-002	-4.755216E-002	7.218545E-001	-2.168209E-001	7.218098E-001	-2.167458E-001	6.676881E-002	-4.265827E-002
7.100000E+008	8.631000E-002	-4.807495E-002	7.207358E-001	-2.195286E-001	7.207337E-001	-2.195794E-001	6.645871E-002	-4.308254E-002
7.200000E+008	8.581224E-002	-4.861591E-002	7.196435E-001	-2.222938E-001	7.196226E-001	-2.223295E-001	6.615447E-002	-4.365121E-002
7.300000E+008	8.529319E-002	-4.912501E-002	7.185056E-001	-2.250638E-001	7.185976E-001	-2.251326E-001	6.570097E-002	-4.418314E-002
7.400000E+008	8.470194E-002	-4.954279E-002	7.174004E-001	-2.278751E-001	7.174482E-001	-2.278467E-001	6.530124E-002	-4.464110E-002
7.500000E+008	8.425502E-002	-4.998123E-002	7.162659E-001	-2.306393E-001	7.163410E-001	-2.306344E-001	6.491209E-002	-4.507819E-002
7.600000E+008	8.369558E-002	-5.044552E-002	7.151183E-001	-2.333729E-001	7.151557E-001	-2.333762E-001	6.457061E-002	-4.554856E-002
7.700000E+008	8.315780E-002	-5.096063E-002	7.139777E-001	-2.361284E-001	7.140299E-001	-2.361417E-001	6.425482E-002	-4.610415E-002
7.800000E+008	8.252086E-002	-5.141218E-002	7.127679E-001	-2.388268E-001	7.128286E-001	-2.388258E-001	6.381963E-002	-4.662513E-002
7.900000E+008	8.198107E-002	-5.199067E-002	7.116135E-001	-2.415514E-001	7.117082E-001	-2.415989E-001	6.335727E-002	-4.710093E-002
8.000000E+008	8.136141E-002	-5.249549E-002	7.103961E-001	-2.442389E-001	7.104475E-001	-2.442933E-001	6.293594E-002	-4.757824E-002
8.100000E+008	8.086367E-002	-5.296714E-002	7.092295E-001	-2.469160E-001	7.092393E-001	-2.469640E-001	6.257908E-002	-4.792654E-002
8.200000E+008	8.037695E-002	-5.339435E-002	7.080424E-001	-2.496433E-001	7.080610E-001	-2.496152E-001	6.225310E-002	-4.831448E-002
8.300000E+008	7.999400E-002	-5.386018E-002	7.068061E-001	-2.523317E-001	7.069224E-001	-2.523633E-001	6.190303E-002	-4.870239E-002
8.400000E+008	7.964174E-002	-5.426090E-002	7.055973E-001	-2.549777E-001	7.056401E-001	-2.549993E-001	6.158778E-002	-4.905226E-002
8.500000E+008	7.920640E-002	-5.470395E-002	7.044081E-001	-2.576418E-001	7.044682E-001	-2.576638E-001	6.113065E-002	-4.945833E-002
8.600000E+008	7.867226E-002	-5.513497E-002	7.031531E-001	-2.603056E-001	7.031380E-001	-2.603286E-001	6.066706E-002	-4.978733E-002
8.700000E+008	7.812090E-002	-5.547455E-002	7.019623E-001	-2.629946E-001	7.019036E-001	-2.629911E-001	6.022461E-002	-5.014730E-002
8.800000E+008	7.751421E-002	-5.577885E-002	7.006805E-001	-2.656995E-001	7.006935E-001	-2.656244E-001	5.973315E-002	-5.044168E-002
8.900000E+008	7.695796E-002	-5.613482E-002	6.994188E-001	-2.683292E-001	6.994245E-001	-2.683191E-001	5.934473E-002	-5.080355E-002
9.000000E+008	7.642260E-002	-5.651803E-002	6.981038E-001	-2.709886E-001	6.982030E-001	-2.709585E-001	5.896094E-002	-5.115616E-002
9.100000E+008	7.581731E-002	-5.696252E-002	6.968164E-001	-2.736279E-001	6.968600E-001	-2.736032E-001	5.866308E-002	-5.163334E-002
9.200000E+008	7.524254E-002	-5.737522E-002	6.955590E-001	-2.762199E-001	6.956422E-001	-2.762526E-001	5.832547E-002	-5.210994E-002
9.300000E+008	7.464036E-002	-5.774291E-002	6.942771E-001	-2.788187E-001	6.942458E-001	-2.788849E-001	5.797273E-002	-5.250211E-002
9.400000E+008	7.409027E-002	-5.804797E-002	6.929600E-001	-2.813918E-001	6.930354E-001	-2.814612E-001	5.766078E-002	-5.274887E-002
9.500000E+008	7.350309E-002	-5.834893E-002	6.916889E-001	-2.840392E-001	6.916863E-001	-2.840831E-001	5.741405E-002	-5.299872E-002
9.600000E+008	7.302295E-002	-5.860902E-002	6.903109E-001	-2.866289E-001	6.903830E-001	-2.866200E-001	5.719781E-002	-5.320762E-002
9.700000E+008	7.257835E-002	-5.892076E-002	6.889226E-001	-2.891658E-001	6.890483E-001	-2.892259E-001	5.696048E-002	-5.350528E-002
9.800000E+008	7.210992E-002	-5.926998E-002	6.877082E-001	-2.916923E-001	6.877091E-001	-2.918193E-001	5.663309E-002	-5.381158E-002
9.900000E+008	7.158666E-002	-5.958282E-002	6.863586E-001	-2.943396E-001	6.864224E-001	-2.944095E-001	5.615705E-002	-5.410724E-002
1.000000E+009	7.103566E-002	-5.983644E-002	6.850389E-001	-2.968773E-001	6.849950E-001	-2.969591E-001	5.572537E-002	-5.426876E-002
1.010000E+009	7.043923E-002	-6.002505E-002	6.836722E-001	-2.994823E-001	6.836839E-001	-2.995073E-001	5.530664E-002	-5.442583E-002
1.020000E+009	6.987070E-002	-6.020275E-002	6.823323E-001	-3.020361E-001	6.822719E-001	-3.020479E-001	5.494463E-002	-5.458505E-002
1.030000E+009	6.941698E-002	-6.038859E-002	6.808917E-001	-3.045762E-001	6.809035E-001	-3.045928E-001	5.459184E-002	-5.479956E-002
1.040000E+009	6.891043E-002	-6.065233E-002	6.794966E-001	-3.070501E-001	6.795318E-001	-3.071174E-001	5.423439E-002	-5.505019E-002
1.050000E+009	6.830375E-002	-6.103757E-002	6.782129E-001	-3.096099E-001	6.781558E-001	-3.096311E-001	5.377704E-002	-5.533511E-002
1.060000E+009	6.768456E-002	-6.128570E-002	6.768036E-001	-3.121439E-001	6.767906E-001	-3.121709E-001	5.334740E-002	-5.549583E-002
1.070000E+009	6.706321E-002	-6.146029E-002	6.753380E-001	-3.146154E-001	6.754463E-001	-3.146042E-001	5.292531E-002	-5.568963E-002
1.080000E+009	6.654738E-002	-6.169521E-002	6.739604E-001	-3.172006E-001	6.740889E-001	-3.171878E-001	5.252179E-002	-5.582841E-002
1.090000E+009	6.608168E-002	-6.189506E-002	6.725636E-001	-3.197380E-001	6.726950E-001	-3.196623E-001	5.218595E-002	-5.603156E-002
1.100000E+009	6.567712E-002	-6.215555E-002	6.710554E-001	-3.222449E-001	6.712312E-001	-3.221793E-001	5.186062E-002	-5.619904E-002
1.110000E+009	6.522098E-002	-6.240737E-002	6.696479E-001	-3.247203E-001	6.698025E-001	-3.246956E-001	5.146216E-002	-5.655340E-002
1.120000E+009	6.467735E-002	-6.261808E-002	6.682467E-001	-3.272029E-001	6.683639E-001	-3.272459E-001	5.096325E-002	-5.676179E-002
1.130000E+009	6.410157E-002	-6.288081E-002	6.667493E-001	-3.296815E-001	6.669169E-001	-3.297137E-001	5.043827E-002	-5.695799E-002
1.140000E+009	6.349148E-002	-6.301698E-002	6.653097E-001	-3.321811E-001	6.654655E-001	-3.321791E-001	4.996209E-002	-5.707786E-002
1.150000E+009	6.293476E-002	-6.319783E-002	6.638805E-001	-3.346393E-001	6.639319E-001	-3.346478E-001	4.957482E-002	-5.727112E-002
1.160000E+009	6.244758E-002	-6.332323E-002	6.623991E-001	-3.371146E-001	6.625222E-001	-3.371409E-001	4.916846E-002	-5.747496E-002
1.170000E+009	6.192345E-002	-6.358995E-002	6.608846E-001	-3.395873E-001	6.610220E-001	-3.395384E-001	4.883997E-002	-5.763905E-002
1.180000E+009	6.140762E-002	-6.391302E-002	6.593496E-001	-3.420358E-001	6.595411E-001	-3.420431E-001	4.838634E-002	-5.785217E-002
1.190000E+009	6.087328E-002	-6.409842E-002	6.578455E-001	-3.445144E-001	6.579600E-001	-3.445231E-001	4.798180E-002	-5.799571E-002
1.200000E+009	6.026152E-002	-6.424994E-002	6.563490E-001	-3.469368E-001	6.564759E-001	-3.469175E-001	4.754696E-002	-5.812415E-002
1.210000E+009	5.979984E-002	-6.444156E-002	6.547702E-001	-3.493372E-001	6.549276E-001	-3.494256E-001	4.711677E-002	-5.820306E-002
1.220000E+009	5.932635E-002	-6.458657E-002	6.532410E-001	-3.517414E-001	6.534639E-001	-3.518173E-001	4.673934E-002	-5.829977E-002
1.230000E+009	5.886074E-002	-6.478018E-002	6.517111E-001	-3.542008E-001	6.518983E-001	-3.542377E-001	4.624338E-002	-5.846799E-002
1.240000E+009	5.837256E-002	-6.505089E-002	6.501355E-001	-3.566234E-001	6.502684E-001	-3.566298E-001	4.578488E-002	-5.863023E-002
1.250000E+009	5.777627E-002	-6.525736E-002	6.485667E-001	-3.590522E-001	6.488165E-001	-3.590411E-001	4.528290E-002	-5.883545E-002
1.260000E+009	5.719695E-002	-6.540508E-002	6.469445E-001	-3.614332E-001	6.471516E-001	-3.614941E-001	4.473921E-002	-5.904416E-002
1.270000E+009	5.669356E-002	-6.553684E-002	6.453993E-001	-3.637899E-001	6.455638E-001	-3.638011E-001	4.429417E-002	-5.919912E-002
1.280000E+009	5.613220E-002	-6.561051E-002	6.438597E-001	-3.662152E-001	6.440431E-001	-3.661945E-001	4.381140E-002	-5.936943E-002
1.290000E+009	5.558031E-002	-6.569898E-002	6.421896E-001	-3.686194E-001	6.424551E-001	-3.685736E-001	4.351860E-002	-5.956788E-002
1.300000E+009	5.510185E-002	-6.579785E-002	6.405777E-001	-3.709147E-001	6.408174E-001	-3.709669E-001	4.322163E-002	-5.971404E-002
1.310000E+009	5.456377E-002	-6.588764E-002	6.389301E-001	-3.733127E-001	6.391736E-001	-3.733278E-001	4.277666E-002	-5.986695E-002
1.320000E+009	5.394193E-002	-6.590134E-002	6.373217E-001	-3.756614E-001	6.376068E-001	-3.757065E-001	4.243905E-002	-5.996700E-002
1.330000E+009	5.346268E-002	-6.584403E-002	6.356888E-001	-3.779848E-001	6.359527E-001	-3.780726E-001	4.219577E-002	-5.994372E-002
1.340000E+009	5.291389E-002	-6.581301E-002	6.340530E-001	-3.802458E-001	6.342920E-001	-3.803952E-001	4.184159E-002	-5.984398E-002
1.350000E+009	5.238576E-002	-6.580605E-002	6.324143E-001	-3.826508E-001	6.325694E-001	-3.827009E-001	4.151096E-002	-5.980213E-002
1.360000E+009	5.198504E-002	-6.578457E-002	6.306932E-001	-3.849103E-001	6.310104E-001	-3.850404E-001	4.120451E-002	-5.965491E-002
1.370000E+009	5.149899E-002	-6.584627E-002	6.290825E-001	-3.872760E-001	6.292892E-001	-3.873321E-001	4.081126E-002	-5.960177E-002
1.380000E+009	5.096464E-002	-6.593958E-002	6.273710E-001	-3.895445E-001	6.275846E-001	-3.896256E-001	4.037387E-002	-5.958154E-002
1.390000E+009	5.046109E-002	-6.600849E-002	6.256563E-001	-3.918727E-001	6.259131E-001	-3.919666E-001	3.985576E-002	-5.943905E-002
1.400000E+009	4.992509E-002	-6.599485E-002	6.239849E-001	-3.941438E-001	6.241974E-001	-3.941622E-001	3.945165E-002	-5.934221E-002
1.410000E+009	4.942503E-002	-6.596189E-002	6.222911E-001	-3.964248E-001	6.224717E-001	-3.964604E-001	3.895798E-002	-5.919904E-002
1.420000E+009	4.899679E-002	-6.596967E-002	6.205173E-001	-3.986388E-001	6.208149E-001	-3.987229E-001	3.850845E-002	-5.907567E-002
1.430000E+009	4.854212E-002	-6.600190E-002	6.188545E-001	-4.009052E-001	6.191041E-001	-4.010392E-001	3.812475E-002	-5.903193E-002
1.440000E+009	4.804532E-002	-6.600363E-002	6.171115E-001	-4.031484E-001	6.173837E-001	-4.032309E-001	3.770074E-002	-5.903111E-002
1.450000E+009	4.754545E-002	-6.597726E-002	6.153567E-001	-4.053586E-001	6.156393E-001	-4.055001E-001	3.721031E-002	-5.895220E-002
1.460000E+009	4.701103E-002	-6.593283E-002	6.135975E-001	-4.076377E-001	6.138052E-001	-4.077432E-001	3.675650E-002	-5.885813E-002
1.470000E+009	4.655611E-002	-6.587537E-002	6.118425E-001	-4.098326E-001	6.121137E-001	-4.099632E-001	3.632086E-002	-5.860924E-002
1.480000E+009	4.608133E-002	-6.575477E-002	6.100595E-001	-4.120126E-001	6.102851E-001	-4.120967E-001	3.591596E-002	-5.839060E-002
1.490000E+009	4.564800E-002	-6.569208E-002	6.083383E-001	-4.142075E-001	6.085669E-001	-4.142745E-001	3.550805E-002	-5.817450E-002
1.500000E+009	4.523384E-002	-6.571387E-002	6.065836E-001	-4.164166E-001	6.067652E-001	-4.164587E-001	3.517765E-002	-5.805822E-002
