! Device ID: PE43711P
! File Path: z:\PE43711P\CHAR_NOM_04282014\AMB\3p300\LS_ATT_0p75dB\PE43711P_AMB_3p300V_3p000V_0p000V_LS_ATT_0p75dB_S2P_SN_5_A0137A.s2p
! Serial: 5
! Lot: A0137A
! Temp: 25C
! VDD: 3.300
! VSS: 0.000
! Control_Hi: 3.000
! Control_Lo: 0.000
! Attenuation Step: 0.75dB
! Port 1: RF1
! Port 2: RF2
! ThroughPath:1-2
! IDD: 0.0001272231
! ISS: -1.744e-007
!

#  Hz  S   RI  R   50

1.000000E+007	1.056420E-001	-5.798423E-004	8.147686E-001	-4.023238E-003	8.149778E-001	-4.135791E-003	8.779237E-002	-7.273189E-004
2.000000E+007	1.057283E-001	-7.285223E-004	8.145624E-001	-7.026029E-003	8.145218E-001	-7.062573E-003	8.778961E-002	-7.786153E-004
3.000000E+007	1.061128E-001	-1.412516E-003	8.145485E-001	-1.058776E-002	8.145580E-001	-1.064927E-002	8.809308E-002	-1.181794E-003
4.000000E+007	1.061125E-001	-2.018372E-003	8.145478E-001	-1.413265E-002	8.144564E-001	-1.424413E-002	8.873498E-002	-1.692153E-003
5.000000E+007	1.065572E-001	-2.802358E-003	8.144994E-001	-1.797288E-002	8.144279E-001	-1.795817E-002	8.913546E-002	-2.549766E-003
6.000000E+007	1.069220E-001	-3.702987E-003	8.143359E-001	-2.158743E-002	8.143430E-001	-2.159323E-002	8.928366E-002	-3.526532E-003
7.000000E+007	1.070333E-001	-4.658404E-003	8.141613E-001	-2.517659E-002	8.141110E-001	-2.519817E-002	8.917152E-002	-4.470842E-003
8.000000E+007	1.072975E-001	-5.554434E-003	8.139609E-001	-2.867111E-002	8.139532E-001	-2.872336E-002	8.908726E-002	-5.177150E-003
9.000000E+007	1.074624E-001	-6.392486E-003	8.137816E-001	-3.225925E-002	8.137136E-001	-3.231914E-002	8.921530E-002	-5.950655E-003
1.000000E+008	1.075692E-001	-7.220000E-003	8.136182E-001	-3.584801E-002	8.134490E-001	-3.585862E-002	8.962015E-002	-6.837995E-003
1.100000E+008	1.076601E-001	-7.999017E-003	8.132895E-001	-3.946376E-002	8.131862E-001	-3.941578E-002	8.966210E-002	-7.735687E-003
1.200000E+008	1.078297E-001	-8.787956E-003	8.128940E-001	-4.300502E-002	8.128681E-001	-4.297249E-002	8.933082E-002	-8.575742E-003
1.300000E+008	1.079995E-001	-9.827941E-003	8.126053E-001	-4.651643E-002	8.126035E-001	-4.654137E-002	8.942374E-002	-9.657161E-003
1.400000E+008	1.080831E-001	-1.109661E-002	8.123545E-001	-5.011653E-002	8.122832E-001	-5.018698E-002	9.015122E-002	-1.080279E-002
1.500000E+008	1.079322E-001	-1.218914E-002	8.120505E-001	-5.361918E-002	8.118144E-001	-5.369552E-002	9.073244E-002	-1.174551E-002
1.600000E+008	1.075485E-001	-1.278758E-002	8.116677E-001	-5.707551E-002	8.112765E-001	-5.710235E-002	9.018046E-002	-1.244173E-002
1.700000E+008	1.069831E-001	-1.323425E-002	8.112598E-001	-6.075032E-002	8.110590E-001	-6.054084E-002	8.892936E-002	-1.329726E-002
1.800000E+008	1.065177E-001	-1.392406E-002	8.104524E-001	-6.437852E-002	8.105299E-001	-6.414082E-002	8.791444E-002	-1.435355E-002
1.900000E+008	1.064132E-001	-1.500181E-002	8.099065E-001	-6.775950E-002	8.100032E-001	-6.764844E-002	8.783711E-002	-1.537493E-002
2.000000E+008	1.065492E-001	-1.624323E-002	8.095334E-001	-7.120116E-002	8.095761E-001	-7.115408E-002	8.835120E-002	-1.620576E-002
2.100000E+008	1.067308E-001	-1.748212E-002	8.091249E-001	-7.462926E-002	8.090668E-001	-7.463330E-002	8.893447E-002	-1.691754E-002
2.200000E+008	1.067850E-001	-1.856052E-002	8.086780E-001	-7.796883E-002	8.085924E-001	-7.803251E-002	8.921393E-002	-1.761458E-002
2.300000E+008	1.065768E-001	-1.955475E-002	8.081062E-001	-8.140864E-002	8.080386E-001	-8.150354E-002	8.915490E-002	-1.849574E-002
2.400000E+008	1.063111E-001	-2.052842E-002	8.075528E-001	-8.485855E-002	8.074211E-001	-8.492265E-002	8.894099E-002	-1.951332E-002
2.500000E+008	1.059828E-001	-2.148481E-002	8.069088E-001	-8.838385E-002	8.067657E-001	-8.835393E-002	8.863703E-002	-2.069861E-002
2.600000E+008	1.056849E-001	-2.253342E-002	8.062484E-001	-9.184059E-002	8.061550E-001	-9.181513E-002	8.844970E-002	-2.177554E-002
2.700000E+008	1.054227E-001	-2.345429E-002	8.055280E-001	-9.523317E-002	8.055497E-001	-9.523317E-002	8.837787E-002	-2.270266E-002
2.800000E+008	1.052616E-001	-2.434807E-002	8.048836E-001	-9.858188E-002	8.048691E-001	-9.856285E-002	8.831642E-002	-2.348512E-002
2.900000E+008	1.049912E-001	-2.506635E-002	8.042257E-001	-1.018479E-001	8.041236E-001	-1.018300E-001	8.822704E-002	-2.414832E-002
3.000000E+008	1.048698E-001	-2.578125E-002	8.036450E-001	-1.052293E-001	8.035980E-001	-1.051910E-001	8.816415E-002	-2.488612E-002
3.100000E+008	1.046577E-001	-2.647031E-002	8.029782E-001	-1.085467E-001	8.029835E-001	-1.085508E-001	8.812414E-002	-2.555345E-002
3.200000E+008	1.044387E-001	-2.730146E-002	8.022311E-001	-1.119318E-001	8.023557E-001	-1.119152E-001	8.800248E-002	-2.636101E-002
3.300000E+008	1.040994E-001	-2.801164E-002	8.015674E-001	-1.152302E-001	8.016645E-001	-1.154225E-001	8.780562E-002	-2.715039E-002
3.400000E+008	1.035955E-001	-2.874603E-002	8.008089E-001	-1.186257E-001	8.006827E-001	-1.189067E-001	8.766120E-002	-2.802662E-002
3.500000E+008	1.031009E-001	-2.945601E-002	8.000444E-001	-1.220476E-001	7.996858E-001	-1.220457E-001	8.748877E-002	-2.895010E-002
3.600000E+008	1.027437E-001	-3.013756E-002	7.992475E-001	-1.253518E-001	7.989432E-001	-1.250825E-001	8.734467E-002	-2.967819E-002
3.700000E+008	1.024166E-001	-3.091891E-002	7.983300E-001	-1.284682E-001	7.982436E-001	-1.281167E-001	8.738974E-002	-3.039543E-002
3.800000E+008	1.020125E-001	-3.169469E-002	7.975718E-001	-1.317167E-001	7.976304E-001	-1.314744E-001	8.742224E-002	-3.125435E-002
3.900000E+008	1.015061E-001	-3.245541E-002	7.966904E-001	-1.350425E-001	7.968675E-001	-1.348250E-001	8.735484E-002	-3.215937E-002
4.000000E+008	1.011191E-001	-3.325692E-002	7.957978E-001	-1.381497E-001	7.960626E-001	-1.381470E-001	8.721409E-002	-3.295370E-002
4.100000E+008	1.005389E-001	-3.407502E-002	7.950344E-001	-1.412333E-001	7.951214E-001	-1.414041E-001	8.704210E-002	-3.367990E-002
4.200000E+008	9.990118E-002	-3.476550E-002	7.942981E-001	-1.444882E-001	7.942129E-001	-1.445218E-001	8.689856E-002	-3.437340E-002
4.300000E+008	9.951089E-002	-3.542363E-002	7.934502E-001	-1.477414E-001	7.933141E-001	-1.477822E-001	8.675280E-002	-3.514224E-002
4.400000E+008	9.915895E-002	-3.607650E-002	7.925891E-001	-1.509933E-001	7.925201E-001	-1.509809E-001	8.656880E-002	-3.578609E-002
4.500000E+008	9.881340E-002	-3.684116E-002	7.917183E-001	-1.541910E-001	7.916662E-001	-1.541845E-001	8.644548E-002	-3.645834E-002
4.600000E+008	9.842364E-002	-3.756623E-002	7.907921E-001	-1.574276E-001	7.907403E-001	-1.574183E-001	8.620071E-002	-3.705344E-002
4.700000E+008	9.796433E-002	-3.815340E-002	7.899068E-001	-1.605662E-001	7.898031E-001	-1.605644E-001	8.589991E-002	-3.761289E-002
4.800000E+008	9.746588E-002	-3.867693E-002	7.889526E-001	-1.636719E-001	7.888787E-001	-1.636197E-001	8.558378E-002	-3.807209E-002
4.900000E+008	9.691562E-002	-3.922132E-002	7.879827E-001	-1.668401E-001	7.878623E-001	-1.668171E-001	8.529753E-002	-3.857093E-002
5.000000E+008	9.650146E-002	-3.974256E-002	7.870486E-001	-1.699679E-001	7.869966E-001	-1.698868E-001	8.504963E-002	-3.914236E-002
5.100000E+008	9.608064E-002	-4.041147E-002	7.861231E-001	-1.731163E-001	7.860955E-001	-1.729748E-001	8.492387E-002	-3.976482E-002
5.200000E+008	9.555813E-002	-4.118106E-002	7.851788E-001	-1.762572E-001	7.851563E-001	-1.761648E-001	8.474863E-002	-4.051564E-002
5.300000E+008	9.501641E-002	-4.192843E-002	7.842061E-001	-1.794232E-001	7.842113E-001	-1.793459E-001	8.462886E-002	-4.127649E-002
5.400000E+008	9.440594E-002	-4.269838E-002	7.831378E-001	-1.825786E-001	7.832143E-001	-1.825137E-001	8.438073E-002	-4.204755E-002
5.500000E+008	9.386988E-002	-4.322037E-002	7.821792E-001	-1.857007E-001	7.821280E-001	-1.856219E-001	8.415849E-002	-4.261365E-002
5.600000E+008	9.336669E-002	-4.373868E-002	7.810999E-001	-1.887325E-001	7.810166E-001	-1.887004E-001	8.391678E-002	-4.316931E-002
5.700000E+008	9.298322E-002	-4.429707E-002	7.800410E-001	-1.917368E-001	7.800760E-001	-1.917444E-001	8.358266E-002	-4.368630E-002
5.800000E+008	9.252066E-002	-4.480874E-002	7.790058E-001	-1.948399E-001	7.790339E-001	-1.947697E-001	8.326256E-002	-4.429830E-002
5.900000E+008	9.205408E-002	-4.545611E-002	7.779654E-001	-1.979149E-001	7.780289E-001	-1.978683E-001	8.284160E-002	-4.492596E-002
6.000000E+008	9.158368E-002	-4.601872E-002	7.769175E-001	-2.009409E-001	7.769528E-001	-2.009318E-001	8.249104E-002	-4.556890E-002
6.100000E+008	9.117385E-002	-4.656513E-002	7.758701E-001	-2.039931E-001	7.758114E-001	-2.039768E-001	8.204094E-002	-4.608746E-002
6.200000E+008	9.076688E-002	-4.717044E-002	7.747608E-001	-2.069934E-001	7.747413E-001	-2.070159E-001	8.170839E-002	-4.660602E-002
6.300000E+008	9.039781E-002	-4.774461E-002	7.736006E-001	-2.100404E-001	7.736585E-001	-2.100392E-001	8.144215E-002	-4.717298E-002
6.400000E+008	9.002460E-002	-4.832801E-002	7.725036E-001	-2.130679E-001	7.725155E-001	-2.130665E-001	8.123112E-002	-4.766933E-002
6.500000E+008	8.967858E-002	-4.888875E-002	7.714163E-001	-2.160246E-001	7.714411E-001	-2.160365E-001	8.090438E-002	-4.820533E-002
6.600000E+008	8.914109E-002	-4.950928E-002	7.703763E-001	-2.190521E-001	7.702763E-001	-2.190690E-001	8.057757E-002	-4.872195E-002
6.700000E+008	8.852935E-002	-4.996653E-002	7.692106E-001	-2.220675E-001	7.691713E-001	-2.220468E-001	8.010317E-002	-4.919783E-002
6.800000E+008	8.792535E-002	-5.040192E-002	7.680487E-001	-2.250235E-001	7.680288E-001	-2.250375E-001	7.965725E-002	-4.952218E-002
6.900000E+008	8.731664E-002	-5.080357E-002	7.668108E-001	-2.280242E-001	7.667726E-001	-2.279395E-001	7.921844E-002	-4.987823E-002
7.000000E+008	8.683237E-002	-5.127513E-002	7.656863E-001	-2.309645E-001	7.656606E-001	-2.308651E-001	7.882144E-002	-5.039855E-002
7.100000E+008	8.638319E-002	-5.185287E-002	7.645091E-001	-2.338600E-001	7.645108E-001	-2.339231E-001	7.843644E-002	-5.091628E-002
7.200000E+008	8.582423E-002	-5.241840E-002	7.633557E-001	-2.367816E-001	7.633404E-001	-2.368397E-001	7.804929E-002	-5.157870E-002
7.300000E+008	8.525907E-002	-5.295353E-002	7.621100E-001	-2.397309E-001	7.622211E-001	-2.397852E-001	7.753180E-002	-5.221610E-002
7.400000E+008	8.461923E-002	-5.341818E-002	7.609357E-001	-2.427434E-001	7.609999E-001	-2.426830E-001	7.708543E-002	-5.275207E-002
7.500000E+008	8.412555E-002	-5.386407E-002	7.597881E-001	-2.456388E-001	7.597870E-001	-2.456820E-001	7.664669E-002	-5.328461E-002
7.600000E+008	8.347468E-002	-5.436513E-002	7.585242E-001	-2.486138E-001	7.585453E-001	-2.485652E-001	7.622971E-002	-5.387006E-002
7.700000E+008	8.289778E-002	-5.493593E-002	7.572924E-001	-2.515586E-001	7.573253E-001	-2.514786E-001	7.584834E-002	-5.450720E-002
7.800000E+008	8.220340E-002	-5.541548E-002	7.560139E-001	-2.544237E-001	7.560401E-001	-2.543735E-001	7.535239E-002	-5.513364E-002
7.900000E+008	8.158792E-002	-5.600992E-002	7.547732E-001	-2.572792E-001	7.548395E-001	-2.572964E-001	7.480493E-002	-5.573243E-002
8.000000E+008	8.092755E-002	-5.656565E-002	7.534542E-001	-2.601533E-001	7.534458E-001	-2.601481E-001	7.429158E-002	-5.627420E-002
8.100000E+008	8.034698E-002	-5.707496E-002	7.521769E-001	-2.630048E-001	7.521825E-001	-2.630453E-001	7.386653E-002	-5.670969E-002
8.200000E+008	7.983811E-002	-5.751809E-002	7.509439E-001	-2.659239E-001	7.509139E-001	-2.658515E-001	7.346151E-002	-5.718545E-002
8.300000E+008	7.940260E-002	-5.799629E-002	7.496119E-001	-2.687645E-001	7.496960E-001	-2.687355E-001	7.307549E-002	-5.766393E-002
8.400000E+008	7.899793E-002	-5.843084E-002	7.482965E-001	-2.716058E-001	7.483584E-001	-2.715919E-001	7.266287E-002	-5.809878E-002
8.500000E+008	7.849898E-002	-5.890747E-002	7.470400E-001	-2.744165E-001	7.470539E-001	-2.744349E-001	7.213430E-002	-5.861531E-002
8.600000E+008	7.790909E-002	-5.936862E-002	7.456995E-001	-2.772421E-001	7.456860E-001	-2.772260E-001	7.158600E-002	-5.900073E-002
8.700000E+008	7.728756E-002	-5.971092E-002	7.444327E-001	-2.800746E-001	7.443593E-001	-2.800695E-001	7.107984E-002	-5.943636E-002
8.800000E+008	7.661936E-002	-6.003453E-002	7.430809E-001	-2.829963E-001	7.430790E-001	-2.828706E-001	7.049427E-002	-5.980725E-002
8.900000E+008	7.601031E-002	-6.043735E-002	7.417298E-001	-2.857861E-001	7.417183E-001	-2.857596E-001	7.003545E-002	-6.025001E-002
9.000000E+008	7.540204E-002	-6.083684E-002	7.403008E-001	-2.886092E-001	7.403676E-001	-2.885461E-001	6.960883E-002	-6.068477E-002
9.100000E+008	7.471818E-002	-6.132707E-002	7.389282E-001	-2.914216E-001	7.389845E-001	-2.913934E-001	6.922481E-002	-6.127724E-002
9.200000E+008	7.409172E-002	-6.178318E-002	7.375689E-001	-2.941897E-001	7.376114E-001	-2.942049E-001	6.878386E-002	-6.184871E-002
9.300000E+008	7.341505E-002	-6.213829E-002	7.361936E-001	-2.969421E-001	7.361675E-001	-2.969884E-001	6.837147E-002	-6.229593E-002
9.400000E+008	7.278937E-002	-6.246291E-002	7.348285E-001	-2.996685E-001	7.348416E-001	-2.997092E-001	6.800162E-002	-6.263745E-002
9.500000E+008	7.215831E-002	-6.278397E-002	7.334337E-001	-3.024853E-001	7.333940E-001	-3.025167E-001	6.767367E-002	-6.294659E-002
9.600000E+008	7.163702E-002	-6.304819E-002	7.319647E-001	-3.052581E-001	7.320342E-001	-3.052324E-001	6.738504E-002	-6.323421E-002
9.700000E+008	7.112454E-002	-6.336961E-002	7.305326E-001	-3.079200E-001	7.305900E-001	-3.079686E-001	6.705617E-002	-6.362450E-002
9.800000E+008	7.059108E-002	-6.373903E-002	7.291443E-001	-3.106243E-001	7.291644E-001	-3.107237E-001	6.665786E-002	-6.402828E-002
9.900000E+008	6.999529E-002	-6.407799E-002	7.277447E-001	-3.134149E-001	7.277349E-001	-3.134679E-001	6.604811E-002	-6.437245E-002
1.000000E+009	6.937303E-002	-6.433848E-002	7.263137E-001	-3.161298E-001	7.262744E-001	-3.161805E-001	6.557108E-002	-6.459305E-002
1.010000E+009	6.868670E-002	-6.453202E-002	7.248762E-001	-3.189275E-001	7.248452E-001	-3.189108E-001	6.506247E-002	-6.482580E-002
1.020000E+009	6.807166E-002	-6.471149E-002	7.234614E-001	-3.216399E-001	7.233198E-001	-3.215890E-001	6.464322E-002	-6.507225E-002
1.030000E+009	6.758448E-002	-6.490908E-002	7.218931E-001	-3.242999E-001	7.218807E-001	-3.243276E-001	6.422348E-002	-6.535589E-002
1.040000E+009	6.703359E-002	-6.521145E-002	7.204492E-001	-3.269619E-001	7.204527E-001	-3.270165E-001	6.378838E-002	-6.570026E-002
1.050000E+009	6.633005E-002	-6.559394E-002	7.190043E-001	-3.296717E-001	7.189636E-001	-3.296804E-001	6.323107E-002	-6.605226E-002
1.060000E+009	6.561016E-002	-6.585637E-002	7.175213E-001	-3.323472E-001	7.174776E-001	-3.323224E-001	6.270496E-002	-6.627341E-002
1.070000E+009	6.492987E-002	-6.604129E-002	7.159759E-001	-3.350113E-001	7.160031E-001	-3.349814E-001	6.218993E-002	-6.654626E-002
1.080000E+009	6.438405E-002	-6.628299E-002	7.144657E-001	-3.377416E-001	7.145833E-001	-3.376889E-001	6.172309E-002	-6.672562E-002
1.090000E+009	6.385819E-002	-6.647774E-002	7.129962E-001	-3.404071E-001	7.130692E-001	-3.403335E-001	6.131012E-002	-6.698614E-002
1.100000E+009	6.339703E-002	-6.676498E-002	7.113433E-001	-3.430945E-001	7.114951E-001	-3.429886E-001	6.091768E-002	-6.725546E-002
1.110000E+009	6.287282E-002	-6.702328E-002	7.098750E-001	-3.457600E-001	7.100347E-001	-3.456860E-001	6.041856E-002	-6.770445E-002
1.120000E+009	6.227454E-002	-6.723861E-002	7.083593E-001	-3.483702E-001	7.084776E-001	-3.483608E-001	5.980193E-002	-6.796649E-002
1.130000E+009	6.164640E-002	-6.750102E-002	7.068158E-001	-3.509740E-001	7.069204E-001	-3.510275E-001	5.920601E-002	-6.823032E-002
1.140000E+009	6.097023E-002	-6.763023E-002	7.052912E-001	-3.536640E-001	7.053676E-001	-3.536315E-001	5.863946E-002	-6.841728E-002
1.150000E+009	6.036351E-002	-6.780434E-002	7.036966E-001	-3.562863E-001	7.037321E-001	-3.562441E-001	5.817748E-002	-6.863938E-002
1.160000E+009	5.981988E-002	-6.795054E-002	7.021495E-001	-3.589123E-001	7.022064E-001	-3.588764E-001	5.770627E-002	-6.891712E-002
1.170000E+009	5.922497E-002	-6.821922E-002	7.005429E-001	-3.615400E-001	7.006484E-001	-3.614489E-001	5.729507E-002	-6.916586E-002
1.180000E+009	5.864147E-002	-6.855439E-002	6.988432E-001	-3.641281E-001	6.990393E-001	-3.641124E-001	5.673320E-002	-6.945578E-002
1.190000E+009	5.802444E-002	-6.874560E-002	6.972399E-001	-3.667378E-001	6.973076E-001	-3.667112E-001	5.624563E-002	-6.965397E-002
1.200000E+009	5.737030E-002	-6.890466E-002	6.956522E-001	-3.693649E-001	6.957600E-001	-3.692975E-001	5.570011E-002	-6.985556E-002
1.210000E+009	5.682863E-002	-6.907412E-002	6.939607E-001	-3.719160E-001	6.940881E-001	-3.719173E-001	5.521606E-002	-6.998218E-002
1.220000E+009	5.629626E-002	-6.921896E-002	6.923786E-001	-3.744302E-001	6.925151E-001	-3.744728E-001	5.474563E-002	-7.012695E-002
1.230000E+009	5.579306E-002	-6.939382E-002	6.907100E-001	-3.770613E-001	6.908245E-001	-3.770221E-001	5.416675E-002	-7.036389E-002
1.240000E+009	5.524422E-002	-6.970011E-002	6.890446E-001	-3.796093E-001	6.891362E-001	-3.795923E-001	5.363096E-002	-7.057839E-002
1.250000E+009	5.456637E-002	-6.989606E-002	6.873531E-001	-3.821831E-001	6.875337E-001	-3.821406E-001	5.301297E-002	-7.085178E-002
1.260000E+009	5.391988E-002	-7.001665E-002	6.856360E-001	-3.847232E-001	6.857499E-001	-3.847478E-001	5.234846E-002	-7.114193E-002
1.270000E+009	5.334988E-002	-7.016983E-002	6.840037E-001	-3.872697E-001	6.840760E-001	-3.871876E-001	5.180464E-002	-7.131579E-002
1.280000E+009	5.270366E-002	-7.021510E-002	6.823432E-001	-3.898270E-001	6.824521E-001	-3.897359E-001	5.127078E-002	-7.156016E-002
1.290000E+009	5.210301E-002	-7.028995E-002	6.805642E-001	-3.923777E-001	6.807184E-001	-3.922530E-001	5.086716E-002	-7.183535E-002
1.300000E+009	5.156874E-002	-7.039244E-002	6.788361E-001	-3.948161E-001	6.790151E-001	-3.948044E-001	5.048826E-002	-7.201906E-002
1.310000E+009	5.091928E-002	-7.043095E-002	6.770498E-001	-3.973276E-001	6.772831E-001	-3.973120E-001	4.997954E-002	-7.224399E-002
1.320000E+009	5.025118E-002	-7.045034E-002	6.753149E-001	-3.998576E-001	6.755620E-001	-3.998446E-001	4.951440E-002	-7.238033E-002
1.330000E+009	4.971403E-002	-7.037630E-002	6.736196E-001	-4.022689E-001	6.738245E-001	-4.023578E-001	4.917580E-002	-7.238662E-002
1.340000E+009	4.910232E-002	-7.030596E-002	6.718640E-001	-4.047315E-001	6.720296E-001	-4.047849E-001	4.873568E-002	-7.232711E-002
1.350000E+009	4.852547E-002	-7.028891E-002	6.701053E-001	-4.072350E-001	6.702044E-001	-4.072408E-001	4.834400E-002	-7.233769E-002
1.360000E+009	4.809875E-002	-7.025777E-002	6.683108E-001	-4.096569E-001	6.685241E-001	-4.097202E-001	4.792709E-002	-7.226268E-002
1.370000E+009	4.752313E-002	-7.030735E-002	6.665714E-001	-4.121475E-001	6.667335E-001	-4.121319E-001	4.744939E-002	-7.225953E-002
1.380000E+009	4.692652E-002	-7.037639E-002	6.647288E-001	-4.145673E-001	6.649204E-001	-4.145966E-001	4.690088E-002	-7.230166E-002
1.390000E+009	4.636343E-002	-7.042210E-002	6.629337E-001	-4.170419E-001	6.630903E-001	-4.170678E-001	4.630352E-002	-7.219746E-002
1.400000E+009	4.577770E-002	-7.039191E-002	6.610942E-001	-4.194363E-001	6.612892E-001	-4.194014E-001	4.576494E-002	-7.210176E-002
1.410000E+009	4.521077E-002	-7.033090E-002	6.593122E-001	-4.219023E-001	6.594351E-001	-4.218447E-001	4.520688E-002	-7.199948E-002
1.420000E+009	4.471923E-002	-7.031342E-002	6.574417E-001	-4.242479E-001	6.576523E-001	-4.242424E-001	4.468826E-002	-7.193258E-002
1.430000E+009	4.424780E-002	-7.034053E-002	6.556024E-001	-4.266191E-001	6.558036E-001	-4.266768E-001	4.418857E-002	-7.192815E-002
1.440000E+009	4.367369E-002	-7.031453E-002	6.538020E-001	-4.289957E-001	6.539404E-001	-4.290098E-001	4.368279E-002	-7.199410E-002
1.450000E+009	4.310926E-002	-7.026861E-002	6.519135E-001	-4.313661E-001	6.521350E-001	-4.314195E-001	4.307239E-002	-7.192712E-002
1.460000E+009	4.253775E-002	-7.018729E-002	6.500682E-001	-4.337842E-001	6.502413E-001	-4.338259E-001	4.253115E-002	-7.184754E-002
1.470000E+009	4.202807E-002	-7.008769E-002	6.481823E-001	-4.361239E-001	6.483779E-001	-4.361602E-001	4.200696E-002	-7.164782E-002
1.480000E+009	4.149512E-002	-6.995249E-002	6.462956E-001	-4.384211E-001	6.464828E-001	-4.384575E-001	4.150607E-002	-7.143985E-002
1.490000E+009	4.102059E-002	-6.986426E-002	6.444419E-001	-4.407482E-001	6.446263E-001	-4.407786E-001	4.100835E-002	-7.128260E-002
1.500000E+009	4.057464E-002	-6.984089E-002	6.425748E-001	-4.430741E-001	6.427369E-001	-4.430833E-001	4.058039E-002	-7.119408E-002
