! Device ID: PE43711P
! File Path: z:\PE43711P\CHAR_NOM_04282014\AMB\3p300\LS_ATT_7p00dB\PE43711P_AMB_3p300V_3p000V_0p000V_LS_ATT_7p00dB_S2P_SN_5_A0137A.s2p
! Serial: 5
! Lot: A0137A
! Temp: 25C
! VDD: 3.300
! VSS: 0.000
! Control_Hi: 3.000
! Control_Lo: 0.000
! Attenuation Step: 7.00dB
! Port 1: RF1
! Port 2: RF2
! ThroughPath:1-2
! IDD: 0.0001282374
! ISS: -2.49e-008
!

#  Hz  S   RI  R   50

1.000000E+007	9.425964E-002	-3.640353E-004	3.935739E-001	-1.944489E-003	3.937807E-001	-2.071204E-003	-6.479542E-002	5.360354E-004
2.000000E+007	9.441002E-002	-6.888195E-004	3.936005E-001	-3.313161E-003	3.936193E-001	-3.337846E-003	-6.455811E-002	9.590228E-004
3.000000E+007	9.467239E-002	-1.228589E-003	3.936165E-001	-4.964745E-003	3.936640E-001	-4.999861E-003	-6.427074E-002	1.230387E-003
4.000000E+007	9.476607E-002	-1.746969E-003	3.936014E-001	-6.634558E-003	3.936442E-001	-6.653876E-003	-6.398718E-002	1.531375E-003
5.000000E+007	9.491498E-002	-2.354747E-003	3.935847E-001	-8.436468E-003	3.937178E-001	-8.396765E-003	-6.388805E-002	1.731565E-003
6.000000E+007	9.508686E-002	-3.002558E-003	3.934847E-001	-1.008583E-002	3.937088E-001	-1.006394E-002	-6.375160E-002	1.855560E-003
7.000000E+007	9.517213E-002	-3.676930E-003	3.933681E-001	-1.172188E-002	3.935761E-001	-1.173094E-002	-6.362690E-002	1.984135E-003
8.000000E+007	9.529170E-002	-4.329031E-003	3.932990E-001	-1.330136E-002	3.934945E-001	-1.330936E-002	-6.350418E-002	2.139709E-003
9.000000E+007	9.537699E-002	-4.964366E-003	3.931901E-001	-1.494838E-002	3.933790E-001	-1.494641E-002	-6.337593E-002	2.226828E-003
1.000000E+008	9.542681E-002	-5.586885E-003	3.931259E-001	-1.661481E-002	3.932597E-001	-1.659179E-002	-6.322607E-002	2.311102E-003
1.100000E+008	9.548345E-002	-6.217095E-003	3.929673E-001	-1.830250E-002	3.931550E-001	-1.821159E-002	-6.315493E-002	2.379386E-003
1.200000E+008	9.553906E-002	-6.865873E-003	3.927733E-001	-1.992137E-002	3.929811E-001	-1.989299E-002	-6.315607E-002	2.437758E-003
1.300000E+008	9.557992E-002	-7.554061E-003	3.926331E-001	-2.152178E-002	3.928400E-001	-2.151937E-002	-6.305253E-002	2.455948E-003
1.400000E+008	9.557481E-002	-8.259206E-003	3.924940E-001	-2.315036E-002	3.926618E-001	-2.317800E-002	-6.278988E-002	2.446365E-003
1.500000E+008	9.549340E-002	-8.913527E-003	3.923569E-001	-2.471697E-002	3.924353E-001	-2.474577E-002	-6.256716E-002	2.465478E-003
1.600000E+008	9.533816E-002	-9.430835E-003	3.921935E-001	-2.629396E-002	3.922350E-001	-2.627811E-002	-6.263075E-002	2.528978E-003
1.700000E+008	9.518713E-002	-9.991939E-003	3.920378E-001	-2.801888E-002	3.922590E-001	-2.790196E-002	-6.286115E-002	2.558293E-003
1.800000E+008	9.500532E-002	-1.059904E-002	3.916572E-001	-2.971786E-002	3.920642E-001	-2.963106E-002	-6.301293E-002	2.540015E-003
1.900000E+008	9.485151E-002	-1.127574E-002	3.913620E-001	-3.124818E-002	3.917734E-001	-3.123293E-002	-6.298919E-002	2.498063E-003
2.000000E+008	9.475337E-002	-1.199132E-002	3.911858E-001	-3.281207E-002	3.915170E-001	-3.278872E-002	-6.280201E-002	2.504285E-003
2.100000E+008	9.465455E-002	-1.274452E-002	3.909968E-001	-3.436306E-002	3.912692E-001	-3.434482E-002	-6.256991E-002	2.481730E-003
2.200000E+008	9.455173E-002	-1.345881E-002	3.908221E-001	-3.588138E-002	3.910396E-001	-3.588496E-002	-6.241791E-002	2.459051E-003
2.300000E+008	9.436626E-002	-1.413060E-002	3.906022E-001	-3.744999E-002	3.907844E-001	-3.744261E-002	-6.230530E-002	2.395706E-003
2.400000E+008	9.419483E-002	-1.482282E-002	3.903427E-001	-3.903604E-002	3.905337E-001	-3.902017E-002	-6.222949E-002	2.339789E-003
2.500000E+008	9.400332E-002	-1.547978E-002	3.900729E-001	-4.064331E-002	3.902858E-001	-4.060090E-002	-6.216269E-002	2.224009E-003
2.600000E+008	9.384812E-002	-1.617335E-002	3.897618E-001	-4.223231E-002	3.900098E-001	-4.218880E-002	-6.202623E-002	2.209382E-003
2.700000E+008	9.368799E-002	-1.681901E-002	3.894241E-001	-4.376846E-002	3.897083E-001	-4.374295E-002	-6.184416E-002	2.235514E-003
2.800000E+008	9.357519E-002	-1.744223E-002	3.891511E-001	-4.528582E-002	3.894072E-001	-4.524599E-002	-6.167270E-002	2.256995E-003
2.900000E+008	9.339953E-002	-1.801650E-002	3.888712E-001	-4.678074E-002	3.891103E-001	-4.673558E-002	-6.155562E-002	2.311999E-003
3.000000E+008	9.325718E-002	-1.854640E-002	3.886227E-001	-4.834283E-002	3.888666E-001	-4.829461E-002	-6.144176E-002	2.396858E-003
3.100000E+008	9.307292E-002	-1.906535E-002	3.883279E-001	-4.988304E-002	3.886024E-001	-4.983158E-002	-6.135493E-002	2.501649E-003
3.200000E+008	9.288323E-002	-1.959177E-002	3.880093E-001	-5.147301E-002	3.883233E-001	-5.141135E-002	-6.130324E-002	2.613463E-003
3.300000E+008	9.263807E-002	-2.007947E-002	3.877001E-001	-5.299512E-002	3.879964E-001	-5.303231E-002	-6.124208E-002	2.662525E-003
3.400000E+008	9.231002E-002	-2.061831E-002	3.873576E-001	-5.453181E-002	3.875307E-001	-5.462750E-002	-6.116172E-002	2.676464E-003
3.500000E+008	9.195851E-002	-2.115040E-002	3.870185E-001	-5.608211E-002	3.870668E-001	-5.604518E-002	-6.107414E-002	2.614824E-003
3.600000E+008	9.166472E-002	-2.166557E-002	3.866738E-001	-5.762466E-002	3.867221E-001	-5.745201E-002	-6.096511E-002	2.635782E-003
3.700000E+008	9.136139E-002	-2.221791E-002	3.862712E-001	-5.905281E-002	3.864654E-001	-5.884528E-002	-6.081417E-002	2.623185E-003
3.800000E+008	9.107770E-002	-2.278763E-002	3.859533E-001	-6.055614E-002	3.862254E-001	-6.040650E-002	-6.065588E-002	2.619825E-003
3.900000E+008	9.074632E-002	-2.336575E-002	3.855337E-001	-6.209450E-002	3.858628E-001	-6.194917E-002	-6.043698E-002	2.652601E-003
4.000000E+008	9.048858E-002	-2.398543E-002	3.851078E-001	-6.349773E-002	3.854898E-001	-6.350764E-002	-6.020785E-002	2.681617E-003
4.100000E+008	9.015676E-002	-2.457616E-002	3.847710E-001	-6.489058E-002	3.850818E-001	-6.498558E-002	-6.000090E-002	2.723072E-003
4.200000E+008	8.981740E-002	-2.513415E-002	3.844917E-001	-6.639099E-002	3.847009E-001	-6.641854E-002	-5.984710E-002	2.820936E-003
4.300000E+008	8.956192E-002	-2.566149E-002	3.841206E-001	-6.789163E-002	3.843540E-001	-6.792126E-002	-5.968956E-002	2.925770E-003
4.400000E+008	8.930489E-002	-2.613610E-002	3.837429E-001	-6.939845E-002	3.839785E-001	-6.937808E-002	-5.958720E-002	3.109881E-003
4.500000E+008	8.905054E-002	-2.665968E-002	3.833711E-001	-7.088767E-002	3.836281E-001	-7.087663E-002	-5.944936E-002	3.293011E-003
4.600000E+008	8.877324E-002	-2.716856E-002	3.829654E-001	-7.238318E-002	3.831709E-001	-7.237929E-002	-5.933827E-002	3.503767E-003
4.700000E+008	8.846062E-002	-2.763812E-002	3.825271E-001	-7.382237E-002	3.827593E-001	-7.383461E-002	-5.924857E-002	3.655695E-003
4.800000E+008	8.814855E-002	-2.807637E-002	3.821246E-001	-7.525109E-002	3.823373E-001	-7.524080E-002	-5.921109E-002	3.816795E-003
4.900000E+008	8.778482E-002	-2.853289E-002	3.817345E-001	-7.670892E-002	3.819097E-001	-7.669815E-002	-5.917097E-002	3.967756E-003
5.000000E+008	8.744864E-002	-2.897298E-002	3.813283E-001	-7.813799E-002	3.815046E-001	-7.812590E-002	-5.907790E-002	4.076455E-003
5.100000E+008	8.715187E-002	-2.944911E-002	3.809011E-001	-7.960000E-002	3.811584E-001	-7.953823E-002	-5.897880E-002	4.198549E-003
5.200000E+008	8.681000E-002	-2.996282E-002	3.804571E-001	-8.105100E-002	3.807523E-001	-8.103545E-002	-5.886554E-002	4.293884E-003
5.300000E+008	8.646557E-002	-3.046107E-002	3.800450E-001	-8.252154E-002	3.803220E-001	-8.252804E-002	-5.867218E-002	4.401327E-003
5.400000E+008	8.608591E-002	-3.102039E-002	3.795746E-001	-8.396251E-002	3.798814E-001	-8.396979E-002	-5.850506E-002	4.461560E-003
5.500000E+008	8.573139E-002	-3.147490E-002	3.791540E-001	-8.538026E-002	3.793665E-001	-8.541421E-002	-5.838634E-002	4.595361E-003
5.600000E+008	8.538313E-002	-3.196571E-002	3.786869E-001	-8.680852E-002	3.789063E-001	-8.682331E-002	-5.824941E-002	4.756232E-003
5.700000E+008	8.505242E-002	-3.242971E-002	3.782278E-001	-8.819501E-002	3.784976E-001	-8.823711E-002	-5.821213E-002	4.967697E-003
5.800000E+008	8.474301E-002	-3.290561E-002	3.777785E-001	-8.961919E-002	3.780630E-001	-8.964967E-002	-5.813206E-002	5.143092E-003
5.900000E+008	8.441206E-002	-3.340959E-002	3.773136E-001	-9.107552E-002	3.776190E-001	-9.110706E-002	-5.809643E-002	5.350122E-003
6.000000E+008	8.412861E-002	-3.388363E-002	3.768236E-001	-9.248959E-002	3.771199E-001	-9.255207E-002	-5.798798E-002	5.498592E-003
6.100000E+008	8.386872E-002	-3.435725E-002	3.763608E-001	-9.388201E-002	3.765875E-001	-9.395198E-002	-5.794972E-002	5.671890E-003
6.200000E+008	8.359294E-002	-3.480434E-002	3.758545E-001	-9.525534E-002	3.761209E-001	-9.532948E-002	-5.788923E-002	5.809054E-003
6.300000E+008	8.335082E-002	-3.523772E-002	3.753618E-001	-9.663845E-002	3.756145E-001	-9.670798E-002	-5.778713E-002	5.964319E-003
6.400000E+008	8.310464E-002	-3.564589E-002	3.748930E-001	-9.804200E-002	3.751465E-001	-9.810927E-002	-5.769752E-002	6.133628E-003
6.500000E+008	8.285370E-002	-3.602821E-002	3.743975E-001	-9.941008E-002	3.746738E-001	-9.947427E-002	-5.759512E-002	6.336177E-003
6.600000E+008	8.253928E-002	-3.645745E-002	3.739562E-001	-1.008278E-001	3.741703E-001	-1.009144E-001	-5.749378E-002	6.535048E-003
6.700000E+008	8.217220E-002	-3.680094E-002	3.734240E-001	-1.022394E-001	3.736752E-001	-1.022791E-001	-5.744854E-002	6.731983E-003
6.800000E+008	8.180526E-002	-3.714596E-002	3.729334E-001	-1.035914E-001	3.731709E-001	-1.036826E-001	-5.739027E-002	6.964337E-003
6.900000E+008	8.142138E-002	-3.749191E-002	3.723816E-001	-1.049785E-001	3.726098E-001	-1.050161E-001	-5.736127E-002	7.205844E-003
7.000000E+008	8.106814E-002	-3.786290E-002	3.718945E-001	-1.063567E-001	3.721228E-001	-1.063359E-001	-5.734557E-002	7.420015E-003
7.100000E+008	8.072101E-002	-3.826702E-002	3.713701E-001	-1.076684E-001	3.716526E-001	-1.077769E-001	-5.734736E-002	7.608011E-003
7.200000E+008	8.034342E-002	-3.863971E-002	3.708565E-001	-1.090427E-001	3.711294E-001	-1.091192E-001	-5.733114E-002	7.764139E-003
7.300000E+008	7.997024E-002	-3.907822E-002	3.703038E-001	-1.104087E-001	3.706071E-001	-1.105076E-001	-5.733561E-002	7.907113E-003
7.400000E+008	7.958557E-002	-3.944168E-002	3.697693E-001	-1.117978E-001	3.700816E-001	-1.118715E-001	-5.735398E-002	8.015472E-003
7.500000E+008	7.923991E-002	-3.983308E-002	3.692539E-001	-1.131402E-001	3.695584E-001	-1.132382E-001	-5.732809E-002	8.147624E-003
7.600000E+008	7.885932E-002	-4.023523E-002	3.687041E-001	-1.144995E-001	3.690203E-001	-1.145865E-001	-5.729171E-002	8.251994E-003
7.700000E+008	7.847949E-002	-4.066049E-002	3.681584E-001	-1.158389E-001	3.684734E-001	-1.159198E-001	-5.724593E-002	8.339258E-003
7.800000E+008	7.810139E-002	-4.104249E-002	3.676174E-001	-1.171779E-001	3.679478E-001	-1.172815E-001	-5.722385E-002	8.434377E-003
7.900000E+008	7.771719E-002	-4.147918E-002	3.670857E-001	-1.185246E-001	3.674119E-001	-1.186396E-001	-5.719572E-002	8.563052E-003
8.000000E+008	7.736078E-002	-4.190416E-002	3.665328E-001	-1.198665E-001	3.667983E-001	-1.199802E-001	-5.711954E-002	8.713004E-003
8.100000E+008	7.700938E-002	-4.232403E-002	3.659690E-001	-1.211772E-001	3.662259E-001	-1.212893E-001	-5.702271E-002	8.875199E-003
8.200000E+008	7.671914E-002	-4.269687E-002	3.653920E-001	-1.225489E-001	3.656778E-001	-1.225994E-001	-5.695400E-002	9.021708E-003
8.300000E+008	7.640001E-002	-4.310998E-002	3.648291E-001	-1.238598E-001	3.651184E-001	-1.239622E-001	-5.689811E-002	9.189253E-003
8.400000E+008	7.611826E-002	-4.345828E-002	3.642385E-001	-1.251831E-001	3.645461E-001	-1.252834E-001	-5.683125E-002	9.368664E-003
8.500000E+008	7.583436E-002	-4.382468E-002	3.637009E-001	-1.264976E-001	3.639787E-001	-1.266356E-001	-5.679769E-002	9.533975E-003
8.600000E+008	7.553657E-002	-4.416208E-002	3.630955E-001	-1.278165E-001	3.633741E-001	-1.279434E-001	-5.677475E-002	9.707980E-003
8.700000E+008	7.521129E-002	-4.445946E-002	3.625375E-001	-1.291471E-001	3.627842E-001	-1.292508E-001	-5.675691E-002	9.850329E-003
8.800000E+008	7.485486E-002	-4.476301E-002	3.619441E-001	-1.304837E-001	3.622395E-001	-1.305314E-001	-5.674576E-002	1.001905E-002
8.900000E+008	7.447091E-002	-4.507229E-002	3.613168E-001	-1.317651E-001	3.616375E-001	-1.318922E-001	-5.673033E-002	1.015713E-002
9.000000E+008	7.411423E-002	-4.537533E-002	3.607001E-001	-1.330852E-001	3.610618E-001	-1.332030E-001	-5.667479E-002	1.030871E-002
9.100000E+008	7.371160E-002	-4.568053E-002	3.601446E-001	-1.343860E-001	3.604516E-001	-1.344986E-001	-5.659482E-002	1.042407E-002
9.200000E+008	7.330875E-002	-4.604385E-002	3.595170E-001	-1.356593E-001	3.598656E-001	-1.358266E-001	-5.646791E-002	1.056829E-002
9.300000E+008	7.292959E-002	-4.636109E-002	3.589088E-001	-1.369871E-001	3.592148E-001	-1.371268E-001	-5.633109E-002	1.070801E-002
9.400000E+008	7.259390E-002	-4.669407E-002	3.582991E-001	-1.382590E-001	3.586399E-001	-1.384132E-001	-5.618078E-002	1.086865E-002
9.500000E+008	7.221732E-002	-4.703782E-002	3.577164E-001	-1.395707E-001	3.580162E-001	-1.397265E-001	-5.600348E-002	1.109872E-002
9.600000E+008	7.189251E-002	-4.732090E-002	3.570659E-001	-1.408605E-001	3.573911E-001	-1.410050E-001	-5.584987E-002	1.132051E-002
9.700000E+008	7.158319E-002	-4.761106E-002	3.564359E-001	-1.421239E-001	3.567642E-001	-1.422860E-001	-5.566999E-002	1.154961E-002
9.800000E+008	7.127962E-002	-4.790032E-002	3.558574E-001	-1.433691E-001	3.561631E-001	-1.435893E-001	-5.551645E-002	1.179134E-002
9.900000E+008	7.098635E-002	-4.817837E-002	3.552367E-001	-1.446794E-001	3.555388E-001	-1.448756E-001	-5.543115E-002	1.202871E-002
1.000000E+009	7.066690E-002	-4.840167E-002	3.546037E-001	-1.459573E-001	3.548830E-001	-1.461490E-001	-5.536742E-002	1.228361E-002
1.010000E+009	7.029922E-002	-4.863884E-002	3.539858E-001	-1.472471E-001	3.542523E-001	-1.473972E-001	-5.531003E-002	1.255986E-002
1.020000E+009	6.992304E-002	-4.884742E-002	3.533430E-001	-1.485259E-001	3.535921E-001	-1.486771E-001	-5.525369E-002	1.283262E-002
1.030000E+009	6.957394E-002	-4.905393E-002	3.526484E-001	-1.497753E-001	3.529481E-001	-1.499397E-001	-5.519253E-002	1.308965E-002
1.040000E+009	6.920571E-002	-4.929255E-002	3.520020E-001	-1.510305E-001	3.523203E-001	-1.512005E-001	-5.513177E-002	1.333551E-002
1.050000E+009	6.882218E-002	-4.955765E-002	3.513887E-001	-1.523005E-001	3.516762E-001	-1.524630E-001	-5.505796E-002	1.359592E-002
1.060000E+009	6.844717E-002	-4.982640E-002	3.507238E-001	-1.535724E-001	3.510280E-001	-1.537012E-001	-5.497963E-002	1.382420E-002
1.070000E+009	6.805248E-002	-5.008302E-002	3.500542E-001	-1.547975E-001	3.503786E-001	-1.549307E-001	-5.489239E-002	1.406662E-002
1.080000E+009	6.771373E-002	-5.034516E-002	3.493955E-001	-1.560983E-001	3.497257E-001	-1.562172E-001	-5.480162E-002	1.430774E-002
1.090000E+009	6.735671E-002	-5.059877E-002	3.487237E-001	-1.573412E-001	3.490663E-001	-1.574679E-001	-5.471134E-002	1.454585E-002
1.100000E+009	6.704334E-002	-5.084331E-002	3.480178E-001	-1.586155E-001	3.483845E-001	-1.587181E-001	-5.462343E-002	1.480805E-002
1.110000E+009	6.671635E-002	-5.106775E-002	3.473546E-001	-1.598395E-001	3.477132E-001	-1.599824E-001	-5.455853E-002	1.505001E-002
1.120000E+009	6.633000E-002	-5.131356E-002	3.466949E-001	-1.610820E-001	3.470212E-001	-1.612542E-001	-5.452015E-002	1.529410E-002
1.130000E+009	6.598317E-002	-5.153260E-002	3.459938E-001	-1.623199E-001	3.463572E-001	-1.624763E-001	-5.450073E-002	1.552133E-002
1.140000E+009	6.557201E-002	-5.175277E-002	3.453473E-001	-1.635651E-001	3.456687E-001	-1.637158E-001	-5.444972E-002	1.577241E-002
1.150000E+009	6.520543E-002	-5.198577E-002	3.446147E-001	-1.648286E-001	3.449456E-001	-1.649543E-001	-5.438965E-002	1.601207E-002
1.160000E+009	6.482643E-002	-5.219318E-002	3.439321E-001	-1.660552E-001	3.442721E-001	-1.661987E-001	-5.432260E-002	1.625751E-002
1.170000E+009	6.445360E-002	-5.242561E-002	3.432094E-001	-1.672765E-001	3.435619E-001	-1.674135E-001	-5.422154E-002	1.653040E-002
1.180000E+009	6.409353E-002	-5.267981E-002	3.424889E-001	-1.685188E-001	3.428566E-001	-1.686528E-001	-5.413255E-002	1.674954E-002
1.190000E+009	6.371621E-002	-5.290141E-002	3.417876E-001	-1.697563E-001	3.420793E-001	-1.698759E-001	-5.403033E-002	1.702693E-002
1.200000E+009	6.334089E-002	-5.313594E-002	3.410811E-001	-1.709816E-001	3.413924E-001	-1.710915E-001	-5.392387E-002	1.731112E-002
1.210000E+009	6.301229E-002	-5.340012E-002	3.403246E-001	-1.721892E-001	3.406478E-001	-1.723349E-001	-5.384851E-002	1.759666E-002
1.220000E+009	6.266744E-002	-5.363835E-002	3.396191E-001	-1.733702E-001	3.399465E-001	-1.735404E-001	-5.375687E-002	1.789327E-002
1.230000E+009	6.230643E-002	-5.386065E-002	3.388644E-001	-1.746239E-001	3.391831E-001	-1.747417E-001	-5.373982E-002	1.815005E-002
1.240000E+009	6.197363E-002	-5.410305E-002	3.381600E-001	-1.758137E-001	3.384600E-001	-1.759502E-001	-5.369048E-002	1.837638E-002
1.250000E+009	6.161611E-002	-5.434064E-002	3.374043E-001	-1.770331E-001	3.377671E-001	-1.771580E-001	-5.365805E-002	1.862370E-002
1.260000E+009	6.124353E-002	-5.455641E-002	3.366651E-001	-1.782512E-001	3.369650E-001	-1.783837E-001	-5.360680E-002	1.881634E-002
1.270000E+009	6.094318E-002	-5.477957E-002	3.359086E-001	-1.794338E-001	3.362179E-001	-1.795621E-001	-5.353925E-002	1.901474E-002
1.280000E+009	6.059005E-002	-5.496495E-002	3.351758E-001	-1.806328E-001	3.355071E-001	-1.807592E-001	-5.347246E-002	1.921771E-002
1.290000E+009	6.024112E-002	-5.514688E-002	3.344174E-001	-1.818558E-001	3.347435E-001	-1.819794E-001	-5.332261E-002	1.939703E-002
1.300000E+009	5.992559E-002	-5.531304E-002	3.336551E-001	-1.830214E-001	3.339901E-001	-1.831589E-001	-5.315305E-002	1.961658E-002
1.310000E+009	5.955427E-002	-5.549504E-002	3.328487E-001	-1.842384E-001	3.332128E-001	-1.843860E-001	-5.299961E-002	1.985546E-002
1.320000E+009	5.918879E-002	-5.563818E-002	3.320875E-001	-1.854203E-001	3.324591E-001	-1.855714E-001	-5.278587E-002	2.013051E-002
1.330000E+009	5.886585E-002	-5.574983E-002	3.313262E-001	-1.865891E-001	3.316903E-001	-1.867667E-001	-5.253522E-002	2.048511E-002
1.340000E+009	5.851723E-002	-5.587067E-002	3.305226E-001	-1.877668E-001	3.308593E-001	-1.879206E-001	-5.234869E-002	2.085743E-002
1.350000E+009	5.812276E-002	-5.599632E-002	3.297457E-001	-1.889587E-001	3.300483E-001	-1.891069E-001	-5.215629E-002	2.125546E-002
1.360000E+009	5.779851E-002	-5.610227E-002	3.289327E-001	-1.901077E-001	3.293033E-001	-1.902889E-001	-5.198437E-002	2.168402E-002
1.370000E+009	5.744029E-002	-5.625264E-002	3.281821E-001	-1.912720E-001	3.285031E-001	-1.914506E-001	-5.186097E-002	2.211861E-002
1.380000E+009	5.705958E-002	-5.640941E-002	3.273559E-001	-1.924543E-001	3.276887E-001	-1.926207E-001	-5.174020E-002	2.250620E-002
1.390000E+009	5.671640E-002	-5.655647E-002	3.265556E-001	-1.936202E-001	3.268844E-001	-1.937990E-001	-5.165816E-002	2.292793E-002
1.400000E+009	5.633641E-002	-5.672634E-002	3.257489E-001	-1.947768E-001	3.260616E-001	-1.949128E-001	-5.159227E-002	2.332118E-002
1.410000E+009	5.597400E-002	-5.684831E-002	3.249213E-001	-1.959169E-001	3.252397E-001	-1.960771E-001	-5.152492E-002	2.370558E-002
1.420000E+009	5.559449E-002	-5.696522E-002	3.240825E-001	-1.970708E-001	3.244532E-001	-1.972125E-001	-5.145188E-002	2.406828E-002
1.430000E+009	5.526169E-002	-5.708463E-002	3.232684E-001	-1.981931E-001	3.236398E-001	-1.983897E-001	-5.135591E-002	2.440716E-002
1.440000E+009	5.489618E-002	-5.722141E-002	3.224540E-001	-1.993360E-001	3.227888E-001	-1.995071E-001	-5.124678E-002	2.475371E-002
1.450000E+009	5.451892E-002	-5.732699E-002	3.216189E-001	-2.004706E-001	3.219545E-001	-2.006665E-001	-5.113703E-002	2.512039E-002
1.460000E+009	5.414070E-002	-5.744488E-002	3.207619E-001	-2.016265E-001	3.210794E-001	-2.018065E-001	-5.100137E-002	2.547447E-002
1.470000E+009	5.376515E-002	-5.756053E-002	3.199332E-001	-2.027680E-001	3.202542E-001	-2.029182E-001	-5.086637E-002	2.589210E-002
1.480000E+009	5.339954E-002	-5.763538E-002	3.190724E-001	-2.038435E-001	3.194090E-001	-2.040334E-001	-5.075413E-002	2.632683E-002
1.490000E+009	5.302264E-002	-5.774739E-002	3.182380E-001	-2.049678E-001	3.185455E-001	-2.051320E-001	-5.059373E-002	2.676635E-002
1.500000E+009	5.265743E-002	-5.788782E-002	3.173920E-001	-2.060931E-001	3.177030E-001	-2.062541E-001	-5.042516E-002	2.721376E-002
