! Device ID: PE43711P
! File Path: z:\PE43711P\CHAR_NOM_04282014\AMB\3p300\LS_ATT_9p00dB\PE43711P_AMB_3p300V_3p000V_0p000V_LS_ATT_9p00dB_S2P_SN_5_A0137A.s2p
! Serial: 5
! Lot: A0137A
! Temp: 25C
! VDD: 3.300
! VSS: 0.000
! Control_Hi: 3.000
! Control_Lo: 0.000
! Attenuation Step: 9.00dB
! Port 1: RF1
! Port 2: RF2
! ThroughPath:1-2
! IDD: 0.00012774
! ISS: -3.74e-008
!

#  Hz  S   RI  R   50

1.000000E+007	8.460471E-002	-2.196922E-004	3.126740E-001	-1.488444E-003	3.130374E-001	-1.546728E-003	-1.077278E-001	8.150504E-004
2.000000E+007	8.476852E-002	-5.003825E-004	3.127100E-001	-2.506835E-003	3.128454E-001	-2.541067E-003	-1.075036E-001	1.328439E-003
3.000000E+007	8.502574E-002	-9.216019E-004	3.127095E-001	-3.781028E-003	3.128632E-001	-3.797500E-003	-1.071910E-001	1.749811E-003
4.000000E+007	8.514609E-002	-1.354561E-003	3.127047E-001	-5.062320E-003	3.128529E-001	-5.064234E-003	-1.069576E-001	2.219659E-003
5.000000E+007	8.527086E-002	-1.827674E-003	3.127120E-001	-6.438476E-003	3.129225E-001	-6.391144E-003	-1.068765E-001	2.636108E-003
6.000000E+007	8.542704E-002	-2.363026E-003	3.126121E-001	-7.668782E-003	3.128806E-001	-7.650129E-003	-1.067584E-001	2.939303E-003
7.000000E+007	8.550795E-002	-2.897246E-003	3.125171E-001	-8.899855E-003	3.127798E-001	-8.894026E-003	-1.065969E-001	3.260420E-003
8.000000E+007	8.563326E-002	-3.423378E-003	3.124635E-001	-1.009340E-002	3.127191E-001	-1.010004E-002	-1.064435E-001	3.575905E-003
9.000000E+007	8.571648E-002	-3.959185E-003	3.123802E-001	-1.134655E-002	3.126262E-001	-1.134265E-002	-1.063140E-001	3.844407E-003
1.000000E+008	8.578280E-002	-4.469624E-003	3.123464E-001	-1.260923E-002	3.125286E-001	-1.258211E-002	-1.062050E-001	4.120269E-003
1.100000E+008	8.583972E-002	-4.996477E-003	3.122289E-001	-1.388812E-002	3.124508E-001	-1.381532E-002	-1.061255E-001	4.358027E-003
1.200000E+008	8.592871E-002	-5.543041E-003	3.120551E-001	-1.511890E-002	3.123390E-001	-1.509905E-002	-1.060797E-001	4.598632E-003
1.300000E+008	8.596819E-002	-6.095831E-003	3.119690E-001	-1.632356E-002	3.122247E-001	-1.634153E-002	-1.059642E-001	4.813824E-003
1.400000E+008	8.596714E-002	-6.647488E-003	3.118482E-001	-1.755754E-002	3.120783E-001	-1.757978E-002	-1.057584E-001	5.007750E-003
1.500000E+008	8.589442E-002	-7.168433E-003	3.117041E-001	-1.873325E-002	3.118960E-001	-1.875484E-002	-1.055847E-001	5.194598E-003
1.600000E+008	8.581013E-002	-7.610136E-003	3.116451E-001	-1.992827E-002	3.117529E-001	-1.990905E-002	-1.055893E-001	5.434471E-003
1.700000E+008	8.573065E-002	-8.074540E-003	3.115131E-001	-2.124142E-002	3.117811E-001	-2.113576E-002	-1.057078E-001	5.628732E-003
1.800000E+008	8.558642E-002	-8.583215E-003	3.112249E-001	-2.252914E-002	3.116453E-001	-2.248871E-002	-1.057574E-001	5.828530E-003
1.900000E+008	8.546612E-002	-9.140211E-003	3.109972E-001	-2.369391E-002	3.114165E-001	-2.368873E-002	-1.057190E-001	5.962586E-003
2.000000E+008	8.536380E-002	-9.705738E-003	3.108626E-001	-2.486261E-002	3.112227E-001	-2.483713E-002	-1.055649E-001	6.129926E-003
2.100000E+008	8.526932E-002	-1.033204E-002	3.107155E-001	-2.601953E-002	3.110223E-001	-2.602210E-002	-1.053756E-001	6.263325E-003
2.200000E+008	8.516051E-002	-1.090691E-002	3.105801E-001	-2.717327E-002	3.108457E-001	-2.717569E-002	-1.052421E-001	6.372334E-003
2.300000E+008	8.502262E-002	-1.149524E-002	3.104199E-001	-2.838241E-002	3.106619E-001	-2.835106E-002	-1.051207E-001	6.480285E-003
2.400000E+008	8.491155E-002	-1.206316E-002	3.102669E-001	-2.957113E-002	3.104809E-001	-2.955264E-002	-1.050057E-001	6.613702E-003
2.500000E+008	8.474707E-002	-1.259562E-002	3.100325E-001	-3.078048E-002	3.102782E-001	-3.073964E-002	-1.048912E-001	6.703430E-003
2.600000E+008	8.464396E-002	-1.318417E-002	3.097997E-001	-3.196987E-002	3.100836E-001	-3.193873E-002	-1.047195E-001	6.869958E-003
2.700000E+008	8.454778E-002	-1.372781E-002	3.095421E-001	-3.313406E-002	3.098602E-001	-3.313075E-002	-1.045102E-001	7.069636E-003
2.800000E+008	8.444708E-002	-1.423847E-002	3.093396E-001	-3.428093E-002	3.096347E-001	-3.426522E-002	-1.043129E-001	7.267341E-003
2.900000E+008	8.431233E-002	-1.470305E-002	3.091474E-001	-3.544099E-002	3.093913E-001	-3.538991E-002	-1.041920E-001	7.487929E-003
3.000000E+008	8.421702E-002	-1.514715E-002	3.089797E-001	-3.661926E-002	3.092249E-001	-3.655261E-002	-1.040613E-001	7.738007E-003
3.100000E+008	8.405868E-002	-1.558101E-002	3.087551E-001	-3.777619E-002	3.090476E-001	-3.773867E-002	-1.039523E-001	8.017033E-003
3.200000E+008	8.391005E-002	-1.598748E-002	3.085260E-001	-3.897551E-002	3.088173E-001	-3.893790E-002	-1.038783E-001	8.286940E-003
3.300000E+008	8.370243E-002	-1.639312E-002	3.083085E-001	-4.014040E-002	3.085847E-001	-4.016890E-002	-1.037967E-001	8.520495E-003
3.400000E+008	8.343880E-002	-1.682697E-002	3.080526E-001	-4.130203E-002	3.082279E-001	-4.137915E-002	-1.036781E-001	8.708263E-003
3.500000E+008	8.314816E-002	-1.727333E-002	3.077942E-001	-4.248435E-002	3.079047E-001	-4.244698E-002	-1.035664E-001	8.844836E-003
3.600000E+008	8.289509E-002	-1.770037E-002	3.075499E-001	-4.364066E-002	3.076467E-001	-4.350997E-002	-1.034258E-001	9.012387E-003
3.700000E+008	8.263348E-002	-1.814837E-002	3.072343E-001	-4.472305E-002	3.074376E-001	-4.455469E-002	-1.032515E-001	9.155535E-003
3.800000E+008	8.238938E-002	-1.863247E-002	3.069867E-001	-4.586627E-002	3.072709E-001	-4.574125E-002	-1.030841E-001	9.336147E-003
3.900000E+008	8.212047E-002	-1.913585E-002	3.066913E-001	-4.702317E-002	3.070297E-001	-4.692752E-002	-1.028376E-001	9.549951E-003
4.000000E+008	8.191286E-002	-1.964046E-002	3.063796E-001	-4.809255E-002	3.067381E-001	-4.809863E-002	-1.025512E-001	9.740589E-003
4.100000E+008	8.165400E-002	-2.015282E-002	3.061162E-001	-4.912865E-002	3.064369E-001	-4.920596E-002	-1.023148E-001	9.968275E-003
4.200000E+008	8.139386E-002	-2.063332E-002	3.059093E-001	-5.027288E-002	3.061824E-001	-5.030446E-002	-1.021154E-001	1.023438E-002
4.300000E+008	8.118854E-002	-2.106760E-002	3.056571E-001	-5.140691E-002	3.058933E-001	-5.144071E-002	-1.019445E-001	1.051801E-002
4.400000E+008	8.097054E-002	-2.147507E-002	3.053879E-001	-5.254761E-002	3.056300E-001	-5.254924E-002	-1.017877E-001	1.086608E-002
4.500000E+008	8.078505E-002	-2.192833E-002	3.050952E-001	-5.368588E-002	3.053473E-001	-5.368960E-002	-1.016232E-001	1.122698E-002
4.600000E+008	8.056869E-002	-2.234699E-002	3.047960E-001	-5.484502E-002	3.050495E-001	-5.483078E-002	-1.014805E-001	1.160483E-002
4.700000E+008	8.033075E-002	-2.273391E-002	3.044888E-001	-5.592013E-002	3.047208E-001	-5.593420E-002	-1.013533E-001	1.192516E-002
4.800000E+008	8.004495E-002	-2.309148E-002	3.041856E-001	-5.698394E-002	3.044050E-001	-5.699600E-002	-1.012601E-001	1.223289E-002
4.900000E+008	7.976337E-002	-2.347173E-002	3.038909E-001	-5.810233E-002	3.040839E-001	-5.810393E-002	-1.011753E-001	1.252973E-002
5.000000E+008	7.949492E-002	-2.384265E-002	3.035864E-001	-5.918912E-002	3.037988E-001	-5.918068E-002	-1.010571E-001	1.283571E-002
5.100000E+008	7.924309E-002	-2.423607E-002	3.032896E-001	-6.027864E-002	3.035330E-001	-6.026837E-002	-1.009113E-001	1.310084E-002
5.200000E+008	7.897451E-002	-2.465826E-002	3.029872E-001	-6.139835E-002	3.032463E-001	-6.140254E-002	-1.007761E-001	1.336996E-002
5.300000E+008	7.867231E-002	-2.507919E-002	3.026688E-001	-6.250271E-002	3.029431E-001	-6.252704E-002	-1.005432E-001	1.363176E-002
5.400000E+008	7.836090E-002	-2.554973E-002	3.023242E-001	-6.359425E-002	3.025916E-001	-6.363193E-002	-1.003310E-001	1.389263E-002
5.500000E+008	7.806139E-002	-2.595363E-002	3.020128E-001	-6.469339E-002	3.022450E-001	-6.472117E-002	-1.001826E-001	1.420449E-002
5.600000E+008	7.777179E-002	-2.638899E-002	3.016563E-001	-6.574639E-002	3.018925E-001	-6.579340E-002	-9.998829E-002	1.449282E-002
5.700000E+008	7.751976E-002	-2.680054E-002	3.013196E-001	-6.681832E-002	3.015731E-001	-6.684672E-002	-9.989351E-002	1.486944E-002
5.800000E+008	7.725682E-002	-2.718692E-002	3.009912E-001	-6.790300E-002	3.012665E-001	-6.792593E-002	-9.976771E-002	1.522783E-002
5.900000E+008	7.699173E-002	-2.763363E-002	3.006584E-001	-6.900965E-002	3.009082E-001	-6.904233E-002	-9.965745E-002	1.560710E-002
6.000000E+008	7.677632E-002	-2.806296E-002	3.003194E-001	-7.007451E-002	3.005656E-001	-7.013789E-002	-9.951943E-002	1.593163E-002
6.100000E+008	7.656304E-002	-2.846306E-002	2.999536E-001	-7.114408E-002	3.001551E-001	-7.120173E-002	-9.942314E-002	1.625868E-002
6.200000E+008	7.636649E-002	-2.881984E-002	2.996003E-001	-7.218472E-002	2.998205E-001	-7.223976E-002	-9.929834E-002	1.657840E-002
6.300000E+008	7.618760E-002	-2.919629E-002	2.992227E-001	-7.324567E-002	2.994597E-001	-7.329454E-002	-9.917066E-002	1.688981E-002
6.400000E+008	7.599118E-002	-2.952890E-002	2.988786E-001	-7.429024E-002	2.991150E-001	-7.435355E-002	-9.901936E-002	1.720905E-002
6.500000E+008	7.578949E-002	-2.986049E-002	2.985245E-001	-7.533244E-002	2.987543E-001	-7.540049E-002	-9.888635E-002	1.757642E-002
6.600000E+008	7.555707E-002	-3.020502E-002	2.981887E-001	-7.639389E-002	2.983891E-001	-7.647559E-002	-9.872388E-002	1.792570E-002
6.700000E+008	7.527045E-002	-3.048512E-002	2.978076E-001	-7.747624E-002	2.980374E-001	-7.753428E-002	-9.861529E-002	1.828350E-002
6.800000E+008	7.497494E-002	-3.077827E-002	2.974435E-001	-7.850823E-002	2.976516E-001	-7.858186E-002	-9.849256E-002	1.867382E-002
6.900000E+008	7.464629E-002	-3.106430E-002	2.970613E-001	-7.956033E-002	2.972574E-001	-7.960433E-002	-9.839597E-002	1.907907E-002
7.000000E+008	7.435667E-002	-3.135964E-002	2.966730E-001	-8.058804E-002	2.968977E-001	-8.062230E-002	-9.832532E-002	1.944349E-002
7.100000E+008	7.408301E-002	-3.170582E-002	2.963057E-001	-8.161752E-002	2.965352E-001	-8.169516E-002	-9.827173E-002	1.980001E-002
7.200000E+008	7.376812E-002	-3.203533E-002	2.959347E-001	-8.265847E-002	2.961670E-001	-8.272519E-002	-9.820976E-002	2.012127E-002
7.300000E+008	7.345359E-002	-3.238835E-002	2.955162E-001	-8.367915E-002	2.958069E-001	-8.378449E-002	-9.813926E-002	2.042509E-002
7.400000E+008	7.313626E-002	-3.269448E-002	2.951331E-001	-8.474613E-002	2.954113E-001	-8.478761E-002	-9.809362E-002	2.072121E-002
7.500000E+008	7.286554E-002	-3.304316E-002	2.947611E-001	-8.575570E-002	2.950136E-001	-8.586277E-002	-9.803436E-002	2.100094E-002
7.600000E+008	7.256364E-002	-3.337980E-002	2.943424E-001	-8.679007E-002	2.946114E-001	-8.687934E-002	-9.793660E-002	2.126457E-002
7.700000E+008	7.225365E-002	-3.375084E-002	2.939647E-001	-8.780270E-002	2.942160E-001	-8.788884E-002	-9.782888E-002	2.151956E-002
7.800000E+008	7.195210E-002	-3.408007E-002	2.935767E-001	-8.883085E-002	2.938455E-001	-8.891884E-002	-9.774260E-002	2.177010E-002
7.900000E+008	7.165974E-002	-3.446642E-002	2.932038E-001	-8.985933E-002	2.934527E-001	-8.997238E-002	-9.767324E-002	2.205101E-002
8.000000E+008	7.135427E-002	-3.483011E-002	2.927618E-001	-9.087895E-002	2.929991E-001	-9.097000E-002	-9.751176E-002	2.238186E-002
8.100000E+008	7.109128E-002	-3.520378E-002	2.923595E-001	-9.188146E-002	2.925736E-001	-9.200546E-002	-9.733164E-002	2.269511E-002
8.200000E+008	7.083404E-002	-3.552527E-002	2.919550E-001	-9.291512E-002	2.921696E-001	-9.299526E-002	-9.718550E-002	2.301192E-002
8.300000E+008	7.063190E-002	-3.588755E-002	2.915219E-001	-9.391634E-002	2.917769E-001	-9.401249E-002	-9.706053E-002	2.334844E-002
8.400000E+008	7.040164E-002	-3.619798E-002	2.911052E-001	-9.491368E-002	2.913420E-001	-9.501530E-002	-9.691919E-002	2.364535E-002
8.500000E+008	7.020133E-002	-3.648818E-002	2.907130E-001	-9.593491E-002	2.909516E-001	-9.605193E-002	-9.683201E-002	2.397162E-002
8.600000E+008	6.994347E-002	-3.678841E-002	2.902883E-001	-9.692483E-002	2.904941E-001	-9.704341E-002	-9.674721E-002	2.431829E-002
8.700000E+008	6.969598E-002	-3.704724E-002	2.898577E-001	-9.792076E-002	2.900777E-001	-9.803862E-002	-9.665874E-002	2.462449E-002
8.800000E+008	6.942935E-002	-3.728561E-002	2.894329E-001	-9.895413E-002	2.896740E-001	-9.903361E-002	-9.657875E-002	2.492768E-002
8.900000E+008	6.915230E-002	-3.754559E-002	2.889887E-001	-9.992904E-002	2.892518E-001	-1.000637E-001	-9.647407E-002	2.522347E-002
9.000000E+008	6.883307E-002	-3.780897E-002	2.885400E-001	-1.009340E-001	2.888141E-001	-1.010526E-001	-9.635889E-002	2.550873E-002
9.100000E+008	6.851336E-002	-3.807410E-002	2.881059E-001	-1.019489E-001	2.883886E-001	-1.020553E-001	-9.619620E-002	2.579126E-002
9.200000E+008	6.819998E-002	-3.836109E-002	2.876787E-001	-1.029239E-001	2.879409E-001	-1.030545E-001	-9.600888E-002	2.607845E-002
9.300000E+008	6.791033E-002	-3.864961E-002	2.872156E-001	-1.038985E-001	2.874753E-001	-1.040435E-001	-9.581024E-002	2.638948E-002
9.400000E+008	6.762801E-002	-3.893396E-002	2.867965E-001	-1.048907E-001	2.870590E-001	-1.050257E-001	-9.557396E-002	2.671947E-002
9.500000E+008	6.735215E-002	-3.924458E-002	2.863647E-001	-1.058863E-001	2.865814E-001	-1.060347E-001	-9.534724E-002	2.709065E-002
9.600000E+008	6.708112E-002	-3.950152E-002	2.858921E-001	-1.068774E-001	2.861432E-001	-1.070102E-001	-9.509005E-002	2.745980E-002
9.700000E+008	6.686355E-002	-3.975922E-002	2.854262E-001	-1.078346E-001	2.856954E-001	-1.079865E-001	-9.485713E-002	2.783628E-002
9.800000E+008	6.663258E-002	-3.998773E-002	2.850160E-001	-1.088068E-001	2.852477E-001	-1.089696E-001	-9.465804E-002	2.824595E-002
9.900000E+008	6.640852E-002	-4.022175E-002	2.845581E-001	-1.098076E-001	2.847950E-001	-1.099624E-001	-9.446502E-002	2.863234E-002
1.000000E+009	6.615541E-002	-4.043106E-002	2.841074E-001	-1.107631E-001	2.843324E-001	-1.109475E-001	-9.432272E-002	2.902800E-002
1.010000E+009	6.585464E-002	-4.063012E-002	2.836477E-001	-1.117650E-001	2.838679E-001	-1.118981E-001	-9.417725E-002	2.945281E-002
1.020000E+009	6.557675E-002	-4.080205E-002	2.831782E-001	-1.127521E-001	2.833879E-001	-1.128723E-001	-9.407107E-002	2.988643E-002
1.030000E+009	6.527587E-002	-4.099305E-002	2.826854E-001	-1.137064E-001	2.829411E-001	-1.138443E-001	-9.391996E-002	3.028200E-002
1.040000E+009	6.499241E-002	-4.117896E-002	2.822092E-001	-1.146570E-001	2.824582E-001	-1.148012E-001	-9.379989E-002	3.067645E-002
1.050000E+009	6.468812E-002	-4.143551E-002	2.817600E-001	-1.156260E-001	2.819774E-001	-1.157543E-001	-9.364622E-002	3.107059E-002
1.060000E+009	6.439985E-002	-4.165655E-002	2.812698E-001	-1.165759E-001	2.814950E-001	-1.167102E-001	-9.347807E-002	3.146242E-002
1.070000E+009	6.407760E-002	-4.186862E-002	2.807752E-001	-1.175165E-001	2.810313E-001	-1.176496E-001	-9.329553E-002	3.181911E-002
1.080000E+009	6.380898E-002	-4.209872E-002	2.803188E-001	-1.185278E-001	2.805937E-001	-1.186573E-001	-9.310163E-002	3.223269E-002
1.090000E+009	6.352687E-002	-4.231303E-002	2.798281E-001	-1.194885E-001	2.801089E-001	-1.196008E-001	-9.297038E-002	3.260982E-002
1.100000E+009	6.327724E-002	-4.253914E-002	2.793093E-001	-1.204439E-001	2.796093E-001	-1.205345E-001	-9.279942E-002	3.302440E-002
1.110000E+009	6.301559E-002	-4.273168E-002	2.788396E-001	-1.213940E-001	2.791121E-001	-1.215201E-001	-9.263821E-002	3.340606E-002
1.120000E+009	6.270962E-002	-4.293126E-002	2.783504E-001	-1.223432E-001	2.786043E-001	-1.224943E-001	-9.252417E-002	3.378528E-002
1.130000E+009	6.241800E-002	-4.312799E-002	2.778560E-001	-1.232971E-001	2.781167E-001	-1.234419E-001	-9.240889E-002	3.417040E-002
1.140000E+009	6.208858E-002	-4.331488E-002	2.773495E-001	-1.242742E-001	2.776132E-001	-1.243854E-001	-9.229122E-002	3.458664E-002
1.150000E+009	6.180365E-002	-4.351131E-002	2.768299E-001	-1.251878E-001	2.770926E-001	-1.253194E-001	-9.212429E-002	3.495881E-002
1.160000E+009	6.149637E-002	-4.370578E-002	2.763491E-001	-1.261482E-001	2.765938E-001	-1.262878E-001	-9.198120E-002	3.533653E-002
1.170000E+009	6.120157E-002	-4.391756E-002	2.758130E-001	-1.271054E-001	2.760731E-001	-1.271972E-001	-9.180837E-002	3.574527E-002
1.180000E+009	6.091422E-002	-4.414090E-002	2.752869E-001	-1.280491E-001	2.755811E-001	-1.281725E-001	-9.161706E-002	3.612177E-002
1.190000E+009	6.059045E-002	-4.433723E-002	2.747754E-001	-1.289933E-001	2.749877E-001	-1.291140E-001	-9.143820E-002	3.655255E-002
1.200000E+009	6.029573E-002	-4.454569E-002	2.742605E-001	-1.299353E-001	2.744956E-001	-1.300367E-001	-9.123516E-002	3.696272E-002
1.210000E+009	6.004763E-002	-4.476742E-002	2.737185E-001	-1.308562E-001	2.739701E-001	-1.309930E-001	-9.107459E-002	3.739178E-002
1.220000E+009	5.977692E-002	-4.500050E-002	2.732002E-001	-1.317614E-001	2.734566E-001	-1.319198E-001	-9.092169E-002	3.780816E-002
1.230000E+009	5.948083E-002	-4.519915E-002	2.726645E-001	-1.327347E-001	2.728977E-001	-1.328477E-001	-9.077605E-002	3.819392E-002
1.240000E+009	5.922879E-002	-4.542125E-002	2.721114E-001	-1.336554E-001	2.723532E-001	-1.337642E-001	-9.065717E-002	3.859882E-002
1.250000E+009	5.893774E-002	-4.564435E-002	2.715843E-001	-1.345929E-001	2.718530E-001	-1.346948E-001	-9.053232E-002	3.896973E-002
1.260000E+009	5.865564E-002	-4.583604E-002	2.710583E-001	-1.355194E-001	2.712946E-001	-1.356452E-001	-9.038057E-002	3.931466E-002
1.270000E+009	5.841227E-002	-4.603381E-002	2.704930E-001	-1.364469E-001	2.707397E-001	-1.365482E-001	-9.022067E-002	3.966023E-002
1.280000E+009	5.813463E-002	-4.620147E-002	2.699664E-001	-1.373862E-001	2.702245E-001	-1.374760E-001	-9.004241E-002	3.998520E-002
1.290000E+009	5.786599E-002	-4.637367E-002	2.694174E-001	-1.383126E-001	2.696633E-001	-1.384144E-001	-8.980878E-002	4.029167E-002
1.300000E+009	5.764659E-002	-4.652075E-002	2.688318E-001	-1.391974E-001	2.691213E-001	-1.393336E-001	-8.955889E-002	4.065844E-002
1.310000E+009	5.736549E-002	-4.668487E-002	2.682776E-001	-1.401460E-001	2.685635E-001	-1.402626E-001	-8.929653E-002	4.102396E-002
1.320000E+009	5.706136E-002	-4.681355E-002	2.677274E-001	-1.410641E-001	2.680091E-001	-1.411869E-001	-8.900662E-002	4.146549E-002
1.330000E+009	5.681343E-002	-4.691587E-002	2.671753E-001	-1.419538E-001	2.674137E-001	-1.421169E-001	-8.865921E-002	4.193450E-002
1.340000E+009	5.652164E-002	-4.703609E-002	2.665893E-001	-1.428529E-001	2.668298E-001	-1.430159E-001	-8.837742E-002	4.243834E-002
1.350000E+009	5.619932E-002	-4.716485E-002	2.660190E-001	-1.437915E-001	2.662356E-001	-1.439188E-001	-8.810520E-002	4.295181E-002
1.360000E+009	5.595717E-002	-4.727140E-002	2.654283E-001	-1.446669E-001	2.657091E-001	-1.448446E-001	-8.781487E-002	4.351747E-002
1.370000E+009	5.568469E-002	-4.739440E-002	2.648703E-001	-1.455962E-001	2.650946E-001	-1.457304E-001	-8.761900E-002	4.407424E-002
1.380000E+009	5.538305E-002	-4.753042E-002	2.642523E-001	-1.464720E-001	2.645280E-001	-1.466453E-001	-8.740005E-002	4.460065E-002
1.390000E+009	5.508778E-002	-4.765949E-002	2.636643E-001	-1.473890E-001	2.639470E-001	-1.475465E-001	-8.722271E-002	4.516224E-002
1.400000E+009	5.478713E-002	-4.783648E-002	2.630627E-001	-1.482748E-001	2.633345E-001	-1.483893E-001	-8.704861E-002	4.565669E-002
1.410000E+009	5.448282E-002	-4.795201E-002	2.625066E-001	-1.491469E-001	2.627225E-001	-1.493102E-001	-8.688817E-002	4.620453E-002
1.420000E+009	5.418927E-002	-4.804506E-002	2.618599E-001	-1.500426E-001	2.621443E-001	-1.501819E-001	-8.671139E-002	4.667881E-002
1.430000E+009	5.392787E-002	-4.816782E-002	2.612763E-001	-1.509179E-001	2.615458E-001	-1.510869E-001	-8.650730E-002	4.713356E-002
1.440000E+009	5.363197E-002	-4.831299E-002	2.606711E-001	-1.517971E-001	2.609454E-001	-1.519476E-001	-8.632057E-002	4.760562E-002
1.450000E+009	5.332563E-002	-4.841518E-002	2.600415E-001	-1.526801E-001	2.603330E-001	-1.528403E-001	-8.608230E-002	4.809809E-002
1.460000E+009	5.301131E-002	-4.849988E-002	2.594576E-001	-1.535712E-001	2.596906E-001	-1.537158E-001	-8.587068E-002	4.857449E-002
1.470000E+009	5.271021E-002	-4.863379E-002	2.588331E-001	-1.544419E-001	2.590781E-001	-1.546034E-001	-8.562363E-002	4.910369E-002
1.480000E+009	5.239349E-002	-4.871379E-002	2.582065E-001	-1.552976E-001	2.584433E-001	-1.554671E-001	-8.540609E-002	4.966097E-002
1.490000E+009	5.210559E-002	-4.882509E-002	2.575844E-001	-1.561818E-001	2.578333E-001	-1.563136E-001	-8.514065E-002	5.022929E-002
1.500000E+009	5.179773E-002	-4.895238E-002	2.569628E-001	-1.570349E-001	2.572050E-001	-1.571632E-001	-8.488427E-002	5.077545E-002
