! Device ID: PE43711P
! File Path: z:\PE43711P\CHAR_NOM_04282014\AMB\3p300\LS_ATT_18p75dB\PE43711P_AMB_3p300V_3p000V_0p000V_LS_ATT_18p75dB_S2P_SN_5_A0137A.s2p
! Serial: 5
! Lot: A0137A
! Temp: 25C
! VDD: 3.300
! VSS: 0.000
! Control_Hi: 3.000
! Control_Lo: 0.000
! Attenuation Step: 18.75dB
! Port 1: RF1
! Port 2: RF2
! ThroughPath:1-2
! IDD: 0.0001274084
! ISS: -9.96e-008
!

#  Hz  S   RI  R   50

1.000000E+007	5.320175E-002	1.665454E-004	1.005615E-001	-4.802263E-004	1.006577E-001	-4.910422E-004	-1.125228E-001	9.287106E-004
2.000000E+007	5.340873E-002	1.580376E-004	1.005423E-001	-6.999757E-004	1.006047E-001	-7.237685E-004	-1.122142E-001	1.489292E-003
3.000000E+007	5.366641E-002	6.872714E-005	1.005423E-001	-1.046885E-003	1.006015E-001	-1.077461E-003	-1.118958E-001	1.966679E-003
4.000000E+007	5.381317E-002	-3.578605E-005	1.005526E-001	-1.430302E-003	1.006080E-001	-1.430848E-003	-1.117216E-001	2.528238E-003
5.000000E+007	5.392421E-002	-1.687223E-004	1.005219E-001	-1.810097E-003	1.006165E-001	-1.801212E-003	-1.116847E-001	3.084938E-003
6.000000E+007	5.406900E-002	-3.500854E-004	1.005053E-001	-2.163485E-003	1.005968E-001	-2.155390E-003	-1.115412E-001	3.527707E-003
7.000000E+007	5.419206E-002	-5.455088E-004	1.004843E-001	-2.499048E-003	1.005618E-001	-2.495871E-003	-1.113760E-001	3.956728E-003
8.000000E+007	5.431062E-002	-7.235002E-004	1.004625E-001	-2.832681E-003	1.005517E-001	-2.847284E-003	-1.112232E-001	4.384735E-003
9.000000E+007	5.440594E-002	-8.949706E-004	1.004632E-001	-3.192100E-003	1.005352E-001	-3.190012E-003	-1.110974E-001	4.759631E-003
1.000000E+008	5.452125E-002	-1.076771E-003	1.004456E-001	-3.538039E-003	1.005181E-001	-3.542736E-003	-1.110385E-001	5.143994E-003
1.100000E+008	5.462670E-002	-1.267021E-003	1.004154E-001	-3.909823E-003	1.004913E-001	-3.885323E-003	-1.109462E-001	5.506575E-003
1.200000E+008	5.474163E-002	-1.510523E-003	1.003646E-001	-4.254884E-003	1.004555E-001	-4.250150E-003	-1.108459E-001	5.829673E-003
1.300000E+008	5.482126E-002	-1.696241E-003	1.003379E-001	-4.585169E-003	1.004319E-001	-4.594366E-003	-1.107358E-001	6.150358E-003
1.400000E+008	5.488568E-002	-1.873741E-003	1.003107E-001	-4.938619E-003	1.003961E-001	-4.961951E-003	-1.106290E-001	6.496002E-003
1.500000E+008	5.489032E-002	-2.025102E-003	1.002816E-001	-5.272475E-003	1.003480E-001	-5.291435E-003	-1.105324E-001	6.822978E-003
1.600000E+008	5.491462E-002	-2.147378E-003	1.002649E-001	-5.617648E-003	1.003210E-001	-5.595658E-003	-1.104711E-001	7.130099E-003
1.700000E+008	5.496459E-002	-2.321132E-003	1.002401E-001	-5.983414E-003	1.003303E-001	-5.955009E-003	-1.104176E-001	7.465390E-003
1.800000E+008	5.496800E-002	-2.497957E-003	1.001642E-001	-6.351204E-003	1.002865E-001	-6.333935E-003	-1.103168E-001	7.782039E-003
1.900000E+008	5.491055E-002	-2.731457E-003	1.001026E-001	-6.677409E-003	1.002277E-001	-6.686126E-003	-1.102694E-001	8.031080E-003
2.000000E+008	5.483639E-002	-2.933531E-003	1.000693E-001	-7.010603E-003	1.001773E-001	-7.010651E-003	-1.102129E-001	8.280004E-003
2.100000E+008	5.476934E-002	-3.200575E-003	1.000416E-001	-7.341993E-003	1.001210E-001	-7.336899E-003	-1.101311E-001	8.482921E-003
2.200000E+008	5.471856E-002	-3.445131E-003	9.999782E-002	-7.667465E-003	1.000830E-001	-7.672205E-003	-1.100155E-001	8.674036E-003
2.300000E+008	5.468875E-002	-3.680994E-003	9.995776E-002	-8.005187E-003	1.000297E-001	-8.003006E-003	-1.098841E-001	8.885658E-003
2.400000E+008	5.466937E-002	-3.962465E-003	9.991854E-002	-8.352145E-003	9.998550E-002	-8.339238E-003	-1.097376E-001	9.120167E-003
2.500000E+008	5.465024E-002	-4.189046E-003	9.986562E-002	-8.702072E-003	9.994721E-002	-8.675734E-003	-1.095408E-001	9.361895E-003
2.600000E+008	5.468525E-002	-4.424896E-003	9.979644E-002	-9.042955E-003	9.988712E-002	-9.025915E-003	-1.093493E-001	9.641868E-003
2.700000E+008	5.469972E-002	-4.658281E-003	9.973554E-002	-9.366546E-003	9.984100E-002	-9.362915E-003	-1.091111E-001	9.971752E-003
2.800000E+008	5.473307E-002	-4.852243E-003	9.967558E-002	-9.675068E-003	9.977688E-002	-9.684831E-003	-1.089039E-001	1.027274E-002
2.900000E+008	5.471731E-002	-5.031118E-003	9.964578E-002	-1.002054E-002	9.971832E-002	-1.000479E-002	-1.087584E-001	1.059198E-002
3.000000E+008	5.471357E-002	-5.167061E-003	9.960830E-002	-1.035533E-002	9.967243E-002	-1.034364E-002	-1.086221E-001	1.097251E-002
3.100000E+008	5.466750E-002	-5.313422E-003	9.955176E-002	-1.070010E-002	9.962778E-002	-1.067762E-002	-1.084983E-001	1.133021E-002
3.200000E+008	5.462067E-002	-5.424448E-003	9.948919E-002	-1.103651E-002	9.956930E-002	-1.101051E-002	-1.084085E-001	1.170082E-002
3.300000E+008	5.453210E-002	-5.556315E-003	9.944188E-002	-1.136848E-002	9.951059E-002	-1.137739E-002	-1.083190E-001	1.201477E-002
3.400000E+008	5.440986E-002	-5.702279E-003	9.935462E-002	-1.170000E-002	9.941436E-002	-1.172262E-002	-1.081967E-001	1.230831E-002
3.500000E+008	5.426253E-002	-5.884007E-003	9.930469E-002	-1.204190E-002	9.932352E-002	-1.203173E-002	-1.080600E-001	1.255680E-002
3.600000E+008	5.414604E-002	-6.036909E-003	9.924477E-002	-1.236571E-002	9.926525E-002	-1.233995E-002	-1.078953E-001	1.283174E-002
3.700000E+008	5.402901E-002	-6.226363E-003	9.914889E-002	-1.267866E-002	9.920716E-002	-1.262206E-002	-1.077174E-001	1.308024E-002
3.800000E+008	5.391746E-002	-6.429487E-003	9.909272E-002	-1.300418E-002	9.916906E-002	-1.296073E-002	-1.075239E-001	1.333461E-002
3.900000E+008	5.381121E-002	-6.660017E-003	9.898722E-002	-1.333937E-002	9.910066E-002	-1.330768E-002	-1.072403E-001	1.367449E-002
4.000000E+008	5.373021E-002	-6.904912E-003	9.893442E-002	-1.363715E-002	9.903220E-002	-1.364374E-002	-1.069452E-001	1.398188E-002
4.100000E+008	5.363238E-002	-7.132108E-003	9.885872E-002	-1.394869E-002	9.895275E-002	-1.396376E-002	-1.066638E-001	1.431275E-002
4.200000E+008	5.354542E-002	-7.362965E-003	9.880642E-002	-1.425977E-002	9.887788E-002	-1.427079E-002	-1.064415E-001	1.470065E-002
4.300000E+008	5.349206E-002	-7.537471E-003	9.874227E-002	-1.458835E-002	9.880654E-002	-1.459875E-002	-1.062405E-001	1.510152E-002
4.400000E+008	5.343181E-002	-7.710475E-003	9.866433E-002	-1.492117E-002	9.875290E-002	-1.492535E-002	-1.060598E-001	1.555069E-002
4.500000E+008	5.337486E-002	-7.897868E-003	9.859619E-002	-1.524415E-002	9.868338E-002	-1.525557E-002	-1.058569E-001	1.601876E-002
4.600000E+008	5.331627E-002	-8.069868E-003	9.850801E-002	-1.556772E-002	9.859284E-002	-1.557871E-002	-1.056807E-001	1.647799E-002
4.700000E+008	5.323765E-002	-8.227800E-003	9.844806E-002	-1.588458E-002	9.851683E-002	-1.589890E-002	-1.055147E-001	1.686112E-002
4.800000E+008	5.312520E-002	-8.358137E-003	9.837754E-002	-1.618816E-002	9.843129E-002	-1.619750E-002	-1.053810E-001	1.727631E-002
4.900000E+008	5.300003E-002	-8.487294E-003	9.829603E-002	-1.651176E-002	9.836011E-002	-1.652251E-002	-1.052513E-001	1.767549E-002
5.000000E+008	5.290250E-002	-8.633567E-003	9.821371E-002	-1.682623E-002	9.828175E-002	-1.682994E-002	-1.050919E-001	1.807269E-002
5.100000E+008	5.278834E-002	-8.773900E-003	9.813940E-002	-1.713885E-002	9.821963E-002	-1.713545E-002	-1.049045E-001	1.843174E-002
5.200000E+008	5.268081E-002	-8.948203E-003	9.806472E-002	-1.746970E-002	9.814326E-002	-1.746356E-002	-1.047435E-001	1.881348E-002
5.300000E+008	5.253724E-002	-9.141043E-003	9.799214E-002	-1.777277E-002	9.805500E-002	-1.779147E-002	-1.045093E-001	1.918639E-002
5.400000E+008	5.239967E-002	-9.358167E-003	9.787258E-002	-1.809449E-002	9.797860E-002	-1.810595E-002	-1.042849E-001	1.954973E-002
5.500000E+008	5.228078E-002	-9.535804E-003	9.780293E-002	-1.841796E-002	9.787762E-002	-1.841384E-002	-1.040710E-001	1.996585E-002
5.600000E+008	5.214910E-002	-9.762190E-003	9.771139E-002	-1.872154E-002	9.778652E-002	-1.873441E-002	-1.038556E-001	2.038979E-002
5.700000E+008	5.206186E-002	-9.976051E-003	9.762971E-002	-1.902846E-002	9.769919E-002	-1.902752E-002	-1.036910E-001	2.084315E-002
5.800000E+008	5.195670E-002	-1.018385E-002	9.754644E-002	-1.933890E-002	9.761775E-002	-1.934488E-002	-1.035138E-001	2.128569E-002
5.900000E+008	5.187465E-002	-1.041019E-002	9.746504E-002	-1.965886E-002	9.754830E-002	-1.965609E-002	-1.033479E-001	2.178495E-002
6.000000E+008	5.184753E-002	-1.062994E-002	9.735371E-002	-1.998555E-002	9.744345E-002	-1.998371E-002	-1.031504E-001	2.220894E-002
6.100000E+008	5.179018E-002	-1.082544E-002	9.728486E-002	-2.027034E-002	9.734274E-002	-2.029311E-002	-1.030077E-001	2.263410E-002
6.200000E+008	5.175087E-002	-1.096441E-002	9.717009E-002	-2.057891E-002	9.726007E-002	-2.059213E-002	-1.028070E-001	2.306718E-002
6.300000E+008	5.174124E-002	-1.110144E-002	9.706856E-002	-2.088440E-002	9.715680E-002	-2.088562E-002	-1.026506E-001	2.347796E-002
6.400000E+008	5.171678E-002	-1.124752E-002	9.698729E-002	-2.118561E-002	9.706095E-002	-2.120195E-002	-1.024511E-001	2.391224E-002
6.500000E+008	5.167715E-002	-1.135604E-002	9.689613E-002	-2.148618E-002	9.696440E-002	-2.150013E-002	-1.022794E-001	2.433885E-002
6.600000E+008	5.160997E-002	-1.148671E-002	9.680774E-002	-2.179420E-002	9.687338E-002	-2.182148E-002	-1.020789E-001	2.478361E-002
6.700000E+008	5.150763E-002	-1.159688E-002	9.671015E-002	-2.210679E-002	9.677146E-002	-2.212596E-002	-1.019222E-001	2.524597E-002
6.800000E+008	5.138214E-002	-1.170273E-002	9.661737E-002	-2.239392E-002	9.668985E-002	-2.244021E-002	-1.017371E-001	2.572487E-002
6.900000E+008	5.127503E-002	-1.177742E-002	9.652404E-002	-2.272379E-002	9.656499E-002	-2.271570E-002	-1.015546E-001	2.620377E-002
7.000000E+008	5.116846E-002	-1.189498E-002	9.641783E-002	-2.301302E-002	9.648716E-002	-2.301688E-002	-1.014310E-001	2.666623E-002
7.100000E+008	5.104908E-002	-1.203038E-002	9.631552E-002	-2.330025E-002	9.638814E-002	-2.332008E-002	-1.013037E-001	2.713299E-002
7.200000E+008	5.091848E-002	-1.216856E-002	9.621785E-002	-2.359858E-002	9.629753E-002	-2.361472E-002	-1.011797E-001	2.756991E-002
7.300000E+008	5.080126E-002	-1.231201E-002	9.612455E-002	-2.391877E-002	9.619681E-002	-2.393534E-002	-1.010666E-001	2.796611E-002
7.400000E+008	5.066235E-002	-1.245239E-002	9.601028E-002	-2.421419E-002	9.610301E-002	-2.422958E-002	-1.009673E-001	2.837708E-002
7.500000E+008	5.055667E-002	-1.259933E-002	9.591196E-002	-2.450431E-002	9.599524E-002	-2.452386E-002	-1.008575E-001	2.875335E-002
7.600000E+008	5.043983E-002	-1.278232E-002	9.580816E-002	-2.480110E-002	9.591179E-002	-2.482178E-002	-1.007207E-001	2.911950E-002
7.700000E+008	5.031695E-002	-1.293614E-002	9.570668E-002	-2.510678E-002	9.580356E-002	-2.512162E-002	-1.005531E-001	2.947492E-002
7.800000E+008	5.020469E-002	-1.310373E-002	9.560570E-002	-2.540091E-002	9.570966E-002	-2.541449E-002	-1.003677E-001	2.982523E-002
7.900000E+008	5.010835E-002	-1.329745E-002	9.550689E-002	-2.570349E-002	9.560742E-002	-2.573094E-002	-1.002128E-001	3.021045E-002
8.000000E+008	5.002514E-002	-1.347826E-002	9.539605E-002	-2.600162E-002	9.547636E-002	-2.601722E-002	-1.000060E-001	3.061955E-002
8.100000E+008	4.994906E-002	-1.368219E-002	9.528961E-002	-2.629291E-002	9.535040E-002	-2.631949E-002	-9.974217E-002	3.103569E-002
8.200000E+008	4.989787E-002	-1.383333E-002	9.517229E-002	-2.659176E-002	9.526301E-002	-2.660558E-002	-9.951108E-002	3.143533E-002
8.300000E+008	4.984391E-002	-1.400152E-002	9.507999E-002	-2.687191E-002	9.516370E-002	-2.690702E-002	-9.932355E-002	3.186684E-002
8.400000E+008	4.981907E-002	-1.416219E-002	9.496713E-002	-2.716440E-002	9.503423E-002	-2.719443E-002	-9.910659E-002	3.225512E-002
8.500000E+008	4.979566E-002	-1.428772E-002	9.486775E-002	-2.745917E-002	9.494060E-002	-2.749570E-002	-9.896454E-002	3.268182E-002
8.600000E+008	4.973417E-002	-1.440308E-002	9.475698E-002	-2.775669E-002	9.482982E-002	-2.777956E-002	-9.880572E-002	3.310122E-002
8.700000E+008	4.967150E-002	-1.447388E-002	9.464687E-002	-2.805164E-002	9.471964E-002	-2.807036E-002	-9.863565E-002	3.350040E-002
8.800000E+008	4.959984E-002	-1.455224E-002	9.453396E-002	-2.834056E-002	9.459805E-002	-2.836802E-002	-9.846938E-002	3.390107E-002
8.900000E+008	4.951415E-002	-1.466425E-002	9.440557E-002	-2.862684E-002	9.450078E-002	-2.866169E-002	-9.830631E-002	3.426570E-002
9.000000E+008	4.941650E-002	-1.475314E-002	9.427953E-002	-2.892749E-002	9.439907E-002	-2.895229E-002	-9.811143E-002	3.464955E-002
9.100000E+008	4.929244E-002	-1.486040E-002	9.416767E-002	-2.921712E-002	9.428051E-002	-2.926118E-002	-9.789349E-002	3.499738E-002
9.200000E+008	4.916448E-002	-1.502270E-002	9.409011E-002	-2.949738E-002	9.415773E-002	-2.953966E-002	-9.761620E-002	3.539002E-002
9.300000E+008	4.908435E-002	-1.515199E-002	9.397346E-002	-2.977617E-002	9.401803E-002	-2.982803E-002	-9.737232E-002	3.578743E-002
9.400000E+008	4.900681E-002	-1.528810E-002	9.383778E-002	-3.008466E-002	9.392519E-002	-3.012310E-002	-9.703167E-002	3.620266E-002
9.500000E+008	4.893289E-002	-1.544049E-002	9.372449E-002	-3.036326E-002	9.380977E-002	-3.041421E-002	-9.671491E-002	3.665930E-002
9.600000E+008	4.887802E-002	-1.555565E-002	9.360126E-002	-3.065376E-002	9.368574E-002	-3.067301E-002	-9.640410E-002	3.710224E-002
9.700000E+008	4.882122E-002	-1.567843E-002	9.348274E-002	-3.093268E-002	9.358051E-002	-3.097812E-002	-9.609333E-002	3.757936E-002
9.800000E+008	4.879929E-002	-1.574983E-002	9.337258E-002	-3.119816E-002	9.345193E-002	-3.126210E-002	-9.582018E-002	3.806087E-002
9.900000E+008	4.874204E-002	-1.585841E-002	9.327294E-002	-3.151074E-002	9.335135E-002	-3.155883E-002	-9.553714E-002	3.855803E-002
1.000000E+009	4.867873E-002	-1.592242E-002	9.314155E-002	-3.178400E-002	9.322101E-002	-3.184091E-002	-9.532279E-002	3.902687E-002
1.010000E+009	4.859973E-002	-1.596985E-002	9.303202E-002	-3.208654E-002	9.309974E-002	-3.210862E-002	-9.508888E-002	3.951037E-002
1.020000E+009	4.852619E-002	-1.604221E-002	9.292800E-002	-3.236350E-002	9.298612E-002	-3.240667E-002	-9.491022E-002	3.999995E-002
1.030000E+009	4.842812E-002	-1.608051E-002	9.277407E-002	-3.265016E-002	9.286438E-002	-3.267666E-002	-9.468632E-002	4.047121E-002
1.040000E+009	4.833174E-002	-1.616482E-002	9.266103E-002	-3.293043E-002	9.273404E-002	-3.297297E-002	-9.447894E-002	4.093664E-002
1.050000E+009	4.825006E-002	-1.626673E-002	9.253570E-002	-3.321095E-002	9.260967E-002	-3.323823E-002	-9.422191E-002	4.142444E-002
1.060000E+009	4.815379E-002	-1.633251E-002	9.241525E-002	-3.349527E-002	9.248136E-002	-3.352946E-002	-9.396769E-002	4.187502E-002
1.070000E+009	4.802721E-002	-1.642672E-002	9.229462E-002	-3.378654E-002	9.236523E-002	-3.379923E-002	-9.371766E-002	4.234668E-002
1.080000E+009	4.796543E-002	-1.651695E-002	9.217045E-002	-3.406947E-002	9.225129E-002	-3.408617E-002	-9.342466E-002	4.282174E-002
1.090000E+009	4.787055E-002	-1.661541E-002	9.203479E-002	-3.434652E-002	9.212490E-002	-3.438161E-002	-9.318865E-002	4.329012E-002
1.100000E+009	4.779694E-002	-1.668489E-002	9.190795E-002	-3.463273E-002	9.199923E-002	-3.465631E-002	-9.294494E-002	4.376526E-002
1.110000E+009	4.768757E-002	-1.678213E-002	9.177491E-002	-3.489758E-002	9.186405E-002	-3.493423E-002	-9.272307E-002	4.424017E-002
1.120000E+009	4.758635E-002	-1.686542E-002	9.165707E-002	-3.518899E-002	9.174633E-002	-3.522896E-002	-9.253398E-002	4.468751E-002
1.130000E+009	4.751648E-002	-1.694967E-002	9.152565E-002	-3.547602E-002	9.160555E-002	-3.550423E-002	-9.231813E-002	4.513124E-002
1.140000E+009	4.739460E-002	-1.702658E-002	9.139952E-002	-3.577584E-002	9.147480E-002	-3.579021E-002	-9.210325E-002	4.561801E-002
1.150000E+009	4.731144E-002	-1.710745E-002	9.125601E-002	-3.604903E-002	9.133919E-002	-3.607434E-002	-9.185272E-002	4.604617E-002
1.160000E+009	4.718305E-002	-1.717211E-002	9.113541E-002	-3.631694E-002	9.121543E-002	-3.637005E-002	-9.160128E-002	4.648463E-002
1.170000E+009	4.710022E-002	-1.726383E-002	9.099538E-002	-3.659707E-002	9.106975E-002	-3.662439E-002	-9.135820E-002	4.696595E-002
1.180000E+009	4.700995E-002	-1.734922E-002	9.084630E-002	-3.689015E-002	9.095270E-002	-3.690118E-002	-9.104559E-002	4.744220E-002
1.190000E+009	4.686979E-002	-1.742560E-002	9.071896E-002	-3.717087E-002	9.078819E-002	-3.718554E-002	-9.077765E-002	4.792676E-002
1.200000E+009	4.678489E-002	-1.751449E-002	9.057998E-002	-3.743780E-002	9.066337E-002	-3.745411E-002	-9.049108E-002	4.842741E-002
1.210000E+009	4.672316E-002	-1.763872E-002	9.044453E-002	-3.771252E-002	9.052952E-002	-3.773554E-002	-9.021743E-002	4.890998E-002
1.220000E+009	4.661929E-002	-1.776070E-002	9.028878E-002	-3.798803E-002	9.039302E-002	-3.802781E-002	-8.999505E-002	4.939860E-002
1.230000E+009	4.653408E-002	-1.786388E-002	9.016687E-002	-3.826669E-002	9.024565E-002	-3.830162E-002	-8.977019E-002	4.985672E-002
1.240000E+009	4.647473E-002	-1.797804E-002	9.002720E-002	-3.854982E-002	9.009947E-002	-3.857872E-002	-8.956189E-002	5.029813E-002
1.250000E+009	4.639669E-002	-1.809902E-002	8.988857E-002	-3.881968E-002	8.996262E-002	-3.884197E-002	-8.933042E-002	5.075477E-002
1.260000E+009	4.631675E-002	-1.820227E-002	8.975076E-002	-3.908809E-002	8.980636E-002	-3.911361E-002	-8.907535E-002	5.114195E-002
1.270000E+009	4.633032E-002	-1.828924E-002	8.958954E-002	-3.937705E-002	8.968228E-002	-3.939372E-002	-8.880979E-002	5.154170E-002
1.280000E+009	4.624136E-002	-1.836485E-002	8.944267E-002	-3.964712E-002	8.954712E-002	-3.965228E-002	-8.850667E-002	5.192386E-002
1.290000E+009	4.619386E-002	-1.842789E-002	8.931602E-002	-3.993522E-002	8.939185E-002	-3.995096E-002	-8.818954E-002	5.230160E-002
1.300000E+009	4.616228E-002	-1.847014E-002	8.915421E-002	-4.019942E-002	8.925865E-002	-4.023301E-002	-8.783835E-002	5.274346E-002
1.310000E+009	4.609307E-002	-1.854060E-002	8.902015E-002	-4.048104E-002	8.909928E-002	-4.050032E-002	-8.748419E-002	5.317443E-002
1.320000E+009	4.601344E-002	-1.858868E-002	8.885056E-002	-4.074313E-002	8.896672E-002	-4.078437E-002	-8.708337E-002	5.366473E-002
1.330000E+009	4.593430E-002	-1.860484E-002	8.871409E-002	-4.101140E-002	8.882343E-002	-4.104990E-002	-8.665858E-002	5.419798E-002
1.340000E+009	4.584588E-002	-1.863752E-002	8.856067E-002	-4.128598E-002	8.866112E-002	-4.130700E-002	-8.627020E-002	5.474622E-002
1.350000E+009	4.574102E-002	-1.870765E-002	8.840949E-002	-4.156523E-002	8.848466E-002	-4.157832E-002	-8.590666E-002	5.530458E-002
1.360000E+009	4.567070E-002	-1.875243E-002	8.824358E-002	-4.180775E-002	8.835955E-002	-4.186703E-002	-8.553767E-002	5.591148E-002
1.370000E+009	4.559891E-002	-1.878297E-002	8.809997E-002	-4.210064E-002	8.818305E-002	-4.212371E-002	-8.523641E-002	5.651355E-002
1.380000E+009	4.550604E-002	-1.886792E-002	8.794177E-002	-4.237192E-002	8.802918E-002	-4.240817E-002	-8.492370E-002	5.707706E-002
1.390000E+009	4.544663E-002	-1.889983E-002	8.779676E-002	-4.264564E-002	8.787455E-002	-4.266201E-002	-8.463427E-002	5.771236E-002
1.400000E+009	4.535411E-002	-1.895715E-002	8.763182E-002	-4.290061E-002	8.772906E-002	-4.293778E-002	-8.434082E-002	5.824425E-002
1.410000E+009	4.524685E-002	-1.899438E-002	8.746324E-002	-4.316987E-002	8.754325E-002	-4.319910E-002	-8.406308E-002	5.883724E-002
1.420000E+009	4.514689E-002	-1.902781E-002	8.731149E-002	-4.342274E-002	8.739401E-002	-4.347482E-002	-8.380061E-002	5.935388E-002
1.430000E+009	4.509106E-002	-1.907012E-002	8.714819E-002	-4.369004E-002	8.723566E-002	-4.373522E-002	-8.349435E-002	5.984917E-002
1.440000E+009	4.496352E-002	-1.912081E-002	8.698360E-002	-4.396278E-002	8.706923E-002	-4.399099E-002	-8.321361E-002	6.036486E-002
1.450000E+009	4.485205E-002	-1.915582E-002	8.682261E-002	-4.423776E-002	8.691155E-002	-4.425289E-002	-8.287720E-002	6.090259E-002
1.460000E+009	4.474590E-002	-1.919892E-002	8.666644E-002	-4.448143E-002	8.673323E-002	-4.452642E-002	-8.253627E-002	6.141079E-002
1.470000E+009	4.464568E-002	-1.928005E-002	8.650082E-002	-4.475429E-002	8.656872E-002	-4.478865E-002	-8.218815E-002	6.196879E-002
1.480000E+009	4.453745E-002	-1.928914E-002	8.632896E-002	-4.501568E-002	8.641114E-002	-4.502823E-002	-8.184633E-002	6.253859E-002
1.490000E+009	4.444738E-002	-1.935930E-002	8.614275E-002	-4.526470E-002	8.623979E-002	-4.529726E-002	-8.146791E-002	6.313275E-002
1.500000E+009	4.437587E-002	-1.943025E-002	8.599035E-002	-4.553300E-002	8.605786E-002	-4.555606E-002	-8.111822E-002	6.372221E-002
