! Device ID: PE43711P
! File Path: z:\PE43711P\CHAR_NOM_04282014\AMB\3p300\LS_ATT_1p75dB\PE43711P_AMB_3p300V_3p000V_0p000V_LS_ATT_1p75dB_S2P_SN_5_A0137A.s2p
! Serial: 5
! Lot: A0137A
! Temp: 25C
! VDD: 3.300
! VSS: 0.000
! Control_Hi: 3.000
! Control_Lo: 0.000
! Attenuation Step: 1.75dB
! Port 1: RF1
! Port 2: RF2
! ThroughPath:1-2
! IDD: 0.0001277888
! ISS: -1.221e-007
!

#  Hz  S   RI  R   50

1.000000E+007	1.044077E-001	-5.723424E-004	7.234628E-001	-3.824809E-003	7.237024E-001	-3.998128E-003	6.476661E-002	-4.618345E-004
2.000000E+007	1.044800E-001	-7.389448E-004	7.234724E-001	-6.302700E-003	7.234226E-001	-6.353519E-003	6.478659E-002	-4.518666E-004
3.000000E+007	1.048177E-001	-1.388151E-003	7.234309E-001	-9.473462E-003	7.234561E-001	-9.537707E-003	6.508901E-002	-7.283540E-004
4.000000E+007	1.048525E-001	-1.940293E-003	7.234576E-001	-1.263943E-002	7.233810E-001	-1.272334E-002	6.563239E-002	-1.087443E-003
5.000000E+007	1.052060E-001	-2.672422E-003	7.233815E-001	-1.608789E-002	7.233414E-001	-1.605743E-002	6.593170E-002	-1.708783E-003
6.000000E+007	1.055232E-001	-3.520223E-003	7.232393E-001	-1.927530E-002	7.232731E-001	-1.927966E-002	6.608339E-002	-2.451586E-003
7.000000E+007	1.056415E-001	-4.387768E-003	7.230677E-001	-2.247201E-002	7.230303E-001	-2.249471E-002	6.603627E-002	-3.168411E-003
8.000000E+007	1.058679E-001	-5.228362E-003	7.228750E-001	-2.557322E-002	7.229020E-001	-2.562979E-002	6.601370E-002	-3.696105E-003
9.000000E+007	1.059938E-001	-6.008377E-003	7.227116E-001	-2.874793E-002	7.226849E-001	-2.881849E-002	6.614026E-002	-4.310557E-003
1.000000E+008	1.060751E-001	-6.771766E-003	7.225733E-001	-3.194272E-002	7.224500E-001	-3.195192E-002	6.646641E-002	-4.993026E-003
1.100000E+008	1.061682E-001	-7.505996E-003	7.223253E-001	-3.516408E-002	7.222154E-001	-3.512019E-002	6.650054E-002	-5.690292E-003
1.200000E+008	1.063228E-001	-8.240738E-003	7.219291E-001	-3.831951E-002	7.219555E-001	-3.829501E-002	6.625902E-002	-6.330825E-003
1.300000E+008	1.064511E-001	-9.186180E-003	7.216901E-001	-4.146023E-002	7.216873E-001	-4.147296E-002	6.635551E-002	-7.179316E-003
1.400000E+008	1.065046E-001	-1.032426E-002	7.214631E-001	-4.465908E-002	7.213995E-001	-4.471353E-002	6.695077E-002	-8.080593E-003
1.500000E+008	1.063831E-001	-1.129652E-002	7.211229E-001	-4.774486E-002	7.209526E-001	-4.782344E-002	6.741900E-002	-8.843597E-003
1.600000E+008	1.060425E-001	-1.186908E-002	7.208218E-001	-5.081465E-002	7.205340E-001	-5.083923E-002	6.699395E-002	-9.395832E-003
1.700000E+008	1.055873E-001	-1.232796E-002	7.205218E-001	-5.411497E-002	7.203391E-001	-5.389985E-002	6.602235E-002	-1.006995E-002
1.800000E+008	1.052227E-001	-1.299777E-002	7.198082E-001	-5.736326E-002	7.198747E-001	-5.715223E-002	6.523554E-002	-1.089696E-002
1.900000E+008	1.051039E-001	-1.396968E-002	7.192669E-001	-6.035453E-002	7.194287E-001	-6.028301E-002	6.517270E-002	-1.170958E-002
2.000000E+008	1.051884E-001	-1.507464E-002	7.189514E-001	-6.341727E-002	7.190261E-001	-6.335178E-002	6.558934E-002	-1.236897E-002
2.100000E+008	1.052871E-001	-1.619165E-002	7.185847E-001	-6.646591E-002	7.185587E-001	-6.645313E-002	6.608714E-002	-1.297181E-002
2.200000E+008	1.052816E-001	-1.717406E-002	7.182141E-001	-6.940464E-002	7.181358E-001	-6.948929E-002	6.631243E-002	-1.353335E-002
2.300000E+008	1.050959E-001	-1.806095E-002	7.177150E-001	-7.246180E-002	7.176422E-001	-7.255606E-002	6.630482E-002	-1.425674E-002
2.400000E+008	1.048572E-001	-1.896584E-002	7.172090E-001	-7.556332E-002	7.170999E-001	-7.563864E-002	6.613951E-002	-1.505520E-002
2.500000E+008	1.045655E-001	-1.981983E-002	7.166571E-001	-7.865964E-002	7.165545E-001	-7.866748E-002	6.593783E-002	-1.600928E-002
2.600000E+008	1.043172E-001	-2.078740E-002	7.160778E-001	-8.178199E-002	7.160130E-001	-8.174015E-002	6.583814E-002	-1.686755E-002
2.700000E+008	1.040855E-001	-2.165189E-002	7.154493E-001	-8.479992E-002	7.154351E-001	-8.479318E-002	6.582569E-002	-1.759886E-002
2.800000E+008	1.039227E-001	-2.246291E-002	7.148443E-001	-8.774968E-002	7.148513E-001	-8.772952E-002	6.583002E-002	-1.822248E-002
2.900000E+008	1.036818E-001	-2.313476E-002	7.143039E-001	-9.066532E-002	7.141889E-001	-9.063832E-002	6.578189E-002	-1.876043E-002
3.000000E+008	1.035432E-001	-2.378887E-002	7.137935E-001	-9.364864E-002	7.137194E-001	-9.360762E-002	6.576390E-002	-1.932352E-002
3.100000E+008	1.033667E-001	-2.443736E-002	7.131685E-001	-9.662760E-002	7.131880E-001	-9.663861E-002	6.574263E-002	-1.985081E-002
3.200000E+008	1.031662E-001	-2.517028E-002	7.125352E-001	-9.966426E-002	7.126478E-001	-9.965161E-002	6.566069E-002	-2.045363E-002
3.300000E+008	1.028431E-001	-2.583983E-002	7.119520E-001	-1.026174E-001	7.120143E-001	-1.027596E-001	6.554533E-002	-2.108560E-002
3.400000E+008	1.024038E-001	-2.652874E-002	7.112527E-001	-1.056465E-001	7.111101E-001	-1.058862E-001	6.543797E-002	-2.178657E-002
3.500000E+008	1.019381E-001	-2.720040E-002	7.105884E-001	-1.086604E-001	7.102351E-001	-1.086656E-001	6.533094E-002	-2.255076E-002
3.600000E+008	1.015965E-001	-2.781530E-002	7.099024E-001	-1.116277E-001	7.095915E-001	-1.113652E-001	6.523853E-002	-2.312187E-002
3.700000E+008	1.012682E-001	-2.851945E-002	7.090719E-001	-1.144204E-001	7.089837E-001	-1.140712E-001	6.529699E-002	-2.370461E-002
3.800000E+008	1.009011E-001	-2.926071E-002	7.084072E-001	-1.172872E-001	7.084826E-001	-1.170854E-001	6.535860E-002	-2.438054E-002
3.900000E+008	1.004615E-001	-2.996181E-002	7.076229E-001	-1.202721E-001	7.078016E-001	-1.200742E-001	6.536120E-002	-2.509604E-002
4.000000E+008	1.001171E-001	-3.072076E-002	7.068143E-001	-1.230486E-001	7.070417E-001	-1.230575E-001	6.531565E-002	-2.573387E-002
4.100000E+008	9.959541E-002	-3.149074E-002	7.061213E-001	-1.257749E-001	7.062246E-001	-1.259230E-001	6.523844E-002	-2.630019E-002
4.200000E+008	9.902224E-002	-3.215995E-002	7.055036E-001	-1.286724E-001	7.054197E-001	-1.287241E-001	6.515322E-002	-2.686707E-002
4.300000E+008	9.869174E-002	-3.276031E-002	7.047517E-001	-1.315754E-001	7.046414E-001	-1.316300E-001	6.507039E-002	-2.743162E-002
4.400000E+008	9.837993E-002	-3.335434E-002	7.039678E-001	-1.344593E-001	7.039439E-001	-1.344610E-001	6.496944E-002	-2.791136E-002
4.500000E+008	9.806630E-002	-3.405805E-002	7.032204E-001	-1.373352E-001	7.032186E-001	-1.373371E-001	6.490281E-002	-2.840068E-002
4.600000E+008	9.771248E-002	-3.471527E-002	7.024145E-001	-1.402112E-001	7.023477E-001	-1.402363E-001	6.476214E-002	-2.883644E-002
4.700000E+008	9.729181E-002	-3.529097E-002	7.015846E-001	-1.430122E-001	7.015112E-001	-1.430407E-001	6.455561E-002	-2.929637E-002
4.800000E+008	9.684051E-002	-3.579252E-002	7.007783E-001	-1.457897E-001	7.007085E-001	-1.457554E-001	6.432150E-002	-2.963728E-002
4.900000E+008	9.634642E-002	-3.631069E-002	6.999354E-001	-1.485916E-001	6.997783E-001	-1.485901E-001	6.409737E-002	-3.001894E-002
5.000000E+008	9.595718E-002	-3.680554E-002	6.990875E-001	-1.514154E-001	6.990137E-001	-1.513416E-001	6.392313E-002	-3.045553E-002
5.100000E+008	9.557175E-002	-3.741243E-002	6.982864E-001	-1.542131E-001	6.982583E-001	-1.541128E-001	6.386421E-002	-3.092636E-002
5.200000E+008	9.512269E-002	-3.812060E-002	6.974171E-001	-1.570371E-001	6.974125E-001	-1.569464E-001	6.377868E-002	-3.149908E-002
5.300000E+008	9.462174E-002	-3.881075E-002	6.965722E-001	-1.598355E-001	6.965817E-001	-1.597851E-001	6.372918E-002	-3.211345E-002
5.400000E+008	9.408071E-002	-3.952314E-002	6.956228E-001	-1.626822E-001	6.956720E-001	-1.626179E-001	6.358157E-002	-3.271860E-002
5.500000E+008	9.359991E-002	-4.002531E-002	6.947804E-001	-1.654234E-001	6.946947E-001	-1.654127E-001	6.341793E-002	-3.315877E-002
5.600000E+008	9.314651E-002	-4.054976E-002	6.938320E-001	-1.681670E-001	6.937532E-001	-1.681388E-001	6.325378E-002	-3.357899E-002
5.700000E+008	9.277528E-002	-4.106363E-002	6.928789E-001	-1.708470E-001	6.929064E-001	-1.708592E-001	6.301304E-002	-3.391978E-002
5.800000E+008	9.235666E-002	-4.157782E-002	6.919839E-001	-1.735942E-001	6.919975E-001	-1.735656E-001	6.280786E-002	-3.437987E-002
5.900000E+008	9.195067E-002	-4.217487E-002	6.910208E-001	-1.763696E-001	6.911295E-001	-1.763527E-001	6.249174E-002	-3.484282E-002
6.000000E+008	9.153860E-002	-4.273441E-002	6.901004E-001	-1.790754E-001	6.901508E-001	-1.790927E-001	6.225413E-002	-3.533775E-002
6.100000E+008	9.113973E-002	-4.327806E-002	6.891503E-001	-1.817871E-001	6.891302E-001	-1.818240E-001	6.192931E-002	-3.574668E-002
6.200000E+008	9.076600E-002	-4.382237E-002	6.881748E-001	-1.844705E-001	6.882013E-001	-1.844680E-001	6.168007E-002	-3.613201E-002
6.300000E+008	9.043761E-002	-4.434655E-002	6.871573E-001	-1.871558E-001	6.871756E-001	-1.871827E-001	6.147899E-002	-3.654537E-002
6.400000E+008	9.011883E-002	-4.489413E-002	6.861951E-001	-1.898456E-001	6.862337E-001	-1.898798E-001	6.135265E-002	-3.692856E-002
6.500000E+008	8.979956E-002	-4.539415E-002	6.852237E-001	-1.925105E-001	6.852083E-001	-1.925394E-001	6.112995E-002	-3.731857E-002
6.600000E+008	8.935021E-002	-4.597232E-002	6.842886E-001	-1.952150E-001	6.842246E-001	-1.952398E-001	6.091455E-002	-3.770219E-002
6.700000E+008	8.879643E-002	-4.641583E-002	6.832794E-001	-1.979442E-001	6.832215E-001	-1.979356E-001	6.056655E-002	-3.805949E-002
6.800000E+008	8.826294E-002	-4.683018E-002	6.822420E-001	-2.005436E-001	6.822059E-001	-2.006121E-001	6.023449E-002	-3.829449E-002
6.900000E+008	8.772114E-002	-4.721780E-002	6.811416E-001	-2.032152E-001	6.811234E-001	-2.032133E-001	5.989486E-002	-3.853957E-002
7.000000E+008	8.727135E-002	-4.764689E-002	6.801340E-001	-2.058616E-001	6.801103E-001	-2.058035E-001	5.959566E-002	-3.890717E-002
7.100000E+008	8.686220E-002	-4.817259E-002	6.790962E-001	-2.084629E-001	6.790865E-001	-2.084817E-001	5.930204E-002	-3.927370E-002
7.200000E+008	8.636802E-002	-4.869947E-002	6.780556E-001	-2.110728E-001	6.780522E-001	-2.111273E-001	5.904345E-002	-3.978234E-002
7.300000E+008	8.584578E-002	-4.922841E-002	6.769508E-001	-2.137045E-001	6.770494E-001	-2.137961E-001	5.862893E-002	-4.026890E-002
7.400000E+008	8.529971E-002	-4.965614E-002	6.758772E-001	-2.163707E-001	6.759795E-001	-2.163502E-001	5.826742E-002	-4.070375E-002
7.500000E+008	8.482117E-002	-5.010078E-002	6.748030E-001	-2.189752E-001	6.749225E-001	-2.190189E-001	5.794284E-002	-4.111278E-002
7.600000E+008	8.425470E-002	-5.056945E-002	6.737100E-001	-2.216501E-001	6.738172E-001	-2.216227E-001	5.763271E-002	-4.156298E-002
7.700000E+008	8.375041E-002	-5.108462E-002	6.726189E-001	-2.242438E-001	6.727093E-001	-2.242486E-001	5.734358E-002	-4.204237E-002
7.800000E+008	8.312143E-002	-5.155786E-002	6.715195E-001	-2.268197E-001	6.716132E-001	-2.267967E-001	5.697642E-002	-4.253096E-002
7.900000E+008	8.259287E-002	-5.211325E-002	6.703829E-001	-2.293822E-001	6.705330E-001	-2.294357E-001	5.658814E-002	-4.299785E-002
8.000000E+008	8.201191E-002	-5.263345E-002	6.692373E-001	-2.319589E-001	6.693390E-001	-2.319712E-001	5.620883E-002	-4.340397E-002
8.100000E+008	8.149508E-002	-5.311931E-002	6.680917E-001	-2.344835E-001	6.681532E-001	-2.345576E-001	5.589772E-002	-4.374252E-002
8.200000E+008	8.103601E-002	-5.355354E-002	6.670001E-001	-2.371218E-001	6.670588E-001	-2.370733E-001	5.560131E-002	-4.409727E-002
8.300000E+008	8.064901E-002	-5.400141E-002	6.658042E-001	-2.396229E-001	6.659374E-001	-2.396746E-001	5.531014E-002	-4.445413E-002
8.400000E+008	8.027217E-002	-5.441598E-002	6.646374E-001	-2.421428E-001	6.647346E-001	-2.422024E-001	5.502767E-002	-4.476356E-002
8.500000E+008	7.985283E-002	-5.486762E-002	6.635408E-001	-2.446987E-001	6.636305E-001	-2.447594E-001	5.464695E-002	-4.515606E-002
8.600000E+008	7.934141E-002	-5.531122E-002	6.623197E-001	-2.472298E-001	6.623736E-001	-2.472598E-001	5.424828E-002	-4.546622E-002
8.700000E+008	7.879901E-002	-5.566180E-002	6.611991E-001	-2.497854E-001	6.611950E-001	-2.498118E-001	5.383889E-002	-4.579308E-002
8.800000E+008	7.823083E-002	-5.595391E-002	6.600182E-001	-2.523576E-001	6.600566E-001	-2.522730E-001	5.339842E-002	-4.610046E-002
8.900000E+008	7.769293E-002	-5.633941E-002	6.587693E-001	-2.548270E-001	6.588495E-001	-2.548729E-001	5.304877E-002	-4.640866E-002
9.000000E+008	7.716268E-002	-5.671010E-002	6.575112E-001	-2.573730E-001	6.576398E-001	-2.573639E-001	5.270986E-002	-4.675923E-002
9.100000E+008	7.655552E-002	-5.716404E-002	6.562889E-001	-2.598868E-001	6.563874E-001	-2.598823E-001	5.246814E-002	-4.718616E-002
9.200000E+008	7.599651E-002	-5.758976E-002	6.550719E-001	-2.623401E-001	6.552117E-001	-2.624476E-001	5.217277E-002	-4.762857E-002
9.300000E+008	7.540524E-002	-5.795877E-002	6.538656E-001	-2.648386E-001	6.539230E-001	-2.649243E-001	5.187686E-002	-4.798619E-002
9.400000E+008	7.485922E-002	-5.827854E-002	6.525860E-001	-2.672726E-001	6.527529E-001	-2.673590E-001	5.161140E-002	-4.823091E-002
9.500000E+008	7.429493E-002	-5.861733E-002	6.514195E-001	-2.697948E-001	6.514726E-001	-2.698913E-001	5.141030E-002	-4.847423E-002
9.600000E+008	7.382033E-002	-5.889374E-002	6.500969E-001	-2.722716E-001	6.502405E-001	-2.723017E-001	5.121548E-002	-4.867556E-002
9.700000E+008	7.337221E-002	-5.919245E-002	6.487972E-001	-2.746481E-001	6.489399E-001	-2.747649E-001	5.101526E-002	-4.893207E-002
9.800000E+008	7.292009E-002	-5.953988E-002	6.475910E-001	-2.770802E-001	6.476833E-001	-2.772192E-001	5.075650E-002	-4.921034E-002
9.900000E+008	7.240605E-002	-5.986693E-002	6.463152E-001	-2.795838E-001	6.464055E-001	-2.796965E-001	5.034597E-002	-4.947606E-002
1.000000E+009	7.188110E-002	-6.015290E-002	6.450656E-001	-2.820073E-001	6.451119E-001	-2.821268E-001	4.995379E-002	-4.962808E-002
1.010000E+009	7.129559E-002	-6.035852E-002	6.437632E-001	-2.844892E-001	6.438464E-001	-2.845394E-001	4.959424E-002	-4.976471E-002
1.020000E+009	7.073755E-002	-6.055556E-002	6.424543E-001	-2.869169E-001	6.424847E-001	-2.869789E-001	4.925425E-002	-4.991318E-002
1.030000E+009	7.028292E-002	-6.074626E-002	6.411052E-001	-2.893448E-001	6.411925E-001	-2.894085E-001	4.895269E-002	-5.011624E-002
1.040000E+009	6.977830E-002	-6.099878E-002	6.397978E-001	-2.916981E-001	6.399014E-001	-2.917871E-001	4.863498E-002	-5.036458E-002
1.050000E+009	6.918414E-002	-6.138872E-002	6.385262E-001	-2.941322E-001	6.386074E-001	-2.942345E-001	4.824251E-002	-5.059859E-002
1.060000E+009	6.857615E-002	-6.163472E-002	6.371880E-001	-2.965491E-001	6.372887E-001	-2.965756E-001	4.786837E-002	-5.075549E-002
1.070000E+009	6.795727E-002	-6.184612E-002	6.358064E-001	-2.989127E-001	6.359777E-001	-2.989146E-001	4.747957E-002	-5.094590E-002
1.080000E+009	6.746743E-002	-6.211146E-002	6.344831E-001	-3.013548E-001	6.347090E-001	-3.013847E-001	4.714545E-002	-5.106599E-002
1.090000E+009	6.699185E-002	-6.231698E-002	6.331261E-001	-3.037577E-001	6.333295E-001	-3.037370E-001	4.684651E-002	-5.126124E-002
1.100000E+009	6.658289E-002	-6.258872E-002	6.316971E-001	-3.061486E-001	6.319730E-001	-3.061584E-001	4.653551E-002	-5.140475E-002
1.110000E+009	6.612286E-002	-6.285230E-002	6.303797E-001	-3.085334E-001	6.306074E-001	-3.085261E-001	4.618564E-002	-5.171919E-002
1.120000E+009	6.560414E-002	-6.307474E-002	6.290357E-001	-3.108437E-001	6.292196E-001	-3.109291E-001	4.573955E-002	-5.192079E-002
1.130000E+009	6.504057E-002	-6.333914E-002	6.276028E-001	-3.132080E-001	6.278476E-001	-3.132796E-001	4.529901E-002	-5.210026E-002
1.140000E+009	6.445428E-002	-6.348538E-002	6.262637E-001	-3.156122E-001	6.264691E-001	-3.156293E-001	4.487826E-002	-5.221154E-002
1.150000E+009	6.390738E-002	-6.368113E-002	6.248260E-001	-3.179596E-001	6.250138E-001	-3.179563E-001	4.452314E-002	-5.239654E-002
1.160000E+009	6.341029E-002	-6.384762E-002	6.234392E-001	-3.203121E-001	6.236572E-001	-3.203539E-001	4.415578E-002	-5.256726E-002
1.170000E+009	6.290465E-002	-6.409610E-002	6.220172E-001	-3.226545E-001	6.222335E-001	-3.226537E-001	4.387460E-002	-5.274224E-002
1.180000E+009	6.238663E-002	-6.442749E-002	6.205033E-001	-3.249845E-001	6.208179E-001	-3.250374E-001	4.345361E-002	-5.293180E-002
1.190000E+009	6.183750E-002	-6.463241E-002	6.190524E-001	-3.273247E-001	6.192678E-001	-3.273542E-001	4.312077E-002	-5.307239E-002
1.200000E+009	6.124364E-002	-6.481067E-002	6.176314E-001	-3.296376E-001	6.178618E-001	-3.296761E-001	4.272794E-002	-5.318236E-002
1.210000E+009	6.077074E-002	-6.502082E-002	6.161631E-001	-3.319583E-001	6.163874E-001	-3.320320E-001	4.237089E-002	-5.325338E-002
1.220000E+009	6.029794E-002	-6.519706E-002	6.147397E-001	-3.342392E-001	6.149732E-001	-3.343022E-001	4.202446E-002	-5.334587E-002
1.230000E+009	5.986214E-002	-6.538784E-002	6.132338E-001	-3.365667E-001	6.134592E-001	-3.366054E-001	4.160175E-002	-5.348466E-002
1.240000E+009	5.936769E-002	-6.568185E-002	6.117643E-001	-3.388539E-001	6.119563E-001	-3.388918E-001	4.117468E-002	-5.363643E-002
1.250000E+009	5.878967E-002	-6.590089E-002	6.102281E-001	-3.411722E-001	6.105203E-001	-3.411593E-001	4.071456E-002	-5.383000E-002
1.260000E+009	5.819754E-002	-6.604793E-002	6.087042E-001	-3.434450E-001	6.089672E-001	-3.435416E-001	4.023234E-002	-5.402757E-002
1.270000E+009	5.770078E-002	-6.621663E-002	6.072292E-001	-3.456905E-001	6.074095E-001	-3.457090E-001	3.983793E-002	-5.415409E-002
1.280000E+009	5.716393E-002	-6.630502E-002	6.057344E-001	-3.479808E-001	6.059784E-001	-3.479621E-001	3.943627E-002	-5.433420E-002
1.290000E+009	5.662216E-002	-6.643068E-002	6.041451E-001	-3.502741E-001	6.044197E-001	-3.502557E-001	3.913710E-002	-5.453973E-002
1.300000E+009	5.615529E-002	-6.652591E-002	6.026018E-001	-3.524439E-001	6.029010E-001	-3.525554E-001	3.887768E-002	-5.467549E-002
1.310000E+009	5.560565E-002	-6.662521E-002	6.010166E-001	-3.547284E-001	6.013197E-001	-3.547814E-001	3.852536E-002	-5.480709E-002
1.320000E+009	5.500411E-002	-6.667741E-002	5.994553E-001	-3.569813E-001	5.998006E-001	-3.570296E-001	3.823118E-002	-5.488574E-002
1.330000E+009	5.452306E-002	-6.667492E-002	5.979105E-001	-3.591458E-001	5.982277E-001	-3.593122E-001	3.801905E-002	-5.487128E-002
1.340000E+009	5.399368E-002	-6.667402E-002	5.963379E-001	-3.613670E-001	5.966256E-001	-3.614759E-001	3.770429E-002	-5.479531E-002
1.350000E+009	5.348700E-002	-6.666654E-002	5.947373E-001	-3.636108E-001	5.949821E-001	-3.636663E-001	3.743932E-002	-5.470967E-002
1.360000E+009	5.308717E-002	-6.670530E-002	5.931466E-001	-3.657530E-001	5.934879E-001	-3.659106E-001	3.718926E-002	-5.459352E-002
1.370000E+009	5.258431E-002	-6.677524E-002	5.915998E-001	-3.680036E-001	5.918455E-001	-3.680776E-001	3.683706E-002	-5.453514E-002
1.380000E+009	5.205352E-002	-6.687195E-002	5.899292E-001	-3.701781E-001	5.902453E-001	-3.702688E-001	3.644774E-002	-5.450814E-002
1.390000E+009	5.155983E-002	-6.696655E-002	5.883301E-001	-3.723826E-001	5.886227E-001	-3.725016E-001	3.601200E-002	-5.437191E-002
1.400000E+009	5.100555E-002	-6.697811E-002	5.866937E-001	-3.745314E-001	5.869896E-001	-3.745977E-001	3.561298E-002	-5.424488E-002
1.410000E+009	5.052925E-002	-6.697137E-002	5.850847E-001	-3.766944E-001	5.853370E-001	-3.767629E-001	3.517864E-002	-5.413230E-002
1.420000E+009	5.006223E-002	-6.700559E-002	5.834059E-001	-3.788147E-001	5.837558E-001	-3.789100E-001	3.477621E-002	-5.404431E-002
1.430000E+009	4.961640E-002	-6.706594E-002	5.817885E-001	-3.809337E-001	5.820926E-001	-3.810906E-001	3.443868E-002	-5.397887E-002
1.440000E+009	4.911204E-002	-6.708073E-002	5.801219E-001	-3.830708E-001	5.804516E-001	-3.832012E-001	3.407258E-002	-5.395982E-002
1.450000E+009	4.862764E-002	-6.708200E-002	5.784320E-001	-3.852078E-001	5.787953E-001	-3.853433E-001	3.362952E-002	-5.389506E-002
1.460000E+009	4.810688E-002	-6.706383E-002	5.767875E-001	-3.873732E-001	5.770711E-001	-3.875141E-001	3.322986E-002	-5.380268E-002
1.470000E+009	4.762761E-002	-6.705449E-002	5.750880E-001	-3.894897E-001	5.754205E-001	-3.896094E-001	3.286407E-002	-5.359611E-002
1.480000E+009	4.716237E-002	-6.697697E-002	5.733782E-001	-3.915296E-001	5.736988E-001	-3.916766E-001	3.250106E-002	-5.337801E-002
1.490000E+009	4.672222E-002	-6.693066E-002	5.717102E-001	-3.935973E-001	5.720371E-001	-3.937164E-001	3.215297E-002	-5.318047E-002
1.500000E+009	4.629952E-002	-6.696234E-002	5.700344E-001	-3.956946E-001	5.703333E-001	-3.957973E-001	3.186166E-002	-5.304013E-002
