! Device ID: PE43711P
! File Path: z:\PE43711P\CHAR_NOM_04282014\AMB\3p300\LS_ATT_28p25dB\PE43711P_AMB_3p300V_3p000V_0p000V_LS_ATT_28p25dB_S2P_SN_5_A0137A.s2p
! Serial: 5
! Lot: A0137A
! Temp: 25C
! VDD: 3.300
! VSS: 0.000
! Control_Hi: 3.000
! Control_Lo: 0.000
! Attenuation Step: 28.25dB
! Port 1: RF1
! Port 2: RF2
! ThroughPath:1-2
! IDD: 0.0001276864
! ISS: -8.97e-008
!

#  Hz  S   RI  R   50

1.000000E+007	1.957207E-002	5.522213E-004	3.354590E-002	-1.079190E-004	3.358197E-002	-1.424686E-004	-1.383002E-001	9.609031E-004
2.000000E+007	1.982803E-002	7.348086E-004	3.354195E-002	-1.897586E-004	3.356084E-002	-1.804904E-004	-1.380000E-001	1.636875E-003
3.000000E+007	2.010063E-002	9.333187E-004	3.353835E-002	-2.849909E-004	3.355931E-002	-2.870311E-004	-1.376897E-001	2.192150E-003
4.000000E+007	2.026716E-002	1.122296E-003	3.354566E-002	-3.880128E-004	3.354732E-002	-3.865025E-004	-1.375266E-001	2.834836E-003
5.000000E+007	2.037652E-002	1.282343E-003	3.354032E-002	-4.797643E-004	3.355460E-002	-4.794285E-004	-1.374876E-001	3.467247E-003
6.000000E+007	2.054397E-002	1.395114E-003	3.353104E-002	-5.843077E-004	3.355837E-002	-5.785162E-004	-1.373467E-001	3.996906E-003
7.000000E+007	2.067979E-002	1.507263E-003	3.351234E-002	-6.826664E-004	3.354777E-002	-6.885688E-004	-1.371696E-001	4.504671E-003
8.000000E+007	2.083392E-002	1.615517E-003	3.352351E-002	-7.689517E-004	3.354786E-002	-7.582185E-004	-1.370246E-001	4.992120E-003
9.000000E+007	2.096259E-002	1.713284E-003	3.352056E-002	-8.544622E-004	3.353444E-002	-8.607373E-004	-1.369038E-001	5.432484E-003
1.000000E+008	2.112062E-002	1.813016E-003	3.351382E-002	-9.575688E-004	3.353022E-002	-9.507339E-004	-1.368482E-001	5.906482E-003
1.100000E+008	2.126257E-002	1.875506E-003	3.350741E-002	-1.070124E-003	3.353125E-002	-1.051583E-003	-1.367600E-001	6.336816E-003
1.200000E+008	2.142720E-002	1.936850E-003	3.349153E-002	-1.159039E-003	3.352586E-002	-1.154017E-003	-1.366555E-001	6.718618E-003
1.300000E+008	2.154884E-002	2.027011E-003	3.349137E-002	-1.237532E-003	3.351646E-002	-1.264274E-003	-1.365363E-001	7.128300E-003
1.400000E+008	2.166189E-002	2.141059E-003	3.347296E-002	-1.348000E-003	3.350391E-002	-1.347530E-003	-1.364406E-001	7.542171E-003
1.500000E+008	2.172637E-002	2.257313E-003	3.345684E-002	-1.438386E-003	3.349587E-002	-1.434365E-003	-1.363363E-001	7.933178E-003
1.600000E+008	2.182193E-002	2.398039E-003	3.346772E-002	-1.541652E-003	3.348531E-002	-1.520776E-003	-1.362699E-001	8.321497E-003
1.700000E+008	2.191717E-002	2.499045E-003	3.344491E-002	-1.629199E-003	3.350017E-002	-1.618564E-003	-1.361822E-001	8.726578E-003
1.800000E+008	2.198075E-002	2.612199E-003	3.344050E-002	-1.719694E-003	3.348440E-002	-1.729270E-003	-1.360729E-001	9.131247E-003
1.900000E+008	2.200078E-002	2.659644E-003	3.342776E-002	-1.823958E-003	3.346827E-002	-1.814311E-003	-1.360268E-001	9.476325E-003
2.000000E+008	2.199200E-002	2.710662E-003	3.341376E-002	-1.900864E-003	3.345853E-002	-1.902567E-003	-1.359846E-001	9.776146E-003
2.100000E+008	2.198919E-002	2.709244E-003	3.340382E-002	-1.993715E-003	3.344717E-002	-2.000526E-003	-1.358998E-001	1.003769E-002
2.200000E+008	2.201304E-002	2.720753E-003	3.340977E-002	-2.083659E-003	3.342595E-002	-2.082823E-003	-1.358007E-001	1.029169E-002
2.300000E+008	2.205350E-002	2.726358E-003	3.340278E-002	-2.179146E-003	3.342920E-002	-2.170552E-003	-1.356638E-001	1.057025E-002
2.400000E+008	2.212736E-002	2.722944E-003	3.337845E-002	-2.278277E-003	3.341597E-002	-2.263677E-003	-1.355079E-001	1.088978E-002
2.500000E+008	2.218428E-002	2.746001E-003	3.335774E-002	-2.367396E-003	3.339318E-002	-2.356749E-003	-1.353084E-001	1.117242E-002
2.600000E+008	2.229153E-002	2.764574E-003	3.335563E-002	-2.467547E-003	3.338509E-002	-2.437811E-003	-1.350813E-001	1.155827E-002
2.700000E+008	2.239999E-002	2.803824E-003	3.334581E-002	-2.557361E-003	3.337094E-002	-2.553037E-003	-1.348629E-001	1.196264E-002
2.800000E+008	2.253739E-002	2.856957E-003	3.332652E-002	-2.634314E-003	3.335832E-002	-2.627495E-003	-1.346524E-001	1.234125E-002
2.900000E+008	2.260019E-002	2.925686E-003	3.331465E-002	-2.728789E-003	3.333847E-002	-2.711956E-003	-1.345135E-001	1.273609E-002
3.000000E+008	2.267372E-002	3.013729E-003	3.331380E-002	-2.822957E-003	3.333141E-002	-2.805461E-003	-1.343802E-001	1.318507E-002
3.100000E+008	2.271390E-002	3.125360E-003	3.328717E-002	-2.908772E-003	3.332159E-002	-2.905100E-003	-1.342785E-001	1.361122E-002
3.200000E+008	2.275541E-002	3.260309E-003	3.328425E-002	-3.011117E-003	3.331203E-002	-2.999639E-003	-1.341851E-001	1.405072E-002
3.300000E+008	2.275127E-002	3.371257E-003	3.326269E-002	-3.095975E-003	3.330320E-002	-3.089286E-003	-1.340942E-001	1.444959E-002
3.400000E+008	2.274043E-002	3.453758E-003	3.324152E-002	-3.187333E-003	3.328036E-002	-3.197399E-003	-1.339669E-001	1.481112E-002
3.500000E+008	2.269874E-002	3.501129E-003	3.323333E-002	-3.279809E-003	3.324378E-002	-3.284151E-003	-1.338256E-001	1.513645E-002
3.600000E+008	2.268383E-002	3.553154E-003	3.322618E-002	-3.363884E-003	3.323395E-002	-3.354657E-003	-1.336634E-001	1.547910E-002
3.700000E+008	2.266742E-002	3.585527E-003	3.319738E-002	-3.454427E-003	3.321409E-002	-3.447893E-003	-1.334456E-001	1.579690E-002
3.800000E+008	2.265867E-002	3.618186E-003	3.318457E-002	-3.562213E-003	3.320231E-002	-3.537168E-003	-1.332640E-001	1.615234E-002
3.900000E+008	2.263550E-002	3.625093E-003	3.315462E-002	-3.644490E-003	3.319209E-002	-3.625053E-003	-1.329754E-001	1.656277E-002
4.000000E+008	2.267836E-002	3.612340E-003	3.312707E-002	-3.716388E-003	3.317010E-002	-3.712387E-003	-1.326614E-001	1.695744E-002
4.100000E+008	2.269455E-002	3.620873E-003	3.312181E-002	-3.810381E-003	3.316395E-002	-3.801617E-003	-1.323839E-001	1.732554E-002
4.200000E+008	2.272257E-002	3.613237E-003	3.312492E-002	-3.881414E-003	3.314857E-002	-3.884548E-003	-1.321790E-001	1.779867E-002
4.300000E+008	2.274098E-002	3.641363E-003	3.310001E-002	-3.978586E-003	3.311525E-002	-3.978906E-003	-1.319691E-001	1.828074E-002
4.400000E+008	2.279411E-002	3.688587E-003	3.307602E-002	-4.074756E-003	3.311430E-002	-4.074990E-003	-1.317891E-001	1.879832E-002
4.500000E+008	2.284112E-002	3.714797E-003	3.306270E-002	-4.156272E-003	3.309746E-002	-4.160367E-003	-1.315967E-001	1.931936E-002
4.600000E+008	2.288874E-002	3.756806E-003	3.304707E-002	-4.249239E-003	3.307553E-002	-4.243410E-003	-1.314086E-001	1.985360E-002
4.700000E+008	2.293053E-002	3.802898E-003	3.303221E-002	-4.339623E-003	3.304792E-002	-4.348137E-003	-1.312406E-001	2.032634E-002
4.800000E+008	2.293799E-002	3.880099E-003	3.300739E-002	-4.430626E-003	3.302831E-002	-4.420119E-003	-1.310896E-001	2.080649E-002
4.900000E+008	2.294607E-002	3.946159E-003	3.298911E-002	-4.515515E-003	3.301996E-002	-4.514407E-003	-1.309506E-001	2.128107E-002
5.000000E+008	2.294805E-002	4.019862E-003	3.296422E-002	-4.604614E-003	3.300338E-002	-4.592732E-003	-1.307723E-001	2.173722E-002
5.100000E+008	2.295203E-002	4.077606E-003	3.294939E-002	-4.695260E-003	3.298306E-002	-4.677312E-003	-1.306043E-001	2.219623E-002
5.200000E+008	2.292637E-002	4.122350E-003	3.293184E-002	-4.783558E-003	3.297111E-002	-4.764480E-003	-1.304592E-001	2.265473E-002
5.300000E+008	2.291676E-002	4.132639E-003	3.290699E-002	-4.861612E-003	3.294529E-002	-4.862564E-003	-1.302016E-001	2.310485E-002
5.400000E+008	2.288908E-002	4.111843E-003	3.288150E-002	-4.944510E-003	3.292092E-002	-4.935403E-003	-1.299842E-001	2.355394E-002
5.500000E+008	2.286361E-002	4.115543E-003	3.287273E-002	-5.040346E-003	3.289195E-002	-5.040979E-003	-1.297668E-001	2.403457E-002
5.600000E+008	2.286140E-002	4.091223E-003	3.284418E-002	-5.108911E-003	3.286278E-002	-5.111197E-003	-1.295558E-001	2.450771E-002
5.700000E+008	2.287144E-002	4.058466E-003	3.283085E-002	-5.203291E-003	3.284520E-002	-5.202674E-003	-1.293706E-001	2.503483E-002
5.800000E+008	2.290133E-002	4.045962E-003	3.280821E-002	-5.280105E-003	3.284426E-002	-5.282284E-003	-1.291812E-001	2.556576E-002
5.900000E+008	2.293940E-002	4.006372E-003	3.279483E-002	-5.379375E-003	3.281496E-002	-5.371285E-003	-1.290070E-001	2.613038E-002
6.000000E+008	2.303602E-002	3.983024E-003	3.275178E-002	-5.475427E-003	3.277858E-002	-5.451853E-003	-1.287892E-001	2.664063E-002
6.100000E+008	2.311587E-002	3.983385E-003	3.275355E-002	-5.543007E-003	3.274972E-002	-5.550437E-003	-1.286174E-001	2.717025E-002
6.200000E+008	2.319693E-002	4.019253E-003	3.271305E-002	-5.627750E-003	3.273568E-002	-5.635448E-003	-1.284375E-001	2.766576E-002
6.300000E+008	2.329690E-002	4.057153E-003	3.269651E-002	-5.716516E-003	3.271597E-002	-5.716736E-003	-1.282648E-001	2.817066E-002
6.400000E+008	2.338840E-002	4.130387E-003	3.266525E-002	-5.800653E-003	3.270454E-002	-5.793782E-003	-1.280784E-001	2.866303E-002
6.500000E+008	2.346123E-002	4.174241E-003	3.264600E-002	-5.872407E-003	3.266996E-002	-5.880225E-003	-1.279009E-001	2.919596E-002
6.600000E+008	2.351448E-002	4.241608E-003	3.262657E-002	-5.971110E-003	3.264712E-002	-5.966144E-003	-1.277098E-001	2.968346E-002
6.700000E+008	2.351367E-002	4.315944E-003	3.259746E-002	-6.054123E-003	3.262630E-002	-6.053494E-003	-1.275263E-001	3.022368E-002
6.800000E+008	2.353367E-002	4.384757E-003	3.258506E-002	-6.141374E-003	3.260217E-002	-6.121444E-003	-1.273330E-001	3.076486E-002
6.900000E+008	2.353857E-002	4.455536E-003	3.255700E-002	-6.220286E-003	3.258080E-002	-6.216122E-003	-1.271539E-001	3.130965E-002
7.000000E+008	2.356395E-002	4.526676E-003	3.253300E-002	-6.296443E-003	3.256048E-002	-6.287518E-003	-1.270001E-001	3.185846E-002
7.100000E+008	2.357008E-002	4.567395E-003	3.250625E-002	-6.390194E-003	3.253735E-002	-6.382595E-003	-1.268648E-001	3.236941E-002
7.200000E+008	2.355827E-002	4.613814E-003	3.248010E-002	-6.460157E-003	3.250978E-002	-6.467930E-003	-1.267218E-001	3.291276E-002
7.300000E+008	2.357393E-002	4.634910E-003	3.246688E-002	-6.554857E-003	3.249149E-002	-6.545445E-003	-1.265986E-001	3.340116E-002
7.400000E+008	2.355608E-002	4.658436E-003	3.244518E-002	-6.627517E-003	3.245955E-002	-6.630388E-003	-1.265176E-001	3.388943E-002
7.500000E+008	2.355388E-002	4.697587E-003	3.240145E-002	-6.709634E-003	3.244460E-002	-6.710910E-003	-1.263675E-001	3.434690E-002
7.600000E+008	2.357210E-002	4.694915E-003	3.238487E-002	-6.795612E-003	3.241436E-002	-6.806042E-003	-1.262345E-001	3.479695E-002
7.700000E+008	2.356430E-002	4.694307E-003	3.235748E-002	-6.878963E-003	3.239075E-002	-6.880110E-003	-1.260735E-001	3.520635E-002
7.800000E+008	2.358246E-002	4.702328E-003	3.233685E-002	-6.950144E-003	3.236787E-002	-6.964329E-003	-1.259013E-001	3.563620E-002
7.900000E+008	2.359585E-002	4.654654E-003	3.232103E-002	-7.045593E-003	3.235008E-002	-7.038526E-003	-1.257167E-001	3.608777E-002
8.000000E+008	2.364779E-002	4.633374E-003	3.227985E-002	-7.134439E-003	3.231720E-002	-7.146563E-003	-1.254807E-001	3.656233E-002
8.100000E+008	2.369410E-002	4.593334E-003	3.226797E-002	-7.218564E-003	3.228584E-002	-7.224965E-003	-1.252160E-001	3.706387E-002
8.200000E+008	2.379335E-002	4.609221E-003	3.223951E-002	-7.292194E-003	3.227228E-002	-7.304099E-003	-1.249563E-001	3.753466E-002
8.300000E+008	2.387485E-002	4.609300E-003	3.220440E-002	-7.386406E-003	3.223185E-002	-7.375116E-003	-1.247425E-001	3.803575E-002
8.400000E+008	2.395624E-002	4.611631E-003	3.217684E-002	-7.449593E-003	3.221556E-002	-7.439656E-003	-1.245281E-001	3.852506E-002
8.500000E+008	2.405582E-002	4.657206E-003	3.216480E-002	-7.528297E-003	3.217837E-002	-7.533476E-003	-1.243752E-001	3.903994E-002
8.600000E+008	2.412480E-002	4.709670E-003	3.213328E-002	-7.606783E-003	3.215410E-002	-7.610021E-003	-1.241922E-001	3.954183E-002
8.700000E+008	2.419059E-002	4.784479E-003	3.210518E-002	-7.698396E-003	3.212307E-002	-7.695584E-003	-1.240318E-001	4.001814E-002
8.800000E+008	2.424915E-002	4.857616E-003	3.208258E-002	-7.773999E-003	3.210486E-002	-7.767345E-003	-1.238662E-001	4.048302E-002
8.900000E+008	2.427972E-002	4.914214E-003	3.205041E-002	-7.853423E-003	3.208412E-002	-7.858133E-003	-1.237013E-001	4.091524E-002
9.000000E+008	2.432073E-002	4.965872E-003	3.201543E-002	-7.944796E-003	3.204887E-002	-7.930064E-003	-1.234934E-001	4.136838E-002
9.100000E+008	2.432841E-002	5.010002E-003	3.199888E-002	-8.010490E-003	3.200842E-002	-8.015085E-003	-1.232569E-001	4.178926E-002
9.200000E+008	2.433128E-002	5.006360E-003	3.197143E-002	-8.097545E-003	3.198729E-002	-8.083906E-003	-1.229873E-001	4.223655E-002
9.300000E+008	2.438742E-002	5.026290E-003	3.195017E-002	-8.169408E-003	3.196295E-002	-8.172378E-003	-1.226577E-001	4.271490E-002
9.400000E+008	2.443869E-002	5.032397E-003	3.191881E-002	-8.259876E-003	3.194562E-002	-8.256680E-003	-1.223381E-001	4.322252E-002
9.500000E+008	2.452326E-002	5.026592E-003	3.188601E-002	-8.328211E-003	3.190974E-002	-8.348265E-003	-1.219845E-001	4.376555E-002
9.600000E+008	2.456269E-002	5.069345E-003	3.185824E-002	-8.408780E-003	3.188823E-002	-8.425181E-003	-1.216451E-001	4.428575E-002
9.700000E+008	2.466444E-002	5.105583E-003	3.180895E-002	-8.491333E-003	3.185990E-002	-8.505243E-003	-1.213370E-001	4.484363E-002
9.800000E+008	2.473698E-002	5.167639E-003	3.179896E-002	-8.571437E-003	3.184275E-002	-8.575516E-003	-1.210605E-001	4.543620E-002
9.900000E+008	2.482964E-002	5.228371E-003	3.178812E-002	-8.645102E-003	3.180156E-002	-8.660143E-003	-1.207802E-001	4.598587E-002
1.000000E+009	2.486981E-002	5.308803E-003	3.174429E-002	-8.732986E-003	3.178456E-002	-8.746691E-003	-1.205807E-001	4.650788E-002
1.010000E+009	2.492553E-002	5.387947E-003	3.173208E-002	-8.806348E-003	3.174342E-002	-8.818325E-003	-1.203204E-001	4.708651E-002
1.020000E+009	2.496740E-002	5.460049E-003	3.168510E-002	-8.892498E-003	3.172106E-002	-8.909817E-003	-1.201102E-001	4.763000E-002
1.030000E+009	2.501255E-002	5.531031E-003	3.166147E-002	-8.967052E-003	3.169623E-002	-8.985741E-003	-1.198705E-001	4.817130E-002
1.040000E+009	2.504271E-002	5.578212E-003	3.162984E-002	-9.042773E-003	3.166505E-002	-9.055170E-003	-1.196548E-001	4.870305E-002
1.050000E+009	2.508757E-002	5.646495E-003	3.161355E-002	-9.134824E-003	3.163817E-002	-9.132906E-003	-1.193734E-001	4.927137E-002
1.060000E+009	2.513561E-002	5.706413E-003	3.157321E-002	-9.216685E-003	3.160716E-002	-9.201875E-003	-1.190867E-001	4.982154E-002
1.070000E+009	2.516441E-002	5.753242E-003	3.155208E-002	-9.278205E-003	3.157557E-002	-9.292358E-003	-1.188093E-001	5.037849E-002
1.080000E+009	2.519838E-002	5.815980E-003	3.153000E-002	-9.376975E-003	3.155808E-002	-9.369202E-003	-1.185225E-001	5.094534E-002
1.090000E+009	2.522616E-002	5.865277E-003	3.149036E-002	-9.440433E-003	3.151547E-002	-9.439149E-003	-1.182540E-001	5.148728E-002
1.100000E+009	2.528088E-002	5.916870E-003	3.145350E-002	-9.522853E-003	3.148273E-002	-9.525645E-003	-1.180307E-001	5.204946E-002
1.110000E+009	2.532627E-002	5.981678E-003	3.143341E-002	-9.604218E-003	3.146213E-002	-9.611012E-003	-1.177756E-001	5.257666E-002
1.120000E+009	2.533389E-002	6.013619E-003	3.141334E-002	-9.667247E-003	3.144008E-002	-9.679920E-003	-1.175876E-001	5.311811E-002
1.130000E+009	2.539096E-002	6.084348E-003	3.137750E-002	-9.785019E-003	3.138265E-002	-9.764033E-003	-1.173443E-001	5.363419E-002
1.140000E+009	2.539539E-002	6.125637E-003	3.134575E-002	-9.836804E-003	3.137437E-002	-9.848672E-003	-1.171201E-001	5.414419E-002
1.150000E+009	2.546979E-002	6.162356E-003	3.130503E-002	-9.909498E-003	3.133673E-002	-9.933795E-003	-1.168235E-001	5.467365E-002
1.160000E+009	2.548902E-002	6.221471E-003	3.127521E-002	-1.000116E-002	3.131770E-002	-1.001120E-002	-1.165514E-001	5.519459E-002
1.170000E+009	2.552794E-002	6.279477E-003	3.125070E-002	-1.006697E-002	3.128031E-002	-1.008470E-002	-1.162588E-001	5.576647E-002
1.180000E+009	2.557129E-002	6.321957E-003	3.120959E-002	-1.016145E-002	3.124578E-002	-1.016871E-002	-1.159456E-001	5.631606E-002
1.190000E+009	2.556312E-002	6.378721E-003	3.119150E-002	-1.023938E-002	3.120437E-002	-1.023938E-002	-1.156681E-001	5.688816E-002
1.200000E+009	2.561315E-002	6.422555E-003	3.116375E-002	-1.030661E-002	3.116375E-002	-1.031644E-002	-1.153452E-001	5.746100E-002
1.210000E+009	2.566102E-002	6.450651E-003	3.111386E-002	-1.038532E-002	3.113670E-002	-1.040037E-002	-1.150946E-001	5.806009E-002
1.220000E+009	2.571191E-002	6.452803E-003	3.108188E-002	-1.044065E-002	3.111075E-002	-1.046751E-002	-1.148590E-001	5.859084E-002
1.230000E+009	2.573563E-002	6.472748E-003	3.105247E-002	-1.053896E-002	3.107131E-002	-1.055793E-002	-1.145987E-001	5.910421E-002
1.240000E+009	2.581146E-002	6.511606E-003	3.101831E-002	-1.061208E-002	3.104093E-002	-1.062212E-002	-1.143847E-001	5.963174E-002
1.250000E+009	2.586637E-002	6.489792E-003	3.098659E-002	-1.070712E-002	3.101166E-002	-1.070397E-002	-1.141333E-001	6.016560E-002
1.260000E+009	2.594286E-002	6.514327E-003	3.095406E-002	-1.076832E-002	3.097377E-002	-1.078100E-002	-1.138229E-001	6.062961E-002
1.270000E+009	2.609240E-002	6.542825E-003	3.092502E-002	-1.086992E-002	3.094744E-002	-1.084316E-002	-1.135378E-001	6.109233E-002
1.280000E+009	2.614246E-002	6.591518E-003	3.089860E-002	-1.094596E-002	3.091286E-002	-1.094469E-002	-1.132374E-001	6.155644E-002
1.290000E+009	2.623469E-002	6.674997E-003	3.084309E-002	-1.101143E-002	3.089679E-002	-1.101401E-002	-1.128750E-001	6.203923E-002
1.300000E+009	2.633154E-002	6.748054E-003	3.081117E-002	-1.108262E-002	3.085177E-002	-1.109644E-002	-1.124967E-001	6.254949E-002
1.310000E+009	2.641139E-002	6.807586E-003	3.077946E-002	-1.117969E-002	3.081316E-002	-1.117532E-002	-1.121354E-001	6.304931E-002
1.320000E+009	2.646278E-002	6.893729E-003	3.074963E-002	-1.125344E-002	3.077602E-002	-1.125719E-002	-1.117158E-001	6.363927E-002
1.330000E+009	2.651987E-002	6.995167E-003	3.071787E-002	-1.132737E-002	3.074360E-002	-1.135874E-002	-1.112769E-001	6.423196E-002
1.340000E+009	2.656904E-002	7.081442E-003	3.067487E-002	-1.139978E-002	3.070807E-002	-1.140010E-002	-1.108760E-001	6.486237E-002
1.350000E+009	2.658844E-002	7.147235E-003	3.063650E-002	-1.148933E-002	3.066085E-002	-1.148644E-002	-1.104912E-001	6.548820E-002
1.360000E+009	2.668196E-002	7.216934E-003	3.060349E-002	-1.156721E-002	3.063607E-002	-1.154855E-002	-1.100895E-001	6.615650E-002
1.370000E+009	2.672112E-002	7.298492E-003	3.056847E-002	-1.165530E-002	3.059191E-002	-1.164296E-002	-1.097504E-001	6.682531E-002
1.380000E+009	2.679129E-002	7.351236E-003	3.052210E-002	-1.170289E-002	3.056820E-002	-1.171451E-002	-1.093918E-001	6.747902E-002
1.390000E+009	2.687345E-002	7.418938E-003	3.048251E-002	-1.179346E-002	3.052244E-002	-1.180640E-002	-1.090815E-001	6.818170E-002
1.400000E+009	2.691812E-002	7.454787E-003	3.044616E-002	-1.187456E-002	3.047450E-002	-1.188151E-002	-1.087733E-001	6.880485E-002
1.410000E+009	2.697671E-002	7.555893E-003	3.043038E-002	-1.193534E-002	3.044408E-002	-1.195997E-002	-1.084795E-001	6.947177E-002
1.420000E+009	2.700236E-002	7.631633E-003	3.037525E-002	-1.201789E-002	3.039569E-002	-1.203352E-002	-1.081635E-001	7.008142E-002
1.430000E+009	2.707012E-002	7.728292E-003	3.033026E-002	-1.208680E-002	3.036316E-002	-1.210753E-002	-1.078501E-001	7.066004E-002
1.440000E+009	2.710398E-002	7.801744E-003	3.029551E-002	-1.217964E-002	3.034673E-002	-1.217102E-002	-1.075514E-001	7.124816E-002
1.450000E+009	2.712986E-002	7.864550E-003	3.025786E-002	-1.225170E-002	3.028022E-002	-1.224710E-002	-1.071669E-001	7.184957E-002
1.460000E+009	2.714381E-002	7.937098E-003	3.021158E-002	-1.233318E-002	3.024977E-002	-1.233368E-002	-1.068399E-001	7.243097E-002
1.470000E+009	2.719935E-002	7.948804E-003	3.016439E-002	-1.240621E-002	3.021779E-002	-1.240770E-002	-1.064511E-001	7.304625E-002
1.480000E+009	2.722298E-002	8.045058E-003	3.012938E-002	-1.248641E-002	3.016839E-002	-1.248703E-002	-1.060672E-001	7.369435E-002
1.490000E+009	2.728165E-002	8.090932E-003	3.009114E-002	-1.254324E-002	3.012515E-002	-1.255754E-002	-1.056681E-001	7.435747E-002
1.500000E+009	2.735766E-002	8.134932E-003	3.005597E-002	-1.262332E-002	3.008584E-002	-1.261975E-002	-1.052647E-001	7.504131E-002
1.510000E+009	2.742282E-002	8.201839E-003	3.001069E-002	-1.270492E-002	3.004507E-002	-1.270760E-002	-1.048883E-001	7.568566E-002
