! Device ID: PE43711P
! File Path: z:\PE43711P\CHAR_NOM_04282014\AMB\3p300\LS_ATT_19p25dB\PE43711P_AMB_3p300V_3p000V_0p000V_LS_ATT_19p25dB_S2P_SN_5_A0137A.s2p
! Serial: 5
! Lot: A0137A
! Temp: 25C
! VDD: 3.300
! VSS: 0.000
! Control_Hi: 3.000
! Control_Lo: 0.000
! Attenuation Step: 19.25dB
! Port 1: RF1
! Port 2: RF2
! ThroughPath:1-2
! IDD: 0.000127584
! ISS: -9.96e-008
!

#  Hz  S   RI  R   50

1.000000E+007	5.320525E-002	1.822259E-004	9.479986E-002	-4.305700E-004	9.492144E-002	-4.642667E-004	-1.009497E-001	8.453498E-004
2.000000E+007	5.343655E-002	1.498940E-004	9.478101E-002	-6.703988E-004	9.482894E-002	-6.824597E-004	-1.006246E-001	1.385186E-003
3.000000E+007	5.366692E-002	5.990533E-005	9.476699E-002	-9.915241E-004	9.482472E-002	-1.014099E-003	-1.003184E-001	1.848140E-003
4.000000E+007	5.383955E-002	-5.169919E-005	9.477287E-002	-1.346113E-003	9.482639E-002	-1.356652E-003	-1.001594E-001	2.362784E-003
5.000000E+007	5.394093E-002	-1.802576E-004	9.476152E-002	-1.708805E-003	9.482979E-002	-1.698165E-003	-1.001151E-001	2.857874E-003
6.000000E+007	5.409606E-002	-3.446890E-004	9.473038E-002	-2.055273E-003	9.482165E-002	-2.034353E-003	-9.997300E-002	3.266988E-003
7.000000E+007	5.420433E-002	-5.356732E-004	9.471426E-002	-2.370268E-003	9.478882E-002	-2.377304E-003	-9.979408E-002	3.657935E-003
8.000000E+007	5.434114E-002	-7.287096E-004	9.470136E-002	-2.677561E-003	9.478293E-002	-2.684738E-003	-9.963110E-002	4.054361E-003
9.000000E+007	5.444115E-002	-9.033814E-004	9.468994E-002	-3.017610E-003	9.476794E-002	-3.018324E-003	-9.951606E-002	4.368741E-003
1.000000E+008	5.453535E-002	-1.075107E-003	9.468053E-002	-3.358021E-003	9.474292E-002	-3.352353E-003	-9.945629E-002	4.729036E-003
1.100000E+008	5.463859E-002	-1.272621E-003	9.465298E-002	-3.699468E-003	9.473674E-002	-3.696284E-003	-9.935899E-002	5.047253E-003
1.200000E+008	5.475530E-002	-1.504540E-003	9.460097E-002	-4.022516E-003	9.468955E-002	-4.030140E-003	-9.927031E-002	5.327391E-003
1.300000E+008	5.483781E-002	-1.716900E-003	9.458668E-002	-4.354413E-003	9.466949E-002	-4.365693E-003	-9.915718E-002	5.612305E-003
1.400000E+008	5.489756E-002	-1.866703E-003	9.455637E-002	-4.686251E-003	9.463009E-002	-4.681279E-003	-9.904172E-002	5.896617E-003
1.500000E+008	5.490515E-002	-2.027837E-003	9.453209E-002	-4.999930E-003	9.460060E-002	-5.014316E-003	-9.895283E-002	6.161069E-003
1.600000E+008	5.492789E-002	-2.159505E-003	9.450807E-002	-5.319860E-003	9.455219E-002	-5.321218E-003	-9.889585E-002	6.466029E-003
1.700000E+008	5.498819E-002	-2.331368E-003	9.449644E-002	-5.674818E-003	9.457164E-002	-5.649169E-003	-9.883083E-002	6.740400E-003
1.800000E+008	5.496949E-002	-2.508302E-003	9.441962E-002	-6.018374E-003	9.453474E-002	-6.008550E-003	-9.873549E-002	7.008704E-003
1.900000E+008	5.493354E-002	-2.719145E-003	9.436416E-002	-6.347068E-003	9.447270E-002	-6.349433E-003	-9.868000E-002	7.234970E-003
2.000000E+008	5.485073E-002	-2.932964E-003	9.432481E-002	-6.656037E-003	9.443055E-002	-6.656575E-003	-9.862583E-002	7.437370E-003
2.100000E+008	5.477958E-002	-3.200809E-003	9.429035E-002	-6.963415E-003	9.438824E-002	-6.973112E-003	-9.854643E-002	7.594932E-003
2.200000E+008	5.473816E-002	-3.447305E-003	9.425982E-002	-7.268438E-003	9.433987E-002	-7.272142E-003	-9.843002E-002	7.758347E-003
2.300000E+008	5.469508E-002	-3.696811E-003	9.421934E-002	-7.598484E-003	9.429383E-002	-7.593642E-003	-9.829132E-002	7.898317E-003
2.400000E+008	5.468864E-002	-3.942763E-003	9.418969E-002	-7.914196E-003	9.424946E-002	-7.906927E-003	-9.813035E-002	8.110150E-003
2.500000E+008	5.465764E-002	-4.176659E-003	9.412555E-002	-8.250644E-003	9.420500E-002	-8.238026E-003	-9.795394E-002	8.300509E-003
2.600000E+008	5.470313E-002	-4.438980E-003	9.406801E-002	-8.585294E-003	9.416278E-002	-8.558598E-003	-9.773860E-002	8.542803E-003
2.700000E+008	5.470365E-002	-4.654558E-003	9.403005E-002	-8.891603E-003	9.410532E-002	-8.889424E-003	-9.750851E-002	8.823180E-003
2.800000E+008	5.474172E-002	-4.845586E-003	9.396814E-002	-9.195360E-003	9.405330E-002	-9.173947E-003	-9.730027E-002	9.073173E-003
2.900000E+008	5.473798E-002	-5.024049E-003	9.393714E-002	-9.506192E-003	9.399752E-002	-9.492861E-003	-9.717105E-002	9.362139E-003
3.000000E+008	5.472130E-002	-5.171385E-003	9.387861E-002	-9.823390E-003	9.396364E-002	-9.814731E-003	-9.700398E-002	9.675770E-003
3.100000E+008	5.469600E-002	-5.305255E-003	9.383769E-002	-1.014305E-002	9.390720E-002	-1.013982E-002	-9.689165E-002	1.000876E-002
3.200000E+008	5.464877E-002	-5.433182E-003	9.377802E-002	-1.046740E-002	9.385158E-002	-1.046173E-002	-9.680416E-002	1.032050E-002
3.300000E+008	5.455873E-002	-5.557767E-003	9.372081E-002	-1.078836E-002	9.380948E-002	-1.078966E-002	-9.670962E-002	1.060234E-002
3.400000E+008	5.442611E-002	-5.715767E-003	9.366386E-002	-1.109742E-002	9.370884E-002	-1.113317E-002	-9.659541E-002	1.083916E-002
3.500000E+008	5.427862E-002	-5.890085E-003	9.361532E-002	-1.142543E-002	9.363390E-002	-1.142710E-002	-9.645466E-002	1.104992E-002
3.600000E+008	5.415237E-002	-6.034467E-003	9.353471E-002	-1.173880E-002	9.354912E-002	-1.170663E-002	-9.629750E-002	1.128884E-002
3.700000E+008	5.404560E-002	-6.231735E-003	9.345681E-002	-1.203835E-002	9.351936E-002	-1.199769E-002	-9.611246E-002	1.146989E-002
3.800000E+008	5.394213E-002	-6.433241E-003	9.338767E-002	-1.234551E-002	9.347238E-002	-1.229703E-002	-9.592749E-002	1.170646E-002
3.900000E+008	5.382599E-002	-6.668246E-003	9.332897E-002	-1.266049E-002	9.341053E-002	-1.262040E-002	-9.563813E-002	1.197596E-002
4.000000E+008	5.374697E-002	-6.903195E-003	9.323762E-002	-1.295501E-002	9.333575E-002	-1.295224E-002	-9.533031E-002	1.225629E-002
4.100000E+008	5.365270E-002	-7.131027E-003	9.318029E-002	-1.323628E-002	9.327525E-002	-1.325530E-002	-9.507126E-002	1.253058E-002
4.200000E+008	5.357412E-002	-7.358004E-003	9.312867E-002	-1.352844E-002	9.320787E-002	-1.354033E-002	-9.483969E-002	1.287404E-002
4.300000E+008	5.350943E-002	-7.551071E-003	9.307357E-002	-1.385753E-002	9.312854E-002	-1.387050E-002	-9.463215E-002	1.322759E-002
4.400000E+008	5.343487E-002	-7.710621E-003	9.299919E-002	-1.416043E-002	9.307318E-002	-1.415847E-002	-9.444956E-002	1.363459E-002
4.500000E+008	5.339363E-002	-7.895435E-003	9.292888E-002	-1.447653E-002	9.301485E-002	-1.446869E-002	-9.426465E-002	1.404906E-002
4.600000E+008	5.333242E-002	-8.069389E-003	9.286859E-002	-1.477970E-002	9.294854E-002	-1.479931E-002	-9.407947E-002	1.445591E-002
4.700000E+008	5.325023E-002	-8.236948E-003	9.279568E-002	-1.508481E-002	9.286494E-002	-1.509879E-002	-9.393309E-002	1.481978E-002
4.800000E+008	5.316378E-002	-8.369978E-003	9.273227E-002	-1.537084E-002	9.277992E-002	-1.537605E-002	-9.378308E-002	1.517532E-002
4.900000E+008	5.301598E-002	-8.490531E-003	9.265211E-002	-1.568299E-002	9.269493E-002	-1.568744E-002	-9.363759E-002	1.552708E-002
5.000000E+008	5.292391E-002	-8.626147E-003	9.257426E-002	-1.597603E-002	9.264067E-002	-1.599258E-002	-9.349210E-002	1.584663E-002
5.100000E+008	5.281745E-002	-8.781780E-003	9.249951E-002	-1.627970E-002	9.257716E-002	-1.626706E-002	-9.330758E-002	1.617097E-002
5.200000E+008	5.269718E-002	-8.948116E-003	9.242260E-002	-1.656857E-002	9.250473E-002	-1.659133E-002	-9.314677E-002	1.650206E-002
5.300000E+008	5.255867E-002	-9.135746E-003	9.234227E-002	-1.689659E-002	9.243486E-002	-1.688762E-002	-9.291518E-002	1.682950E-002
5.400000E+008	5.241691E-002	-9.363436E-003	9.228305E-002	-1.719566E-002	9.234696E-002	-1.719817E-002	-9.269464E-002	1.716755E-002
5.500000E+008	5.229197E-002	-9.545004E-003	9.218124E-002	-1.748702E-002	9.224900E-002	-1.749494E-002	-9.247657E-002	1.753239E-002
5.600000E+008	5.216869E-002	-9.752494E-003	9.209536E-002	-1.777975E-002	9.216073E-002	-1.779452E-002	-9.226648E-002	1.789286E-002
5.700000E+008	5.206190E-002	-9.974880E-003	9.202802E-002	-1.807096E-002	9.208769E-002	-1.807975E-002	-9.211199E-002	1.830714E-002
5.800000E+008	5.198466E-002	-1.018100E-002	9.192741E-002	-1.837789E-002	9.201538E-002	-1.837017E-002	-9.194177E-002	1.870700E-002
5.900000E+008	5.189322E-002	-1.041827E-002	9.185383E-002	-1.867016E-002	9.192570E-002	-1.867262E-002	-9.176935E-002	1.913827E-002
6.000000E+008	5.185874E-002	-1.062378E-002	9.177517E-002	-1.898125E-002	9.183552E-002	-1.898457E-002	-9.157527E-002	1.951398E-002
6.100000E+008	5.180964E-002	-1.082286E-002	9.168627E-002	-1.925546E-002	9.172462E-002	-1.926428E-002	-9.142708E-002	1.991825E-002
6.200000E+008	5.178852E-002	-1.096188E-002	9.158217E-002	-1.955219E-002	9.165524E-002	-1.955416E-002	-9.124927E-002	2.029903E-002
6.300000E+008	5.177162E-002	-1.112833E-002	9.150829E-002	-1.982306E-002	9.157669E-002	-1.984327E-002	-9.108371E-002	2.065633E-002
6.400000E+008	5.172885E-002	-1.124707E-002	9.141942E-002	-2.012419E-002	9.147588E-002	-2.014294E-002	-9.090233E-002	2.103965E-002
6.500000E+008	5.169654E-002	-1.136203E-002	9.131126E-002	-2.041584E-002	9.138352E-002	-2.041341E-002	-9.071808E-002	2.141342E-002
6.600000E+008	5.162759E-002	-1.149498E-002	9.124214E-002	-2.069864E-002	9.129693E-002	-2.072686E-002	-9.053531E-002	2.181897E-002
6.700000E+008	5.151536E-002	-1.159550E-002	9.114536E-002	-2.099599E-002	9.120888E-002	-2.101708E-002	-9.037234E-002	2.222121E-002
6.800000E+008	5.139118E-002	-1.170238E-002	9.105120E-002	-2.128089E-002	9.110984E-002	-2.129580E-002	-9.019314E-002	2.263656E-002
6.900000E+008	5.127954E-002	-1.179567E-002	9.096354E-002	-2.157067E-002	9.102299E-002	-2.159573E-002	-9.002721E-002	2.307321E-002
7.000000E+008	5.118944E-002	-1.190414E-002	9.086255E-002	-2.186932E-002	9.093783E-002	-2.187097E-002	-8.991971E-002	2.350011E-002
7.100000E+008	5.105919E-002	-1.203826E-002	9.077379E-002	-2.213897E-002	9.084554E-002	-2.214419E-002	-8.978585E-002	2.390371E-002
7.200000E+008	5.092426E-002	-1.216565E-002	9.068481E-002	-2.242059E-002	9.074911E-002	-2.245139E-002	-8.964843E-002	2.430962E-002
7.300000E+008	5.081033E-002	-1.232668E-002	9.058295E-002	-2.272418E-002	9.066826E-002	-2.274561E-002	-8.957463E-002	2.464762E-002
7.400000E+008	5.067229E-002	-1.245095E-002	9.049481E-002	-2.299927E-002	9.057508E-002	-2.301756E-002	-8.946037E-002	2.499824E-002
7.500000E+008	5.057359E-002	-1.260138E-002	9.040131E-002	-2.328667E-002	9.046019E-002	-2.331203E-002	-8.935192E-002	2.532757E-002
7.600000E+008	5.044298E-002	-1.276157E-002	9.029917E-002	-2.356694E-002	9.036332E-002	-2.359884E-002	-8.921238E-002	2.565724E-002
7.700000E+008	5.032051E-002	-1.295613E-002	9.019139E-002	-2.386409E-002	9.027463E-002	-2.388613E-002	-8.907101E-002	2.596328E-002
7.800000E+008	5.024222E-002	-1.311136E-002	9.010375E-002	-2.414936E-002	9.018308E-002	-2.416518E-002	-8.889178E-002	2.626573E-002
7.900000E+008	5.011020E-002	-1.331213E-002	9.000871E-002	-2.442924E-002	9.007507E-002	-2.444375E-002	-8.873423E-002	2.660254E-002
8.000000E+008	5.004625E-002	-1.349235E-002	8.989442E-002	-2.471597E-002	8.997739E-002	-2.475179E-002	-8.853490E-002	2.694900E-002
8.100000E+008	4.994818E-002	-1.369398E-002	8.979305E-002	-2.497981E-002	8.985895E-002	-2.501120E-002	-8.828237E-002	2.731136E-002
8.200000E+008	4.992064E-002	-1.384205E-002	8.969031E-002	-2.526610E-002	8.976885E-002	-2.529814E-002	-8.806520E-002	2.766651E-002
8.300000E+008	4.986987E-002	-1.401804E-002	8.958675E-002	-2.555170E-002	8.965929E-002	-2.556090E-002	-8.787870E-002	2.804124E-002
8.400000E+008	4.983599E-002	-1.415544E-002	8.948399E-002	-2.582307E-002	8.955260E-002	-2.584480E-002	-8.768456E-002	2.838882E-002
8.500000E+008	4.981109E-002	-1.429234E-002	8.939530E-002	-2.609820E-002	8.946577E-002	-2.612030E-002	-8.754383E-002	2.877399E-002
8.600000E+008	4.974583E-002	-1.440184E-002	8.927140E-002	-2.637821E-002	8.934437E-002	-2.639850E-002	-8.738853E-002	2.913016E-002
8.700000E+008	4.970223E-002	-1.447361E-002	8.918589E-002	-2.667085E-002	8.923942E-002	-2.669520E-002	-8.723573E-002	2.949144E-002
8.800000E+008	4.962165E-002	-1.455826E-002	8.906502E-002	-2.695551E-002	8.913754E-002	-2.697692E-002	-8.707541E-002	2.982081E-002
8.900000E+008	4.953249E-002	-1.465172E-002	8.894764E-002	-2.721221E-002	8.904331E-002	-2.724372E-002	-8.692502E-002	3.013996E-002
9.000000E+008	4.942109E-002	-1.476475E-002	8.883976E-002	-2.749068E-002	8.892902E-002	-2.752257E-002	-8.674100E-002	3.047498E-002
9.100000E+008	4.931867E-002	-1.488409E-002	8.872498E-002	-2.778005E-002	8.881768E-002	-2.779107E-002	-8.652853E-002	3.077910E-002
9.200000E+008	4.918529E-002	-1.500804E-002	8.863403E-002	-2.803548E-002	8.870461E-002	-2.805965E-002	-8.627378E-002	3.112671E-002
9.300000E+008	4.909756E-002	-1.513345E-002	8.851662E-002	-2.831988E-002	8.859421E-002	-2.834692E-002	-8.599930E-002	3.146052E-002
9.400000E+008	4.902428E-002	-1.527974E-002	8.840802E-002	-2.857597E-002	8.847846E-002	-2.863211E-002	-8.570312E-002	3.181561E-002
9.500000E+008	4.897816E-002	-1.545337E-002	8.830104E-002	-2.887965E-002	8.836742E-002	-2.891261E-002	-8.539014E-002	3.223164E-002
9.600000E+008	4.888174E-002	-1.556539E-002	8.818490E-002	-2.912589E-002	8.826119E-002	-2.918158E-002	-8.507905E-002	3.262891E-002
9.700000E+008	4.885338E-002	-1.568452E-002	8.806643E-002	-2.939222E-002	8.814557E-002	-2.944363E-002	-8.478437E-002	3.305242E-002
9.800000E+008	4.882280E-002	-1.576099E-002	8.796176E-002	-2.966683E-002	8.804171E-002	-2.970995E-002	-8.450537E-002	3.350304E-002
9.900000E+008	4.877404E-002	-1.587052E-002	8.785543E-002	-2.993786E-002	8.792708E-002	-2.999465E-002	-8.424014E-002	3.392295E-002
1.000000E+009	4.869965E-002	-1.593246E-002	8.774578E-002	-3.021946E-002	8.780701E-002	-3.025426E-002	-8.404707E-002	3.433012E-002
1.010000E+009	4.862462E-002	-1.596411E-002	8.763472E-002	-3.049946E-002	8.770022E-002	-3.053152E-002	-8.381911E-002	3.479290E-002
1.020000E+009	4.854978E-002	-1.603497E-002	8.751787E-002	-3.077270E-002	8.757102E-002	-3.080599E-002	-8.363955E-002	3.520729E-002
1.030000E+009	4.846641E-002	-1.610581E-002	8.739504E-002	-3.105279E-002	8.747331E-002	-3.106306E-002	-8.343056E-002	3.562147E-002
1.040000E+009	4.836113E-002	-1.616855E-002	8.726939E-002	-3.130695E-002	8.733267E-002	-3.133963E-002	-8.323604E-002	3.605504E-002
1.050000E+009	4.826169E-002	-1.625480E-002	8.715815E-002	-3.155511E-002	8.722287E-002	-3.161729E-002	-8.301627E-002	3.647905E-002
1.060000E+009	4.816894E-002	-1.634581E-002	8.703857E-002	-3.184970E-002	8.710148E-002	-3.188306E-002	-8.275673E-002	3.689507E-002
1.070000E+009	4.806696E-002	-1.642411E-002	8.691505E-002	-3.209861E-002	8.699384E-002	-3.212409E-002	-8.252398E-002	3.730233E-002
1.080000E+009	4.797232E-002	-1.652709E-002	8.680172E-002	-3.238288E-002	8.689375E-002	-3.241376E-002	-8.225224E-002	3.773643E-002
1.090000E+009	4.789711E-002	-1.661789E-002	8.667931E-002	-3.264365E-002	8.677553E-002	-3.268075E-002	-8.202437E-002	3.815009E-002
1.100000E+009	4.780981E-002	-1.670885E-002	8.655032E-002	-3.292164E-002	8.664989E-002	-3.294117E-002	-8.179503E-002	3.859166E-002
1.110000E+009	4.772864E-002	-1.679012E-002	8.643206E-002	-3.319634E-002	8.651558E-002	-3.322426E-002	-8.158556E-002	3.900206E-002
1.120000E+009	4.760806E-002	-1.686647E-002	8.630570E-002	-3.347647E-002	8.638635E-002	-3.349335E-002	-8.139109E-002	3.938010E-002
1.130000E+009	4.752341E-002	-1.693438E-002	8.619442E-002	-3.372752E-002	8.626191E-002	-3.377216E-002	-8.121872E-002	3.980094E-002
1.140000E+009	4.742436E-002	-1.703036E-002	8.606447E-002	-3.400325E-002	8.614920E-002	-3.401864E-002	-8.098695E-002	4.019720E-002
1.150000E+009	4.731968E-002	-1.710800E-002	8.593940E-002	-3.426861E-002	8.602209E-002	-3.428331E-002	-8.075447E-002	4.060404E-002
1.160000E+009	4.721329E-002	-1.719926E-002	8.581014E-002	-3.453182E-002	8.590076E-002	-3.457456E-002	-8.054538E-002	4.100494E-002
1.170000E+009	4.712521E-002	-1.726814E-002	8.568792E-002	-3.480959E-002	8.575819E-002	-3.482994E-002	-8.029425E-002	4.143009E-002
1.180000E+009	4.704454E-002	-1.735966E-002	8.553324E-002	-3.506282E-002	8.562251E-002	-3.509086E-002	-8.001509E-002	4.185204E-002
1.190000E+009	4.691144E-002	-1.744397E-002	8.542048E-002	-3.534268E-002	8.547664E-002	-3.534774E-002	-7.976951E-002	4.229177E-002
1.200000E+009	4.681485E-002	-1.753521E-002	8.529896E-002	-3.560438E-002	8.536396E-002	-3.563379E-002	-7.947297E-002	4.273535E-002
1.210000E+009	4.676144E-002	-1.764170E-002	8.514337E-002	-3.586287E-002	8.521921E-002	-3.588115E-002	-7.924338E-002	4.317192E-002
1.220000E+009	4.665316E-002	-1.776717E-002	8.501488E-002	-3.611014E-002	8.510004E-002	-3.613965E-002	-7.901984E-002	4.359868E-002
1.230000E+009	4.655602E-002	-1.785813E-002	8.488486E-002	-3.636697E-002	8.496340E-002	-3.640939E-002	-7.882201E-002	4.403209E-002
1.240000E+009	4.650175E-002	-1.798915E-002	8.475544E-002	-3.663657E-002	8.482418E-002	-3.667612E-002	-7.861211E-002	4.440537E-002
1.250000E+009	4.644759E-002	-1.808703E-002	8.462752E-002	-3.691887E-002	8.471130E-002	-3.693060E-002	-7.841148E-002	4.481380E-002
1.260000E+009	4.633355E-002	-1.821074E-002	8.447507E-002	-3.718541E-002	8.454946E-002	-3.719913E-002	-7.817373E-002	4.513895E-002
1.270000E+009	4.632944E-002	-1.830833E-002	8.435684E-002	-3.743166E-002	8.441376E-002	-3.744035E-002	-7.791482E-002	4.548970E-002
1.280000E+009	4.628419E-002	-1.837672E-002	8.422350E-002	-3.768999E-002	8.428962E-002	-3.771004E-002	-7.766503E-002	4.582039E-002
1.290000E+009	4.622098E-002	-1.843441E-002	8.407097E-002	-3.796921E-002	8.414396E-002	-3.796771E-002	-7.734021E-002	4.617012E-002
1.300000E+009	4.618027E-002	-1.848173E-002	8.392786E-002	-3.821771E-002	8.401097E-002	-3.824351E-002	-7.701567E-002	4.654740E-002
1.310000E+009	4.612103E-002	-1.855540E-002	8.377755E-002	-3.846784E-002	8.387754E-002	-3.850365E-002	-7.665027E-002	4.693411E-002
1.320000E+009	4.605373E-002	-1.858401E-002	8.363582E-002	-3.873910E-002	8.371733E-002	-3.877312E-002	-7.629695E-002	4.737540E-002
1.330000E+009	4.596156E-002	-1.861644E-002	8.350628E-002	-3.898984E-002	8.358348E-002	-3.903175E-002	-7.589809E-002	4.784136E-002
1.340000E+009	4.589337E-002	-1.865254E-002	8.334248E-002	-3.925513E-002	8.343408E-002	-3.927924E-002	-7.549730E-002	4.833495E-002
1.350000E+009	4.577351E-002	-1.870788E-002	8.319404E-002	-3.950806E-002	8.328440E-002	-3.954260E-002	-7.517129E-002	4.888025E-002
1.360000E+009	4.570267E-002	-1.874971E-002	8.304612E-002	-3.976854E-002	8.314521E-002	-3.980529E-002	-7.481920E-002	4.942260E-002
1.370000E+009	4.562513E-002	-1.878744E-002	8.292687E-002	-4.002683E-002	8.299255E-002	-4.004300E-002	-7.452658E-002	4.996239E-002
1.380000E+009	4.554013E-002	-1.885161E-002	8.276642E-002	-4.027119E-002	8.284702E-002	-4.032006E-002	-7.421835E-002	5.050113E-002
1.390000E+009	4.547397E-002	-1.891381E-002	8.260993E-002	-4.055210E-002	8.268500E-002	-4.056299E-002	-7.396302E-002	5.104132E-002
1.400000E+009	4.538448E-002	-1.897506E-002	8.245555E-002	-4.080186E-002	8.252523E-002	-4.081501E-002	-7.369381E-002	5.155685E-002
1.410000E+009	4.529742E-002	-1.900492E-002	8.231423E-002	-4.102655E-002	8.237021E-002	-4.107043E-002	-7.345074E-002	5.207749E-002
1.420000E+009	4.518180E-002	-1.904494E-002	8.214663E-002	-4.129371E-002	8.223124E-002	-4.133247E-002	-7.319134E-002	5.254567E-002
1.430000E+009	4.511373E-002	-1.907080E-002	8.200472E-002	-4.154490E-002	8.208931E-002	-4.156903E-002	-7.293280E-002	5.300766E-002
1.440000E+009	4.500391E-002	-1.913483E-002	8.185054E-002	-4.178288E-002	8.192026E-002	-4.183001E-002	-7.265974E-002	5.346788E-002
1.450000E+009	4.490506E-002	-1.917874E-002	8.168893E-002	-4.203523E-002	8.176069E-002	-4.207739E-002	-7.232844E-002	5.392901E-002
1.460000E+009	4.476563E-002	-1.921081E-002	8.152876E-002	-4.228595E-002	8.160713E-002	-4.231558E-002	-7.202066E-002	5.440393E-002
1.470000E+009	4.468729E-002	-1.928146E-002	8.138071E-002	-4.254318E-002	8.145057E-002	-4.258658E-002	-7.169146E-002	5.492778E-002
1.480000E+009	4.456809E-002	-1.931488E-002	8.120835E-002	-4.278932E-002	8.128786E-002	-4.281182E-002	-7.136786E-002	5.545432E-002
1.490000E+009	4.448384E-002	-1.937795E-002	8.106152E-002	-4.304530E-002	8.112898E-002	-4.307658E-002	-7.102312E-002	5.598826E-002
1.500000E+009	4.439912E-002	-1.945575E-002	8.089453E-002	-4.328224E-002	8.095290E-002	-4.330075E-002	-7.067804E-002	5.653555E-002
