! Device ID: PE43711P
! File Path: z:\PE43711P\CHAR_NOM_04282014\AMB\3p300\LS_ATT_23p25dB\PE43711P_AMB_3p300V_3p000V_0p000V_LS_ATT_23p25dB_S2P_SN_5_A0137A.s2p
! Serial: 5
! Lot: A0137A
! Temp: 25C
! VDD: 3.300
! VSS: 0.000
! Control_Hi: 3.000
! Control_Lo: 0.000
! Attenuation Step: 23.25dB
! Port 1: RF1
! Port 2: RF2
! ThroughPath:1-2
! IDD: 0.0001278912
! ISS: -1.694e-007
!

#  Hz  S   RI  R   50

1.000000E+007	4.248363E-002	3.005991E-004	5.978139E-002	-2.461957E-004	5.986063E-002	-2.806071E-004	-1.288580E-001	9.740182E-004
2.000000E+007	4.272179E-002	3.576988E-004	5.978089E-002	-3.812319E-004	5.980669E-002	-3.935637E-004	-1.285165E-001	1.571497E-003
3.000000E+007	4.296531E-002	3.570552E-004	5.978623E-002	-5.835115E-004	5.981640E-002	-5.829007E-004	-1.282041E-001	2.085223E-003
4.000000E+007	4.312707E-002	3.480438E-004	5.978088E-002	-7.861477E-004	5.980675E-002	-7.902391E-004	-1.280436E-001	2.672452E-003
5.000000E+007	4.323091E-002	3.217264E-004	5.977261E-002	-9.970603E-004	5.981985E-002	-9.908408E-004	-1.280036E-001	3.284632E-003
6.000000E+007	4.339324E-002	2.527345E-004	5.975469E-002	-1.182356E-003	5.982558E-002	-1.180486E-003	-1.278757E-001	3.761502E-003
7.000000E+007	4.351503E-002	1.584405E-004	5.974497E-002	-1.360114E-003	5.979858E-002	-1.375137E-003	-1.276815E-001	4.231899E-003
8.000000E+007	4.365173E-002	8.496497E-005	5.973428E-002	-1.552282E-003	5.978091E-002	-1.570041E-003	-1.275182E-001	4.681882E-003
9.000000E+007	4.376668E-002	-2.280160E-006	5.973464E-002	-1.760385E-003	5.977796E-002	-1.764147E-003	-1.273924E-001	5.074657E-003
1.000000E+008	4.388322E-002	-9.211573E-005	5.972300E-002	-1.944245E-003	5.976813E-002	-1.948920E-003	-1.273379E-001	5.505806E-003
1.100000E+008	4.400284E-002	-1.903486E-004	5.971015E-002	-2.152897E-003	5.975897E-002	-2.137561E-003	-1.272293E-001	5.894541E-003
1.200000E+008	4.412728E-002	-3.262330E-004	5.968768E-002	-2.342308E-003	5.972883E-002	-2.340007E-003	-1.271298E-001	6.248068E-003
1.300000E+008	4.423657E-002	-4.234954E-004	5.967021E-002	-2.540119E-003	5.972874E-002	-2.538862E-003	-1.269998E-001	6.616194E-003
1.400000E+008	4.431294E-002	-4.887820E-004	5.965414E-002	-2.718227E-003	5.970649E-002	-2.726794E-003	-1.268967E-001	6.973284E-003
1.500000E+008	4.434234E-002	-5.710761E-004	5.963976E-002	-2.896191E-003	5.966677E-002	-2.902148E-003	-1.267948E-001	7.311366E-003
1.600000E+008	4.437868E-002	-5.975194E-004	5.962320E-002	-3.087729E-003	5.966451E-002	-3.076796E-003	-1.267153E-001	7.671435E-003
1.700000E+008	4.444711E-002	-6.667127E-004	5.961469E-002	-3.290031E-003	5.966734E-002	-3.275033E-003	-1.266210E-001	8.047770E-003
1.800000E+008	4.447724E-002	-7.492065E-004	5.959229E-002	-3.495002E-003	5.965434E-002	-3.483910E-003	-1.265113E-001	8.403556E-003
1.900000E+008	4.444986E-002	-8.615522E-004	5.955134E-002	-3.673448E-003	5.961688E-002	-3.685397E-003	-1.264640E-001	8.678621E-003
2.000000E+008	4.438828E-002	-9.879177E-004	5.953183E-002	-3.858557E-003	5.959413E-002	-3.854229E-003	-1.263893E-001	8.958619E-003
2.100000E+008	4.434104E-002	-1.174911E-003	5.951267E-002	-4.043100E-003	5.955483E-002	-4.035523E-003	-1.263018E-001	9.178292E-003
2.200000E+008	4.432128E-002	-1.331614E-003	5.949120E-002	-4.219633E-003	5.954330E-002	-4.215746E-003	-1.261829E-001	9.392932E-003
2.300000E+008	4.430748E-002	-1.493056E-003	5.946657E-002	-4.402442E-003	5.951878E-002	-4.398077E-003	-1.260417E-001	9.628237E-003
2.400000E+008	4.432487E-002	-1.657166E-003	5.944141E-002	-4.597990E-003	5.948383E-002	-4.583370E-003	-1.258876E-001	9.882741E-003
2.500000E+008	4.433976E-002	-1.805642E-003	5.940875E-002	-4.776429E-003	5.946203E-002	-4.776065E-003	-1.256695E-001	1.013808E-002
2.600000E+008	4.440270E-002	-1.955948E-003	5.938366E-002	-4.972609E-003	5.943445E-002	-4.953360E-003	-1.254532E-001	1.046343E-002
2.700000E+008	4.444591E-002	-2.086244E-003	5.934561E-002	-5.151554E-003	5.940382E-002	-5.159281E-003	-1.251988E-001	1.081763E-002
2.800000E+008	4.451054E-002	-2.189653E-003	5.931980E-002	-5.330459E-003	5.937576E-002	-5.321928E-003	-1.249808E-001	1.115090E-002
2.900000E+008	4.453164E-002	-2.287365E-003	5.930900E-002	-5.507818E-003	5.934519E-002	-5.514365E-003	-1.248270E-001	1.149699E-002
3.000000E+008	4.455365E-002	-2.345165E-003	5.927846E-002	-5.691223E-003	5.933212E-002	-5.683227E-003	-1.246860E-001	1.187894E-002
3.100000E+008	4.453964E-002	-2.400369E-003	5.926330E-002	-5.878798E-003	5.929671E-002	-5.870365E-003	-1.245452E-001	1.229571E-002
3.200000E+008	4.452406E-002	-2.445163E-003	5.921057E-002	-6.076519E-003	5.927643E-002	-6.057864E-003	-1.244510E-001	1.266396E-002
3.300000E+008	4.447044E-002	-2.480576E-003	5.919246E-002	-6.258524E-003	5.923738E-002	-6.262050E-003	-1.243438E-001	1.301594E-002
3.400000E+008	4.436930E-002	-2.565901E-003	5.916510E-002	-6.434826E-003	5.919047E-002	-6.457603E-003	-1.242163E-001	1.332815E-002
3.500000E+008	4.426305E-002	-2.644161E-003	5.912046E-002	-6.631694E-003	5.913211E-002	-6.625968E-003	-1.240515E-001	1.358949E-002
3.600000E+008	4.416972E-002	-2.750923E-003	5.907563E-002	-6.805182E-003	5.910448E-002	-6.781958E-003	-1.238809E-001	1.389043E-002
3.700000E+008	4.409479E-002	-2.848229E-003	5.903096E-002	-6.986503E-003	5.906612E-002	-6.949042E-003	-1.236677E-001	1.415573E-002
3.800000E+008	4.402915E-002	-2.974185E-003	5.900383E-002	-7.152797E-003	5.903606E-002	-7.153474E-003	-1.234555E-001	1.444646E-002
3.900000E+008	4.394784E-002	-3.120963E-003	5.894867E-002	-7.339247E-003	5.902659E-002	-7.323413E-003	-1.231733E-001	1.480597E-002
4.000000E+008	4.392489E-002	-3.285792E-003	5.891321E-002	-7.514320E-003	5.899061E-002	-7.507096E-003	-1.228542E-001	1.513713E-002
4.100000E+008	4.386084E-002	-3.432190E-003	5.887740E-002	-7.683561E-003	5.893269E-002	-7.682073E-003	-1.225593E-001	1.547180E-002
4.200000E+008	4.382069E-002	-3.583437E-003	5.886158E-002	-7.841077E-003	5.890852E-002	-7.865181E-003	-1.223308E-001	1.586711E-002
4.300000E+008	4.378469E-002	-3.715755E-003	5.882245E-002	-8.036494E-003	5.886827E-002	-8.030070E-003	-1.221081E-001	1.629485E-002
4.400000E+008	4.375952E-002	-3.794125E-003	5.878224E-002	-8.213782E-003	5.882688E-002	-8.211655E-003	-1.219130E-001	1.676542E-002
4.500000E+008	4.375005E-002	-3.896130E-003	5.875025E-002	-8.399880E-003	5.880479E-002	-8.393214E-003	-1.217208E-001	1.723693E-002
4.600000E+008	4.373348E-002	-4.009221E-003	5.870802E-002	-8.576273E-003	5.874569E-002	-8.569608E-003	-1.215162E-001	1.771893E-002
4.700000E+008	4.369599E-002	-4.096810E-003	5.866230E-002	-8.758484E-003	5.870300E-002	-8.748221E-003	-1.213450E-001	1.814948E-002
4.800000E+008	4.363410E-002	-4.161791E-003	5.863027E-002	-8.924717E-003	5.866259E-002	-8.923038E-003	-1.211900E-001	1.856747E-002
4.900000E+008	4.355283E-002	-4.214168E-003	5.859449E-002	-9.092290E-003	5.861967E-002	-9.096606E-003	-1.210225E-001	1.896887E-002
5.000000E+008	4.349085E-002	-4.282096E-003	5.854634E-002	-9.274254E-003	5.858057E-002	-9.274949E-003	-1.208435E-001	1.936169E-002
5.100000E+008	4.343630E-002	-4.368192E-003	5.849640E-002	-9.450012E-003	5.854590E-002	-9.437439E-003	-1.206772E-001	1.975141E-002
5.200000E+008	4.334826E-002	-4.462969E-003	5.847012E-002	-9.619661E-003	5.850905E-002	-9.614436E-003	-1.204918E-001	2.015258E-002
5.300000E+008	4.324500E-002	-4.569524E-003	5.841177E-002	-9.802102E-003	5.846707E-002	-9.786770E-003	-1.202378E-001	2.053587E-002
5.400000E+008	4.316201E-002	-4.743164E-003	5.836384E-002	-9.979165E-003	5.843430E-002	-9.970305E-003	-1.200092E-001	2.092942E-002
5.500000E+008	4.305634E-002	-4.845157E-003	5.833159E-002	-1.013904E-002	5.836571E-002	-1.014290E-002	-1.197978E-001	2.135121E-002
5.600000E+008	4.297156E-002	-4.984687E-003	5.828049E-002	-1.032009E-002	5.830719E-002	-1.031510E-002	-1.195627E-001	2.177373E-002
5.700000E+008	4.292102E-002	-5.167481E-003	5.822786E-002	-1.049161E-002	5.828824E-002	-1.048730E-002	-1.193741E-001	2.224275E-002
5.800000E+008	4.286113E-002	-5.291854E-003	5.818086E-002	-1.065824E-002	5.823443E-002	-1.064704E-002	-1.191826E-001	2.269918E-002
5.900000E+008	4.283437E-002	-5.474504E-003	5.815115E-002	-1.082728E-002	5.820118E-002	-1.084962E-002	-1.189990E-001	2.320102E-002
6.000000E+008	4.282899E-002	-5.622720E-003	5.809052E-002	-1.101683E-002	5.814842E-002	-1.101115E-002	-1.187887E-001	2.364269E-002
6.100000E+008	4.284905E-002	-5.749104E-003	5.804495E-002	-1.118412E-002	5.809182E-002	-1.118074E-002	-1.186162E-001	2.408160E-002
6.200000E+008	4.285070E-002	-5.829584E-003	5.799484E-002	-1.134283E-002	5.803763E-002	-1.136423E-002	-1.184284E-001	2.453293E-002
6.300000E+008	4.287512E-002	-5.916446E-003	5.794167E-002	-1.150475E-002	5.797449E-002	-1.151956E-002	-1.182559E-001	2.497182E-002
6.400000E+008	4.289530E-002	-5.967972E-003	5.789436E-002	-1.167723E-002	5.794105E-002	-1.167172E-002	-1.180545E-001	2.541159E-002
6.500000E+008	4.287971E-002	-6.022893E-003	5.785207E-002	-1.184311E-002	5.788795E-002	-1.184089E-002	-1.178743E-001	2.584604E-002
6.600000E+008	4.286686E-002	-6.098201E-003	5.780455E-002	-1.201152E-002	5.783586E-002	-1.202818E-002	-1.176650E-001	2.629027E-002
6.700000E+008	4.279248E-002	-6.122287E-003	5.775514E-002	-1.218458E-002	5.779158E-002	-1.219445E-002	-1.174890E-001	2.674957E-002
6.800000E+008	4.273331E-002	-6.187164E-003	5.769803E-002	-1.235854E-002	5.773729E-002	-1.236332E-002	-1.173042E-001	2.723502E-002
6.900000E+008	4.265686E-002	-6.216431E-003	5.764008E-002	-1.252703E-002	5.768198E-002	-1.252869E-002	-1.170951E-001	2.771416E-002
7.000000E+008	4.261290E-002	-6.279888E-003	5.759735E-002	-1.267727E-002	5.763389E-002	-1.267100E-002	-1.169563E-001	2.819609E-002
7.100000E+008	4.252276E-002	-6.342285E-003	5.753219E-002	-1.283685E-002	5.758337E-002	-1.286539E-002	-1.168293E-001	2.865011E-002
7.200000E+008	4.245179E-002	-6.436600E-003	5.749544E-002	-1.303334E-002	5.754527E-002	-1.302572E-002	-1.166887E-001	2.910539E-002
7.300000E+008	4.237241E-002	-6.512041E-003	5.743689E-002	-1.318238E-002	5.748499E-002	-1.319450E-002	-1.165624E-001	2.953662E-002
7.400000E+008	4.226683E-002	-6.587606E-003	5.738402E-002	-1.334775E-002	5.743752E-002	-1.335778E-002	-1.164496E-001	2.995505E-002
7.500000E+008	4.220519E-002	-6.693443E-003	5.733127E-002	-1.350706E-002	5.738100E-002	-1.352799E-002	-1.163306E-001	3.034789E-002
7.600000E+008	4.212202E-002	-6.799692E-003	5.728311E-002	-1.367416E-002	5.732275E-002	-1.369167E-002	-1.161935E-001	3.072556E-002
7.700000E+008	4.206297E-002	-6.918292E-003	5.722668E-002	-1.383263E-002	5.726921E-002	-1.386108E-002	-1.160261E-001	3.107895E-002
7.800000E+008	4.200336E-002	-7.018160E-003	5.716845E-002	-1.400400E-002	5.722540E-002	-1.402208E-002	-1.158484E-001	3.143479E-002
7.900000E+008	4.193751E-002	-7.151079E-003	5.711276E-002	-1.418566E-002	5.716492E-002	-1.418028E-002	-1.156776E-001	3.182740E-002
8.000000E+008	4.191683E-002	-7.283238E-003	5.706751E-002	-1.434825E-002	5.710746E-002	-1.434847E-002	-1.154373E-001	3.221892E-002
8.100000E+008	4.186256E-002	-7.438284E-003	5.700704E-002	-1.449457E-002	5.705326E-002	-1.450631E-002	-1.151773E-001	3.264513E-002
8.200000E+008	4.188336E-002	-7.534737E-003	5.694736E-002	-1.466425E-002	5.699060E-002	-1.467185E-002	-1.149405E-001	3.304778E-002
8.300000E+008	4.189217E-002	-7.651677E-003	5.686448E-002	-1.481877E-002	5.693491E-002	-1.483083E-002	-1.147111E-001	3.349316E-002
8.400000E+008	4.189858E-002	-7.749423E-003	5.684131E-002	-1.498344E-002	5.688377E-002	-1.499364E-002	-1.145069E-001	3.390434E-002
8.500000E+008	4.190089E-002	-7.814815E-003	5.678494E-002	-1.515582E-002	5.681631E-002	-1.517046E-002	-1.143499E-001	3.434803E-002
8.600000E+008	4.189640E-002	-7.883529E-003	5.670866E-002	-1.531193E-002	5.676875E-002	-1.533342E-002	-1.141802E-001	3.477957E-002
8.700000E+008	4.187715E-002	-7.901566E-003	5.665678E-002	-1.547848E-002	5.669766E-002	-1.548297E-002	-1.140089E-001	3.517618E-002
8.800000E+008	4.186609E-002	-7.921533E-003	5.661222E-002	-1.564095E-002	5.664208E-002	-1.565567E-002	-1.138571E-001	3.556248E-002
8.900000E+008	4.180551E-002	-7.981050E-003	5.654146E-002	-1.579146E-002	5.659821E-002	-1.581723E-002	-1.136895E-001	3.595148E-002
9.000000E+008	4.176044E-002	-8.034332E-003	5.647470E-002	-1.596010E-002	5.651959E-002	-1.597173E-002	-1.134837E-001	3.631413E-002
9.100000E+008	4.168831E-002	-8.083084E-003	5.642078E-002	-1.612256E-002	5.646872E-002	-1.614662E-002	-1.132552E-001	3.667707E-002
9.200000E+008	4.161874E-002	-8.166071E-003	5.636150E-002	-1.627578E-002	5.641194E-002	-1.630387E-002	-1.129819E-001	3.706103E-002
9.300000E+008	4.158473E-002	-8.266648E-003	5.630816E-002	-1.643289E-002	5.634587E-002	-1.645446E-002	-1.127026E-001	3.746316E-002
9.400000E+008	4.156407E-002	-8.366186E-003	5.622977E-002	-1.660511E-002	5.629052E-002	-1.662514E-002	-1.123758E-001	3.786806E-002
9.500000E+008	4.153895E-002	-8.460096E-003	5.618613E-002	-1.674479E-002	5.622987E-002	-1.677470E-002	-1.120674E-001	3.834262E-002
9.600000E+008	4.152287E-002	-8.529773E-003	5.612013E-002	-1.692759E-002	5.616649E-002	-1.694751E-002	-1.117235E-001	3.880593E-002
9.700000E+008	4.151934E-002	-8.572081E-003	5.603909E-002	-1.706665E-002	5.611423E-002	-1.708313E-002	-1.114224E-001	3.927756E-002
9.800000E+008	4.152110E-002	-8.635289E-003	5.600126E-002	-1.722202E-002	5.603665E-002	-1.724408E-002	-1.111514E-001	3.979816E-002
9.900000E+008	4.152636E-002	-8.680453E-003	5.593935E-002	-1.738505E-002	5.599813E-002	-1.741210E-002	-1.108720E-001	4.028333E-002
1.000000E+009	4.151347E-002	-8.684413E-003	5.588947E-002	-1.754170E-002	5.592531E-002	-1.756731E-002	-1.106683E-001	4.074595E-002
1.010000E+009	4.149378E-002	-8.704107E-003	5.582279E-002	-1.771221E-002	5.585988E-002	-1.772634E-002	-1.104327E-001	4.124913E-002
1.020000E+009	4.143915E-002	-8.718398E-003	5.574596E-002	-1.786352E-002	5.580092E-002	-1.787909E-002	-1.102300E-001	4.172245E-002
1.030000E+009	4.141010E-002	-8.737271E-003	5.569182E-002	-1.802866E-002	5.574025E-002	-1.804864E-002	-1.100063E-001	4.220745E-002
1.040000E+009	4.134654E-002	-8.776938E-003	5.562353E-002	-1.817875E-002	5.566143E-002	-1.820124E-002	-1.097952E-001	4.265566E-002
1.050000E+009	4.130348E-002	-8.809092E-003	5.557413E-002	-1.834356E-002	5.560317E-002	-1.835261E-002	-1.095402E-001	4.314925E-002
1.060000E+009	4.127472E-002	-8.849663E-003	5.551165E-002	-1.850566E-002	5.554198E-002	-1.851179E-002	-1.092665E-001	4.362629E-002
1.070000E+009	4.121161E-002	-8.896788E-003	5.544087E-002	-1.864413E-002	5.548686E-002	-1.866046E-002	-1.090110E-001	4.409338E-002
1.080000E+009	4.117140E-002	-8.920905E-003	5.537780E-002	-1.880308E-002	5.541564E-002	-1.883244E-002	-1.087190E-001	4.458606E-002
1.090000E+009	4.113215E-002	-8.983150E-003	5.529861E-002	-1.896854E-002	5.534197E-002	-1.896549E-002	-1.084808E-001	4.504943E-002
1.100000E+009	4.109045E-002	-9.014475E-003	5.521945E-002	-1.912393E-002	5.528966E-002	-1.913690E-002	-1.082653E-001	4.557054E-002
1.110000E+009	4.103082E-002	-9.035326E-003	5.516948E-002	-1.927534E-002	5.522310E-002	-1.929266E-002	-1.080281E-001	4.601310E-002
1.120000E+009	4.097608E-002	-9.090555E-003	5.510862E-002	-1.943276E-002	5.515538E-002	-1.946418E-002	-1.078391E-001	4.646636E-002
1.130000E+009	4.095113E-002	-9.120798E-003	5.503323E-002	-1.958595E-002	5.509768E-002	-1.961041E-002	-1.076380E-001	4.693823E-002
1.140000E+009	4.087071E-002	-9.161829E-003	5.496244E-002	-1.973981E-002	5.501756E-002	-1.977349E-002	-1.074021E-001	4.740012E-002
1.150000E+009	4.085420E-002	-9.215958E-003	5.489407E-002	-1.990703E-002	5.495909E-002	-1.991434E-002	-1.071560E-001	4.785359E-002
1.160000E+009	4.078820E-002	-9.262285E-003	5.483195E-002	-2.006857E-002	5.488537E-002	-2.007715E-002	-1.069049E-001	4.828540E-002
1.170000E+009	4.075164E-002	-9.303360E-003	5.475224E-002	-2.022533E-002	5.481691E-002	-2.022118E-002	-1.066325E-001	4.879483E-002
1.180000E+009	4.072066E-002	-9.327473E-003	5.468546E-002	-2.038374E-002	5.473061E-002	-2.039513E-002	-1.063369E-001	4.926537E-002
1.190000E+009	4.062713E-002	-9.368833E-003	5.461160E-002	-2.052715E-002	5.464577E-002	-2.054446E-002	-1.060641E-001	4.975781E-002
1.200000E+009	4.059691E-002	-9.410829E-003	5.455545E-002	-2.068903E-002	5.459059E-002	-2.069473E-002	-1.057791E-001	5.026790E-002
1.210000E+009	4.055895E-002	-9.489943E-003	5.447698E-002	-2.082845E-002	5.452268E-002	-2.086327E-002	-1.055322E-001	5.075837E-002
1.220000E+009	4.052234E-002	-9.559140E-003	5.439743E-002	-2.098673E-002	5.444294E-002	-2.100145E-002	-1.053123E-001	5.124789E-002
1.230000E+009	4.047526E-002	-9.620025E-003	5.432653E-002	-2.114368E-002	5.437521E-002	-2.115093E-002	-1.050716E-001	5.170999E-002
1.240000E+009	4.044586E-002	-9.710191E-003	5.425831E-002	-2.129780E-002	5.431233E-002	-2.131266E-002	-1.048613E-001	5.215062E-002
1.250000E+009	4.042154E-002	-9.779896E-003	5.418516E-002	-2.146666E-002	5.423508E-002	-2.145457E-002	-1.046437E-001	5.259338E-002
1.260000E+009	4.039346E-002	-9.846265E-003	5.410450E-002	-2.161112E-002	5.415870E-002	-2.163146E-002	-1.043844E-001	5.300347E-002
1.270000E+009	4.045127E-002	-9.900758E-003	5.404278E-002	-2.175892E-002	5.405830E-002	-2.178732E-002	-1.040965E-001	5.339274E-002
1.280000E+009	4.042151E-002	-9.949348E-003	5.396865E-002	-2.192296E-002	5.402358E-002	-2.192374E-002	-1.038357E-001	5.381355E-002
1.290000E+009	4.042833E-002	-9.971236E-003	5.388572E-002	-2.206488E-002	5.392399E-002	-2.208616E-002	-1.034881E-001	5.419594E-002
1.300000E+009	4.045790E-002	-9.953961E-003	5.381386E-002	-2.223785E-002	5.386075E-002	-2.224424E-002	-1.031491E-001	5.462118E-002
1.310000E+009	4.043568E-002	-9.976566E-003	5.371900E-002	-2.238043E-002	5.377591E-002	-2.239224E-002	-1.027849E-001	5.505827E-002
1.320000E+009	4.040863E-002	-9.985232E-003	5.365126E-002	-2.253606E-002	5.371308E-002	-2.254229E-002	-1.024032E-001	5.556901E-002
1.330000E+009	4.039865E-002	-9.977903E-003	5.357352E-002	-2.269494E-002	5.361529E-002	-2.270800E-002	-1.019862E-001	5.609478E-002
1.340000E+009	4.034859E-002	-9.952465E-003	5.348301E-002	-2.283175E-002	5.353132E-002	-2.285811E-002	-1.016006E-001	5.666371E-002
1.350000E+009	4.028929E-002	-9.990443E-003	5.341747E-002	-2.299050E-002	5.347277E-002	-2.300622E-002	-1.012268E-001	5.723846E-002
1.360000E+009	4.027216E-002	-1.000022E-002	5.333440E-002	-2.313923E-002	5.338990E-002	-2.315755E-002	-1.008622E-001	5.784438E-002
1.370000E+009	4.023876E-002	-9.997149E-003	5.325259E-002	-2.329549E-002	5.330078E-002	-2.332399E-002	-1.005519E-001	5.842389E-002
1.380000E+009	4.020057E-002	-1.003013E-002	5.315612E-002	-2.345273E-002	5.321183E-002	-2.346112E-002	-1.002341E-001	5.900103E-002
1.390000E+009	4.019499E-002	-1.004655E-002	5.308926E-002	-2.358659E-002	5.313798E-002	-2.360812E-002	-9.994916E-002	5.962379E-002
1.400000E+009	4.014518E-002	-1.008638E-002	5.298510E-002	-2.374179E-002	5.303366E-002	-2.376466E-002	-9.966954E-002	6.018712E-002
1.410000E+009	4.010935E-002	-1.007179E-002	5.291989E-002	-2.388769E-002	5.296849E-002	-2.389961E-002	-9.939626E-002	6.076432E-002
1.420000E+009	4.005759E-002	-1.006987E-002	5.282287E-002	-2.404939E-002	5.288610E-002	-2.406269E-002	-9.912533E-002	6.130198E-002
1.430000E+009	4.005000E-002	-1.006217E-002	5.275708E-002	-2.418170E-002	5.278746E-002	-2.420488E-002	-9.884697E-002	6.182509E-002
1.440000E+009	3.999267E-002	-1.008636E-002	5.265886E-002	-2.432735E-002	5.271165E-002	-2.434470E-002	-9.855311E-002	6.232404E-002
1.450000E+009	3.992267E-002	-1.008309E-002	5.257563E-002	-2.448258E-002	5.264764E-002	-2.451365E-002	-9.822254E-002	6.285330E-002
1.460000E+009	3.986266E-002	-1.008873E-002	5.248226E-002	-2.463399E-002	5.252700E-002	-2.465241E-002	-9.789678E-002	6.339915E-002
1.470000E+009	3.979961E-002	-1.012223E-002	5.241039E-002	-2.477931E-002	5.246071E-002	-2.478306E-002	-9.753630E-002	6.394616E-002
1.480000E+009	3.975105E-002	-1.014372E-002	5.231525E-002	-2.492239E-002	5.237959E-002	-2.493207E-002	-9.720940E-002	6.453221E-002
1.490000E+009	3.971386E-002	-1.015106E-002	5.222776E-002	-2.507493E-002	5.228440E-002	-2.507697E-002	-9.684223E-002	6.512080E-002
1.500000E+009	3.967468E-002	-1.019057E-002	5.214127E-002	-2.520226E-002	5.218695E-002	-2.522602E-002	-9.647081E-002	6.572351E-002
