! Device ID: PE43711P
! File Path: z:\PE43711P\CHAR_NOM_04282014\AMB\3p300\LS_ATT_4p50dB\PE43711P_AMB_3p300V_3p000V_0p000V_LS_ATT_4p50dB_S2P_SN_5_A0137A.s2p
! Serial: 5
! Lot: A0137A
! Temp: 25C
! VDD: 3.300
! VSS: 0.000
! Control_Hi: 3.000
! Control_Lo: 0.000
! Attenuation Step: 4.50dB
! Port 1: RF1
! Port 2: RF2
! ThroughPath:1-2
! IDD: 0.0001277303
! ISS: -1.071e-007
!

#  Hz  S   RI  R   50

1.000000E+007	9.417431E-002	-3.551784E-004	5.267727E-001	-2.613696E-003	5.269151E-001	-2.666511E-003	-3.907249E-002	3.202356E-004
2.000000E+007	9.429198E-002	-6.036168E-004	5.266325E-001	-4.417129E-003	5.265805E-001	-4.454617E-003	-3.887992E-002	6.347191E-004
3.000000E+007	9.456999E-002	-1.130826E-003	5.266101E-001	-6.666335E-003	5.265818E-001	-6.688551E-003	-3.859819E-002	8.134543E-004
4.000000E+007	9.464979E-002	-1.625043E-003	5.266137E-001	-8.884532E-003	5.265411E-001	-8.935706E-003	-3.822180E-002	9.521238E-004
5.000000E+007	9.487578E-002	-2.230948E-003	5.265759E-001	-1.130394E-002	5.265191E-001	-1.126038E-002	-3.805127E-002	9.679071E-004
6.000000E+007	9.509483E-002	-2.897627E-003	5.264500E-001	-1.352751E-002	5.264829E-001	-1.351372E-002	-3.792349E-002	8.847669E-004
7.000000E+007	9.521178E-002	-3.598621E-003	5.262974E-001	-1.572546E-002	5.263153E-001	-1.572975E-002	-3.784963E-002	8.007193E-004
8.000000E+007	9.536462E-002	-4.280141E-003	5.261910E-001	-1.788826E-002	5.261928E-001	-1.790839E-002	-3.778173E-002	7.900903E-004
9.000000E+007	9.545950E-002	-4.913082E-003	5.260465E-001	-2.008999E-002	5.260306E-001	-2.008525E-002	-3.764969E-002	7.220321E-004
1.000000E+008	9.553443E-002	-5.524909E-003	5.259576E-001	-2.233631E-002	5.258821E-001	-2.227159E-002	-3.746530E-002	6.378687E-004
1.100000E+008	9.559804E-002	-6.142926E-003	5.257861E-001	-2.457472E-002	5.257298E-001	-2.447397E-002	-3.740169E-002	5.263865E-004
1.200000E+008	9.571999E-002	-6.785163E-003	5.254849E-001	-2.677283E-002	5.255324E-001	-2.673286E-002	-3.749153E-002	4.276759E-004
1.300000E+008	9.580053E-002	-7.520133E-003	5.252945E-001	-2.894328E-002	5.253243E-001	-2.892488E-002	-3.737605E-002	2.373814E-004
1.400000E+008	9.582586E-002	-8.318645E-003	5.251274E-001	-3.114626E-002	5.251007E-001	-3.115221E-002	-3.702644E-002	7.483382E-006
1.500000E+008	9.571662E-002	-9.055082E-003	5.248947E-001	-3.326088E-002	5.248054E-001	-3.329807E-002	-3.672939E-002	-1.510384E-004
1.600000E+008	9.550930E-002	-9.556262E-003	5.247164E-001	-3.538342E-002	5.245298E-001	-3.535649E-002	-3.691461E-002	-2.106179E-004
1.700000E+008	9.528006E-002	-1.003056E-002	5.244772E-001	-3.769979E-002	5.245338E-001	-3.753905E-002	-3.738400E-002	-3.533839E-004
1.800000E+008	9.502779E-002	-1.060814E-002	5.239668E-001	-3.997660E-002	5.242268E-001	-3.983972E-002	-3.775940E-002	-5.470232E-004
1.900000E+008	9.492221E-002	-1.133789E-002	5.235788E-001	-4.203556E-002	5.238416E-001	-4.198553E-002	-3.777071E-002	-7.654761E-004
2.000000E+008	9.489165E-002	-1.215556E-002	5.233532E-001	-4.413863E-002	5.235261E-001	-4.409578E-002	-3.751533E-002	-9.047935E-004
2.100000E+008	9.487878E-002	-1.299816E-002	5.230928E-001	-4.623998E-002	5.231994E-001	-4.621857E-002	-3.720060E-002	-1.037645E-003
2.200000E+008	9.480640E-002	-1.375293E-002	5.228352E-001	-4.827316E-002	5.228807E-001	-4.828794E-002	-3.702917E-002	-1.158778E-003
2.300000E+008	9.464567E-002	-1.446201E-002	5.225116E-001	-5.041662E-002	5.225617E-001	-5.036972E-002	-3.696788E-002	-1.363562E-003
2.400000E+008	9.444857E-002	-1.517219E-002	5.221568E-001	-5.254224E-002	5.221838E-001	-5.250363E-002	-3.696394E-002	-1.583844E-003
2.500000E+008	9.425333E-002	-1.585798E-002	5.218022E-001	-5.471296E-002	5.218681E-001	-5.461131E-002	-3.700172E-002	-1.882254E-003
2.600000E+008	9.407987E-002	-1.661298E-002	5.213733E-001	-5.683750E-002	5.215015E-001	-5.675210E-002	-3.693555E-002	-2.088544E-003
2.700000E+008	9.392893E-002	-1.729306E-002	5.209473E-001	-5.892455E-002	5.210893E-001	-5.886057E-002	-3.683663E-002	-2.225793E-003
2.800000E+008	9.380274E-002	-1.794799E-002	5.205378E-001	-6.093389E-002	5.206985E-001	-6.087717E-002	-3.672296E-002	-2.352577E-003
2.900000E+008	9.361400E-002	-1.851707E-002	5.201815E-001	-6.297550E-002	5.202899E-001	-6.291251E-002	-3.666313E-002	-2.419744E-003
3.000000E+008	9.350049E-002	-1.904378E-002	5.198566E-001	-6.506560E-002	5.199623E-001	-6.497311E-002	-3.661348E-002	-2.462810E-003
3.100000E+008	9.332947E-002	-1.955975E-002	5.194470E-001	-6.710138E-002	5.196016E-001	-6.705626E-002	-3.655213E-002	-2.468385E-003
3.200000E+008	9.315472E-002	-2.011762E-002	5.190138E-001	-6.924182E-002	5.191950E-001	-6.916243E-002	-3.656067E-002	-2.508265E-003
3.300000E+008	9.290204E-002	-2.062697E-002	5.186203E-001	-7.129419E-002	5.187725E-001	-7.134223E-002	-3.657445E-002	-2.593530E-003
3.400000E+008	9.255426E-002	-2.117516E-002	5.181414E-001	-7.337286E-002	5.181130E-001	-7.347890E-002	-3.652782E-002	-2.736096E-003
3.500000E+008	9.219004E-002	-2.172117E-002	5.176671E-001	-7.547074E-002	5.175009E-001	-7.540519E-002	-3.651553E-002	-2.930876E-003
3.600000E+008	9.189364E-002	-2.225749E-002	5.171885E-001	-7.752755E-002	5.170599E-001	-7.728637E-002	-3.649181E-002	-3.030568E-003
3.700000E+008	9.160439E-002	-2.281098E-002	5.166492E-001	-7.945198E-002	5.166725E-001	-7.914516E-002	-3.636494E-002	-3.143925E-003
3.800000E+008	9.130445E-002	-2.341409E-002	5.162137E-001	-8.144549E-002	5.163467E-001	-8.124934E-002	-3.624001E-002	-3.277846E-003
3.900000E+008	9.096755E-002	-2.399521E-002	5.156530E-001	-8.354896E-002	5.158852E-001	-8.334137E-002	-3.610500E-002	-3.401471E-003
4.000000E+008	9.068494E-002	-2.461582E-002	5.151017E-001	-8.543508E-002	5.153987E-001	-8.543849E-002	-3.595454E-002	-3.507869E-003
4.100000E+008	9.031473E-002	-2.524805E-002	5.146228E-001	-8.732190E-002	5.148731E-001	-8.741558E-002	-3.584145E-002	-3.577313E-003
4.200000E+008	8.992719E-002	-2.580499E-002	5.142173E-001	-8.933103E-002	5.143574E-001	-8.933881E-002	-3.576176E-002	-3.610111E-003
4.300000E+008	8.965616E-002	-2.633706E-002	5.137354E-001	-9.137423E-002	5.138362E-001	-9.135183E-002	-3.570206E-002	-3.647832E-003
4.400000E+008	8.939750E-002	-2.682724E-002	5.132219E-001	-9.336669E-002	5.133752E-001	-9.335468E-002	-3.566584E-002	-3.584394E-003
4.500000E+008	8.914028E-002	-2.735279E-002	5.127096E-001	-9.534466E-002	5.128821E-001	-9.534645E-002	-3.559707E-002	-3.528101E-003
4.600000E+008	8.888013E-002	-2.789165E-002	5.121457E-001	-9.737421E-002	5.122979E-001	-9.735294E-002	-3.556039E-002	-3.432758E-003
4.700000E+008	8.855779E-002	-2.836386E-002	5.115878E-001	-9.930815E-002	5.117109E-001	-9.930507E-002	-3.557845E-002	-3.376418E-003
4.800000E+008	8.821317E-002	-2.879426E-002	5.110476E-001	-1.012371E-001	5.111167E-001	-1.011811E-001	-3.562351E-002	-3.298529E-003
4.900000E+008	8.783012E-002	-2.924483E-002	5.104970E-001	-1.031751E-001	5.105121E-001	-1.031555E-001	-3.566808E-002	-3.236089E-003
5.000000E+008	8.750370E-002	-2.966435E-002	5.099136E-001	-1.051102E-001	5.100118E-001	-1.050719E-001	-3.567603E-002	-3.227419E-003
5.100000E+008	8.718725E-002	-3.017166E-002	5.093883E-001	-1.070631E-001	5.095045E-001	-1.069804E-001	-3.561842E-002	-3.195171E-003
5.200000E+008	8.682349E-002	-3.069916E-002	5.088014E-001	-1.090207E-001	5.089397E-001	-1.089838E-001	-3.556082E-002	-3.221463E-003
5.300000E+008	8.645231E-002	-3.124445E-002	5.082228E-001	-1.109913E-001	5.083863E-001	-1.109500E-001	-3.544597E-002	-3.265299E-003
5.400000E+008	8.604966E-002	-3.183109E-002	5.075815E-001	-1.129323E-001	5.077926E-001	-1.129119E-001	-3.539065E-002	-3.331318E-003
5.500000E+008	8.567659E-002	-3.226170E-002	5.070144E-001	-1.148523E-001	5.071173E-001	-1.148452E-001	-3.535048E-002	-3.290536E-003
5.600000E+008	8.530790E-002	-3.274400E-002	5.063885E-001	-1.167506E-001	5.064722E-001	-1.167476E-001	-3.531408E-002	-3.225075E-003
5.700000E+008	8.500336E-002	-3.320059E-002	5.057407E-001	-1.186117E-001	5.059217E-001	-1.186440E-001	-3.537054E-002	-3.113383E-003
5.800000E+008	8.466711E-002	-3.366770E-002	5.051136E-001	-1.205252E-001	5.053342E-001	-1.205190E-001	-3.537827E-002	-3.030661E-003
5.900000E+008	8.434848E-002	-3.416100E-002	5.044971E-001	-1.224845E-001	5.047494E-001	-1.224799E-001	-3.544188E-002	-2.956112E-003
6.000000E+008	8.403651E-002	-3.464456E-002	5.038629E-001	-1.243633E-001	5.041058E-001	-1.244035E-001	-3.544467E-002	-2.920024E-003
6.100000E+008	8.374495E-002	-3.510281E-002	5.032155E-001	-1.262279E-001	5.033934E-001	-1.262854E-001	-3.550835E-002	-2.873165E-003
6.200000E+008	8.346765E-002	-3.557854E-002	5.025504E-001	-1.281124E-001	5.027615E-001	-1.281534E-001	-3.555232E-002	-2.791835E-003
6.300000E+008	8.322994E-002	-3.601097E-002	5.018649E-001	-1.299661E-001	5.020910E-001	-1.300213E-001	-3.555173E-002	-2.743521E-003
6.400000E+008	8.297421E-002	-3.643773E-002	5.012321E-001	-1.318336E-001	5.014540E-001	-1.318874E-001	-3.552069E-002	-2.647479E-003
6.500000E+008	8.271444E-002	-3.683917E-002	5.006009E-001	-1.336742E-001	5.007704E-001	-1.337280E-001	-3.552717E-002	-2.531600E-003
6.600000E+008	8.239473E-002	-3.727897E-002	4.999631E-001	-1.355699E-001	5.000932E-001	-1.356294E-001	-3.550406E-002	-2.432433E-003
6.700000E+008	8.200015E-002	-3.762827E-002	4.992700E-001	-1.374375E-001	4.994253E-001	-1.374954E-001	-3.558661E-002	-2.315504E-003
6.800000E+008	8.159447E-002	-3.798088E-002	4.985731E-001	-1.392958E-001	4.987457E-001	-1.393476E-001	-3.566309E-002	-2.138304E-003
6.900000E+008	8.116402E-002	-3.832676E-002	4.978398E-001	-1.411425E-001	4.980033E-001	-1.411536E-001	-3.571617E-002	-1.967387E-003
7.000000E+008	8.081003E-002	-3.867218E-002	4.971537E-001	-1.429630E-001	4.973421E-001	-1.429680E-001	-3.580403E-002	-1.850588E-003
7.100000E+008	8.046127E-002	-3.911341E-002	4.964766E-001	-1.447508E-001	4.966619E-001	-1.448301E-001	-3.588359E-002	-1.747128E-003
7.200000E+008	8.007627E-002	-3.952756E-002	4.957728E-001	-1.465841E-001	4.959839E-001	-1.466681E-001	-3.593999E-002	-1.710837E-003
7.300000E+008	7.967927E-002	-3.994371E-002	4.950377E-001	-1.484320E-001	4.953275E-001	-1.485319E-001	-3.607065E-002	-1.704033E-003
7.400000E+008	7.926006E-002	-4.029337E-002	4.943391E-001	-1.502715E-001	4.946066E-001	-1.503371E-001	-3.617048E-002	-1.653999E-003
7.500000E+008	7.890295E-002	-4.070968E-002	4.936119E-001	-1.520925E-001	4.938807E-001	-1.521926E-001	-3.625302E-002	-1.628399E-003
7.600000E+008	7.848691E-002	-4.111585E-002	4.928888E-001	-1.539381E-001	4.931337E-001	-1.540085E-001	-3.633365E-002	-1.607513E-003
7.700000E+008	7.810355E-002	-4.154803E-002	4.921589E-001	-1.557225E-001	4.924228E-001	-1.558109E-001	-3.638747E-002	-1.599458E-003
7.800000E+008	7.765807E-002	-4.194307E-002	4.914099E-001	-1.575322E-001	4.917003E-001	-1.575945E-001	-3.646634E-002	-1.586932E-003
7.900000E+008	7.726742E-002	-4.239722E-002	4.906843E-001	-1.593027E-001	4.909757E-001	-1.594436E-001	-3.654788E-002	-1.557326E-003
8.000000E+008	7.685236E-002	-4.281740E-002	4.899218E-001	-1.611328E-001	4.901705E-001	-1.612203E-001	-3.661723E-002	-1.507054E-003
8.100000E+008	7.646250E-002	-4.326130E-002	4.891290E-001	-1.629041E-001	4.893975E-001	-1.630287E-001	-3.663028E-002	-1.399510E-003
8.200000E+008	7.613150E-002	-4.363880E-002	4.884017E-001	-1.647056E-001	4.886429E-001	-1.647680E-001	-3.665214E-002	-1.319543E-003
8.300000E+008	7.582560E-002	-4.404016E-002	4.876185E-001	-1.664634E-001	4.878939E-001	-1.665801E-001	-3.668898E-002	-1.235343E-003
8.400000E+008	7.554010E-002	-4.440172E-002	4.868266E-001	-1.682283E-001	4.871119E-001	-1.683377E-001	-3.673311E-002	-1.116202E-003
8.500000E+008	7.524185E-002	-4.475036E-002	4.860993E-001	-1.700145E-001	4.863348E-001	-1.701455E-001	-3.681554E-002	-1.036106E-003
8.600000E+008	7.488531E-002	-4.510365E-002	4.852969E-001	-1.717643E-001	4.855151E-001	-1.718801E-001	-3.691824E-002	-9.041062E-004
8.700000E+008	7.452430E-002	-4.541202E-002	4.845439E-001	-1.735689E-001	4.847310E-001	-1.736610E-001	-3.701038E-002	-8.321340E-004
8.800000E+008	7.412582E-002	-4.568907E-002	4.837518E-001	-1.753576E-001	4.839980E-001	-1.753779E-001	-3.712833E-002	-7.425324E-004
8.900000E+008	7.371870E-002	-4.601042E-002	4.829218E-001	-1.771010E-001	4.831919E-001	-1.771716E-001	-3.720688E-002	-6.617517E-004
9.000000E+008	7.331193E-002	-4.631746E-002	4.820752E-001	-1.788438E-001	4.824015E-001	-1.789314E-001	-3.727076E-002	-5.430738E-004
9.100000E+008	7.288134E-002	-4.665637E-002	4.812891E-001	-1.806065E-001	4.815863E-001	-1.806933E-001	-3.727303E-002	-5.060904E-004
9.200000E+008	7.245218E-002	-4.700545E-002	4.804536E-001	-1.823209E-001	4.807930E-001	-1.824754E-001	-3.725490E-002	-4.501502E-004
9.300000E+008	7.202768E-002	-4.734049E-002	4.796539E-001	-1.840545E-001	4.798987E-001	-1.842137E-001	-3.723370E-002	-3.835684E-004
9.400000E+008	7.164599E-002	-4.764829E-002	4.788214E-001	-1.857822E-001	4.791540E-001	-1.859455E-001	-3.720250E-002	-2.490516E-004
9.500000E+008	7.123968E-002	-4.799009E-002	4.780223E-001	-1.875486E-001	4.783095E-001	-1.876997E-001	-3.712291E-002	-8.992457E-005
9.600000E+008	7.087678E-002	-4.824291E-002	4.771456E-001	-1.892724E-001	4.774693E-001	-1.893994E-001	-3.702938E-002	9.325261E-005
9.700000E+008	7.054915E-002	-4.852277E-002	4.762914E-001	-1.909559E-001	4.766127E-001	-1.911361E-001	-3.696331E-002	2.588439E-004
9.800000E+008	7.023079E-002	-4.881845E-002	4.754916E-001	-1.926383E-001	4.757847E-001	-1.928560E-001	-3.692326E-002	4.262207E-004
9.900000E+008	6.987942E-002	-4.909149E-002	4.746484E-001	-1.943937E-001	4.749730E-001	-1.945973E-001	-3.695520E-002	6.003643E-004
1.000000E+009	6.950800E-002	-4.933398E-002	4.738361E-001	-1.960892E-001	4.740626E-001	-1.962779E-001	-3.700940E-002	8.061134E-004
1.010000E+009	6.910059E-002	-4.953047E-002	4.729760E-001	-1.978443E-001	4.732175E-001	-1.979803E-001	-3.705636E-002	1.035071E-003
1.020000E+009	6.869201E-002	-4.974208E-002	4.720806E-001	-1.995477E-001	4.723458E-001	-1.996714E-001	-3.711469E-002	1.274412E-003
1.030000E+009	6.832968E-002	-4.992393E-002	4.711746E-001	-2.012365E-001	4.714692E-001	-2.013749E-001	-3.715016E-002	1.502320E-003
1.040000E+009	6.793495E-002	-5.013997E-002	4.703138E-001	-2.029093E-001	4.706083E-001	-2.030616E-001	-3.718619E-002	1.671472E-003
1.050000E+009	6.752965E-002	-5.044110E-002	4.694810E-001	-2.045913E-001	4.697381E-001	-2.047638E-001	-3.722610E-002	1.884666E-003
1.060000E+009	6.708590E-002	-5.069656E-002	4.685748E-001	-2.062931E-001	4.688486E-001	-2.064146E-001	-3.725202E-002	2.071911E-003
1.070000E+009	6.665595E-002	-5.091607E-002	4.676791E-001	-2.079562E-001	4.679788E-001	-2.080552E-001	-3.729050E-002	2.237665E-003
1.080000E+009	6.628249E-002	-5.116798E-002	4.667764E-001	-2.096963E-001	4.671334E-001	-2.097656E-001	-3.731285E-002	2.476407E-003
1.090000E+009	6.592352E-002	-5.139919E-002	4.658715E-001	-2.113561E-001	4.662400E-001	-2.114654E-001	-3.732258E-002	2.662084E-003
1.100000E+009	6.558748E-002	-5.163451E-002	4.649130E-001	-2.130560E-001	4.653297E-001	-2.131291E-001	-3.731599E-002	2.872973E-003
1.110000E+009	6.521845E-002	-5.185015E-002	4.640524E-001	-2.147015E-001	4.644384E-001	-2.148092E-001	-3.734306E-002	3.045836E-003
1.120000E+009	6.485427E-002	-5.206539E-002	4.631729E-001	-2.163463E-001	4.635173E-001	-2.165298E-001	-3.743798E-002	3.229078E-003
1.130000E+009	6.443702E-002	-5.229842E-002	4.622198E-001	-2.180118E-001	4.625500E-001	-2.181784E-001	-3.753474E-002	3.416847E-003
1.140000E+009	6.401798E-002	-5.248605E-002	4.613095E-001	-2.196777E-001	4.616681E-001	-2.198257E-001	-3.760320E-002	3.664605E-003
1.150000E+009	6.358814E-002	-5.267688E-002	4.603576E-001	-2.213642E-001	4.606707E-001	-2.214692E-001	-3.766313E-002	3.834634E-003
1.160000E+009	6.321566E-002	-5.288669E-002	4.594247E-001	-2.230153E-001	4.597793E-001	-2.231507E-001	-3.769216E-002	4.038403E-003
1.170000E+009	6.281298E-002	-5.310496E-002	4.584557E-001	-2.246675E-001	4.588378E-001	-2.247416E-001	-3.767754E-002	4.264645E-003
1.180000E+009	6.243442E-002	-5.337739E-002	4.574797E-001	-2.263003E-001	4.579026E-001	-2.264130E-001	-3.772341E-002	4.449465E-003
1.190000E+009	6.202530E-002	-5.357603E-002	4.565297E-001	-2.279626E-001	4.568544E-001	-2.280760E-001	-3.771417E-002	4.698117E-003
1.200000E+009	6.160324E-002	-5.376606E-002	4.555837E-001	-2.295992E-001	4.559234E-001	-2.296985E-001	-3.772565E-002	4.918696E-003
1.210000E+009	6.125640E-002	-5.402321E-002	4.545821E-001	-2.312266E-001	4.549290E-001	-2.313520E-001	-3.776176E-002	5.192983E-003
1.220000E+009	6.088417E-002	-5.422561E-002	4.536153E-001	-2.328334E-001	4.539845E-001	-2.329709E-001	-3.778819E-002	5.455797E-003
1.230000E+009	6.051395E-002	-5.442699E-002	4.526311E-001	-2.344744E-001	4.529827E-001	-2.345893E-001	-3.784249E-002	5.647570E-003
1.240000E+009	6.015583E-002	-5.468694E-002	4.516396E-001	-2.360643E-001	4.519791E-001	-2.362247E-001	-3.792500E-002	5.880853E-003
1.250000E+009	5.976409E-002	-5.487760E-002	4.506471E-001	-2.377089E-001	4.510259E-001	-2.378282E-001	-3.801331E-002	6.080928E-003
1.260000E+009	5.934808E-002	-5.507884E-002	4.496196E-001	-2.393267E-001	4.499628E-001	-2.394883E-001	-3.809836E-002	6.237139E-003
1.270000E+009	5.901257E-002	-5.525970E-002	4.486343E-001	-2.409267E-001	4.489440E-001	-2.410305E-001	-3.814425E-002	6.405328E-003
1.280000E+009	5.859898E-002	-5.544104E-002	4.476538E-001	-2.425506E-001	4.479947E-001	-2.426443E-001	-3.818500E-002	6.578881E-003
1.290000E+009	5.822199E-002	-5.556781E-002	4.465950E-001	-2.441856E-001	4.469550E-001	-2.442436E-001	-3.813617E-002	6.726563E-003
1.300000E+009	5.788533E-002	-5.571150E-002	4.455574E-001	-2.457134E-001	4.459488E-001	-2.458684E-001	-3.806579E-002	6.925119E-003
1.310000E+009	5.747460E-002	-5.584400E-002	4.444910E-001	-2.473284E-001	4.449145E-001	-2.474755E-001	-3.804027E-002	7.117737E-003
1.320000E+009	5.708186E-002	-5.594047E-002	4.434709E-001	-2.489416E-001	4.439030E-001	-2.490772E-001	-3.793989E-002	7.386060E-003
1.330000E+009	5.671926E-002	-5.602913E-002	4.424508E-001	-2.504918E-001	4.428267E-001	-2.506924E-001	-3.779166E-002	7.707369E-003
1.340000E+009	5.631525E-002	-5.609786E-002	4.413865E-001	-2.520443E-001	4.417658E-001	-2.522292E-001	-3.773329E-002	8.078413E-003
1.350000E+009	5.591970E-002	-5.617305E-002	4.403121E-001	-2.536490E-001	4.406682E-001	-2.537876E-001	-3.765055E-002	8.449848E-003
1.360000E+009	5.558810E-002	-5.626317E-002	4.392400E-001	-2.551812E-001	4.396607E-001	-2.553681E-001	-3.756884E-002	8.889828E-003
1.370000E+009	5.520272E-002	-5.636093E-002	4.382066E-001	-2.567592E-001	4.385761E-001	-2.569377E-001	-3.756382E-002	9.289169E-003
1.380000E+009	5.480993E-002	-5.648229E-002	4.370851E-001	-2.583328E-001	4.375002E-001	-2.584907E-001	-3.756308E-002	9.633751E-003
1.390000E+009	5.444328E-002	-5.660004E-002	4.360099E-001	-2.599007E-001	4.364064E-001	-2.600844E-001	-3.761207E-002	1.007078E-002
1.400000E+009	5.405138E-002	-5.672325E-002	4.349480E-001	-2.614361E-001	4.352972E-001	-2.615468E-001	-3.766912E-002	1.044942E-002
1.410000E+009	5.364236E-002	-5.676250E-002	4.338574E-001	-2.629822E-001	4.341895E-001	-2.631203E-001	-3.771440E-002	1.085046E-002
1.420000E+009	5.326785E-002	-5.685720E-002	4.326898E-001	-2.644831E-001	4.331515E-001	-2.646407E-001	-3.775504E-002	1.121946E-002
1.430000E+009	5.292660E-002	-5.695301E-002	4.316163E-001	-2.659934E-001	4.320300E-001	-2.662140E-001	-3.773973E-002	1.155705E-002
1.440000E+009	5.251560E-002	-5.704910E-002	4.305039E-001	-2.675107E-001	4.309159E-001	-2.677105E-001	-3.774230E-002	1.186952E-002
1.450000E+009	5.213029E-002	-5.711117E-002	4.293893E-001	-2.690683E-001	4.297932E-001	-2.692399E-001	-3.774959E-002	1.221858E-002
1.460000E+009	5.174212E-002	-5.718664E-002	4.282462E-001	-2.705963E-001	4.286050E-001	-2.707801E-001	-3.772819E-002	1.259671E-002
1.470000E+009	5.137015E-002	-5.724091E-002	4.271368E-001	-2.721109E-001	4.274909E-001	-2.722704E-001	-3.773506E-002	1.303578E-002
1.480000E+009	5.099061E-002	-5.728231E-002	4.259693E-001	-2.735714E-001	4.263408E-001	-2.737574E-001	-3.772460E-002	1.347671E-002
1.490000E+009	5.060671E-002	-5.732435E-002	4.248510E-001	-2.750662E-001	4.252255E-001	-2.752297E-001	-3.767872E-002	1.394418E-002
1.500000E+009	5.026421E-002	-5.739148E-002	4.237225E-001	-2.765628E-001	4.240675E-001	-2.767151E-001	-3.762573E-002	1.436119E-002
