! Device ID: PE43711P
! File Path: z:\PE43711P\CHAR_NOM_04282014\AMB\3p300\LS_ATT_30p25dB\PE43711P_AMB_3p300V_3p000V_0p000V_LS_ATT_30p25dB_S2P_SN_5_A0137A.s2p
! Serial: 5
! Lot: A0137A
! Temp: 25C
! VDD: 3.300
! VSS: 0.000
! Control_Hi: 3.000
! Control_Lo: 0.000
! Attenuation Step: 30.25dB
! Port 1: RF1
! Port 2: RF2
! ThroughPath:1-2
! IDD: 0.0001278229
! ISS: -2.167e-007
!

#  Hz  S   RI  R   50

1.000000E+007	1.959299E-002	5.551226E-004	2.659273E-002	-1.104480E-004	2.662723E-002	-8.986342E-005	-1.294406E-001	9.924296E-004
2.000000E+007	1.984708E-002	7.446726E-004	2.658704E-002	-1.354752E-004	2.660979E-002	-1.582967E-004	-1.291648E-001	1.577622E-003
3.000000E+007	2.011448E-002	9.344683E-004	2.659517E-002	-2.145980E-004	2.660377E-002	-2.260446E-004	-1.288754E-001	2.095241E-003
4.000000E+007	2.028626E-002	1.104889E-003	2.657963E-002	-3.069368E-004	2.661428E-002	-3.124082E-004	-1.287025E-001	2.681261E-003
5.000000E+007	2.039902E-002	1.287377E-003	2.658254E-002	-3.792454E-004	2.661084E-002	-3.821912E-004	-1.286604E-001	3.299913E-003
6.000000E+007	2.055734E-002	1.406806E-003	2.659135E-002	-4.570108E-004	2.660826E-002	-4.513108E-004	-1.285376E-001	3.769520E-003
7.000000E+007	2.070094E-002	1.502224E-003	2.657312E-002	-5.344806E-004	2.660577E-002	-5.241821E-004	-1.283402E-001	4.251264E-003
8.000000E+007	2.084397E-002	1.615096E-003	2.657918E-002	-5.930402E-004	2.660996E-002	-5.868540E-004	-1.281722E-001	4.710148E-003
9.000000E+007	2.098876E-002	1.707768E-003	2.658071E-002	-6.595122E-004	2.659064E-002	-6.626562E-004	-1.280475E-001	5.111050E-003
1.000000E+008	2.113737E-002	1.817165E-003	2.656504E-002	-7.459590E-004	2.658818E-002	-7.514804E-004	-1.279970E-001	5.553777E-003
1.100000E+008	2.127342E-002	1.891770E-003	2.656591E-002	-8.243785E-004	2.659547E-002	-8.094383E-004	-1.279074E-001	5.944304E-003
1.200000E+008	2.144369E-002	1.942163E-003	2.655843E-002	-8.850663E-004	2.658818E-002	-8.840880E-004	-1.277908E-001	6.286811E-003
1.300000E+008	2.156300E-002	2.031402E-003	2.655841E-002	-9.695174E-004	2.657326E-002	-9.681415E-004	-1.276605E-001	6.649270E-003
1.400000E+008	2.168387E-002	2.137417E-003	2.654893E-002	-1.034567E-003	2.655712E-002	-1.037202E-003	-1.275480E-001	7.019572E-003
1.500000E+008	2.175503E-002	2.247349E-003	2.655061E-002	-1.104282E-003	2.656642E-002	-1.104638E-003	-1.274457E-001	7.379025E-003
1.600000E+008	2.182225E-002	2.394226E-003	2.654607E-002	-1.177261E-003	2.654279E-002	-1.175816E-003	-1.273750E-001	7.738822E-003
1.700000E+008	2.193550E-002	2.493906E-003	2.654854E-002	-1.264425E-003	2.655919E-002	-1.248760E-003	-1.272865E-001	8.110366E-003
1.800000E+008	2.200339E-002	2.608378E-003	2.653265E-002	-1.332596E-003	2.655737E-002	-1.334274E-003	-1.271937E-001	8.470964E-003
1.900000E+008	2.201310E-002	2.662774E-003	2.651853E-002	-1.406797E-003	2.653937E-002	-1.413764E-003	-1.271303E-001	8.760016E-003
2.000000E+008	2.200650E-002	2.707135E-003	2.651213E-002	-1.479733E-003	2.653552E-002	-1.466567E-003	-1.270722E-001	9.034443E-003
2.100000E+008	2.200779E-002	2.697417E-003	2.649687E-002	-1.543085E-003	2.652730E-002	-1.543398E-003	-1.269758E-001	9.254005E-003
2.200000E+008	2.202555E-002	2.733434E-003	2.649074E-002	-1.613792E-003	2.651362E-002	-1.602920E-003	-1.268647E-001	9.474851E-003
2.300000E+008	2.207474E-002	2.730972E-003	2.648053E-002	-1.681772E-003	2.649210E-002	-1.671453E-003	-1.267178E-001	9.701242E-003
2.400000E+008	2.213994E-002	2.729237E-003	2.647978E-002	-1.765897E-003	2.649334E-002	-1.746993E-003	-1.265518E-001	9.970665E-003
2.500000E+008	2.219851E-002	2.740017E-003	2.646073E-002	-1.821687E-003	2.648907E-002	-1.818009E-003	-1.263259E-001	1.023497E-002
2.600000E+008	2.231132E-002	2.763913E-003	2.646938E-002	-1.895250E-003	2.647476E-002	-1.893764E-003	-1.261202E-001	1.056516E-002
2.700000E+008	2.243117E-002	2.785383E-003	2.643646E-002	-1.978947E-003	2.647229E-002	-1.958055E-003	-1.258730E-001	1.092303E-002
2.800000E+008	2.255362E-002	2.858335E-003	2.643499E-002	-2.044375E-003	2.646159E-002	-2.042394E-003	-1.256548E-001	1.126365E-002
2.900000E+008	2.260846E-002	2.923920E-003	2.642034E-002	-2.104535E-003	2.644359E-002	-2.104506E-003	-1.255033E-001	1.160987E-002
3.000000E+008	2.268889E-002	3.029327E-003	2.641557E-002	-2.171407E-003	2.645439E-002	-2.173143E-003	-1.253438E-001	1.201644E-002
3.100000E+008	2.272561E-002	3.133212E-003	2.641361E-002	-2.248930E-003	2.643351E-002	-2.246066E-003	-1.252275E-001	1.240544E-002
3.200000E+008	2.277448E-002	3.251319E-003	2.639804E-002	-2.316400E-003	2.641300E-002	-2.315557E-003	-1.251268E-001	1.279429E-002
3.300000E+008	2.277334E-002	3.357441E-003	2.638913E-002	-2.398790E-003	2.641449E-002	-2.400337E-003	-1.250311E-001	1.313113E-002
3.400000E+008	2.274938E-002	3.447221E-003	2.637587E-002	-2.472852E-003	2.639192E-002	-2.471889E-003	-1.248820E-001	1.345912E-002
3.500000E+008	2.272602E-002	3.492738E-003	2.636911E-002	-2.543530E-003	2.636414E-002	-2.540709E-003	-1.247315E-001	1.372787E-002
3.600000E+008	2.270099E-002	3.556556E-003	2.634315E-002	-2.608116E-003	2.635162E-002	-2.597670E-003	-1.245542E-001	1.403703E-002
3.700000E+008	2.268089E-002	3.610928E-003	2.633296E-002	-2.686042E-003	2.634563E-002	-2.662067E-003	-1.243419E-001	1.429513E-002
3.800000E+008	2.267691E-002	3.626972E-003	2.632297E-002	-2.746493E-003	2.634312E-002	-2.721734E-003	-1.241336E-001	1.459126E-002
3.900000E+008	2.265218E-002	3.624278E-003	2.630567E-002	-2.821138E-003	2.632817E-002	-2.803111E-003	-1.238373E-001	1.496385E-002
4.000000E+008	2.269394E-002	3.621974E-003	2.627728E-002	-2.879264E-003	2.630794E-002	-2.896263E-003	-1.235120E-001	1.529433E-002
4.100000E+008	2.270586E-002	3.619191E-003	2.627707E-002	-2.936305E-003	2.629712E-002	-2.940330E-003	-1.232398E-001	1.562370E-002
4.200000E+008	2.272450E-002	3.621868E-003	2.626265E-002	-3.014336E-003	2.628822E-002	-3.009685E-003	-1.229989E-001	1.603782E-002
4.300000E+008	2.276409E-002	3.657114E-003	2.626067E-002	-3.085682E-003	2.627192E-002	-3.075564E-003	-1.227948E-001	1.647244E-002
4.400000E+008	2.279682E-002	3.695493E-003	2.623233E-002	-3.143359E-003	2.626422E-002	-3.156415E-003	-1.225925E-001	1.691730E-002
4.500000E+008	2.285423E-002	3.709900E-003	2.621995E-002	-3.218541E-003	2.625346E-002	-3.199978E-003	-1.223968E-001	1.741023E-002
4.600000E+008	2.290429E-002	3.757869E-003	2.621140E-002	-3.293958E-003	2.623543E-002	-3.282579E-003	-1.221916E-001	1.787818E-002
4.700000E+008	2.294606E-002	3.811410E-003	2.619570E-002	-3.359069E-003	2.622638E-002	-3.352572E-003	-1.220100E-001	1.829859E-002
4.800000E+008	2.296828E-002	3.871188E-003	2.618498E-002	-3.421759E-003	2.619737E-002	-3.406015E-003	-1.218468E-001	1.872730E-002
4.900000E+008	2.296064E-002	3.934827E-003	2.617376E-002	-3.487430E-003	2.619185E-002	-3.480136E-003	-1.217020E-001	1.913521E-002
5.000000E+008	2.295929E-002	4.019439E-003	2.616016E-002	-3.541674E-003	2.617207E-002	-3.545874E-003	-1.215252E-001	1.954291E-002
5.100000E+008	2.297864E-002	4.067540E-003	2.613940E-002	-3.626099E-003	2.617304E-002	-3.613368E-003	-1.213362E-001	1.994192E-002
5.200000E+008	2.294895E-002	4.115301E-003	2.612346E-002	-3.699472E-003	2.615923E-002	-3.679801E-003	-1.211592E-001	2.034226E-002
5.300000E+008	2.293315E-002	4.144091E-003	2.611232E-002	-3.764084E-003	2.613193E-002	-3.759295E-003	-1.209264E-001	2.074406E-002
5.400000E+008	2.291625E-002	4.113161E-003	2.609913E-002	-3.838109E-003	2.610863E-002	-3.819905E-003	-1.206731E-001	2.113961E-002
5.500000E+008	2.288416E-002	4.117531E-003	2.608374E-002	-3.890264E-003	2.610646E-002	-3.887953E-003	-1.204614E-001	2.154217E-002
5.600000E+008	2.287976E-002	4.088819E-003	2.606015E-002	-3.965869E-003	2.607251E-002	-3.952807E-003	-1.202539E-001	2.197096E-002
5.700000E+008	2.290085E-002	4.057658E-003	2.603490E-002	-4.042904E-003	2.606490E-002	-4.009885E-003	-1.200667E-001	2.243490E-002
5.800000E+008	2.291593E-002	4.048921E-003	2.602432E-002	-4.104691E-003	2.604446E-002	-4.083209E-003	-1.198593E-001	2.288833E-002
5.900000E+008	2.295311E-002	4.004556E-003	2.602069E-002	-4.160942E-003	2.602246E-002	-4.162938E-003	-1.196806E-001	2.339853E-002
6.000000E+008	2.305231E-002	3.968241E-003	2.599789E-002	-4.230854E-003	2.602048E-002	-4.234805E-003	-1.194628E-001	2.385944E-002
6.100000E+008	2.313860E-002	3.980791E-003	2.597616E-002	-4.296423E-003	2.599865E-002	-4.301816E-003	-1.192784E-001	2.431729E-002
6.200000E+008	2.321553E-002	4.017989E-003	2.594899E-002	-4.356168E-003	2.598664E-002	-4.351343E-003	-1.190949E-001	2.475534E-002
6.300000E+008	2.331081E-002	4.055387E-003	2.594116E-002	-4.423734E-003	2.596264E-002	-4.423223E-003	-1.189024E-001	2.519572E-002
6.400000E+008	2.340804E-002	4.115192E-003	2.591363E-002	-4.484827E-003	2.595345E-002	-4.478891E-003	-1.187136E-001	2.563866E-002
6.500000E+008	2.347900E-002	4.194847E-003	2.591541E-002	-4.543823E-003	2.592324E-002	-4.542403E-003	-1.185527E-001	2.609067E-002
6.600000E+008	2.353503E-002	4.238967E-003	2.589639E-002	-4.615023E-003	2.590900E-002	-4.607394E-003	-1.183531E-001	2.653165E-002
6.700000E+008	2.353410E-002	4.316925E-003	2.587520E-002	-4.686115E-003	2.590242E-002	-4.675083E-003	-1.181596E-001	2.699881E-002
6.800000E+008	2.355518E-002	4.388282E-003	2.585931E-002	-4.739423E-003	2.586763E-002	-4.740800E-003	-1.179762E-001	2.748330E-002
6.900000E+008	2.356576E-002	4.464452E-003	2.584454E-002	-4.813717E-003	2.585239E-002	-4.822495E-003	-1.177687E-001	2.795740E-002
7.000000E+008	2.357892E-002	4.519010E-003	2.581639E-002	-4.862459E-003	2.583661E-002	-4.868340E-003	-1.176316E-001	2.844827E-002
7.100000E+008	2.359629E-002	4.567467E-003	2.580421E-002	-4.943335E-003	2.583124E-002	-4.937376E-003	-1.174882E-001	2.890237E-002
7.200000E+008	2.358300E-002	4.608500E-003	2.578179E-002	-4.994790E-003	2.580273E-002	-4.994674E-003	-1.173427E-001	2.935267E-002
7.300000E+008	2.358670E-002	4.630062E-003	2.575245E-002	-5.074843E-003	2.578776E-002	-5.069824E-003	-1.172110E-001	2.980525E-002
7.400000E+008	2.356871E-002	4.682181E-003	2.573780E-002	-5.129743E-003	2.577777E-002	-5.133588E-003	-1.171124E-001	3.021628E-002
7.500000E+008	2.358908E-002	4.677224E-003	2.572603E-002	-5.191819E-003	2.574802E-002	-5.193675E-003	-1.169889E-001	3.060733E-002
7.600000E+008	2.358193E-002	4.696112E-003	2.569709E-002	-5.257881E-003	2.573209E-002	-5.263105E-003	-1.168371E-001	3.100780E-002
7.700000E+008	2.358871E-002	4.686921E-003	2.568503E-002	-5.310755E-003	2.571621E-002	-5.323526E-003	-1.166882E-001	3.136627E-002
7.800000E+008	2.359993E-002	4.695298E-003	2.567074E-002	-5.381440E-003	2.568204E-002	-5.393987E-003	-1.164935E-001	3.173223E-002
7.900000E+008	2.362958E-002	4.638934E-003	2.564811E-002	-5.454884E-003	2.566588E-002	-5.463613E-003	-1.163261E-001	3.211202E-002
8.000000E+008	2.366989E-002	4.620736E-003	2.563389E-002	-5.522043E-003	2.564495E-002	-5.530085E-003	-1.160815E-001	3.251042E-002
8.100000E+008	2.371942E-002	4.592740E-003	2.561698E-002	-5.581124E-003	2.563440E-002	-5.590224E-003	-1.158273E-001	3.293427E-002
8.200000E+008	2.379969E-002	4.604226E-003	2.559908E-002	-5.651076E-003	2.559739E-002	-5.644917E-003	-1.155820E-001	3.334051E-002
8.300000E+008	2.389213E-002	4.583529E-003	2.556258E-002	-5.713182E-003	2.559589E-002	-5.707251E-003	-1.153445E-001	3.378116E-002
8.400000E+008	2.400425E-002	4.621731E-003	2.554226E-002	-5.766741E-003	2.556831E-002	-5.761134E-003	-1.151524E-001	3.420638E-002
8.500000E+008	2.407361E-002	4.650842E-003	2.552940E-002	-5.837856E-003	2.555585E-002	-5.817716E-003	-1.149875E-001	3.465383E-002
8.600000E+008	2.414899E-002	4.706363E-003	2.550904E-002	-5.888818E-003	2.552772E-002	-5.897893E-003	-1.148121E-001	3.506870E-002
8.700000E+008	2.421093E-002	4.788067E-003	2.549395E-002	-5.949836E-003	2.550034E-002	-5.959127E-003	-1.146559E-001	3.550170E-002
8.800000E+008	2.428204E-002	4.849483E-003	2.547307E-002	-6.025958E-003	2.547905E-002	-6.018396E-003	-1.144948E-001	3.588864E-002
8.900000E+008	2.432012E-002	4.924539E-003	2.544588E-002	-6.078356E-003	2.546732E-002	-6.085461E-003	-1.143404E-001	3.625759E-002
9.000000E+008	2.433590E-002	4.961722E-003	2.543635E-002	-6.138018E-003	2.543462E-002	-6.146860E-003	-1.141349E-001	3.664186E-002
9.100000E+008	2.434691E-002	4.998855E-003	2.539210E-002	-6.199643E-003	2.542516E-002	-6.203632E-003	-1.138917E-001	3.698873E-002
9.200000E+008	2.435199E-002	5.009896E-003	2.539118E-002	-6.258470E-003	2.540325E-002	-6.266327E-003	-1.136197E-001	3.737137E-002
9.300000E+008	2.440307E-002	5.029953E-003	2.536747E-002	-6.320486E-003	2.537180E-002	-6.328947E-003	-1.133366E-001	3.777402E-002
9.400000E+008	2.445934E-002	5.034579E-003	2.533867E-002	-6.383631E-003	2.535827E-002	-6.400648E-003	-1.129984E-001	3.821017E-002
9.500000E+008	2.452684E-002	5.037706E-003	2.532919E-002	-6.445925E-003	2.533994E-002	-6.458124E-003	-1.126786E-001	3.869082E-002
9.600000E+008	2.459005E-002	5.067585E-003	2.529660E-002	-6.501397E-003	2.533166E-002	-6.516984E-003	-1.123429E-001	3.915354E-002
9.700000E+008	2.467637E-002	5.115482E-003	2.528695E-002	-6.573260E-003	2.530070E-002	-6.572980E-003	-1.120474E-001	3.962872E-002
9.800000E+008	2.475905E-002	5.159877E-003	2.525453E-002	-6.634350E-003	2.528847E-002	-6.640643E-003	-1.117701E-001	4.013617E-002
9.900000E+008	2.482332E-002	5.223813E-003	2.523637E-002	-6.690785E-003	2.526445E-002	-6.691764E-003	-1.115108E-001	4.063756E-002
1.000000E+009	2.490633E-002	5.300907E-003	2.521449E-002	-6.751721E-003	2.524388E-002	-6.768988E-003	-1.113017E-001	4.109715E-002
1.010000E+009	2.495254E-002	5.372355E-003	2.520215E-002	-6.811954E-003	2.520630E-002	-6.835316E-003	-1.110543E-001	4.160216E-002
1.020000E+009	2.500370E-002	5.442972E-003	2.517523E-002	-6.863508E-003	2.520131E-002	-6.878085E-003	-1.108590E-001	4.207461E-002
1.030000E+009	2.504466E-002	5.513450E-003	2.514722E-002	-6.953573E-003	2.515888E-002	-6.942005E-003	-1.106353E-001	4.254600E-002
1.040000E+009	2.507013E-002	5.596313E-003	2.513428E-002	-7.007026E-003	2.515298E-002	-7.006230E-003	-1.104196E-001	4.301615E-002
1.050000E+009	2.510459E-002	5.643826E-003	2.511238E-002	-7.059055E-003	2.511988E-002	-7.058940E-003	-1.101597E-001	4.350046E-002
1.060000E+009	2.516523E-002	5.699454E-003	2.509375E-002	-7.134697E-003	2.510821E-002	-7.123037E-003	-1.098865E-001	4.397150E-002
1.070000E+009	2.518040E-002	5.761592E-003	2.506035E-002	-7.187597E-003	2.508300E-002	-7.182392E-003	-1.096050E-001	4.446553E-002
1.080000E+009	2.522770E-002	5.813468E-003	2.503579E-002	-7.255187E-003	2.506518E-002	-7.251614E-003	-1.093406E-001	4.496744E-002
1.090000E+009	2.525884E-002	5.862670E-003	2.501090E-002	-7.294940E-003	2.505567E-002	-7.320476E-003	-1.091095E-001	4.544914E-002
1.100000E+009	2.531333E-002	5.914082E-003	2.499675E-002	-7.361305E-003	2.503188E-002	-7.378204E-003	-1.088791E-001	4.594297E-002
1.110000E+009	2.536068E-002	5.978286E-003	2.497712E-002	-7.418147E-003	2.498161E-002	-7.429352E-003	-1.086481E-001	4.640868E-002
1.120000E+009	2.535658E-002	6.027121E-003	2.494435E-002	-7.480675E-003	2.497253E-002	-7.487034E-003	-1.084732E-001	4.685721E-002
1.130000E+009	2.540500E-002	6.060150E-003	2.493268E-002	-7.536119E-003	2.494157E-002	-7.547027E-003	-1.082630E-001	4.731403E-002
1.140000E+009	2.542105E-002	6.116994E-003	2.490755E-002	-7.608490E-003	2.492752E-002	-7.611119E-003	-1.080173E-001	4.777666E-002
1.150000E+009	2.547833E-002	6.172753E-003	2.486844E-002	-7.678238E-003	2.490080E-002	-7.685899E-003	-1.077581E-001	4.823874E-002
1.160000E+009	2.551788E-002	6.219693E-003	2.484939E-002	-7.739677E-003	2.488169E-002	-7.739112E-003	-1.074924E-001	4.867596E-002
1.170000E+009	2.554634E-002	6.265991E-003	2.482462E-002	-7.782563E-003	2.484444E-002	-7.783965E-003	-1.072429E-001	4.916553E-002
1.180000E+009	2.559713E-002	6.315404E-003	2.479638E-002	-7.866493E-003	2.484021E-002	-7.880352E-003	-1.069444E-001	4.963600E-002
1.190000E+009	2.560245E-002	6.384499E-003	2.477875E-002	-7.911577E-003	2.479912E-002	-7.923377E-003	-1.066732E-001	5.016646E-002
1.200000E+009	2.565290E-002	6.439803E-003	2.475261E-002	-7.979849E-003	2.476614E-002	-7.974860E-003	-1.063726E-001	5.067251E-002
1.210000E+009	2.570148E-002	6.442987E-003	2.472711E-002	-8.037903E-003	2.474971E-002	-8.024958E-003	-1.061153E-001	5.118748E-002
1.220000E+009	2.573434E-002	6.443779E-003	2.470693E-002	-8.107029E-003	2.472947E-002	-8.103287E-003	-1.059062E-001	5.168190E-002
1.230000E+009	2.575973E-002	6.489185E-003	2.468140E-002	-8.142383E-003	2.469579E-002	-8.156641E-003	-1.056685E-001	5.211774E-002
1.240000E+009	2.583107E-002	6.490233E-003	2.465431E-002	-8.207323E-003	2.469213E-002	-8.227240E-003	-1.054543E-001	5.255746E-002
1.250000E+009	2.591474E-002	6.487652E-003	2.463958E-002	-8.269210E-003	2.465169E-002	-8.283568E-003	-1.052382E-001	5.302170E-002
1.260000E+009	2.597374E-002	6.524586E-003	2.460533E-002	-8.338451E-003	2.461621E-002	-8.335193E-003	-1.049873E-001	5.342050E-002
1.270000E+009	2.609793E-002	6.562417E-003	2.456920E-002	-8.399607E-003	2.460825E-002	-8.388980E-003	-1.046938E-001	5.380669E-002
1.280000E+009	2.616963E-002	6.577338E-003	2.455388E-002	-8.452325E-003	2.456859E-002	-8.469765E-003	-1.044045E-001	5.420022E-002
1.290000E+009	2.627311E-002	6.664076E-003	2.453886E-002	-8.519461E-003	2.455833E-002	-8.536402E-003	-1.040770E-001	5.461429E-002
1.300000E+009	2.636024E-002	6.762814E-003	2.449753E-002	-8.585248E-003	2.452108E-002	-8.584807E-003	-1.037099E-001	5.504361E-002
1.310000E+009	2.643170E-002	6.808689E-003	2.447548E-002	-8.656504E-003	2.448788E-002	-8.642092E-003	-1.033594E-001	5.550306E-002
1.320000E+009	2.647991E-002	6.908309E-003	2.445047E-002	-8.710508E-003	2.445562E-002	-8.715949E-003	-1.029776E-001	5.599769E-002
1.330000E+009	2.656326E-002	6.985988E-003	2.442983E-002	-8.752870E-003	2.445175E-002	-8.769924E-003	-1.025510E-001	5.653197E-002
1.340000E+009	2.658110E-002	7.077603E-003	2.439618E-002	-8.820316E-003	2.441584E-002	-8.826652E-003	-1.021733E-001	5.708881E-002
1.350000E+009	2.661914E-002	7.145674E-003	2.436649E-002	-8.870750E-003	2.437286E-002	-8.899237E-003	-1.017977E-001	5.768064E-002
1.360000E+009	2.670338E-002	7.217827E-003	2.434823E-002	-8.933179E-003	2.437406E-002	-8.949026E-003	-1.014411E-001	5.826122E-002
1.370000E+009	2.674955E-002	7.288201E-003	2.431927E-002	-9.004319E-003	2.433868E-002	-9.016336E-003	-1.011267E-001	5.886178E-002
1.380000E+009	2.682662E-002	7.336367E-003	2.428545E-002	-9.080586E-003	2.431436E-002	-9.067652E-003	-1.008058E-001	5.945215E-002
1.390000E+009	2.690266E-002	7.404822E-003	2.426541E-002	-9.116466E-003	2.427643E-002	-9.115048E-003	-1.005017E-001	6.004603E-002
1.400000E+009	2.693558E-002	7.453802E-003	2.420662E-002	-9.184792E-003	2.423316E-002	-9.186346E-003	-1.002399E-001	6.062682E-002
1.410000E+009	2.698105E-002	7.543500E-003	2.419306E-002	-9.236546E-003	2.421235E-002	-9.253835E-003	-9.995859E-002	6.119544E-002
1.420000E+009	2.702079E-002	7.629256E-003	2.415545E-002	-9.309287E-003	2.418129E-002	-9.298456E-003	-9.968062E-002	6.174434E-002
1.430000E+009	2.711434E-002	7.727458E-003	2.413226E-002	-9.356896E-003	2.414778E-002	-9.358066E-003	-9.937549E-002	6.226558E-002
1.440000E+009	2.712090E-002	7.793443E-003	2.411548E-002	-9.406450E-003	2.412318E-002	-9.424688E-003	-9.911269E-002	6.277037E-002
1.450000E+009	2.716216E-002	7.863790E-003	2.406540E-002	-9.478011E-003	2.409731E-002	-9.480184E-003	-9.877308E-002	6.329902E-002
1.460000E+009	2.717060E-002	7.939373E-003	2.402675E-002	-9.533388E-003	2.405790E-002	-9.530344E-003	-9.844529E-002	6.384078E-002
1.470000E+009	2.722202E-002	7.958521E-003	2.400127E-002	-9.597344E-003	2.403315E-002	-9.586746E-003	-9.809257E-002	6.437521E-002
1.480000E+009	2.725562E-002	8.037997E-003	2.397565E-002	-9.641113E-003	2.398886E-002	-9.654889E-003	-9.774599E-002	6.495915E-002
1.490000E+009	2.730192E-002	8.088752E-003	2.394165E-002	-9.708263E-003	2.396765E-002	-9.715445E-003	-9.737534E-002	6.554212E-002
1.500000E+009	2.737509E-002	8.123113E-003	2.392635E-002	-9.766402E-003	2.394985E-002	-9.763611E-003	-9.699623E-002	6.613621E-002
1.510000E+009	2.745871E-002	8.191330E-003	2.387630E-002	-9.816541E-003	2.390748E-002	-9.817604E-003	-9.663764E-002	6.672548E-002
