! Device ID: PE43711P
! File Path: z:\PE43711P\CHAR_NOM_04282014\AMB\3p300\LS_ATT_13p75dB\PE43711P_AMB_3p300V_3p000V_0p000V_LS_ATT_13p75dB_S2P_SN_5_A0137A.s2p
! Serial: 5
! Lot: A0137A
! Temp: 25C
! VDD: 3.300
! VSS: 0.000
! Control_Hi: 3.000
! Control_Lo: 0.000
! Attenuation Step: 13.75dB
! Port 1: RF1
! Port 2: RF2
! ThroughPath:1-2
! IDD: 0.0001280814
! ISS: -2.092e-007
!

#  Hz  S   RI  R   50

1.000000E+007	7.416353E-002	-5.459383E-005	1.796102E-001	-8.433960E-004	1.798799E-001	-8.999943E-004	-1.060196E-001	8.396915E-004
2.000000E+007	7.435079E-002	-2.801908E-004	1.796248E-001	-1.387990E-003	1.797441E-001	-1.416429E-003	-1.057377E-001	1.413119E-003
3.000000E+007	7.460688E-002	-5.784033E-004	1.796265E-001	-2.090035E-003	1.797534E-001	-2.106202E-003	-1.054341E-001	1.853477E-003
4.000000E+007	7.473066E-002	-9.048735E-004	1.796186E-001	-2.795535E-003	1.797336E-001	-2.807763E-003	-1.052361E-001	2.363464E-003
5.000000E+007	7.482418E-002	-1.258347E-003	1.796093E-001	-3.547505E-003	1.797764E-001	-3.541708E-003	-1.051939E-001	2.853103E-003
6.000000E+007	7.497195E-002	-1.645663E-003	1.795693E-001	-4.220772E-003	1.797424E-001	-4.241288E-003	-1.050497E-001	3.240549E-003
7.000000E+007	7.506380E-002	-2.051317E-003	1.795194E-001	-4.910163E-003	1.796740E-001	-4.922742E-003	-1.048825E-001	3.621757E-003
8.000000E+007	7.517484E-002	-2.453727E-003	1.794893E-001	-5.557686E-003	1.796375E-001	-5.585035E-003	-1.047127E-001	3.997935E-003
9.000000E+007	7.525485E-002	-2.838100E-003	1.794501E-001	-6.247448E-003	1.795960E-001	-6.280146E-003	-1.045822E-001	4.328187E-003
1.000000E+008	7.534576E-002	-3.235702E-003	1.794317E-001	-6.953917E-003	1.795460E-001	-6.956337E-003	-1.045001E-001	4.665822E-003
1.100000E+008	7.541386E-002	-3.632057E-003	1.793645E-001	-7.665186E-003	1.795110E-001	-7.642631E-003	-1.044095E-001	4.974453E-003
1.200000E+008	7.549338E-002	-4.082748E-003	1.792680E-001	-8.345382E-003	1.794517E-001	-8.344422E-003	-1.043364E-001	5.252882E-003
1.300000E+008	7.554898E-002	-4.491718E-003	1.792302E-001	-9.009193E-003	1.793893E-001	-9.037308E-003	-1.042150E-001	5.524768E-003
1.400000E+008	7.556368E-002	-4.877624E-003	1.791664E-001	-9.688187E-003	1.793144E-001	-9.730214E-003	-1.040524E-001	5.795902E-003
1.500000E+008	7.551734E-002	-5.253629E-003	1.790994E-001	-1.034170E-002	1.792109E-001	-1.038687E-002	-1.039565E-001	6.067808E-003
1.600000E+008	7.548306E-002	-5.571316E-003	1.790558E-001	-1.101931E-002	1.791227E-001	-1.100579E-002	-1.038962E-001	6.342732E-003
1.700000E+008	7.549162E-002	-5.941995E-003	1.789970E-001	-1.172665E-002	1.791439E-001	-1.170020E-002	-1.038744E-001	6.601676E-003
1.800000E+008	7.542199E-002	-6.345106E-003	1.788465E-001	-1.246479E-002	1.790764E-001	-1.243440E-002	-1.038128E-001	6.862499E-003
1.900000E+008	7.530782E-002	-6.753583E-003	1.787183E-001	-1.310600E-002	1.789778E-001	-1.311529E-002	-1.037643E-001	7.057531E-003
2.000000E+008	7.521765E-002	-7.177161E-003	1.786468E-001	-1.373797E-002	1.788435E-001	-1.375548E-002	-1.036641E-001	7.264552E-003
2.100000E+008	7.509237E-002	-7.643945E-003	1.785806E-001	-1.439351E-002	1.787346E-001	-1.440428E-002	-1.035473E-001	7.424092E-003
2.200000E+008	7.499533E-002	-8.093652E-003	1.785004E-001	-1.503572E-002	1.786509E-001	-1.505465E-002	-1.034101E-001	7.569631E-003
2.300000E+008	7.489805E-002	-8.538574E-003	1.784221E-001	-1.569909E-002	1.785483E-001	-1.570178E-002	-1.032801E-001	7.725248E-003
2.400000E+008	7.482128E-002	-8.990325E-003	1.783347E-001	-1.637972E-002	1.784390E-001	-1.635953E-002	-1.031204E-001	7.914534E-003
2.500000E+008	7.472793E-002	-9.418351E-003	1.782209E-001	-1.704589E-002	1.783391E-001	-1.702371E-002	-1.029503E-001	8.069657E-003
2.600000E+008	7.470235E-002	-9.861453E-003	1.780862E-001	-1.770556E-002	1.782354E-001	-1.769903E-002	-1.027517E-001	8.309842E-003
2.700000E+008	7.462598E-002	-1.027327E-002	1.779560E-001	-1.834975E-002	1.781226E-001	-1.836298E-002	-1.025093E-001	8.561464E-003
2.800000E+008	7.460025E-002	-1.066452E-002	1.778438E-001	-1.897635E-002	1.780052E-001	-1.898085E-002	-1.022933E-001	8.821749E-003
2.900000E+008	7.449774E-002	-1.101350E-002	1.777454E-001	-1.962459E-002	1.778811E-001	-1.961865E-002	-1.021580E-001	9.084989E-003
3.000000E+008	7.443192E-002	-1.134709E-002	1.776628E-001	-2.028789E-002	1.777842E-001	-2.027692E-002	-1.019931E-001	9.392839E-003
3.100000E+008	7.433045E-002	-1.168127E-002	1.775467E-001	-2.093395E-002	1.776905E-001	-2.093396E-002	-1.018642E-001	9.710716E-003
3.200000E+008	7.421220E-002	-1.197309E-002	1.774183E-001	-2.160974E-002	1.775731E-001	-2.159148E-002	-1.017628E-001	1.000526E-002
3.300000E+008	7.405782E-002	-1.227912E-002	1.772923E-001	-2.224914E-002	1.774549E-001	-2.228226E-002	-1.016645E-001	1.027237E-002
3.400000E+008	7.383389E-002	-1.260442E-002	1.771552E-001	-2.289473E-002	1.772609E-001	-2.294982E-002	-1.015321E-001	1.051863E-002
3.500000E+008	7.360500E-002	-1.295228E-002	1.770224E-001	-2.356666E-002	1.770776E-001	-2.355967E-002	-1.013971E-001	1.069925E-002
3.600000E+008	7.340682E-002	-1.326976E-002	1.768890E-001	-2.420978E-002	1.769455E-001	-2.414537E-002	-1.012218E-001	1.092703E-002
3.700000E+008	7.319763E-002	-1.363064E-002	1.767240E-001	-2.482411E-002	1.768201E-001	-2.474719E-002	-1.010592E-001	1.109026E-002
3.800000E+008	7.302330E-002	-1.400918E-002	1.765976E-001	-2.543454E-002	1.767503E-001	-2.539333E-002	-1.008593E-001	1.130153E-002
3.900000E+008	7.281194E-002	-1.442191E-002	1.764201E-001	-2.608779E-002	1.766090E-001	-2.604792E-002	-1.005648E-001	1.156428E-002
4.000000E+008	7.265051E-002	-1.483727E-002	1.762604E-001	-2.669503E-002	1.764606E-001	-2.669649E-002	-1.002649E-001	1.182992E-002
4.100000E+008	7.246573E-002	-1.523011E-002	1.761187E-001	-2.728734E-002	1.762842E-001	-2.733967E-002	-9.998992E-002	1.206526E-002
4.200000E+008	7.229044E-002	-1.561039E-002	1.760092E-001	-2.790212E-002	1.761364E-001	-2.793332E-002	-9.975716E-002	1.239055E-002
4.300000E+008	7.212926E-002	-1.595144E-002	1.758751E-001	-2.854786E-002	1.759959E-001	-2.856297E-002	-9.954547E-002	1.273457E-002
4.400000E+008	7.198126E-002	-1.627800E-002	1.757327E-001	-2.919107E-002	1.758543E-001	-2.919328E-002	-9.934743E-002	1.312623E-002
4.500000E+008	7.183758E-002	-1.661757E-002	1.755876E-001	-2.981336E-002	1.757114E-001	-2.982902E-002	-9.916124E-002	1.353171E-002
4.600000E+008	7.170008E-002	-1.695613E-002	1.754137E-001	-3.045347E-002	1.755440E-001	-3.046602E-002	-9.897588E-002	1.393013E-002
4.700000E+008	7.152528E-002	-1.726073E-002	1.752634E-001	-3.105511E-002	1.753715E-001	-3.108387E-002	-9.882695E-002	1.426307E-002
4.800000E+008	7.131916E-002	-1.753620E-002	1.751004E-001	-3.165375E-002	1.751943E-001	-3.168540E-002	-9.868530E-002	1.462420E-002
4.900000E+008	7.111048E-002	-1.784007E-002	1.749364E-001	-3.228241E-002	1.750342E-001	-3.230368E-002	-9.856514E-002	1.494858E-002
5.000000E+008	7.089925E-002	-1.812381E-002	1.747783E-001	-3.290044E-002	1.748711E-001	-3.288997E-002	-9.841283E-002	1.526137E-002
5.100000E+008	7.070158E-002	-1.843216E-002	1.746211E-001	-3.349588E-002	1.747325E-001	-3.349727E-002	-9.823234E-002	1.557600E-002
5.200000E+008	7.048783E-002	-1.874773E-002	1.744286E-001	-3.412758E-002	1.745869E-001	-3.413169E-002	-9.804902E-002	1.587097E-002
5.300000E+008	7.028423E-002	-1.908191E-002	1.742750E-001	-3.475249E-002	1.744271E-001	-3.476563E-002	-9.781273E-002	1.617497E-002
5.400000E+008	7.003394E-002	-1.946641E-002	1.740899E-001	-3.535574E-002	1.742405E-001	-3.537854E-002	-9.756944E-002	1.648687E-002
5.500000E+008	6.980073E-002	-1.976762E-002	1.739248E-001	-3.597318E-002	1.740515E-001	-3.599051E-002	-9.737086E-002	1.683191E-002
5.600000E+008	6.958301E-002	-2.013361E-002	1.737428E-001	-3.656176E-002	1.738462E-001	-3.658863E-002	-9.714542E-002	1.718043E-002
5.700000E+008	6.937455E-002	-2.048522E-002	1.735494E-001	-3.715815E-002	1.736760E-001	-3.718343E-002	-9.700089E-002	1.757433E-002
5.800000E+008	6.919156E-002	-2.082476E-002	1.733670E-001	-3.776506E-002	1.735085E-001	-3.778281E-002	-9.684584E-002	1.795795E-002
5.900000E+008	6.900070E-002	-2.118920E-002	1.731878E-001	-3.839204E-002	1.733239E-001	-3.840946E-002	-9.668562E-002	1.837146E-002
6.000000E+008	6.886284E-002	-2.154661E-002	1.729969E-001	-3.899862E-002	1.731347E-001	-3.903000E-002	-9.649250E-002	1.872559E-002
6.100000E+008	6.872166E-002	-2.186812E-002	1.728172E-001	-3.957931E-002	1.729168E-001	-3.962236E-002	-9.635243E-002	1.909067E-002
6.200000E+008	6.858325E-002	-2.216661E-002	1.726105E-001	-4.017674E-002	1.727360E-001	-4.021602E-002	-9.617440E-002	1.943919E-002
6.300000E+008	6.845490E-002	-2.243566E-002	1.724260E-001	-4.075803E-002	1.725309E-001	-4.080018E-002	-9.600521E-002	1.979566E-002
6.400000E+008	6.834573E-002	-2.272501E-002	1.722297E-001	-4.134743E-002	1.723634E-001	-4.139413E-002	-9.581767E-002	2.014223E-002
6.500000E+008	6.820533E-002	-2.296149E-002	1.720528E-001	-4.194959E-002	1.721684E-001	-4.198478E-002	-9.563592E-002	2.052893E-002
6.600000E+008	6.804220E-002	-2.321172E-002	1.718514E-001	-4.254790E-002	1.719480E-001	-4.258116E-002	-9.546962E-002	2.089065E-002
6.700000E+008	6.781949E-002	-2.343640E-002	1.716523E-001	-4.312751E-002	1.717582E-001	-4.318988E-002	-9.530291E-002	2.127971E-002
6.800000E+008	6.759138E-002	-2.367596E-002	1.714480E-001	-4.371963E-002	1.715727E-001	-4.376017E-002	-9.512761E-002	2.169567E-002
6.900000E+008	6.737196E-002	-2.389442E-002	1.712464E-001	-4.430852E-002	1.713525E-001	-4.434529E-002	-9.496092E-002	2.212396E-002
7.000000E+008	6.716802E-002	-2.412279E-002	1.710317E-001	-4.489246E-002	1.711483E-001	-4.491003E-002	-9.485516E-002	2.251920E-002
7.100000E+008	6.692050E-002	-2.438786E-002	1.708292E-001	-4.545098E-002	1.709551E-001	-4.549831E-002	-9.473904E-002	2.290151E-002
7.200000E+008	6.669653E-002	-2.464376E-002	1.706376E-001	-4.604256E-002	1.707615E-001	-4.608494E-002	-9.462461E-002	2.324410E-002
7.300000E+008	6.646130E-002	-2.493283E-002	1.704208E-001	-4.661885E-002	1.705710E-001	-4.668816E-002	-9.453257E-002	2.360830E-002
7.400000E+008	6.622233E-002	-2.517853E-002	1.701991E-001	-4.720660E-002	1.703412E-001	-4.725779E-002	-9.444289E-002	2.392781E-002
7.500000E+008	6.601271E-002	-2.546039E-002	1.699979E-001	-4.778954E-002	1.701260E-001	-4.785032E-002	-9.432812E-002	2.422127E-002
7.600000E+008	6.579132E-002	-2.573447E-002	1.697786E-001	-4.837093E-002	1.699161E-001	-4.842435E-002	-9.420514E-002	2.452250E-002
7.700000E+008	6.556813E-002	-2.603687E-002	1.695636E-001	-4.894838E-002	1.697049E-001	-4.899641E-002	-9.406972E-002	2.481857E-002
7.800000E+008	6.536070E-002	-2.629451E-002	1.693482E-001	-4.950730E-002	1.694936E-001	-4.955755E-002	-9.390793E-002	2.509109E-002
7.900000E+008	6.515073E-002	-2.663291E-002	1.691349E-001	-5.010682E-002	1.692838E-001	-5.015921E-002	-9.375549E-002	2.541908E-002
8.000000E+008	6.493439E-002	-2.693530E-002	1.689307E-001	-5.068169E-002	1.690271E-001	-5.072440E-002	-9.355463E-002	2.573195E-002
8.100000E+008	6.474103E-002	-2.723977E-002	1.686863E-001	-5.123698E-002	1.687999E-001	-5.129371E-002	-9.332480E-002	2.609282E-002
8.200000E+008	6.458038E-002	-2.751771E-002	1.684711E-001	-5.181674E-002	1.685816E-001	-5.185463E-002	-9.312104E-002	2.642030E-002
8.300000E+008	6.443956E-002	-2.780299E-002	1.682512E-001	-5.236481E-002	1.683683E-001	-5.243441E-002	-9.294197E-002	2.675748E-002
8.400000E+008	6.429635E-002	-2.805630E-002	1.680076E-001	-5.293310E-002	1.681456E-001	-5.300865E-002	-9.274368E-002	2.710659E-002
8.500000E+008	6.415652E-002	-2.829736E-002	1.677900E-001	-5.352062E-002	1.679163E-001	-5.357768E-002	-9.262409E-002	2.745258E-002
8.600000E+008	6.398641E-002	-2.852630E-002	1.675572E-001	-5.407181E-002	1.676622E-001	-5.413752E-002	-9.247711E-002	2.780084E-002
8.700000E+008	6.381717E-002	-2.870039E-002	1.673505E-001	-5.462999E-002	1.674482E-001	-5.469947E-002	-9.232579E-002	2.811146E-002
8.800000E+008	6.365368E-002	-2.891453E-002	1.671113E-001	-5.522286E-002	1.672420E-001	-5.525530E-002	-9.217932E-002	2.844905E-002
8.900000E+008	6.343381E-002	-2.911466E-002	1.668494E-001	-5.577395E-002	1.669928E-001	-5.583105E-002	-9.206206E-002	2.875418E-002
9.000000E+008	6.320806E-002	-2.930981E-002	1.666143E-001	-5.632817E-002	1.667546E-001	-5.640222E-002	-9.187618E-002	2.907045E-002
9.100000E+008	6.298762E-002	-2.953118E-002	1.663866E-001	-5.690196E-002	1.665228E-001	-5.695249E-002	-9.166881E-002	2.936201E-002
9.200000E+008	6.274571E-002	-2.975650E-002	1.661356E-001	-5.745553E-002	1.662955E-001	-5.751953E-002	-9.142908E-002	2.966668E-002
9.300000E+008	6.255256E-002	-3.001216E-002	1.658992E-001	-5.799756E-002	1.660299E-001	-5.807608E-002	-9.119021E-002	2.998238E-002
9.400000E+008	6.236085E-002	-3.025533E-002	1.656697E-001	-5.853625E-002	1.658082E-001	-5.863063E-002	-9.090394E-002	3.033439E-002
9.500000E+008	6.216779E-002	-3.051786E-002	1.654238E-001	-5.911272E-002	1.655527E-001	-5.918614E-002	-9.060327E-002	3.070584E-002
9.600000E+008	6.199154E-002	-3.071370E-002	1.651681E-001	-5.967353E-002	1.653168E-001	-5.973163E-002	-9.029404E-002	3.107340E-002
9.700000E+008	6.184587E-002	-3.093215E-002	1.649232E-001	-6.020897E-002	1.650653E-001	-6.030465E-002	-9.002562E-002	3.147252E-002
9.800000E+008	6.169648E-002	-3.112248E-002	1.646991E-001	-6.075969E-002	1.648318E-001	-6.085585E-002	-8.976501E-002	3.191300E-002
9.900000E+008	6.153205E-002	-3.130022E-002	1.644422E-001	-6.130713E-002	1.645875E-001	-6.141496E-002	-8.951603E-002	3.233026E-002
1.000000E+009	6.136815E-002	-3.148156E-002	1.642071E-001	-6.185814E-002	1.643167E-001	-6.195317E-002	-8.934739E-002	3.271747E-002
1.010000E+009	6.116955E-002	-3.160955E-002	1.639571E-001	-6.241344E-002	1.640773E-001	-6.249823E-002	-8.914018E-002	3.314962E-002
1.020000E+009	6.095602E-002	-3.177890E-002	1.637101E-001	-6.296177E-002	1.638137E-001	-6.306565E-002	-8.896382E-002	3.357449E-002
1.030000E+009	6.076596E-002	-3.192233E-002	1.634320E-001	-6.353290E-002	1.635669E-001	-6.358369E-002	-8.878063E-002	3.397845E-002
1.040000E+009	6.053946E-002	-3.208471E-002	1.631716E-001	-6.404711E-002	1.633108E-001	-6.414123E-002	-8.859895E-002	3.436753E-002
1.050000E+009	6.032142E-002	-3.226278E-002	1.629300E-001	-6.461188E-002	1.630502E-001	-6.467863E-002	-8.839270E-002	3.476500E-002
1.060000E+009	6.012567E-002	-3.244219E-002	1.626677E-001	-6.513458E-002	1.627782E-001	-6.520881E-002	-8.816561E-002	3.517862E-002
1.070000E+009	5.989973E-002	-3.263642E-002	1.623936E-001	-6.568778E-002	1.625320E-001	-6.573914E-002	-8.792272E-002	3.555304E-002
1.080000E+009	5.970812E-002	-3.281396E-002	1.621307E-001	-6.623098E-002	1.622794E-001	-6.629637E-002	-8.767962E-002	3.598181E-002
1.090000E+009	5.950577E-002	-3.300672E-002	1.618704E-001	-6.678230E-002	1.620026E-001	-6.684345E-002	-8.747760E-002	3.636135E-002
1.100000E+009	5.933397E-002	-3.317015E-002	1.615779E-001	-6.733119E-002	1.617496E-001	-6.737821E-002	-8.727081E-002	3.679386E-002
1.110000E+009	5.912729E-002	-3.332590E-002	1.613119E-001	-6.786161E-002	1.614667E-001	-6.792644E-002	-8.705429E-002	3.718154E-002
1.120000E+009	5.889973E-002	-3.351112E-002	1.610793E-001	-6.839200E-002	1.612120E-001	-6.847361E-002	-8.692307E-002	3.756081E-002
1.130000E+009	5.870396E-002	-3.367207E-002	1.607850E-001	-6.893910E-002	1.609451E-001	-6.901008E-002	-8.672022E-002	3.795240E-002
1.140000E+009	5.847439E-002	-3.383155E-002	1.605252E-001	-6.948507E-002	1.606633E-001	-6.956083E-002	-8.651780E-002	3.834765E-002
1.150000E+009	5.825636E-002	-3.400136E-002	1.602541E-001	-7.003359E-002	1.603863E-001	-7.007840E-002	-8.633409E-002	3.874664E-002
1.160000E+009	5.802746E-002	-3.416114E-002	1.599649E-001	-7.056861E-002	1.600927E-001	-7.063600E-002	-8.611748E-002	3.911320E-002
1.170000E+009	5.781031E-002	-3.431597E-002	1.596647E-001	-7.109532E-002	1.598223E-001	-7.115278E-002	-8.588686E-002	3.953765E-002
1.180000E+009	5.760995E-002	-3.452474E-002	1.593844E-001	-7.163823E-002	1.595399E-001	-7.168400E-002	-8.562832E-002	3.992856E-002
1.190000E+009	5.738024E-002	-3.468955E-002	1.591067E-001	-7.215657E-002	1.592167E-001	-7.222493E-002	-8.540657E-002	4.035303E-002
1.200000E+009	5.717843E-002	-3.484326E-002	1.588390E-001	-7.269804E-002	1.589521E-001	-7.273034E-002	-8.516650E-002	4.076751E-002
1.210000E+009	5.698510E-002	-3.505623E-002	1.585245E-001	-7.321067E-002	1.586512E-001	-7.328095E-002	-8.491519E-002	4.118587E-002
1.220000E+009	5.677538E-002	-3.525960E-002	1.582578E-001	-7.373126E-002	1.583887E-001	-7.380505E-002	-8.472513E-002	4.163268E-002
1.230000E+009	5.656192E-002	-3.542251E-002	1.579541E-001	-7.427001E-002	1.580555E-001	-7.435202E-002	-8.453919E-002	4.201433E-002
1.240000E+009	5.638781E-002	-3.562376E-002	1.576560E-001	-7.480158E-002	1.577770E-001	-7.484415E-002	-8.434962E-002	4.241281E-002
1.250000E+009	5.620307E-002	-3.580613E-002	1.573627E-001	-7.532637E-002	1.575168E-001	-7.537276E-002	-8.419157E-002	4.278642E-002
1.260000E+009	5.598659E-002	-3.600170E-002	1.570713E-001	-7.584299E-002	1.572040E-001	-7.592937E-002	-8.396061E-002	4.311709E-002
1.270000E+009	5.586284E-002	-3.615963E-002	1.567552E-001	-7.639028E-002	1.568952E-001	-7.642971E-002	-8.372927E-002	4.344662E-002
1.280000E+009	5.566668E-002	-3.631025E-002	1.564782E-001	-7.691205E-002	1.565939E-001	-7.695433E-002	-8.348740E-002	4.376934E-002
1.290000E+009	5.550470E-002	-3.646810E-002	1.561622E-001	-7.744014E-002	1.563025E-001	-7.746517E-002	-8.320204E-002	4.409786E-002
1.300000E+009	5.534481E-002	-3.656460E-002	1.558411E-001	-7.792581E-002	1.559971E-001	-7.800687E-002	-8.289097E-002	4.443457E-002
1.310000E+009	5.515974E-002	-3.672706E-002	1.555468E-001	-7.846302E-002	1.556743E-001	-7.850549E-002	-8.256913E-002	4.482445E-002
1.320000E+009	5.496657E-002	-3.684500E-002	1.552437E-001	-7.898938E-002	1.553952E-001	-7.905281E-002	-8.221108E-002	4.522665E-002
1.330000E+009	5.477180E-002	-3.693988E-002	1.549319E-001	-7.949843E-002	1.550830E-001	-7.956911E-002	-8.182406E-002	4.571508E-002
1.340000E+009	5.457362E-002	-3.703517E-002	1.546226E-001	-8.000635E-002	1.547629E-001	-8.009849E-002	-8.149545E-002	4.618661E-002
1.350000E+009	5.433727E-002	-3.714926E-002	1.542912E-001	-8.051857E-002	1.544244E-001	-8.060559E-002	-8.116147E-002	4.671426E-002
1.360000E+009	5.417514E-002	-3.726947E-002	1.539634E-001	-8.102943E-002	1.541218E-001	-8.112348E-002	-8.082844E-002	4.724186E-002
1.370000E+009	5.395655E-002	-3.738316E-002	1.536483E-001	-8.154703E-002	1.537963E-001	-8.161390E-002	-8.055688E-002	4.779560E-002
1.380000E+009	5.374141E-002	-3.750768E-002	1.533243E-001	-8.207575E-002	1.534642E-001	-8.214648E-002	-8.028837E-002	4.829788E-002
1.390000E+009	5.353934E-002	-3.763059E-002	1.530171E-001	-8.258012E-002	1.531400E-001	-8.265266E-002	-8.007343E-002	4.886261E-002
1.400000E+009	5.333626E-002	-3.775453E-002	1.526561E-001	-8.309125E-002	1.528236E-001	-8.313813E-002	-7.983886E-002	4.934966E-002
1.410000E+009	5.310867E-002	-3.785660E-002	1.523335E-001	-8.358304E-002	1.524862E-001	-8.364157E-002	-7.960141E-002	4.986537E-002
1.420000E+009	5.290303E-002	-3.796206E-002	1.520066E-001	-8.406865E-002	1.521626E-001	-8.414041E-002	-7.936606E-002	5.030295E-002
1.430000E+009	5.271461E-002	-3.806683E-002	1.516825E-001	-8.458916E-002	1.518535E-001	-8.465290E-002	-7.910915E-002	5.077501E-002
1.440000E+009	5.249287E-002	-3.818886E-002	1.513504E-001	-8.507841E-002	1.515040E-001	-8.512303E-002	-7.885458E-002	5.123223E-002
1.450000E+009	5.225088E-002	-3.829398E-002	1.510156E-001	-8.556929E-002	1.511464E-001	-8.563260E-002	-7.856074E-002	5.168099E-002
1.460000E+009	5.202118E-002	-3.839188E-002	1.506736E-001	-8.608288E-002	1.507941E-001	-8.615139E-002	-7.828080E-002	5.215943E-002
1.470000E+009	5.179462E-002	-3.851323E-002	1.503335E-001	-8.659128E-002	1.504802E-001	-8.665194E-002	-7.798988E-002	5.265321E-002
1.480000E+009	5.156345E-002	-3.859783E-002	1.499835E-001	-8.705362E-002	1.501094E-001	-8.713760E-002	-7.769142E-002	5.318825E-002
1.490000E+009	5.133168E-002	-3.871393E-002	1.496396E-001	-8.755622E-002	1.497711E-001	-8.761560E-002	-7.737755E-002	5.371924E-002
1.500000E+009	5.113338E-002	-3.883233E-002	1.493019E-001	-8.803226E-002	1.494194E-001	-8.810754E-002	-7.706353E-002	5.425475E-002
