! Device ID: PE43711P
! File Path: z:\PE43711P\CHAR_NOM_04282014\AMB\3p300\LS_ATT_19p00dB\PE43711P_AMB_3p300V_3p000V_0p000V_LS_ATT_19p00dB_S2P_SN_5_A0137A.s2p
! Serial: 5
! Lot: A0137A
! Temp: 25C
! VDD: 3.300
! VSS: 0.000
! Control_Hi: 3.000
! Control_Lo: 0.000
! Attenuation Step: 19.00dB
! Port 1: RF1
! Port 2: RF2
! ThroughPath:1-2
! IDD: 0.0001275888
! ISS: -1.594e-007
!

#  Hz  S   RI  R   50

1.000000E+007	5.318422E-002	1.876415E-004	9.769086E-002	-4.575218E-004	9.777833E-002	-4.418093E-004	-1.084127E-001	9.029248E-004
2.000000E+007	5.342930E-002	1.473661E-004	9.769212E-002	-6.686301E-004	9.774507E-002	-7.044205E-004	-1.081091E-001	1.442168E-003
3.000000E+007	5.369541E-002	5.941701E-005	9.768982E-002	-1.028213E-003	9.776365E-002	-1.038792E-003	-1.078197E-001	1.931368E-003
4.000000E+007	5.384179E-002	-4.685803E-005	9.768973E-002	-1.381690E-003	9.774620E-002	-1.379709E-003	-1.076440E-001	2.468105E-003
5.000000E+007	5.393383E-002	-1.700571E-004	9.768704E-002	-1.755789E-003	9.775217E-002	-1.748564E-003	-1.076118E-001	3.007213E-003
6.000000E+007	5.408879E-002	-3.505337E-004	9.765680E-002	-2.085291E-003	9.774258E-002	-2.099198E-003	-1.074807E-001	3.428204E-003
7.000000E+007	5.419674E-002	-5.329683E-004	9.762527E-002	-2.426157E-003	9.771276E-002	-2.426662E-003	-1.072948E-001	3.841180E-003
8.000000E+007	5.432518E-002	-7.195880E-004	9.761178E-002	-2.751515E-003	9.769946E-002	-2.763091E-003	-1.071350E-001	4.259709E-003
9.000000E+007	5.442717E-002	-8.962604E-004	9.759493E-002	-3.100025E-003	9.766873E-002	-3.092216E-003	-1.070129E-001	4.618884E-003
1.000000E+008	5.454082E-002	-1.074891E-003	9.760427E-002	-3.441812E-003	9.766381E-002	-3.440447E-003	-1.069648E-001	4.988949E-003
1.100000E+008	5.463121E-002	-1.278488E-003	9.755731E-002	-3.801353E-003	9.763163E-002	-3.782711E-003	-1.068767E-001	5.334885E-003
1.200000E+008	5.475595E-002	-1.506241E-003	9.751354E-002	-4.118092E-003	9.760255E-002	-4.132091E-003	-1.067821E-001	5.638185E-003
1.300000E+008	5.483183E-002	-1.699853E-003	9.748817E-002	-4.468702E-003	9.758525E-002	-4.482318E-003	-1.066731E-001	5.964679E-003
1.400000E+008	5.489705E-002	-1.872575E-003	9.746956E-002	-4.809245E-003	9.755060E-002	-4.815685E-003	-1.065584E-001	6.276199E-003
1.500000E+008	5.489363E-002	-2.029791E-003	9.743868E-002	-5.129720E-003	9.750419E-002	-5.136753E-003	-1.064705E-001	6.573549E-003
1.600000E+008	5.492202E-002	-2.152429E-003	9.741780E-002	-5.451805E-003	9.746174E-002	-5.452643E-003	-1.064049E-001	6.883133E-003
1.700000E+008	5.497731E-002	-2.317017E-003	9.739168E-002	-5.805817E-003	9.747781E-002	-5.791334E-003	-1.063427E-001	7.203307E-003
1.800000E+008	5.498374E-002	-2.506173E-003	9.732732E-002	-6.175367E-003	9.744270E-002	-6.163768E-003	-1.062485E-001	7.497281E-003
1.900000E+008	5.490734E-002	-2.726052E-003	9.726722E-002	-6.497313E-003	9.738314E-002	-6.503110E-003	-1.062059E-001	7.746867E-003
2.000000E+008	5.485520E-002	-2.933376E-003	9.722580E-002	-6.802902E-003	9.733411E-002	-6.809815E-003	-1.061531E-001	7.970532E-003
2.100000E+008	5.478115E-002	-3.207520E-003	9.718722E-002	-7.137955E-003	9.728121E-002	-7.134497E-003	-1.060605E-001	8.168266E-003
2.200000E+008	5.473298E-002	-3.455208E-003	9.715348E-002	-7.461584E-003	9.724039E-002	-7.453423E-003	-1.059673E-001	8.348164E-003
2.300000E+008	5.469598E-002	-3.693794E-003	9.712323E-002	-7.782054E-003	9.719415E-002	-7.770135E-003	-1.058263E-001	8.538750E-003
2.400000E+008	5.468367E-002	-3.951941E-003	9.707623E-002	-8.114951E-003	9.715152E-002	-8.097170E-003	-1.056677E-001	8.774314E-003
2.500000E+008	5.465425E-002	-4.191272E-003	9.702235E-002	-8.450972E-003	9.709947E-002	-8.444899E-003	-1.054744E-001	8.979500E-003
2.600000E+008	5.469666E-002	-4.434313E-003	9.695855E-002	-8.784319E-003	9.705184E-002	-8.762816E-003	-1.052856E-001	9.258369E-003
2.700000E+008	5.470581E-002	-4.655232E-003	9.691092E-002	-9.105388E-003	9.699280E-002	-9.083521E-003	-1.050553E-001	9.562447E-003
2.800000E+008	5.474590E-002	-4.848623E-003	9.684366E-002	-9.404963E-003	9.693555E-002	-9.404101E-003	-1.048503E-001	9.842367E-003
2.900000E+008	5.472626E-002	-5.023676E-003	9.679539E-002	-9.735571E-003	9.689077E-002	-9.716708E-003	-1.047065E-001	1.016434E-002
3.000000E+008	5.472549E-002	-5.164717E-003	9.677490E-002	-1.006579E-002	9.683745E-002	-1.004664E-002	-1.045757E-001	1.051176E-002
3.100000E+008	5.468249E-002	-5.292519E-003	9.671344E-002	-1.039215E-002	9.680081E-002	-1.038397E-002	-1.044584E-001	1.087737E-002
3.200000E+008	5.464529E-002	-5.425930E-003	9.665394E-002	-1.071250E-002	9.673609E-002	-1.069808E-002	-1.043762E-001	1.120940E-002
3.300000E+008	5.455209E-002	-5.556880E-003	9.660031E-002	-1.103433E-002	9.668086E-002	-1.105245E-002	-1.042769E-001	1.152332E-002
3.400000E+008	5.442041E-002	-5.701311E-003	9.653182E-002	-1.136870E-002	9.658366E-002	-1.139642E-002	-1.041502E-001	1.179717E-002
3.500000E+008	5.427254E-002	-5.883752E-003	9.646866E-002	-1.168870E-002	9.650279E-002	-1.170535E-002	-1.040272E-001	1.204420E-002
3.600000E+008	5.416305E-002	-6.040040E-003	9.640840E-002	-1.202359E-002	9.643746E-002	-1.197753E-002	-1.038692E-001	1.230181E-002
3.700000E+008	5.403825E-002	-6.219552E-003	9.631877E-002	-1.231922E-002	9.638706E-002	-1.226909E-002	-1.036732E-001	1.252599E-002
3.800000E+008	5.392563E-002	-6.443329E-003	9.627732E-002	-1.263342E-002	9.635152E-002	-1.260226E-002	-1.034774E-001	1.277777E-002
3.900000E+008	5.381529E-002	-6.675332E-003	9.618400E-002	-1.296045E-002	9.628947E-002	-1.291719E-002	-1.032089E-001	1.311120E-002
4.000000E+008	5.373587E-002	-6.911732E-003	9.609428E-002	-1.326094E-002	9.621064E-002	-1.325226E-002	-1.029191E-001	1.339431E-002
4.100000E+008	5.366040E-002	-7.125131E-003	9.604073E-002	-1.354956E-002	9.612525E-002	-1.355656E-002	-1.026318E-001	1.370407E-002
4.200000E+008	5.356596E-002	-7.352883E-003	9.598449E-002	-1.384640E-002	9.606119E-002	-1.386142E-002	-1.024216E-001	1.407423E-002
4.300000E+008	5.350330E-002	-7.538406E-003	9.593139E-002	-1.417904E-002	9.599819E-002	-1.418251E-002	-1.022032E-001	1.447359E-002
4.400000E+008	5.342337E-002	-7.699339E-003	9.586610E-002	-1.449517E-002	9.593439E-002	-1.449049E-002	-1.020239E-001	1.492002E-002
4.500000E+008	5.338773E-002	-7.887271E-003	9.578815E-002	-1.481491E-002	9.587735E-002	-1.480197E-002	-1.018346E-001	1.534592E-002
4.600000E+008	5.333303E-002	-8.067043E-003	9.571247E-002	-1.513306E-002	9.578902E-002	-1.512944E-002	-1.016604E-001	1.580354E-002
4.700000E+008	5.325720E-002	-8.235751E-003	9.564184E-002	-1.543212E-002	9.569813E-002	-1.543209E-002	-1.015009E-001	1.620354E-002
4.800000E+008	5.313525E-002	-8.351241E-003	9.556557E-002	-1.573845E-002	9.562505E-002	-1.574118E-002	-1.013710E-001	1.658657E-002
4.900000E+008	5.302569E-002	-8.499453E-003	9.548609E-002	-1.604496E-002	9.554774E-002	-1.604616E-002	-1.012379E-001	1.695571E-002
5.000000E+008	5.291100E-002	-8.630878E-003	9.540877E-002	-1.634145E-002	9.548331E-002	-1.635527E-002	-1.010692E-001	1.733495E-002
5.100000E+008	5.281190E-002	-8.782088E-003	9.532905E-002	-1.664562E-002	9.541637E-002	-1.663849E-002	-1.008988E-001	1.768148E-002
5.200000E+008	5.269080E-002	-8.944516E-003	9.524998E-002	-1.696880E-002	9.534094E-002	-1.696878E-002	-1.007292E-001	1.805144E-002
5.300000E+008	5.255885E-002	-9.128586E-003	9.518528E-002	-1.726674E-002	9.527399E-002	-1.726674E-002	-1.004811E-001	1.841696E-002
5.400000E+008	5.242995E-002	-9.361527E-003	9.509614E-002	-1.758017E-002	9.518340E-002	-1.758266E-002	-1.002580E-001	1.876658E-002
5.500000E+008	5.229535E-002	-9.538425E-003	9.501925E-002	-1.788804E-002	9.508481E-002	-1.787787E-002	-1.000632E-001	1.917271E-002
5.600000E+008	5.216544E-002	-9.747627E-003	9.491641E-002	-1.817051E-002	9.497821E-002	-1.818275E-002	-9.983632E-002	1.956451E-002
5.700000E+008	5.206621E-002	-9.975094E-003	9.482900E-002	-1.848008E-002	9.492055E-002	-1.848255E-002	-9.968119E-002	2.000382E-002
5.800000E+008	5.197027E-002	-1.017544E-002	9.475777E-002	-1.877870E-002	9.483739E-002	-1.878613E-002	-9.951569E-002	2.044454E-002
5.900000E+008	5.188683E-002	-1.040673E-002	9.467709E-002	-1.909089E-002	9.475257E-002	-1.909637E-002	-9.933965E-002	2.093460E-002
6.000000E+008	5.185365E-002	-1.061856E-002	9.458683E-002	-1.940018E-002	9.465881E-002	-1.941501E-002	-9.915734E-002	2.132803E-002
6.100000E+008	5.181149E-002	-1.082412E-002	9.449897E-002	-1.967373E-002	9.454525E-002	-1.970103E-002	-9.898454E-002	2.175081E-002
6.200000E+008	5.177079E-002	-1.095384E-002	9.439655E-002	-1.996950E-002	9.445285E-002	-1.999512E-002	-9.883160E-002	2.216289E-002
6.300000E+008	5.175752E-002	-1.111013E-002	9.430061E-002	-2.028264E-002	9.437345E-002	-2.029033E-002	-9.864007E-002	2.256177E-002
6.400000E+008	5.172884E-002	-1.122905E-002	9.421542E-002	-2.056540E-002	9.427310E-002	-2.058696E-002	-9.845849E-002	2.297656E-002
6.500000E+008	5.168377E-002	-1.135201E-002	9.413081E-002	-2.085978E-002	9.420085E-002	-2.086989E-002	-9.827280E-002	2.341134E-002
6.600000E+008	5.161707E-002	-1.148029E-002	9.403411E-002	-2.116436E-002	9.409554E-002	-2.117950E-002	-9.808950E-002	2.382330E-002
6.700000E+008	5.150375E-002	-1.158038E-002	9.395125E-002	-2.147167E-002	9.401247E-002	-2.146959E-002	-9.791203E-002	2.427997E-002
6.800000E+008	5.140151E-002	-1.168595E-002	9.385594E-002	-2.175871E-002	9.391763E-002	-2.175384E-002	-9.774108E-002	2.474068E-002
6.900000E+008	5.128326E-002	-1.177325E-002	9.374550E-002	-2.204599E-002	9.380670E-002	-2.205267E-002	-9.757063E-002	2.520174E-002
7.000000E+008	5.118002E-002	-1.189203E-002	9.365482E-002	-2.234230E-002	9.371725E-002	-2.233175E-002	-9.743842E-002	2.564489E-002
7.100000E+008	5.106560E-002	-1.202054E-002	9.357175E-002	-2.261718E-002	9.363117E-002	-2.263998E-002	-9.732226E-002	2.607886E-002
7.200000E+008	5.093611E-002	-1.214250E-002	9.346200E-002	-2.291389E-002	9.354775E-002	-2.293415E-002	-9.720009E-002	2.652527E-002
7.300000E+008	5.080455E-002	-1.231118E-002	9.336839E-002	-2.319892E-002	9.344955E-002	-2.324484E-002	-9.709389E-002	2.691322E-002
7.400000E+008	5.068597E-002	-1.243858E-002	9.327871E-002	-2.348969E-002	9.335832E-002	-2.351758E-002	-9.699542E-002	2.729875E-002
7.500000E+008	5.057138E-002	-1.260878E-002	9.316525E-002	-2.378495E-002	9.325682E-002	-2.381004E-002	-9.687283E-002	2.765263E-002
7.600000E+008	5.044877E-002	-1.276043E-002	9.307358E-002	-2.409461E-002	9.315538E-002	-2.410270E-002	-9.673435E-002	2.802359E-002
7.700000E+008	5.031452E-002	-1.294750E-002	9.297425E-002	-2.436690E-002	9.305619E-002	-2.437489E-002	-9.658917E-002	2.836102E-002
7.800000E+008	5.021929E-002	-1.307827E-002	9.287409E-002	-2.464432E-002	9.295961E-002	-2.466867E-002	-9.641585E-002	2.871139E-002
7.900000E+008	5.010797E-002	-1.329726E-002	9.278113E-002	-2.495337E-002	9.285540E-002	-2.497576E-002	-9.624762E-002	2.907284E-002
8.000000E+008	5.002278E-002	-1.347169E-002	9.266384E-002	-2.524227E-002	9.273942E-002	-2.525117E-002	-9.603342E-002	2.945270E-002
8.100000E+008	4.993838E-002	-1.368282E-002	9.256684E-002	-2.551343E-002	9.262530E-002	-2.554389E-002	-9.578814E-002	2.985398E-002
8.200000E+008	4.990055E-002	-1.383750E-002	9.246019E-002	-2.580869E-002	9.251672E-002	-2.582875E-002	-9.554591E-002	3.023006E-002
8.300000E+008	4.986005E-002	-1.400229E-002	9.236176E-002	-2.609877E-002	9.242697E-002	-2.611258E-002	-9.533913E-002	3.064658E-002
8.400000E+008	4.984086E-002	-1.414986E-002	9.225328E-002	-2.636201E-002	9.231704E-002	-2.640940E-002	-9.515743E-002	3.105525E-002
8.500000E+008	4.980888E-002	-1.428578E-002	9.214563E-002	-2.664251E-002	9.221971E-002	-2.668799E-002	-9.500961E-002	3.145215E-002
8.600000E+008	4.972938E-002	-1.439369E-002	9.202970E-002	-2.694420E-002	9.209517E-002	-2.696712E-002	-9.485392E-002	3.185215E-002
8.700000E+008	4.968263E-002	-1.446677E-002	9.193944E-002	-2.721377E-002	9.198559E-002	-2.724825E-002	-9.467524E-002	3.225505E-002
8.800000E+008	4.962628E-002	-1.455219E-002	9.182630E-002	-2.751520E-002	9.190473E-002	-2.752905E-002	-9.453170E-002	3.261974E-002
8.900000E+008	4.951893E-002	-1.465608E-002	9.169896E-002	-2.778496E-002	9.178604E-002	-2.782100E-002	-9.435439E-002	3.298235E-002
9.000000E+008	4.942406E-002	-1.475314E-002	9.159197E-002	-2.807804E-002	9.167856E-002	-2.810355E-002	-9.415949E-002	3.332837E-002
9.100000E+008	4.930519E-002	-1.485158E-002	9.148475E-002	-2.835984E-002	9.155781E-002	-2.837780E-002	-9.394612E-002	3.368021E-002
9.200000E+008	4.917920E-002	-1.497607E-002	9.136695E-002	-2.864244E-002	9.146356E-002	-2.866077E-002	-9.370046E-002	3.404824E-002
9.300000E+008	4.910165E-002	-1.512720E-002	9.126084E-002	-2.890807E-002	9.133319E-002	-2.894011E-002	-9.341825E-002	3.442829E-002
9.400000E+008	4.901605E-002	-1.527455E-002	9.115706E-002	-2.920241E-002	9.122331E-002	-2.921882E-002	-9.310701E-002	3.482608E-002
9.500000E+008	4.896370E-002	-1.543180E-002	9.104305E-002	-2.947508E-002	9.110255E-002	-2.951330E-002	-9.278352E-002	3.526995E-002
9.600000E+008	4.887870E-002	-1.554826E-002	9.091652E-002	-2.973834E-002	9.099962E-002	-2.977545E-002	-9.246431E-002	3.570041E-002
9.700000E+008	4.884659E-002	-1.565329E-002	9.079701E-002	-3.002078E-002	9.088634E-002	-3.004402E-002	-9.214415E-002	3.617921E-002
9.800000E+008	4.880225E-002	-1.574721E-002	9.070104E-002	-3.026946E-002	9.077627E-002	-3.033884E-002	-9.188221E-002	3.664264E-002
9.900000E+008	4.876669E-002	-1.584178E-002	9.059464E-002	-3.056682E-002	9.065424E-002	-3.061019E-002	-9.161352E-002	3.712358E-002
1.000000E+009	4.871630E-002	-1.589650E-002	9.048594E-002	-3.083301E-002	9.053799E-002	-3.089378E-002	-9.139912E-002	3.757162E-002
1.010000E+009	4.861917E-002	-1.595255E-002	9.035208E-002	-3.113947E-002	9.043350E-002	-3.115976E-002	-9.117904E-002	3.805393E-002
1.020000E+009	4.853670E-002	-1.603065E-002	9.024895E-002	-3.141971E-002	9.030724E-002	-3.143293E-002	-9.097603E-002	3.852041E-002
1.030000E+009	4.845284E-002	-1.608046E-002	9.010576E-002	-3.168229E-002	9.020095E-002	-3.171063E-002	-9.077603E-002	3.896738E-002
1.040000E+009	4.834294E-002	-1.615778E-002	9.000263E-002	-3.196427E-002	9.006409E-002	-3.198946E-002	-9.056626E-002	3.941176E-002
1.050000E+009	4.825849E-002	-1.625072E-002	8.987851E-002	-3.223445E-002	8.994618E-002	-3.225889E-002	-9.030430E-002	3.987928E-002
1.060000E+009	4.816180E-002	-1.633860E-002	8.977043E-002	-3.250849E-002	8.982886E-002	-3.251954E-002	-9.005952E-002	4.032717E-002
1.070000E+009	4.804771E-002	-1.642203E-002	8.963557E-002	-3.279522E-002	8.971554E-002	-3.278596E-002	-8.980323E-002	4.078778E-002
1.080000E+009	4.796033E-002	-1.650433E-002	8.950799E-002	-3.304946E-002	8.960905E-002	-3.306741E-002	-8.952816E-002	4.126005E-002
1.090000E+009	4.788433E-002	-1.660896E-002	8.938578E-002	-3.333003E-002	8.948115E-002	-3.334709E-002	-8.928893E-002	4.169631E-002
1.100000E+009	4.780728E-002	-1.669842E-002	8.924502E-002	-3.360474E-002	8.936678E-002	-3.362726E-002	-8.905729E-002	4.215047E-002
1.110000E+009	4.771684E-002	-1.675098E-002	8.914057E-002	-3.387397E-002	8.921306E-002	-3.390579E-002	-8.880589E-002	4.262487E-002
1.120000E+009	4.762327E-002	-1.685259E-002	8.901932E-002	-3.412711E-002	8.910801E-002	-3.417967E-002	-8.864576E-002	4.305627E-002
1.130000E+009	4.751778E-002	-1.694032E-002	8.889846E-002	-3.440488E-002	8.896460E-002	-3.444298E-002	-8.842262E-002	4.348264E-002
1.140000E+009	4.741176E-002	-1.701995E-002	8.877130E-002	-3.468011E-002	8.885581E-002	-3.472850E-002	-8.821072E-002	4.393381E-002
1.150000E+009	4.732344E-002	-1.710031E-002	8.862598E-002	-3.495985E-002	8.872061E-002	-3.498877E-002	-8.796989E-002	4.437774E-002
1.160000E+009	4.723717E-002	-1.717239E-002	8.850402E-002	-3.523971E-002	8.859420E-002	-3.525341E-002	-8.772284E-002	4.480266E-002
1.170000E+009	4.712454E-002	-1.726426E-002	8.837625E-002	-3.549800E-002	8.846298E-002	-3.552047E-002	-8.746681E-002	4.527055E-002
1.180000E+009	4.702974E-002	-1.733825E-002	8.823815E-002	-3.577760E-002	8.833186E-002	-3.578688E-002	-8.716975E-002	4.571229E-002
1.190000E+009	4.692701E-002	-1.740950E-002	8.809851E-002	-3.605408E-002	8.817107E-002	-3.608306E-002	-8.691172E-002	4.620285E-002
1.200000E+009	4.681248E-002	-1.750722E-002	8.798578E-002	-3.632208E-002	8.806126E-002	-3.635558E-002	-8.662600E-002	4.668127E-002
1.210000E+009	4.674502E-002	-1.761743E-002	8.783942E-002	-3.656978E-002	8.793389E-002	-3.660965E-002	-8.636854E-002	4.714759E-002
1.220000E+009	4.665480E-002	-1.775754E-002	8.771669E-002	-3.685163E-002	8.778138E-002	-3.688782E-002	-8.613449E-002	4.763007E-002
1.230000E+009	4.655212E-002	-1.785291E-002	8.757753E-002	-3.711043E-002	8.764743E-002	-3.715178E-002	-8.590780E-002	4.806072E-002
1.240000E+009	4.647822E-002	-1.796074E-002	8.743588E-002	-3.738207E-002	8.750533E-002	-3.740707E-002	-8.569901E-002	4.848782E-002
1.250000E+009	4.643023E-002	-1.808512E-002	8.729025E-002	-3.764244E-002	8.739600E-002	-3.768460E-002	-8.547578E-002	4.891586E-002
1.260000E+009	4.634781E-002	-1.818180E-002	8.716895E-002	-3.791969E-002	8.723650E-002	-3.795831E-002	-8.522773E-002	4.930216E-002
1.270000E+009	4.633387E-002	-1.828335E-002	8.703554E-002	-3.818927E-002	8.710601E-002	-3.821384E-002	-8.494882E-002	4.969688E-002
1.280000E+009	4.627058E-002	-1.836953E-002	8.689636E-002	-3.845692E-002	8.697780E-002	-3.847354E-002	-8.467967E-002	5.004631E-002
1.290000E+009	4.622380E-002	-1.841899E-002	8.674629E-002	-3.872884E-002	8.681980E-002	-3.875403E-002	-8.436595E-002	5.042924E-002
1.300000E+009	4.616990E-002	-1.846898E-002	8.659412E-002	-3.898436E-002	8.668076E-002	-3.899753E-002	-8.401602E-002	5.083841E-002
1.310000E+009	4.611424E-002	-1.851799E-002	8.645376E-002	-3.925847E-002	8.655111E-002	-3.927936E-002	-8.366710E-002	5.124552E-002
1.320000E+009	4.604150E-002	-1.857795E-002	8.631125E-002	-3.951875E-002	8.641219E-002	-3.955712E-002	-8.326709E-002	5.173111E-002
1.330000E+009	4.597156E-002	-1.860938E-002	8.618077E-002	-3.978150E-002	8.625518E-002	-3.981750E-002	-8.285649E-002	5.225660E-002
1.340000E+009	4.588001E-002	-1.863255E-002	8.602457E-002	-4.004283E-002	8.610859E-002	-4.008267E-002	-8.246171E-002	5.279373E-002
1.350000E+009	4.577413E-002	-1.867672E-002	8.587386E-002	-4.030140E-002	8.595704E-002	-4.032195E-002	-8.210012E-002	5.333411E-002
1.360000E+009	4.571994E-002	-1.872483E-002	8.571700E-002	-4.058324E-002	8.583037E-002	-4.060043E-002	-8.172236E-002	5.391305E-002
1.370000E+009	4.562410E-002	-1.877100E-002	8.558867E-002	-4.082425E-002	8.566700E-002	-4.086124E-002	-8.141393E-002	5.450991E-002
1.380000E+009	4.553968E-002	-1.882806E-002	8.541862E-002	-4.109139E-002	8.548698E-002	-4.112612E-002	-8.109773E-002	5.506329E-002
1.390000E+009	4.546873E-002	-1.890912E-002	8.527689E-002	-4.134075E-002	8.534394E-002	-4.137234E-002	-8.081628E-002	5.566152E-002
1.400000E+009	4.539931E-002	-1.894413E-002	8.512204E-002	-4.160308E-002	8.519096E-002	-4.163861E-002	-8.056798E-002	5.619935E-002
1.410000E+009	4.528421E-002	-1.898729E-002	8.495804E-002	-4.186091E-002	8.501778E-002	-4.189680E-002	-8.025694E-002	5.675412E-002
1.420000E+009	4.517395E-002	-1.902576E-002	8.480258E-002	-4.211611E-002	8.487041E-002	-4.213502E-002	-7.999657E-002	5.726222E-002
1.430000E+009	4.511035E-002	-1.905285E-002	8.464773E-002	-4.236496E-002	8.473695E-002	-4.240758E-002	-7.969708E-002	5.775756E-002
1.440000E+009	4.501057E-002	-1.910937E-002	8.449091E-002	-4.263835E-002	8.460083E-002	-4.265066E-002	-7.943490E-002	5.823631E-002
1.450000E+009	4.488725E-002	-1.914030E-002	8.432402E-002	-4.288184E-002	8.442388E-002	-4.291538E-002	-7.910266E-002	5.875196E-002
1.460000E+009	4.479397E-002	-1.919752E-002	8.416780E-002	-4.315225E-002	8.425622E-002	-4.318866E-002	-7.876045E-002	5.926514E-002
1.470000E+009	4.468104E-002	-1.925434E-002	8.401119E-002	-4.340152E-002	8.409639E-002	-4.342342E-002	-7.842913E-002	5.979690E-002
1.480000E+009	4.457255E-002	-1.928263E-002	8.385111E-002	-4.362687E-002	8.392633E-002	-4.367774E-002	-7.808555E-002	6.036738E-002
1.490000E+009	4.447679E-002	-1.936574E-002	8.368637E-002	-4.388361E-002	8.377248E-002	-4.393958E-002	-7.770517E-002	6.093720E-002
1.500000E+009	4.438938E-002	-1.940690E-002	8.352782E-002	-4.416581E-002	8.361659E-002	-4.416290E-002	-7.733175E-002	6.149101E-002
