! Device ID: PE43711P
! File Path: z:\PE43711P\CHAR_NOM_04282014\AMB\3p300\LS_ATT_16p75dB\PE43711P_AMB_3p300V_3p000V_0p000V_LS_ATT_16p75dB_S2P_SN_5_A0137A.s2p
! Serial: 5
! Lot: A0137A
! Temp: 25C
! VDD: 3.300
! VSS: 0.000
! Control_Hi: 3.000
! Control_Lo: 0.000
! Attenuation Step: 16.75dB
! Port 1: RF1
! Port 2: RF2
! ThroughPath:1-2
! IDD: 0.000127228
! ISS: -1.445e-007
!

#  Hz  S   RI  R   50

1.000000E+007	6.393939E-002	3.676953E-005	1.268747E-001	-5.918530E-004	1.270127E-001	-6.049088E-004	-1.164209E-001	8.917941E-004
2.000000E+007	6.416725E-002	-6.115939E-005	1.268835E-001	-9.318772E-004	1.269542E-001	-9.612125E-004	-1.161510E-001	1.470981E-003
3.000000E+007	6.442455E-002	-2.582797E-004	1.268929E-001	-1.414445E-003	1.269784E-001	-1.427237E-003	-1.158611E-001	1.947775E-003
4.000000E+007	6.456689E-002	-4.658863E-004	1.268845E-001	-1.869572E-003	1.269554E-001	-1.897043E-003	-1.156763E-001	2.482801E-003
5.000000E+007	6.466425E-002	-7.091902E-004	1.268646E-001	-2.390467E-003	1.269730E-001	-2.378382E-003	-1.156269E-001	3.016113E-003
6.000000E+007	6.480303E-002	-9.940612E-004	1.268268E-001	-2.847804E-003	1.269548E-001	-2.847998E-003	-1.154867E-001	3.439843E-003
7.000000E+007	6.491993E-002	-1.292952E-003	1.268075E-001	-3.303963E-003	1.269156E-001	-3.306204E-003	-1.153052E-001	3.856754E-003
8.000000E+007	6.503151E-002	-1.584719E-003	1.267858E-001	-3.751627E-003	1.268985E-001	-3.768444E-003	-1.151404E-001	4.259824E-003
9.000000E+007	6.512191E-002	-1.864682E-003	1.267593E-001	-4.208945E-003	1.268632E-001	-4.222657E-003	-1.150078E-001	4.622734E-003
1.000000E+008	6.521176E-002	-2.148336E-003	1.267495E-001	-4.689183E-003	1.268375E-001	-4.687163E-003	-1.149552E-001	5.007392E-003
1.100000E+008	6.530097E-002	-2.460604E-003	1.267140E-001	-5.165697E-003	1.268162E-001	-5.154366E-003	-1.148365E-001	5.350510E-003
1.200000E+008	6.540838E-002	-2.786139E-003	1.266401E-001	-5.629789E-003	1.267646E-001	-5.623798E-003	-1.147457E-001	5.661306E-003
1.300000E+008	6.546060E-002	-3.098059E-003	1.266210E-001	-6.075068E-003	1.267232E-001	-6.082120E-003	-1.146341E-001	5.957546E-003
1.400000E+008	6.550589E-002	-3.355799E-003	1.265850E-001	-6.535859E-003	1.266779E-001	-6.541671E-003	-1.144997E-001	6.281817E-003
1.500000E+008	6.548087E-002	-3.621444E-003	1.265376E-001	-6.980598E-003	1.266051E-001	-6.997909E-003	-1.143904E-001	6.577661E-003
1.600000E+008	6.547100E-002	-3.845329E-003	1.265047E-001	-7.425077E-003	1.265620E-001	-7.426315E-003	-1.143285E-001	6.873465E-003
1.700000E+008	6.551142E-002	-4.125291E-003	1.264759E-001	-7.920555E-003	1.265819E-001	-7.891552E-003	-1.142752E-001	7.190809E-003
1.800000E+008	6.549014E-002	-4.405638E-003	1.263598E-001	-8.394625E-003	1.265239E-001	-8.372922E-003	-1.141826E-001	7.473536E-003
1.900000E+008	6.539817E-002	-4.717274E-003	1.262869E-001	-8.827739E-003	1.264598E-001	-8.839627E-003	-1.141219E-001	7.707178E-003
2.000000E+008	6.531175E-002	-5.042482E-003	1.262278E-001	-9.266620E-003	1.263875E-001	-9.285086E-003	-1.140483E-001	7.937847E-003
2.100000E+008	6.522671E-002	-5.409250E-003	1.261784E-001	-9.699131E-003	1.263197E-001	-9.709614E-003	-1.139320E-001	8.115883E-003
2.200000E+008	6.514579E-002	-5.752156E-003	1.261452E-001	-1.012589E-002	1.262503E-001	-1.015271E-002	-1.138136E-001	8.279042E-003
2.300000E+008	6.507689E-002	-6.092898E-003	1.260884E-001	-1.057697E-002	1.261946E-001	-1.057506E-002	-1.136663E-001	8.468808E-003
2.400000E+008	6.503778E-002	-6.434511E-003	1.260352E-001	-1.103638E-002	1.261224E-001	-1.103646E-002	-1.135105E-001	8.688858E-003
2.500000E+008	6.498009E-002	-6.763528E-003	1.259520E-001	-1.149329E-002	1.260552E-001	-1.147461E-002	-1.133063E-001	8.887377E-003
2.600000E+008	6.496149E-002	-7.101819E-003	1.258759E-001	-1.194231E-002	1.259919E-001	-1.193564E-002	-1.131170E-001	9.158053E-003
2.700000E+008	6.495223E-002	-7.431448E-003	1.257877E-001	-1.238089E-002	1.259030E-001	-1.237865E-002	-1.128624E-001	9.463831E-003
2.800000E+008	6.494790E-002	-7.720104E-003	1.257149E-001	-1.281082E-002	1.258351E-001	-1.281033E-002	-1.126492E-001	9.734451E-003
2.900000E+008	6.489899E-002	-7.989717E-003	1.256481E-001	-1.323464E-002	1.257522E-001	-1.323404E-002	-1.124843E-001	1.003240E-002
3.000000E+008	6.486549E-002	-8.233181E-003	1.255948E-001	-1.368730E-002	1.256803E-001	-1.366293E-002	-1.123320E-001	1.037009E-002
3.100000E+008	6.479584E-002	-8.454635E-003	1.255187E-001	-1.412030E-002	1.256338E-001	-1.411953E-002	-1.122069E-001	1.070222E-002
3.200000E+008	6.471089E-002	-8.661992E-003	1.254357E-001	-1.457384E-002	1.255653E-001	-1.455714E-002	-1.120998E-001	1.102791E-002
3.300000E+008	6.458615E-002	-8.886641E-003	1.253581E-001	-1.501709E-002	1.254703E-001	-1.501382E-002	-1.119979E-001	1.133504E-002
3.400000E+008	6.441397E-002	-9.127117E-003	1.252767E-001	-1.545478E-002	1.253363E-001	-1.549535E-002	-1.118594E-001	1.160392E-002
3.500000E+008	6.422930E-002	-9.378181E-003	1.251838E-001	-1.589458E-002	1.252161E-001	-1.589375E-002	-1.117154E-001	1.181996E-002
3.600000E+008	6.406472E-002	-9.627504E-003	1.250979E-001	-1.633731E-002	1.251309E-001	-1.630028E-002	-1.115424E-001	1.207602E-002
3.700000E+008	6.391295E-002	-9.894556E-003	1.249845E-001	-1.674883E-002	1.250608E-001	-1.669392E-002	-1.113419E-001	1.228339E-002
3.800000E+008	6.375715E-002	-1.018843E-002	1.249039E-001	-1.716650E-002	1.250061E-001	-1.711902E-002	-1.111509E-001	1.251660E-002
3.900000E+008	6.361104E-002	-1.050363E-002	1.247965E-001	-1.762461E-002	1.249172E-001	-1.757584E-002	-1.108676E-001	1.281120E-002
4.000000E+008	6.349869E-002	-1.081562E-002	1.246798E-001	-1.802113E-002	1.248291E-001	-1.801769E-002	-1.105362E-001	1.308269E-002
4.100000E+008	6.334963E-002	-1.113688E-002	1.245912E-001	-1.840420E-002	1.247171E-001	-1.845190E-002	-1.102546E-001	1.338254E-002
4.200000E+008	6.322875E-002	-1.143522E-002	1.245205E-001	-1.882874E-002	1.246174E-001	-1.884840E-002	-1.100334E-001	1.373011E-002
4.300000E+008	6.313102E-002	-1.169893E-002	1.244285E-001	-1.927547E-002	1.245378E-001	-1.927687E-002	-1.098183E-001	1.410817E-002
4.400000E+008	6.301561E-002	-1.195107E-002	1.243380E-001	-1.970714E-002	1.244338E-001	-1.969785E-002	-1.096134E-001	1.453517E-002
4.500000E+008	6.291492E-002	-1.221037E-002	1.242448E-001	-2.011739E-002	1.243486E-001	-2.014115E-002	-1.094153E-001	1.494364E-002
4.600000E+008	6.281360E-002	-1.246269E-002	1.241441E-001	-2.055096E-002	1.242343E-001	-2.055393E-002	-1.092184E-001	1.536916E-002
4.700000E+008	6.269036E-002	-1.269635E-002	1.240350E-001	-2.097267E-002	1.241336E-001	-2.098845E-002	-1.090629E-001	1.573744E-002
4.800000E+008	6.254782E-002	-1.291010E-002	1.239292E-001	-2.138160E-002	1.240201E-001	-2.138937E-002	-1.089172E-001	1.612259E-002
4.900000E+008	6.236070E-002	-1.312032E-002	1.238193E-001	-2.180417E-002	1.238849E-001	-2.181526E-002	-1.087700E-001	1.645510E-002
5.000000E+008	6.221293E-002	-1.334135E-002	1.237103E-001	-2.220610E-002	1.237929E-001	-2.221400E-002	-1.086161E-001	1.681335E-002
5.100000E+008	6.208224E-002	-1.356314E-002	1.236235E-001	-2.262636E-002	1.237039E-001	-2.263057E-002	-1.084301E-001	1.714817E-002
5.200000E+008	6.190743E-002	-1.380932E-002	1.235066E-001	-2.305971E-002	1.236130E-001	-2.303597E-002	-1.082401E-001	1.749402E-002
5.300000E+008	6.172636E-002	-1.406655E-002	1.234063E-001	-2.347582E-002	1.234998E-001	-2.348320E-002	-1.080080E-001	1.781678E-002
5.400000E+008	6.154102E-002	-1.436581E-002	1.232784E-001	-2.388805E-002	1.233838E-001	-2.390789E-002	-1.077593E-001	1.815107E-002
5.500000E+008	6.135034E-002	-1.460093E-002	1.231621E-001	-2.430573E-002	1.232546E-001	-2.430544E-002	-1.075426E-001	1.853109E-002
5.600000E+008	6.119329E-002	-1.490229E-002	1.230463E-001	-2.469509E-002	1.231215E-001	-2.471232E-002	-1.073234E-001	1.889892E-002
5.700000E+008	6.104653E-002	-1.518471E-002	1.229213E-001	-2.510452E-002	1.230071E-001	-2.510945E-002	-1.071598E-001	1.932431E-002
5.800000E+008	6.091189E-002	-1.546753E-002	1.228105E-001	-2.552804E-002	1.229048E-001	-2.551904E-002	-1.069978E-001	1.972319E-002
5.900000E+008	6.076785E-002	-1.578185E-002	1.226873E-001	-2.595011E-002	1.227823E-001	-2.595692E-002	-1.068207E-001	2.016864E-002
6.000000E+008	6.068045E-002	-1.605448E-002	1.225667E-001	-2.634656E-002	1.226536E-001	-2.636958E-002	-1.065967E-001	2.056136E-002
6.100000E+008	6.059492E-002	-1.630935E-002	1.224547E-001	-2.674661E-002	1.225240E-001	-2.677382E-002	-1.064552E-001	2.095163E-002
6.200000E+008	6.051688E-002	-1.652305E-002	1.223327E-001	-2.715708E-002	1.224045E-001	-2.718148E-002	-1.062642E-001	2.135294E-002
6.300000E+008	6.043933E-002	-1.672631E-002	1.221940E-001	-2.755323E-002	1.222676E-001	-2.757998E-002	-1.060939E-001	2.171917E-002
6.400000E+008	6.037284E-002	-1.693582E-002	1.220465E-001	-2.795190E-002	1.221470E-001	-2.797135E-002	-1.059292E-001	2.209643E-002
6.500000E+008	6.028926E-002	-1.711477E-002	1.219344E-001	-2.833537E-002	1.220218E-001	-2.836760E-002	-1.057399E-001	2.249057E-002
6.600000E+008	6.016912E-002	-1.731289E-002	1.218208E-001	-2.876214E-002	1.218918E-001	-2.878451E-002	-1.055491E-001	2.287974E-002
6.700000E+008	6.001011E-002	-1.745543E-002	1.217031E-001	-2.916015E-002	1.217651E-001	-2.919242E-002	-1.053585E-001	2.329980E-002
6.800000E+008	5.983609E-002	-1.764455E-002	1.215647E-001	-2.954606E-002	1.216279E-001	-2.958842E-002	-1.051846E-001	2.372960E-002
6.900000E+008	5.966687E-002	-1.779833E-002	1.214147E-001	-2.995319E-002	1.214976E-001	-2.998641E-002	-1.050074E-001	2.418316E-002
7.000000E+008	5.952145E-002	-1.796788E-002	1.212854E-001	-3.035275E-002	1.213600E-001	-3.036962E-002	-1.048810E-001	2.460830E-002
7.100000E+008	5.933978E-002	-1.816325E-002	1.211526E-001	-3.073831E-002	1.212424E-001	-3.076859E-002	-1.047671E-001	2.501615E-002
7.200000E+008	5.917450E-002	-1.835771E-002	1.210220E-001	-3.113213E-002	1.210986E-001	-3.116754E-002	-1.046389E-001	2.541091E-002
7.300000E+008	5.898410E-002	-1.858102E-002	1.208819E-001	-3.154272E-002	1.209873E-001	-3.157822E-002	-1.045362E-001	2.577949E-002
7.400000E+008	5.880380E-002	-1.878572E-002	1.207495E-001	-3.194163E-002	1.208484E-001	-3.195789E-002	-1.044335E-001	2.613559E-002
7.500000E+008	5.865822E-002	-1.897839E-002	1.206091E-001	-3.232659E-002	1.207048E-001	-3.236466E-002	-1.043239E-001	2.646137E-002
7.600000E+008	5.847447E-002	-1.920700E-002	1.204663E-001	-3.272027E-002	1.205556E-001	-3.275554E-002	-1.041692E-001	2.678825E-002
7.700000E+008	5.830733E-002	-1.944707E-002	1.203434E-001	-3.311255E-002	1.204419E-001	-3.314697E-002	-1.040080E-001	2.710793E-002
7.800000E+008	5.816457E-002	-1.965893E-002	1.201986E-001	-3.351414E-002	1.203096E-001	-3.354186E-002	-1.038582E-001	2.740505E-002
7.900000E+008	5.800939E-002	-1.993284E-002	1.200470E-001	-3.390198E-002	1.201503E-001	-3.393789E-002	-1.037062E-001	2.775239E-002
8.000000E+008	5.785797E-002	-2.016997E-002	1.199111E-001	-3.428513E-002	1.200087E-001	-3.431584E-002	-1.034954E-001	2.810882E-002
8.100000E+008	5.771113E-002	-2.039829E-002	1.197581E-001	-3.466372E-002	1.198428E-001	-3.471813E-002	-1.032439E-001	2.848004E-002
8.200000E+008	5.761826E-002	-2.062483E-002	1.196178E-001	-3.505509E-002	1.197080E-001	-3.509080E-002	-1.030222E-001	2.883502E-002
8.300000E+008	5.750693E-002	-2.086592E-002	1.194653E-001	-3.544600E-002	1.195637E-001	-3.548357E-002	-1.028377E-001	2.921040E-002
8.400000E+008	5.744440E-002	-2.107283E-002	1.193241E-001	-3.582880E-002	1.194191E-001	-3.587447E-002	-1.026390E-001	2.957230E-002
8.500000E+008	5.736335E-002	-2.126445E-002	1.191709E-001	-3.622217E-002	1.192725E-001	-3.625689E-002	-1.024865E-001	2.993790E-002
8.600000E+008	5.723920E-002	-2.141245E-002	1.190202E-001	-3.659410E-002	1.191059E-001	-3.664512E-002	-1.023333E-001	3.031348E-002
8.700000E+008	5.713411E-002	-2.156104E-002	1.188782E-001	-3.700112E-002	1.189493E-001	-3.701647E-002	-1.021861E-001	3.068126E-002
8.800000E+008	5.703035E-002	-2.170516E-002	1.187216E-001	-3.738615E-002	1.188219E-001	-3.740537E-002	-1.020285E-001	3.101314E-002
8.900000E+008	5.687939E-002	-2.185358E-002	1.185739E-001	-3.775629E-002	1.186614E-001	-3.779402E-002	-1.018907E-001	3.135132E-002
9.000000E+008	5.672271E-002	-2.200292E-002	1.183883E-001	-3.814877E-002	1.185180E-001	-3.817278E-002	-1.016829E-001	3.167522E-002
9.100000E+008	5.654522E-002	-2.216018E-002	1.182490E-001	-3.852798E-002	1.183585E-001	-3.856827E-002	-1.014712E-001	3.199411E-002
9.200000E+008	5.637025E-002	-2.236120E-002	1.180912E-001	-3.889810E-002	1.181963E-001	-3.893725E-002	-1.012282E-001	3.232524E-002
9.300000E+008	5.622935E-002	-2.254044E-002	1.179451E-001	-3.928353E-002	1.180320E-001	-3.933811E-002	-1.009863E-001	3.268063E-002
9.400000E+008	5.610702E-002	-2.274855E-002	1.177811E-001	-3.965168E-002	1.179000E-001	-3.969413E-002	-1.006781E-001	3.304490E-002
9.500000E+008	5.595664E-002	-2.295096E-002	1.176255E-001	-4.003633E-002	1.177142E-001	-4.008623E-002	-1.003690E-001	3.345833E-002
9.600000E+008	5.585143E-002	-2.310611E-002	1.174635E-001	-4.041349E-002	1.175773E-001	-4.045921E-002	-1.000423E-001	3.384578E-002
9.700000E+008	5.576490E-002	-2.328601E-002	1.172994E-001	-4.077260E-002	1.173951E-001	-4.083785E-002	-9.976307E-002	3.429015E-002
9.800000E+008	5.566493E-002	-2.340993E-002	1.171522E-001	-4.114435E-002	1.172556E-001	-4.121824E-002	-9.950203E-002	3.471928E-002
9.900000E+008	5.558248E-002	-2.356772E-002	1.170046E-001	-4.154522E-002	1.170966E-001	-4.159975E-002	-9.924395E-002	3.517093E-002
1.000000E+009	5.546778E-002	-2.368030E-002	1.168493E-001	-4.191198E-002	1.169233E-001	-4.196502E-002	-9.904700E-002	3.558705E-002
1.010000E+009	5.532132E-002	-2.376780E-002	1.166762E-001	-4.229816E-002	1.167665E-001	-4.234105E-002	-9.882493E-002	3.604322E-002
1.020000E+009	5.518876E-002	-2.389169E-002	1.165219E-001	-4.267486E-002	1.165829E-001	-4.271752E-002	-9.864673E-002	3.648243E-002
1.030000E+009	5.505229E-002	-2.399308E-002	1.163360E-001	-4.303078E-002	1.164261E-001	-4.307495E-002	-9.846015E-002	3.691188E-002
1.040000E+009	5.486512E-002	-2.409861E-002	1.161775E-001	-4.339864E-002	1.162654E-001	-4.346729E-002	-9.825878E-002	3.733337E-002
1.050000E+009	5.473122E-002	-2.425720E-002	1.159927E-001	-4.379483E-002	1.160916E-001	-4.382615E-002	-9.803020E-002	3.776183E-002
1.060000E+009	5.459147E-002	-2.437914E-002	1.158326E-001	-4.416106E-002	1.159305E-001	-4.419120E-002	-9.778646E-002	3.816214E-002
1.070000E+009	5.441980E-002	-2.451730E-002	1.156556E-001	-4.452092E-002	1.157649E-001	-4.454720E-002	-9.754496E-002	3.860101E-002
1.080000E+009	5.429731E-002	-2.465698E-002	1.154910E-001	-4.489205E-002	1.156049E-001	-4.492681E-002	-9.729460E-002	3.904024E-002
1.090000E+009	5.415415E-002	-2.479428E-002	1.153245E-001	-4.526789E-002	1.154370E-001	-4.530018E-002	-9.706696E-002	3.945840E-002
1.100000E+009	5.401790E-002	-2.491379E-002	1.151334E-001	-4.563336E-002	1.152518E-001	-4.566864E-002	-9.685996E-002	3.990417E-002
1.110000E+009	5.387592E-002	-2.503478E-002	1.149616E-001	-4.600558E-002	1.150684E-001	-4.603524E-002	-9.663888E-002	4.032773E-002
1.120000E+009	5.370688E-002	-2.518523E-002	1.148035E-001	-4.635377E-002	1.149131E-001	-4.642092E-002	-9.649497E-002	4.072249E-002
1.130000E+009	5.356247E-002	-2.530754E-002	1.146112E-001	-4.674748E-002	1.147179E-001	-4.678887E-002	-9.628645E-002	4.113555E-002
1.140000E+009	5.339300E-002	-2.542222E-002	1.144422E-001	-4.712271E-002	1.145321E-001	-4.716440E-002	-9.608116E-002	4.154116E-002
1.150000E+009	5.325481E-002	-2.555704E-002	1.142536E-001	-4.748690E-002	1.143534E-001	-4.754150E-002	-9.585450E-002	4.196240E-002
1.160000E+009	5.308723E-002	-2.568601E-002	1.140782E-001	-4.785639E-002	1.141692E-001	-4.789129E-002	-9.562292E-002	4.235691E-002
1.170000E+009	5.295434E-002	-2.579816E-002	1.138890E-001	-4.821615E-002	1.139788E-001	-4.826824E-002	-9.539872E-002	4.280238E-002
1.180000E+009	5.280658E-002	-2.594595E-002	1.137038E-001	-4.858912E-002	1.138126E-001	-4.862246E-002	-9.511013E-002	4.321649E-002
1.190000E+009	5.261744E-002	-2.604242E-002	1.135233E-001	-4.893738E-002	1.135824E-001	-4.897647E-002	-9.487281E-002	4.367143E-002
1.200000E+009	5.246827E-002	-2.619357E-002	1.133311E-001	-4.931681E-002	1.134334E-001	-4.933143E-002	-9.461456E-002	4.410771E-002
1.210000E+009	5.234614E-002	-2.635966E-002	1.131337E-001	-4.966575E-002	1.132404E-001	-4.971495E-002	-9.438088E-002	4.456387E-002
1.220000E+009	5.218670E-002	-2.652062E-002	1.129346E-001	-5.003370E-002	1.130640E-001	-5.008559E-002	-9.417571E-002	4.500309E-002
1.230000E+009	5.205999E-002	-2.666441E-002	1.127681E-001	-5.040298E-002	1.128478E-001	-5.043482E-002	-9.396656E-002	4.542934E-002
1.240000E+009	5.192745E-002	-2.682104E-002	1.125756E-001	-5.076788E-002	1.126650E-001	-5.080109E-002	-9.375878E-002	4.583180E-002
1.250000E+009	5.180261E-002	-2.698696E-002	1.123836E-001	-5.112356E-002	1.124924E-001	-5.116168E-002	-9.358096E-002	4.622145E-002
1.260000E+009	5.165666E-002	-2.711943E-002	1.121875E-001	-5.149141E-002	1.122686E-001	-5.150892E-002	-9.334560E-002	4.658579E-002
1.270000E+009	5.158779E-002	-2.723242E-002	1.119866E-001	-5.184686E-002	1.120745E-001	-5.186383E-002	-9.309848E-002	4.694907E-002
1.280000E+009	5.145848E-002	-2.738631E-002	1.118007E-001	-5.221408E-002	1.119039E-001	-5.223633E-002	-9.285773E-002	4.730205E-002
1.290000E+009	5.137071E-002	-2.748416E-002	1.115887E-001	-5.256105E-002	1.116942E-001	-5.259405E-002	-9.254027E-002	4.763789E-002
1.300000E+009	5.126668E-002	-2.756711E-002	1.113879E-001	-5.292063E-002	1.115140E-001	-5.295289E-002	-9.220499E-002	4.801332E-002
1.310000E+009	5.113917E-002	-2.768015E-002	1.111922E-001	-5.327866E-002	1.113053E-001	-5.331782E-002	-9.189469E-002	4.840856E-002
1.320000E+009	5.100761E-002	-2.776050E-002	1.109844E-001	-5.363712E-002	1.110856E-001	-5.367242E-002	-9.152595E-002	4.886907E-002
1.330000E+009	5.089707E-002	-2.781374E-002	1.107866E-001	-5.398828E-002	1.108919E-001	-5.403913E-002	-9.114393E-002	4.933122E-002
1.340000E+009	5.074943E-002	-2.788832E-002	1.105894E-001	-5.433430E-002	1.106640E-001	-5.438914E-002	-9.076872E-002	4.984546E-002
1.350000E+009	5.057551E-002	-2.797034E-002	1.103738E-001	-5.470218E-002	1.104824E-001	-5.474229E-002	-9.044106E-002	5.038964E-002
1.360000E+009	5.045351E-002	-2.804874E-002	1.101573E-001	-5.504944E-002	1.102571E-001	-5.510532E-002	-9.007593E-002	5.094761E-002
1.370000E+009	5.032017E-002	-2.812150E-002	1.099741E-001	-5.540381E-002	1.100439E-001	-5.544576E-002	-8.979408E-002	5.150955E-002
1.380000E+009	5.017592E-002	-2.823369E-002	1.097474E-001	-5.574619E-002	1.098404E-001	-5.579826E-002	-8.952483E-002	5.204568E-002
1.390000E+009	5.004234E-002	-2.832643E-002	1.095266E-001	-5.611513E-002	1.096223E-001	-5.615550E-002	-8.927399E-002	5.259592E-002
1.400000E+009	4.989614E-002	-2.843602E-002	1.093146E-001	-5.644976E-002	1.094085E-001	-5.649363E-002	-8.901763E-002	5.312934E-002
1.410000E+009	4.974321E-002	-2.849155E-002	1.091000E-001	-5.679582E-002	1.091919E-001	-5.684024E-002	-8.876742E-002	5.365962E-002
1.420000E+009	4.956781E-002	-2.856922E-002	1.088756E-001	-5.715419E-002	1.089730E-001	-5.717135E-002	-8.854341E-002	5.415217E-002
1.430000E+009	4.944235E-002	-2.865392E-002	1.086561E-001	-5.748239E-002	1.087739E-001	-5.753062E-002	-8.826500E-002	5.461755E-002
1.440000E+009	4.927666E-002	-2.873557E-002	1.084352E-001	-5.783310E-002	1.085327E-001	-5.787536E-002	-8.799627E-002	5.507373E-002
1.450000E+009	4.911184E-002	-2.881743E-002	1.082187E-001	-5.816288E-002	1.083244E-001	-5.821651E-002	-8.771404E-002	5.557942E-002
1.460000E+009	4.893804E-002	-2.890246E-002	1.079894E-001	-5.852904E-002	1.081000E-001	-5.856801E-002	-8.739644E-002	5.605837E-002
1.470000E+009	4.879574E-002	-2.899825E-002	1.077620E-001	-5.886190E-002	1.078777E-001	-5.890966E-002	-8.707133E-002	5.659180E-002
1.480000E+009	4.862284E-002	-2.904430E-002	1.075449E-001	-5.919644E-002	1.076400E-001	-5.924067E-002	-8.676491E-002	5.712233E-002
1.490000E+009	4.845577E-002	-2.913957E-002	1.073312E-001	-5.953631E-002	1.074231E-001	-5.959316E-002	-8.644168E-002	5.766774E-002
1.500000E+009	4.830608E-002	-2.924553E-002	1.070834E-001	-5.986992E-002	1.071881E-001	-5.991275E-002	-8.610268E-002	5.820603E-002
