! Device ID: PE43711P
! File Path: z:\PE43711P\CHAR_NOM_04282014\AMB\3p300\LS_ATT_21p25dB\PE43711P_AMB_3p300V_3p000V_0p000V_LS_ATT_21p25dB_S2P_SN_5_A0137A.s2p
! Serial: 5
! Lot: A0137A
! Temp: 25C
! VDD: 3.300
! VSS: 0.000
! Control_Hi: 3.000
! Control_Lo: 0.000
! Attenuation Step: 21.25dB
! Port 1: RF1
! Port 2: RF2
! ThroughPath:1-2
! IDD: 0.000127584
! ISS: -2.192e-007
!

#  Hz  S   RI  R   50

1.000000E+007	5.320947E-002	2.016335E-004	7.516002E-002	-2.923771E-004	7.526082E-002	-3.633515E-004	-1.059927E-001	8.337432E-004
2.000000E+007	5.343524E-002	1.565875E-004	7.515031E-002	-5.085662E-004	7.518365E-002	-5.281386E-004	-1.056963E-001	1.430094E-003
3.000000E+007	5.368169E-002	5.936622E-005	7.514255E-002	-7.726308E-004	7.519613E-002	-7.978461E-004	-1.053924E-001	1.878320E-003
4.000000E+007	5.384264E-002	-6.273931E-005	7.515404E-002	-1.044856E-003	7.518050E-002	-1.063537E-003	-1.052159E-001	2.403615E-003
5.000000E+007	5.393811E-002	-1.688741E-004	7.514109E-002	-1.330644E-003	7.519558E-002	-1.321953E-003	-1.051642E-001	2.921181E-003
6.000000E+007	5.408965E-002	-3.535046E-004	7.511747E-002	-1.588063E-003	7.519245E-002	-1.582743E-003	-1.050316E-001	3.316140E-003
7.000000E+007	5.419703E-002	-5.413519E-004	7.510215E-002	-1.837697E-003	7.516658E-002	-1.848883E-003	-1.048549E-001	3.730741E-003
8.000000E+007	5.431926E-002	-7.225154E-004	7.507610E-002	-2.082448E-003	7.515187E-002	-2.096770E-003	-1.046785E-001	4.113916E-003
9.000000E+007	5.442496E-002	-8.970602E-004	7.508337E-002	-2.349284E-003	7.514987E-002	-2.350682E-003	-1.045736E-001	4.465328E-003
1.000000E+008	5.453610E-002	-1.068561E-003	7.508070E-002	-2.622886E-003	7.512453E-002	-2.608599E-003	-1.044949E-001	4.811794E-003
1.100000E+008	5.463316E-002	-1.278524E-003	7.506372E-002	-2.874342E-003	7.511472E-002	-2.878789E-003	-1.044068E-001	5.133964E-003
1.200000E+008	5.474431E-002	-1.505003E-003	7.503429E-002	-3.140539E-003	7.508862E-002	-3.133807E-003	-1.043026E-001	5.404861E-003
1.300000E+008	5.483710E-002	-1.709127E-003	7.500756E-002	-3.386278E-003	7.506543E-002	-3.391621E-003	-1.041699E-001	5.697419E-003
1.400000E+008	5.488146E-002	-1.869493E-003	7.498346E-002	-3.645015E-003	7.503938E-002	-3.652197E-003	-1.040701E-001	6.008261E-003
1.500000E+008	5.489321E-002	-2.025593E-003	7.496067E-002	-3.884745E-003	7.500961E-002	-3.891640E-003	-1.039742E-001	6.300120E-003
1.600000E+008	5.492119E-002	-2.158992E-003	7.494554E-002	-4.141336E-003	7.497103E-002	-4.137232E-003	-1.038815E-001	6.565885E-003
1.700000E+008	5.499177E-002	-2.327712E-003	7.493389E-002	-4.407324E-003	7.498860E-002	-4.399431E-003	-1.038093E-001	6.875914E-003
1.800000E+008	5.497368E-002	-2.502772E-003	7.487633E-002	-4.691048E-003	7.497647E-002	-4.673162E-003	-1.037003E-001	7.141057E-003
1.900000E+008	5.492010E-002	-2.715405E-003	7.483118E-002	-4.941107E-003	7.492946E-002	-4.930903E-003	-1.036443E-001	7.369097E-003
2.000000E+008	5.485817E-002	-2.937087E-003	7.480551E-002	-5.185453E-003	7.488873E-002	-5.177353E-003	-1.035831E-001	7.570883E-003
2.100000E+008	5.476808E-002	-3.208098E-003	7.477881E-002	-5.430820E-003	7.485261E-002	-5.427840E-003	-1.034781E-001	7.726709E-003
2.200000E+008	5.472207E-002	-3.448641E-003	7.474821E-002	-5.651231E-003	7.481431E-002	-5.649163E-003	-1.033728E-001	7.888387E-003
2.300000E+008	5.467663E-002	-3.685326E-003	7.472530E-002	-5.916743E-003	7.478964E-002	-5.901899E-003	-1.032367E-001	8.052030E-003
2.400000E+008	5.467355E-002	-3.944860E-003	7.468391E-002	-6.161474E-003	7.474526E-002	-6.154372E-003	-1.030567E-001	8.244444E-003
2.500000E+008	5.467330E-002	-4.185477E-003	7.464935E-002	-6.410653E-003	7.471493E-002	-6.406643E-003	-1.028554E-001	8.425732E-003
2.600000E+008	5.468923E-002	-4.420376E-003	7.460875E-002	-6.671622E-003	7.466624E-002	-6.658530E-003	-1.026303E-001	8.697701E-003
2.700000E+008	5.470925E-002	-4.644657E-003	7.457318E-002	-6.905487E-003	7.464263E-002	-6.908594E-003	-1.023996E-001	8.970150E-003
2.800000E+008	5.473640E-002	-4.824521E-003	7.453772E-002	-7.160911E-003	7.459540E-002	-7.145141E-003	-1.021733E-001	9.232843E-003
2.900000E+008	5.471599E-002	-5.011573E-003	7.449944E-002	-7.390979E-003	7.455130E-002	-7.382735E-003	-1.020147E-001	9.509937E-003
3.000000E+008	5.473347E-002	-5.142688E-003	7.445825E-002	-7.643817E-003	7.453086E-002	-7.632658E-003	-1.018664E-001	9.823312E-003
3.100000E+008	5.467189E-002	-5.295066E-003	7.442487E-002	-7.894451E-003	7.448199E-002	-7.881935E-003	-1.017312E-001	1.016694E-002
3.200000E+008	5.463715E-002	-5.406152E-003	7.438180E-002	-8.147814E-003	7.444711E-002	-8.132365E-003	-1.016243E-001	1.046823E-002
3.300000E+008	5.454557E-002	-5.545538E-003	7.433365E-002	-8.390262E-003	7.441219E-002	-8.390459E-003	-1.015272E-001	1.073435E-002
3.400000E+008	5.440648E-002	-5.689139E-003	7.428624E-002	-8.646011E-003	7.432960E-002	-8.671964E-003	-1.013892E-001	1.098662E-002
3.500000E+008	5.426386E-002	-5.868745E-003	7.424355E-002	-8.883460E-003	7.427066E-002	-8.892936E-003	-1.012341E-001	1.118861E-002
3.600000E+008	5.414809E-002	-6.030326E-003	7.418719E-002	-9.133213E-003	7.420766E-002	-9.105613E-003	-1.010627E-001	1.140423E-002
3.700000E+008	5.403062E-002	-6.214097E-003	7.412659E-002	-9.373685E-003	7.417510E-002	-9.331473E-003	-1.008665E-001	1.160035E-002
3.800000E+008	5.393260E-002	-6.419187E-003	7.408792E-002	-9.608811E-003	7.414081E-002	-9.564531E-003	-1.006667E-001	1.182466E-002
3.900000E+008	5.381084E-002	-6.642197E-003	7.402212E-002	-9.861328E-003	7.408940E-002	-9.829352E-003	-1.003855E-001	1.209789E-002
4.000000E+008	5.374157E-002	-6.879039E-003	7.397060E-002	-1.007235E-002	7.405829E-002	-1.007077E-002	-1.000644E-001	1.235663E-002
4.100000E+008	5.364363E-002	-7.098486E-003	7.391474E-002	-1.029787E-002	7.399430E-002	-1.031491E-002	-9.977301E-002	1.263084E-002
4.200000E+008	5.357952E-002	-7.333737E-003	7.389359E-002	-1.054626E-002	7.393512E-002	-1.055207E-002	-9.954908E-002	1.297295E-002
4.300000E+008	5.349096E-002	-7.516321E-003	7.383928E-002	-1.077928E-002	7.388160E-002	-1.078102E-002	-9.931168E-002	1.331839E-002
4.400000E+008	5.343942E-002	-7.683411E-003	7.378025E-002	-1.102104E-002	7.386001E-002	-1.102417E-002	-9.911732E-002	1.373053E-002
4.500000E+008	5.338227E-002	-7.858724E-003	7.372705E-002	-1.125978E-002	7.378032E-002	-1.125741E-002	-9.893140E-002	1.412386E-002
4.600000E+008	5.332691E-002	-8.044774E-003	7.368118E-002	-1.151749E-002	7.373333E-002	-1.150777E-002	-9.871201E-002	1.453012E-002
4.700000E+008	5.323579E-002	-8.213861E-003	7.362243E-002	-1.174350E-002	7.366619E-002	-1.174990E-002	-9.856060E-002	1.486583E-002
4.800000E+008	5.313277E-002	-8.324312E-003	7.357216E-002	-1.196436E-002	7.361391E-002	-1.196339E-002	-9.841319E-002	1.521640E-002
4.900000E+008	5.302083E-002	-8.473086E-003	7.351274E-002	-1.221002E-002	7.355554E-002	-1.219743E-002	-9.824437E-002	1.555330E-002
5.000000E+008	5.293531E-002	-8.602580E-003	7.344789E-002	-1.244414E-002	7.349911E-002	-1.242627E-002	-9.806877E-002	1.587266E-002
5.100000E+008	5.282404E-002	-8.758670E-003	7.339457E-002	-1.266854E-002	7.344643E-002	-1.265337E-002	-9.790136E-002	1.619372E-002
5.200000E+008	5.269888E-002	-8.924096E-003	7.333130E-002	-1.291800E-002	7.340509E-002	-1.291815E-002	-9.772298E-002	1.650736E-002
5.300000E+008	5.256587E-002	-9.099262E-003	7.326545E-002	-1.313454E-002	7.333363E-002	-1.314258E-002	-9.747746E-002	1.683209E-002
5.400000E+008	5.242648E-002	-9.333132E-003	7.320617E-002	-1.337385E-002	7.327375E-002	-1.337804E-002	-9.723874E-002	1.713759E-002
5.500000E+008	5.228738E-002	-9.510146E-003	7.314607E-002	-1.360456E-002	7.319509E-002	-1.360748E-002	-9.702519E-002	1.749684E-002
5.600000E+008	5.216220E-002	-9.721001E-003	7.308395E-002	-1.384654E-002	7.313399E-002	-1.385215E-002	-9.679569E-002	1.784657E-002
5.700000E+008	5.205856E-002	-9.951401E-003	7.302330E-002	-1.406244E-002	7.307760E-002	-1.407291E-002	-9.664240E-002	1.826056E-002
5.800000E+008	5.196324E-002	-1.015264E-002	7.296887E-002	-1.430501E-002	7.301726E-002	-1.430296E-002	-9.644093E-002	1.864517E-002
5.900000E+008	5.188886E-002	-1.039321E-002	7.288817E-002	-1.452433E-002	7.295620E-002	-1.453416E-002	-9.627390E-002	1.905672E-002
6.000000E+008	5.185528E-002	-1.059175E-002	7.282122E-002	-1.476489E-002	7.288636E-002	-1.477602E-002	-9.606682E-002	1.942973E-002
6.100000E+008	5.181634E-002	-1.079583E-002	7.276344E-002	-1.500048E-002	7.281386E-002	-1.500408E-002	-9.588959E-002	1.980347E-002
6.200000E+008	5.178892E-002	-1.095236E-002	7.269860E-002	-1.521656E-002	7.274051E-002	-1.522528E-002	-9.571001E-002	2.016808E-002
6.300000E+008	5.176362E-002	-1.108427E-002	7.261048E-002	-1.544508E-002	7.267550E-002	-1.544459E-002	-9.554456E-002	2.051968E-002
6.400000E+008	5.173627E-002	-1.120974E-002	7.256469E-002	-1.565538E-002	7.260719E-002	-1.567316E-002	-9.535840E-002	2.087594E-002
6.500000E+008	5.170059E-002	-1.131682E-002	7.248514E-002	-1.588820E-002	7.253284E-002	-1.589268E-002	-9.515877E-002	2.125812E-002
6.600000E+008	5.162777E-002	-1.146050E-002	7.242371E-002	-1.611714E-002	7.246467E-002	-1.612065E-002	-9.496889E-002	2.163168E-002
6.700000E+008	5.151884E-002	-1.155115E-002	7.235826E-002	-1.634434E-002	7.240483E-002	-1.635748E-002	-9.481847E-002	2.203018E-002
6.800000E+008	5.140279E-002	-1.165482E-002	7.227496E-002	-1.656085E-002	7.233749E-002	-1.658343E-002	-9.461694E-002	2.242377E-002
6.900000E+008	5.128710E-002	-1.174186E-002	7.219641E-002	-1.678249E-002	7.225968E-002	-1.680853E-002	-9.442205E-002	2.283568E-002
7.000000E+008	5.118139E-002	-1.186979E-002	7.213905E-002	-1.701253E-002	7.219190E-002	-1.701548E-002	-9.431004E-002	2.324540E-002
7.100000E+008	5.107765E-002	-1.200494E-002	7.206119E-002	-1.722606E-002	7.211649E-002	-1.723747E-002	-9.418871E-002	2.362926E-002
7.200000E+008	5.094742E-002	-1.213482E-002	7.199581E-002	-1.745791E-002	7.204752E-002	-1.745428E-002	-9.403675E-002	2.402003E-002
7.300000E+008	5.080558E-002	-1.228110E-002	7.192065E-002	-1.767668E-002	7.197691E-002	-1.769853E-002	-9.393720E-002	2.436113E-002
7.400000E+008	5.068889E-002	-1.241863E-002	7.182809E-002	-1.789298E-002	7.189692E-002	-1.791099E-002	-9.383211E-002	2.470435E-002
7.500000E+008	5.057956E-002	-1.257840E-002	7.177804E-002	-1.813177E-002	7.182531E-002	-1.812851E-002	-9.371516E-002	2.501521E-002
7.600000E+008	5.045890E-002	-1.272423E-002	7.170084E-002	-1.834845E-002	7.175669E-002	-1.836621E-002	-9.357377E-002	2.531916E-002
7.700000E+008	5.033850E-002	-1.291425E-002	7.162328E-002	-1.855795E-002	7.167294E-002	-1.858211E-002	-9.343189E-002	2.561112E-002
7.800000E+008	5.025688E-002	-1.306337E-002	7.153046E-002	-1.879396E-002	7.161273E-002	-1.878297E-002	-9.323855E-002	2.590024E-002
7.900000E+008	5.013123E-002	-1.326797E-002	7.146302E-002	-1.901771E-002	7.152550E-002	-1.903355E-002	-9.308858E-002	2.620500E-002
8.000000E+008	5.004003E-002	-1.343694E-002	7.138616E-002	-1.923364E-002	7.143724E-002	-1.925004E-002	-9.286197E-002	2.652406E-002
8.100000E+008	4.997045E-002	-1.364899E-002	7.130857E-002	-1.944763E-002	7.135708E-002	-1.946739E-002	-9.260196E-002	2.686384E-002
8.200000E+008	4.992364E-002	-1.381243E-002	7.122835E-002	-1.966450E-002	7.129252E-002	-1.967522E-002	-9.237961E-002	2.720078E-002
8.300000E+008	4.989603E-002	-1.398355E-002	7.114044E-002	-1.988630E-002	7.120359E-002	-1.990679E-002	-9.218933E-002	2.755894E-002
8.400000E+008	4.983832E-002	-1.412254E-002	7.107103E-002	-2.009667E-002	7.112052E-002	-2.012037E-002	-9.199238E-002	2.791938E-002
8.500000E+008	4.983956E-002	-1.425363E-002	7.098577E-002	-2.030661E-002	7.105101E-002	-2.033319E-002	-9.184696E-002	2.825739E-002
8.600000E+008	4.976657E-002	-1.435797E-002	7.090520E-002	-2.052974E-002	7.095980E-002	-2.054548E-002	-9.168170E-002	2.861847E-002
8.700000E+008	4.969803E-002	-1.442789E-002	7.083850E-002	-2.075366E-002	7.088002E-002	-2.076478E-002	-9.150769E-002	2.896095E-002
8.800000E+008	4.963921E-002	-1.452202E-002	7.074764E-002	-2.098439E-002	7.081186E-002	-2.097961E-002	-9.138241E-002	2.925621E-002
8.900000E+008	4.953888E-002	-1.462381E-002	7.065584E-002	-2.118058E-002	7.072557E-002	-2.119855E-002	-9.121082E-002	2.955923E-002
9.000000E+008	4.944504E-002	-1.472041E-002	7.056718E-002	-2.141186E-002	7.063571E-002	-2.141975E-002	-9.101592E-002	2.987105E-002
9.100000E+008	4.932655E-002	-1.483285E-002	7.048043E-002	-2.160829E-002	7.055947E-002	-2.164306E-002	-9.080146E-002	3.014996E-002
9.200000E+008	4.920457E-002	-1.497544E-002	7.040681E-002	-2.182173E-002	7.047435E-002	-2.185922E-002	-9.056139E-002	3.046849E-002
9.300000E+008	4.912591E-002	-1.510511E-002	7.032950E-002	-2.204840E-002	7.036826E-002	-2.206473E-002	-9.028307E-002	3.078456E-002
9.400000E+008	4.907795E-002	-1.524978E-002	7.024244E-002	-2.225307E-002	7.029783E-002	-2.228663E-002	-8.996884E-002	3.111638E-002
9.500000E+008	4.899139E-002	-1.538969E-002	7.016037E-002	-2.245176E-002	7.019761E-002	-2.250135E-002	-8.966554E-002	3.149668E-002
9.600000E+008	4.893650E-002	-1.551888E-002	7.006943E-002	-2.266471E-002	7.012640E-002	-2.269903E-002	-8.935140E-002	3.189102E-002
9.700000E+008	4.888009E-002	-1.560826E-002	6.996855E-002	-2.288258E-002	7.003857E-002	-2.291024E-002	-8.906126E-002	3.228464E-002
9.800000E+008	4.884334E-002	-1.572000E-002	6.989276E-002	-2.307706E-002	6.996926E-002	-2.311077E-002	-8.877324E-002	3.271856E-002
9.900000E+008	4.877798E-002	-1.580084E-002	6.981961E-002	-2.331376E-002	6.986960E-002	-2.334496E-002	-8.853805E-002	3.313198E-002
1.000000E+009	4.873648E-002	-1.588201E-002	6.972431E-002	-2.352906E-002	6.977382E-002	-2.354766E-002	-8.834069E-002	3.352251E-002
1.010000E+009	4.865301E-002	-1.592858E-002	6.964362E-002	-2.374457E-002	6.968271E-002	-2.376604E-002	-8.811009E-002	3.393540E-002
1.020000E+009	4.857340E-002	-1.600545E-002	6.954962E-002	-2.396266E-002	6.960448E-002	-2.398645E-002	-8.792712E-002	3.435955E-002
1.030000E+009	4.848455E-002	-1.606328E-002	6.944630E-002	-2.416623E-002	6.952297E-002	-2.419658E-002	-8.773275E-002	3.475254E-002
1.040000E+009	4.837202E-002	-1.612330E-002	6.937207E-002	-2.436473E-002	6.943219E-002	-2.438476E-002	-8.752790E-002	3.513725E-002
1.050000E+009	4.831335E-002	-1.622705E-002	6.928879E-002	-2.458559E-002	6.932764E-002	-2.459365E-002	-8.730561E-002	3.554567E-002
1.060000E+009	4.822772E-002	-1.630721E-002	6.919999E-002	-2.480089E-002	6.923645E-002	-2.480851E-002	-8.705643E-002	3.594843E-002
1.070000E+009	4.811059E-002	-1.640077E-002	6.910121E-002	-2.499288E-002	6.915258E-002	-2.500695E-002	-8.680194E-002	3.633616E-002
1.080000E+009	4.803247E-002	-1.649091E-002	6.900199E-002	-2.519913E-002	6.907068E-002	-2.522790E-002	-8.655531E-002	3.675342E-002
1.090000E+009	4.793153E-002	-1.657417E-002	6.890929E-002	-2.541624E-002	6.898219E-002	-2.542918E-002	-8.633086E-002	3.714701E-002
1.100000E+009	4.784996E-002	-1.665216E-002	6.880228E-002	-2.563205E-002	6.888577E-002	-2.564111E-002	-8.612768E-002	3.757525E-002
1.110000E+009	4.775421E-002	-1.673629E-002	6.873827E-002	-2.583921E-002	6.880036E-002	-2.584926E-002	-8.589118E-002	3.795082E-002
1.120000E+009	4.765499E-002	-1.682256E-002	6.863247E-002	-2.604526E-002	6.870027E-002	-2.606976E-002	-8.573862E-002	3.834389E-002
1.130000E+009	4.758152E-002	-1.689325E-002	6.853222E-002	-2.625108E-002	6.860020E-002	-2.627355E-002	-8.554171E-002	3.870706E-002
1.140000E+009	4.746193E-002	-1.699383E-002	6.843339E-002	-2.647227E-002	6.849544E-002	-2.648885E-002	-8.530938E-002	3.910818E-002
1.150000E+009	4.736797E-002	-1.706090E-002	6.833643E-002	-2.667047E-002	6.839754E-002	-2.668813E-002	-8.509234E-002	3.948301E-002
1.160000E+009	4.726818E-002	-1.716059E-002	6.824668E-002	-2.688418E-002	6.830966E-002	-2.690266E-002	-8.486223E-002	3.984819E-002
1.170000E+009	4.717000E-002	-1.722901E-002	6.813665E-002	-2.707479E-002	6.819942E-002	-2.711282E-002	-8.461626E-002	4.026771E-002
1.180000E+009	4.708052E-002	-1.732450E-002	6.803836E-002	-2.728671E-002	6.811090E-002	-2.731787E-002	-8.435268E-002	4.066308E-002
1.190000E+009	4.696308E-002	-1.738829E-002	6.793090E-002	-2.749511E-002	6.798405E-002	-2.753085E-002	-8.409119E-002	4.110369E-002
1.200000E+009	4.687269E-002	-1.748275E-002	6.784824E-002	-2.771502E-002	6.789540E-002	-2.773483E-002	-8.383143E-002	4.150002E-002
1.210000E+009	4.679574E-002	-1.760158E-002	6.774292E-002	-2.791235E-002	6.778744E-002	-2.792779E-002	-8.359447E-002	4.192916E-002
1.220000E+009	4.669213E-002	-1.771756E-002	6.763641E-002	-2.812053E-002	6.771274E-002	-2.813522E-002	-8.338660E-002	4.236389E-002
1.230000E+009	4.659567E-002	-1.782205E-002	6.752038E-002	-2.831808E-002	6.757671E-002	-2.834420E-002	-8.317685E-002	4.273421E-002
1.240000E+009	4.653658E-002	-1.793514E-002	6.743114E-002	-2.852675E-002	6.749335E-002	-2.854696E-002	-8.298410E-002	4.311998E-002
1.250000E+009	4.648345E-002	-1.806643E-002	6.733229E-002	-2.873244E-002	6.739551E-002	-2.873578E-002	-8.279478E-002	4.346477E-002
1.260000E+009	4.639160E-002	-1.815994E-002	6.722043E-002	-2.894162E-002	6.727725E-002	-2.896344E-002	-8.255046E-002	4.381898E-002
1.270000E+009	4.639582E-002	-1.825840E-002	6.710791E-002	-2.914412E-002	6.717038E-002	-2.915885E-002	-8.230089E-002	4.412867E-002
1.280000E+009	4.633357E-002	-1.835411E-002	6.702523E-002	-2.936093E-002	6.707599E-002	-2.936307E-002	-8.205635E-002	4.443869E-002
1.290000E+009	4.628858E-002	-1.840549E-002	6.689698E-002	-2.956229E-002	6.694885E-002	-2.956649E-002	-8.173893E-002	4.477835E-002
1.300000E+009	4.625970E-002	-1.843535E-002	6.678084E-002	-2.974895E-002	6.686193E-002	-2.978479E-002	-8.141405E-002	4.512778E-002
1.310000E+009	4.618089E-002	-1.851359E-002	6.667545E-002	-2.997087E-002	6.674374E-002	-2.999568E-002	-8.107885E-002	4.550560E-002
1.320000E+009	4.611315E-002	-1.855223E-002	6.657989E-002	-3.018741E-002	6.663419E-002	-3.019759E-002	-8.069818E-002	4.590612E-002
1.330000E+009	4.604486E-002	-1.857819E-002	6.646834E-002	-3.036355E-002	6.653027E-002	-3.039367E-002	-8.031220E-002	4.636511E-002
1.340000E+009	4.594263E-002	-1.861354E-002	6.636234E-002	-3.055850E-002	6.640745E-002	-3.059669E-002	-7.995060E-002	4.683783E-002
1.350000E+009	4.582425E-002	-1.868290E-002	6.624449E-002	-3.076752E-002	6.628199E-002	-3.080083E-002	-7.961318E-002	4.734096E-002
1.360000E+009	4.578507E-002	-1.871895E-002	6.611978E-002	-3.097446E-002	6.617986E-002	-3.098007E-002	-7.929069E-002	4.787959E-002
1.370000E+009	4.569062E-002	-1.876089E-002	6.600677E-002	-3.116377E-002	6.608466E-002	-3.119180E-002	-7.899967E-002	4.838783E-002
1.380000E+009	4.560833E-002	-1.882811E-002	6.589287E-002	-3.135859E-002	6.595106E-002	-3.139362E-002	-7.869846E-002	4.890333E-002
1.390000E+009	4.554843E-002	-1.889072E-002	6.578015E-002	-3.157206E-002	6.584671E-002	-3.160783E-002	-7.844106E-002	4.943036E-002
1.400000E+009	4.545222E-002	-1.894665E-002	6.566140E-002	-3.176049E-002	6.572659E-002	-3.178848E-002	-7.817340E-002	4.990918E-002
1.410000E+009	4.537106E-002	-1.898248E-002	6.554092E-002	-3.195257E-002	6.559944E-002	-3.198889E-002	-7.794277E-002	5.042108E-002
1.420000E+009	4.526675E-002	-1.901259E-002	6.541952E-002	-3.215169E-002	6.549331E-002	-3.217901E-002	-7.769237E-002	5.088491E-002
1.430000E+009	4.519468E-002	-1.905242E-002	6.530033E-002	-3.235175E-002	6.536031E-002	-3.237450E-002	-7.742703E-002	5.131916E-002
1.440000E+009	4.509576E-002	-1.909967E-002	6.519045E-002	-3.254852E-002	6.525164E-002	-3.256313E-002	-7.717131E-002	5.175876E-002
1.450000E+009	4.497331E-002	-1.915306E-002	6.506215E-002	-3.275416E-002	6.514364E-002	-3.276569E-002	-7.685039E-002	5.222387E-002
1.460000E+009	4.487218E-002	-1.918303E-002	6.496435E-002	-3.293891E-002	6.498768E-002	-3.296500E-002	-7.658312E-002	5.266366E-002
1.470000E+009	4.476762E-002	-1.927739E-002	6.482119E-002	-3.314299E-002	6.487372E-002	-3.316556E-002	-7.626395E-002	5.313750E-002
1.480000E+009	4.465546E-002	-1.928769E-002	6.469666E-002	-3.332511E-002	6.475076E-002	-3.336242E-002	-7.592613E-002	5.364454E-002
1.490000E+009	4.457403E-002	-1.936460E-002	6.456903E-002	-3.352404E-002	6.462025E-002	-3.354219E-002	-7.560825E-002	5.414286E-002
1.500000E+009	4.446798E-002	-1.942832E-002	6.444107E-002	-3.369786E-002	6.451064E-002	-3.372764E-002	-7.524268E-002	5.467947E-002
