! Device ID: PE43711P
! File Path: z:\PE43711P\CHAR_NOM_04282014\AMB\3p300\LS_ATT_21p50dB\PE43711P_AMB_3p300V_3p000V_0p000V_LS_ATT_21p50dB_S2P_SN_5_A0137A.s2p
! Serial: 5
! Lot: A0137A
! Temp: 25C
! VDD: 3.300
! VSS: 0.000
! Control_Hi: 3.000
! Control_Lo: 0.000
! Attenuation Step: 21.50dB
! Port 1: RF1
! Port 2: RF2
! ThroughPath:1-2
! IDD: 0.0001275401
! ISS: -1.37e-007
!

#  Hz  S   RI  R   50

1.000000E+007	4.249386E-002	2.939038E-004	7.327705E-002	-3.231623E-004	7.333267E-002	-3.360110E-004	-1.318072E-001	9.983817E-004
2.000000E+007	4.271657E-002	3.458658E-004	7.326012E-002	-4.733351E-004	7.328891E-002	-5.064283E-004	-1.314800E-001	1.580424E-003
3.000000E+007	4.296548E-002	3.661692E-004	7.326215E-002	-7.157815E-004	7.328897E-002	-7.430282E-004	-1.311779E-001	2.118019E-003
4.000000E+007	4.312419E-002	3.427855E-004	7.326791E-002	-9.698192E-004	7.330186E-002	-9.903045E-004	-1.309980E-001	2.727939E-003
5.000000E+007	4.322853E-002	3.271277E-004	7.324060E-002	-1.229776E-003	7.329343E-002	-1.231854E-003	-1.309639E-001	3.342298E-003
6.000000E+007	4.339685E-002	2.504582E-004	7.322502E-002	-1.473840E-003	7.328007E-002	-1.479759E-003	-1.308437E-001	3.823205E-003
7.000000E+007	4.352324E-002	1.599471E-004	7.320238E-002	-1.718397E-003	7.326376E-002	-1.718630E-003	-1.306652E-001	4.312755E-003
8.000000E+007	4.364405E-002	8.160676E-005	7.318633E-002	-1.957275E-003	7.326247E-002	-1.943036E-003	-1.304946E-001	4.775654E-003
9.000000E+007	4.376094E-002	-4.584926E-006	7.318181E-002	-2.185809E-003	7.324852E-002	-2.191141E-003	-1.303758E-001	5.189626E-003
1.000000E+008	4.388120E-002	-9.119244E-005	7.318405E-002	-2.439938E-003	7.322726E-002	-2.418221E-003	-1.303304E-001	5.627220E-003
1.100000E+008	4.401070E-002	-1.878093E-004	7.316718E-002	-2.681512E-003	7.321969E-002	-2.662259E-003	-1.302302E-001	6.036080E-003
1.200000E+008	4.413552E-002	-3.252616E-004	7.311835E-002	-2.917538E-003	7.319401E-002	-2.922821E-003	-1.301308E-001	6.391233E-003
1.300000E+008	4.421707E-002	-4.284567E-004	7.311843E-002	-3.150790E-003	7.317348E-002	-3.158126E-003	-1.300198E-001	6.782399E-003
1.400000E+008	4.430506E-002	-4.959646E-004	7.309574E-002	-3.400491E-003	7.315352E-002	-3.400723E-003	-1.299252E-001	7.150624E-003
1.500000E+008	4.431627E-002	-5.582855E-004	7.307808E-002	-3.611665E-003	7.311564E-002	-3.624126E-003	-1.298140E-001	7.509554E-003
1.600000E+008	4.437777E-002	-6.006446E-004	7.305337E-002	-3.857435E-003	7.309943E-002	-3.849286E-003	-1.297573E-001	7.885381E-003
1.700000E+008	4.444216E-002	-6.893938E-004	7.304694E-002	-4.101786E-003	7.310494E-002	-4.096045E-003	-1.296752E-001	8.271884E-003
1.800000E+008	4.448086E-002	-7.589824E-004	7.298869E-002	-4.361806E-003	7.308316E-002	-4.351873E-003	-1.295906E-001	8.634452E-003
1.900000E+008	4.443596E-002	-8.838446E-004	7.294579E-002	-4.591201E-003	7.304850E-002	-4.594005E-003	-1.295367E-001	8.940140E-003
2.000000E+008	4.439149E-002	-9.863689E-004	7.292266E-002	-4.803200E-003	7.300753E-002	-4.800292E-003	-1.294841E-001	9.237722E-003
2.100000E+008	4.434856E-002	-1.184212E-003	7.289770E-002	-5.033914E-003	7.297517E-002	-5.032315E-003	-1.293963E-001	9.471960E-003
2.200000E+008	4.432530E-002	-1.327074E-003	7.288200E-002	-5.252005E-003	7.294318E-002	-5.246726E-003	-1.292984E-001	9.706992E-003
2.300000E+008	4.431941E-002	-1.495131E-003	7.285740E-002	-5.481334E-003	7.289440E-002	-5.476761E-003	-1.291611E-001	9.960402E-003
2.400000E+008	4.433907E-002	-1.664431E-003	7.283076E-002	-5.729411E-003	7.287631E-002	-5.711008E-003	-1.290114E-001	1.023696E-002
2.500000E+008	4.434432E-002	-1.808068E-003	7.279645E-002	-5.974802E-003	7.284420E-002	-5.946454E-003	-1.288326E-001	1.051661E-002
2.600000E+008	4.440396E-002	-1.957487E-003	7.275654E-002	-6.195135E-003	7.280648E-002	-6.174762E-003	-1.286172E-001	1.087109E-002
2.700000E+008	4.444615E-002	-2.097512E-003	7.270994E-002	-6.424918E-003	7.278378E-002	-6.429931E-003	-1.283857E-001	1.124178E-002
2.800000E+008	4.451227E-002	-2.209706E-003	7.267481E-002	-6.641871E-003	7.275384E-002	-6.636431E-003	-1.281804E-001	1.158814E-002
2.900000E+008	4.453109E-002	-2.305081E-003	7.264093E-002	-6.873279E-003	7.269462E-002	-6.853641E-003	-1.280388E-001	1.196366E-002
3.000000E+008	4.455572E-002	-2.355715E-003	7.262180E-002	-7.101896E-003	7.267174E-002	-7.082989E-003	-1.279019E-001	1.236577E-002
3.100000E+008	4.453693E-002	-2.421030E-003	7.257702E-002	-7.328838E-003	7.263972E-002	-7.314704E-003	-1.277664E-001	1.279502E-002
3.200000E+008	4.451809E-002	-2.461100E-003	7.253420E-002	-7.571652E-003	7.260275E-002	-7.552369E-003	-1.276873E-001	1.319528E-002
3.300000E+008	4.446889E-002	-2.497128E-003	7.250497E-002	-7.800079E-003	7.256921E-002	-7.800545E-003	-1.276042E-001	1.355585E-002
3.400000E+008	4.438402E-002	-2.566737E-003	7.244994E-002	-8.016800E-003	7.250827E-002	-8.040753E-003	-1.274840E-001	1.389893E-002
3.500000E+008	4.427355E-002	-2.671233E-003	7.241729E-002	-8.264390E-003	7.243569E-002	-8.263468E-003	-1.273496E-001	1.419107E-002
3.600000E+008	4.419285E-002	-2.753393E-003	7.236392E-002	-8.474355E-003	7.238344E-002	-8.459826E-003	-1.271712E-001	1.452778E-002
3.700000E+008	4.410451E-002	-2.867301E-003	7.230856E-002	-8.696866E-003	7.235184E-002	-8.659186E-003	-1.269920E-001	1.482194E-002
3.800000E+008	4.403713E-002	-2.985062E-003	7.227750E-002	-8.910519E-003	7.231907E-002	-8.881497E-003	-1.268057E-001	1.514684E-002
3.900000E+008	4.395317E-002	-3.137425E-003	7.221065E-002	-9.146745E-003	7.228849E-002	-9.120201E-003	-1.265109E-001	1.550942E-002
4.000000E+008	4.392514E-002	-3.302879E-003	7.215451E-002	-9.361042E-003	7.223695E-002	-9.350930E-003	-1.262035E-001	1.586943E-002
4.100000E+008	4.386536E-002	-3.442550E-003	7.210315E-002	-9.572280E-003	7.219130E-002	-9.574250E-003	-1.259463E-001	1.624027E-002
4.200000E+008	4.383139E-002	-3.586075E-003	7.208434E-002	-9.772282E-003	7.214057E-002	-9.784598E-003	-1.257306E-001	1.667036E-002
4.300000E+008	4.378589E-002	-3.716572E-003	7.204081E-002	-1.000015E-002	7.209197E-002	-1.001130E-002	-1.255162E-001	1.713397E-002
4.400000E+008	4.374799E-002	-3.797695E-003	7.199344E-002	-1.022389E-002	7.205198E-002	-1.023129E-002	-1.253329E-001	1.762773E-002
4.500000E+008	4.374250E-002	-3.905669E-003	7.195366E-002	-1.045233E-002	7.200605E-002	-1.046916E-002	-1.251546E-001	1.814338E-002
4.600000E+008	4.372099E-002	-4.016995E-003	7.189873E-002	-1.067574E-002	7.194450E-002	-1.068116E-002	-1.249596E-001	1.865202E-002
4.700000E+008	4.367874E-002	-4.103245E-003	7.184649E-002	-1.088331E-002	7.189490E-002	-1.089685E-002	-1.247965E-001	1.909840E-002
4.800000E+008	4.362416E-002	-4.171475E-003	7.180676E-002	-1.109817E-002	7.184722E-002	-1.111151E-002	-1.246419E-001	1.954299E-002
4.900000E+008	4.354420E-002	-4.246176E-003	7.174236E-002	-1.132133E-002	7.178106E-002	-1.132297E-002	-1.245202E-001	1.999142E-002
5.000000E+008	4.348454E-002	-4.300441E-003	7.169356E-002	-1.153462E-002	7.173537E-002	-1.154420E-002	-1.243534E-001	2.042367E-002
5.100000E+008	4.343930E-002	-4.382019E-003	7.164444E-002	-1.174694E-002	7.169672E-002	-1.174056E-002	-1.241755E-001	2.085599E-002
5.200000E+008	4.333735E-002	-4.471492E-003	7.159177E-002	-1.196730E-002	7.165079E-002	-1.197653E-002	-1.240196E-001	2.128994E-002
5.300000E+008	4.325031E-002	-4.591641E-003	7.154531E-002	-1.219360E-002	7.160204E-002	-1.218228E-002	-1.237774E-001	2.171470E-002
5.400000E+008	4.314307E-002	-4.752201E-003	7.146886E-002	-1.240917E-002	7.153661E-002	-1.241729E-002	-1.235402E-001	2.213313E-002
5.500000E+008	4.305231E-002	-4.863096E-003	7.143321E-002	-1.263116E-002	7.147539E-002	-1.263287E-002	-1.233348E-001	2.258244E-002
5.600000E+008	4.297525E-002	-5.014163E-003	7.137298E-002	-1.282981E-002	7.140655E-002	-1.283806E-002	-1.231221E-001	2.303836E-002
5.700000E+008	4.292453E-002	-5.184504E-003	7.130772E-002	-1.303921E-002	7.135905E-002	-1.306149E-002	-1.229497E-001	2.354996E-002
5.800000E+008	4.287614E-002	-5.320398E-003	7.125205E-002	-1.326067E-002	7.130925E-002	-1.327264E-002	-1.227791E-001	2.404901E-002
5.900000E+008	4.282721E-002	-5.479098E-003	7.118397E-002	-1.348709E-002	7.125753E-002	-1.348294E-002	-1.226008E-001	2.460167E-002
6.000000E+008	4.282932E-002	-5.632853E-003	7.113067E-002	-1.371571E-002	7.119140E-002	-1.371879E-002	-1.223877E-001	2.506506E-002
6.100000E+008	4.283064E-002	-5.763514E-003	7.107481E-002	-1.390877E-002	7.110993E-002	-1.391718E-002	-1.222192E-001	2.556249E-002
6.200000E+008	4.284785E-002	-5.845695E-003	7.100434E-002	-1.411721E-002	7.105761E-002	-1.411543E-002	-1.220479E-001	2.603922E-002
6.300000E+008	4.286021E-002	-5.925717E-003	7.094104E-002	-1.433354E-002	7.098802E-002	-1.433905E-002	-1.218904E-001	2.650496E-002
6.400000E+008	4.289133E-002	-5.988087E-003	7.088947E-002	-1.454524E-002	7.093750E-002	-1.454206E-002	-1.216901E-001	2.697499E-002
6.500000E+008	4.287337E-002	-6.036134E-003	7.081884E-002	-1.473653E-002	7.087451E-002	-1.474111E-002	-1.215291E-001	2.747805E-002
6.600000E+008	4.286082E-002	-6.119400E-003	7.076283E-002	-1.494354E-002	7.080315E-002	-1.496179E-002	-1.213274E-001	2.795646E-002
6.700000E+008	4.279862E-002	-6.153766E-003	7.070045E-002	-1.515604E-002	7.074243E-002	-1.516621E-002	-1.211596E-001	2.847215E-002
6.800000E+008	4.272488E-002	-6.209987E-003	7.064368E-002	-1.536421E-002	7.068664E-002	-1.539029E-002	-1.209655E-001	2.898134E-002
6.900000E+008	4.264017E-002	-6.249975E-003	7.056403E-002	-1.558043E-002	7.059216E-002	-1.558922E-002	-1.207868E-001	2.951784E-002
7.000000E+008	4.259885E-002	-6.296642E-003	7.049702E-002	-1.579056E-002	7.054747E-002	-1.579966E-002	-1.206527E-001	3.003677E-002
7.100000E+008	4.251909E-002	-6.367206E-003	7.043644E-002	-1.598565E-002	7.048604E-002	-1.600440E-002	-1.205295E-001	3.052896E-002
7.200000E+008	4.243245E-002	-6.441472E-003	7.036594E-002	-1.618080E-002	7.042915E-002	-1.620536E-002	-1.203958E-001	3.103530E-002
7.300000E+008	4.235873E-002	-6.526633E-003	7.031139E-002	-1.640676E-002	7.036010E-002	-1.642220E-002	-1.202833E-001	3.150092E-002
7.400000E+008	4.225138E-002	-6.599452E-003	7.024021E-002	-1.662050E-002	7.029677E-002	-1.661477E-002	-1.201859E-001	3.194505E-002
7.500000E+008	4.218612E-002	-6.702873E-003	7.018353E-002	-1.682943E-002	7.024151E-002	-1.682543E-002	-1.200570E-001	3.237466E-002
7.600000E+008	4.212311E-002	-6.821594E-003	7.011050E-002	-1.703126E-002	7.016311E-002	-1.704015E-002	-1.199116E-001	3.281389E-002
7.700000E+008	4.205003E-002	-6.942186E-003	7.004030E-002	-1.723051E-002	7.008805E-002	-1.723716E-002	-1.197572E-001	3.320435E-002
7.800000E+008	4.199293E-002	-7.032367E-003	6.997999E-002	-1.742339E-002	7.003668E-002	-1.742994E-002	-1.196005E-001	3.359784E-002
7.900000E+008	4.193818E-002	-7.189291E-003	6.990734E-002	-1.762935E-002	6.996680E-002	-1.766513E-002	-1.194017E-001	3.404817E-002
8.000000E+008	4.188881E-002	-7.309397E-003	6.983865E-002	-1.783621E-002	6.987239E-002	-1.785419E-002	-1.191749E-001	3.448466E-002
8.100000E+008	4.185673E-002	-7.458193E-003	6.975854E-002	-1.803395E-002	6.981729E-002	-1.805732E-002	-1.189183E-001	3.494745E-002
8.200000E+008	4.186769E-002	-7.573810E-003	6.967519E-002	-1.824566E-002	6.974212E-002	-1.826562E-002	-1.186908E-001	3.540290E-002
8.300000E+008	4.188676E-002	-7.670083E-003	6.961280E-002	-1.845001E-002	6.966571E-002	-1.844481E-002	-1.184644E-001	3.588037E-002
8.400000E+008	4.188174E-002	-7.756297E-003	6.953599E-002	-1.864987E-002	6.960155E-002	-1.867167E-002	-1.182668E-001	3.634200E-002
8.500000E+008	4.189635E-002	-7.826839E-003	6.947846E-002	-1.883485E-002	6.954022E-002	-1.885850E-002	-1.181189E-001	3.682379E-002
8.600000E+008	4.188629E-002	-7.898772E-003	6.940812E-002	-1.903679E-002	6.945541E-002	-1.906221E-002	-1.179486E-001	3.729207E-002
8.700000E+008	4.187451E-002	-7.921847E-003	6.934670E-002	-1.925785E-002	6.938891E-002	-1.926986E-002	-1.177709E-001	3.775187E-002
8.800000E+008	4.185847E-002	-7.941742E-003	6.926970E-002	-1.945261E-002	6.930783E-002	-1.945794E-002	-1.176284E-001	3.818139E-002
8.900000E+008	4.180154E-002	-7.986418E-003	6.918368E-002	-1.965973E-002	6.923879E-002	-1.966393E-002	-1.174488E-001	3.859847E-002
9.000000E+008	4.175216E-002	-8.055035E-003	6.910951E-002	-1.984519E-002	6.916345E-002	-1.985808E-002	-1.172603E-001	3.902923E-002
9.100000E+008	4.167113E-002	-8.107679E-003	6.902812E-002	-2.005464E-002	6.909679E-002	-2.006873E-002	-1.170387E-001	3.943694E-002
9.200000E+008	4.160706E-002	-8.200890E-003	6.895741E-002	-2.024477E-002	6.902240E-002	-2.025100E-002	-1.167589E-001	3.987016E-002
9.300000E+008	4.156337E-002	-8.286232E-003	6.888695E-002	-2.045191E-002	6.894386E-002	-2.047640E-002	-1.164766E-001	4.030804E-002
9.400000E+008	4.153952E-002	-8.379051E-003	6.880148E-002	-2.065505E-002	6.886979E-002	-2.066279E-002	-1.161425E-001	4.078708E-002
9.500000E+008	4.152413E-002	-8.475346E-003	6.872829E-002	-2.084287E-002	6.878276E-002	-2.086199E-002	-1.158115E-001	4.129131E-002
9.600000E+008	4.149442E-002	-8.542422E-003	6.863911E-002	-2.104072E-002	6.871112E-002	-2.105879E-002	-1.154809E-001	4.178877E-002
9.700000E+008	4.149247E-002	-8.609203E-003	6.856243E-002	-2.122711E-002	6.864451E-002	-2.125727E-002	-1.151811E-001	4.232146E-002
9.800000E+008	4.150228E-002	-8.661229E-003	6.851762E-002	-2.142392E-002	6.856568E-002	-2.145319E-002	-1.148890E-001	4.287298E-002
9.900000E+008	4.149135E-002	-8.676385E-003	6.844553E-002	-2.162545E-002	6.849098E-002	-2.164455E-002	-1.146278E-001	4.341362E-002
1.000000E+009	4.150197E-002	-8.704767E-003	6.835257E-002	-2.181645E-002	6.839793E-002	-2.185224E-002	-1.144046E-001	4.393774E-002
1.010000E+009	4.145426E-002	-8.723467E-003	6.827286E-002	-2.202785E-002	6.833618E-002	-2.205210E-002	-1.141367E-001	4.445788E-002
1.020000E+009	4.141044E-002	-8.749423E-003	6.821132E-002	-2.223206E-002	6.825518E-002	-2.224754E-002	-1.139642E-001	4.501164E-002
1.030000E+009	4.138516E-002	-8.775852E-003	6.811286E-002	-2.240767E-002	6.815940E-002	-2.243683E-002	-1.137496E-001	4.550790E-002
1.040000E+009	4.131614E-002	-8.785861E-003	6.803354E-002	-2.261157E-002	6.808080E-002	-2.262754E-002	-1.135178E-001	4.603331E-002
1.050000E+009	4.129082E-002	-8.834648E-003	6.793936E-002	-2.280025E-002	6.800481E-002	-2.283542E-002	-1.132629E-001	4.658085E-002
1.060000E+009	4.126292E-002	-8.867098E-003	6.788254E-002	-2.298820E-002	6.791815E-002	-2.301374E-002	-1.129900E-001	4.709333E-002
1.070000E+009	4.118697E-002	-8.913592E-003	6.779435E-002	-2.318264E-002	6.784170E-002	-2.320518E-002	-1.127190E-001	4.762685E-002
1.080000E+009	4.115239E-002	-8.947695E-003	6.771442E-002	-2.339145E-002	6.777444E-002	-2.341285E-002	-1.124301E-001	4.814710E-002
1.090000E+009	4.109340E-002	-9.009711E-003	6.763678E-002	-2.357533E-002	6.768775E-002	-2.360091E-002	-1.121701E-001	4.866311E-002
1.100000E+009	4.106132E-002	-9.027016E-003	6.755023E-002	-2.378011E-002	6.761716E-002	-2.377343E-002	-1.119267E-001	4.919762E-002
1.110000E+009	4.103166E-002	-9.068555E-003	6.745882E-002	-2.397936E-002	6.753928E-002	-2.398446E-002	-1.116814E-001	4.972479E-002
1.120000E+009	4.097290E-002	-9.118666E-003	6.739017E-002	-2.416660E-002	6.745259E-002	-2.419005E-002	-1.115081E-001	5.021527E-002
1.130000E+009	4.092042E-002	-9.165471E-003	6.728834E-002	-2.437066E-002	6.735268E-002	-2.438066E-002	-1.112840E-001	5.071918E-002
1.140000E+009	4.085570E-002	-9.203109E-003	6.721832E-002	-2.456383E-002	6.726154E-002	-2.458615E-002	-1.110631E-001	5.123405E-002
1.150000E+009	4.081591E-002	-9.233675E-003	6.713129E-002	-2.476830E-002	6.718006E-002	-2.475699E-002	-1.107753E-001	5.172699E-002
1.160000E+009	4.076210E-002	-9.257855E-003	6.703549E-002	-2.496451E-002	6.709777E-002	-2.499410E-002	-1.105295E-001	5.221726E-002
1.170000E+009	4.072149E-002	-9.310910E-003	6.694954E-002	-2.514161E-002	6.699446E-002	-2.515554E-002	-1.102648E-001	5.276734E-002
1.180000E+009	4.067007E-002	-9.362438E-003	6.685981E-002	-2.534106E-002	6.692910E-002	-2.535289E-002	-1.099519E-001	5.327011E-002
1.190000E+009	4.060498E-002	-9.399259E-003	6.676331E-002	-2.553062E-002	6.682567E-002	-2.555072E-002	-1.096742E-001	5.382690E-002
1.200000E+009	4.055429E-002	-9.427729E-003	6.669058E-002	-2.571891E-002	6.673412E-002	-2.573503E-002	-1.093740E-001	5.439281E-002
1.210000E+009	4.053974E-002	-9.514780E-003	6.658281E-002	-2.592301E-002	6.665067E-002	-2.593256E-002	-1.091203E-001	5.491898E-002
1.220000E+009	4.048699E-002	-9.581017E-003	6.649622E-002	-2.609574E-002	6.656875E-002	-2.613305E-002	-1.088605E-001	5.545477E-002
1.230000E+009	4.042278E-002	-9.643485E-003	6.641307E-002	-2.629077E-002	6.647638E-002	-2.631006E-002	-1.086339E-001	5.597127E-002
1.240000E+009	4.041283E-002	-9.707110E-003	6.630515E-002	-2.649587E-002	6.636363E-002	-2.650460E-002	-1.084111E-001	5.645426E-002
1.250000E+009	4.041484E-002	-9.797391E-003	6.623984E-002	-2.667257E-002	6.628678E-002	-2.668838E-002	-1.081775E-001	5.694964E-002
1.260000E+009	4.037336E-002	-9.870262E-003	6.614142E-002	-2.687379E-002	6.617608E-002	-2.688316E-002	-1.079120E-001	5.739682E-002
1.270000E+009	4.040212E-002	-9.925356E-003	6.606147E-002	-2.706995E-002	6.609086E-002	-2.709964E-002	-1.076133E-001	5.784745E-002
1.280000E+009	4.040148E-002	-9.954738E-003	6.596678E-002	-2.725610E-002	6.602150E-002	-2.725862E-002	-1.073402E-001	5.829819E-002
1.290000E+009	4.039937E-002	-9.968581E-003	6.585507E-002	-2.744856E-002	6.592071E-002	-2.746525E-002	-1.069676E-001	5.873885E-002
1.300000E+009	4.040556E-002	-9.990384E-003	6.574920E-002	-2.763369E-002	6.582710E-002	-2.765522E-002	-1.066184E-001	5.921752E-002
1.310000E+009	4.039384E-002	-9.999009E-003	6.565745E-002	-2.780599E-002	6.573045E-002	-2.784475E-002	-1.062622E-001	5.969784E-002
1.320000E+009	4.035637E-002	-1.000521E-002	6.556677E-002	-2.802410E-002	6.562744E-002	-2.805084E-002	-1.058246E-001	6.026772E-002
1.330000E+009	4.034277E-002	-9.986890E-003	6.547938E-002	-2.820123E-002	6.552282E-002	-2.823051E-002	-1.054056E-001	6.083858E-002
1.340000E+009	4.031342E-002	-9.977981E-003	6.537226E-002	-2.839387E-002	6.541372E-002	-2.841066E-002	-1.050324E-001	6.144387E-002
1.350000E+009	4.024772E-002	-9.992142E-003	6.528072E-002	-2.857596E-002	6.532316E-002	-2.859916E-002	-1.046406E-001	6.206365E-002
1.360000E+009	4.024048E-002	-1.001383E-002	6.516050E-002	-2.876611E-002	6.523358E-002	-2.879851E-002	-1.042441E-001	6.270518E-002
1.370000E+009	4.020752E-002	-1.002248E-002	6.505992E-002	-2.896504E-002	6.513637E-002	-2.897443E-002	-1.039393E-001	6.335449E-002
1.380000E+009	4.016204E-002	-1.002700E-002	6.495085E-002	-2.914743E-002	6.502859E-002	-2.916732E-002	-1.036118E-001	6.400104E-002
1.390000E+009	4.015057E-002	-1.004967E-002	6.488003E-002	-2.932704E-002	6.492946E-002	-2.936863E-002	-1.033127E-001	6.466175E-002
1.400000E+009	4.010937E-002	-1.008676E-002	6.475166E-002	-2.951313E-002	6.480601E-002	-2.952560E-002	-1.030016E-001	6.524698E-002
1.410000E+009	4.007083E-002	-1.009031E-002	6.465396E-002	-2.971549E-002	6.471020E-002	-2.972219E-002	-1.026985E-001	6.588508E-002
1.420000E+009	4.000420E-002	-1.007368E-002	6.454580E-002	-2.987467E-002	6.460622E-002	-2.990469E-002	-1.024225E-001	6.646774E-002
1.430000E+009	4.000520E-002	-1.008365E-002	6.445103E-002	-3.006565E-002	6.450352E-002	-3.009411E-002	-1.020991E-001	6.702608E-002
1.440000E+009	3.993869E-002	-1.007260E-002	6.434667E-002	-3.026100E-002	6.439314E-002	-3.026090E-002	-1.017953E-001	6.760306E-002
1.450000E+009	3.988362E-002	-1.008196E-002	6.423230E-002	-3.044178E-002	6.428380E-002	-3.044023E-002	-1.014560E-001	6.816632E-002
1.460000E+009	3.982406E-002	-1.011965E-002	6.411326E-002	-3.062923E-002	6.418430E-002	-3.063937E-002	-1.011033E-001	6.874008E-002
1.470000E+009	3.976837E-002	-1.014548E-002	6.401068E-002	-3.080943E-002	6.407367E-002	-3.080917E-002	-1.007579E-001	6.935163E-002
1.480000E+009	3.972085E-002	-1.013624E-002	6.390438E-002	-3.098083E-002	6.395559E-002	-3.100676E-002	-1.003873E-001	6.998711E-002
1.490000E+009	3.968021E-002	-1.017257E-002	6.378991E-002	-3.115433E-002	6.385640E-002	-3.117479E-002	-9.998738E-002	7.061844E-002
1.500000E+009	3.963452E-002	-1.020348E-002	6.367376E-002	-3.133372E-002	6.373299E-002	-3.134380E-002	-9.959766E-002	7.124921E-002
