! Device ID: PE43711P
! File Path: z:\PE43711P\CHAR_NOM_04282014\AMB\3p300\LS_ATT_4p75dB\PE43711P_AMB_3p300V_3p000V_0p000V_LS_ATT_4p75dB_S2P_SN_5_A0137A.s2p
! Serial: 5
! Lot: A0137A
! Temp: 25C
! VDD: 3.300
! VSS: 0.000
! Control_Hi: 3.000
! Control_Lo: 0.000
! Attenuation Step: 4.75dB
! Port 1: RF1
! Port 2: RF2
! ThroughPath:1-2
! IDD: 0.0001276376
! ISS: -8.72e-008
!

#  Hz  S   RI  R   50

1.000000E+007	9.435510E-002	-3.870200E-004	5.110244E-001	-2.541685E-003	5.112180E-001	-2.748976E-003	-3.538483E-002	3.048965E-004
2.000000E+007	9.446546E-002	-6.113259E-004	5.109006E-001	-4.322703E-003	5.108611E-001	-4.354398E-003	-3.520267E-002	6.281561E-004
3.000000E+007	9.474905E-002	-1.159849E-003	5.109047E-001	-6.502016E-003	5.108571E-001	-6.536823E-003	-3.491839E-002	7.884006E-004
4.000000E+007	9.481908E-002	-1.639277E-003	5.108946E-001	-8.690814E-003	5.107981E-001	-8.711155E-003	-3.456774E-002	9.260603E-004
5.000000E+007	9.504315E-002	-2.248935E-003	5.108705E-001	-1.106570E-002	5.108255E-001	-1.100946E-002	-3.440689E-002	9.519451E-004
6.000000E+007	9.526820E-002	-2.934826E-003	5.107196E-001	-1.321502E-002	5.107949E-001	-1.319395E-002	-3.427622E-002	8.548044E-004
7.000000E+007	9.537659E-002	-3.618760E-003	5.105838E-001	-1.537515E-002	5.106138E-001	-1.536938E-002	-3.419383E-002	7.802819E-004
8.000000E+007	9.552226E-002	-4.288201E-003	5.104735E-001	-1.745401E-002	5.105064E-001	-1.747452E-002	-3.411416E-002	7.665292E-004
9.000000E+007	9.562051E-002	-4.928246E-003	5.103526E-001	-1.962257E-002	5.103693E-001	-1.963677E-002	-3.397878E-002	6.919159E-004
1.000000E+008	9.569034E-002	-5.565664E-003	5.102793E-001	-2.180388E-002	5.102104E-001	-2.177372E-002	-3.378480E-002	6.016895E-004
1.100000E+008	9.575758E-002	-6.185249E-003	5.100737E-001	-2.402377E-002	5.100887E-001	-2.392375E-002	-3.373768E-002	4.806503E-004
1.200000E+008	9.585140E-002	-6.827870E-003	5.098068E-001	-2.614614E-002	5.098625E-001	-2.609876E-002	-3.380301E-002	3.834759E-004
1.300000E+008	9.594540E-002	-7.546299E-003	5.096214E-001	-2.826858E-002	5.096837E-001	-2.825026E-002	-3.369530E-002	1.887743E-004
1.400000E+008	9.595849E-002	-8.342461E-003	5.094647E-001	-3.041769E-002	5.094659E-001	-3.043088E-002	-3.334715E-002	-3.679517E-005
1.500000E+008	9.586627E-002	-9.056325E-003	5.092617E-001	-3.249319E-002	5.091688E-001	-3.250029E-002	-3.305346E-002	-2.002473E-004
1.600000E+008	9.566338E-002	-9.578255E-003	5.090561E-001	-3.456061E-002	5.089086E-001	-3.453721E-002	-3.322630E-002	-2.698373E-004
1.700000E+008	9.544671E-002	-1.005670E-002	5.088589E-001	-3.682371E-002	5.089235E-001	-3.664347E-002	-3.366930E-002	-4.058381E-004
1.800000E+008	9.521573E-002	-1.064485E-002	5.083464E-001	-3.905033E-002	5.086443E-001	-3.892096E-002	-3.402022E-002	-6.109845E-004
1.900000E+008	9.508839E-002	-1.137606E-002	5.079640E-001	-4.107228E-002	5.082343E-001	-4.102843E-002	-3.402323E-002	-8.122708E-004
2.000000E+008	9.506108E-002	-1.218032E-002	5.077370E-001	-4.312022E-002	5.079346E-001	-4.306914E-002	-3.375873E-002	-9.678451E-004
2.100000E+008	9.503033E-002	-1.301299E-002	5.074806E-001	-4.517975E-002	5.076309E-001	-4.515741E-002	-3.345280E-002	-1.114507E-003
2.200000E+008	9.496554E-002	-1.376461E-002	5.072465E-001	-4.716263E-002	5.073418E-001	-4.718784E-002	-3.328668E-002	-1.268278E-003
2.300000E+008	9.478521E-002	-1.447919E-002	5.069454E-001	-4.924955E-002	5.070047E-001	-4.923665E-002	-3.322100E-002	-1.466262E-003
2.400000E+008	9.460459E-002	-1.519471E-002	5.066270E-001	-5.135026E-002	5.066392E-001	-5.129788E-002	-3.322258E-002	-1.695267E-003
2.500000E+008	9.440211E-002	-1.587832E-002	5.062628E-001	-5.345560E-002	5.063128E-001	-5.338305E-002	-3.321451E-002	-2.013792E-003
2.600000E+008	9.423553E-002	-1.661893E-002	5.058475E-001	-5.555389E-002	5.059864E-001	-5.545716E-002	-3.316485E-002	-2.218202E-003
2.700000E+008	9.408503E-002	-1.729543E-002	5.054440E-001	-5.757922E-002	5.055954E-001	-5.755115E-002	-3.304889E-002	-2.367408E-003
2.800000E+008	9.399658E-002	-1.796157E-002	5.050416E-001	-5.957693E-002	5.052075E-001	-5.951791E-002	-3.291808E-002	-2.498766E-003
2.900000E+008	9.379091E-002	-1.853227E-002	5.047056E-001	-6.155342E-002	5.047940E-001	-6.150376E-002	-3.285708E-002	-2.562604E-003
3.000000E+008	9.368029E-002	-1.906732E-002	5.043741E-001	-6.361264E-002	5.045088E-001	-6.352281E-002	-3.278671E-002	-2.618841E-003
3.100000E+008	9.349166E-002	-1.959102E-002	5.039811E-001	-6.562495E-002	5.041471E-001	-6.556120E-002	-3.275288E-002	-2.651258E-003
3.200000E+008	9.331591E-002	-2.014271E-002	5.035451E-001	-6.769773E-002	5.037584E-001	-6.761031E-002	-3.273428E-002	-2.714809E-003
3.300000E+008	9.307219E-002	-2.065851E-002	5.031721E-001	-6.970786E-002	5.033323E-001	-6.973908E-002	-3.273270E-002	-2.802678E-003
3.400000E+008	9.271966E-002	-2.122094E-002	5.026970E-001	-7.173290E-002	5.026981E-001	-7.185258E-002	-3.269424E-002	-2.940034E-003
3.500000E+008	9.236045E-002	-2.176700E-002	5.022595E-001	-7.379134E-002	5.021122E-001	-7.373791E-002	-3.266380E-002	-3.156007E-003
3.600000E+008	9.206658E-002	-2.228963E-002	5.017831E-001	-7.580362E-002	5.016626E-001	-7.555672E-002	-3.261938E-002	-3.277008E-003
3.700000E+008	9.176892E-002	-2.285613E-002	5.012421E-001	-7.770621E-002	5.012954E-001	-7.740692E-002	-3.248885E-002	-3.394485E-003
3.800000E+008	9.147733E-002	-2.345009E-002	5.008370E-001	-7.966407E-002	5.009786E-001	-7.945728E-002	-3.237779E-002	-3.549628E-003
3.900000E+008	9.113531E-002	-2.405120E-002	5.002773E-001	-8.170354E-002	5.005401E-001	-8.150064E-002	-3.222364E-002	-3.690723E-003
4.000000E+008	9.087423E-002	-2.468162E-002	4.997516E-001	-8.355173E-002	5.000334E-001	-8.353658E-002	-3.205907E-002	-3.792097E-003
4.100000E+008	9.050230E-002	-2.530652E-002	4.992977E-001	-8.542115E-002	4.995352E-001	-8.548654E-002	-3.194412E-002	-3.887320E-003
4.200000E+008	9.013257E-002	-2.587001E-002	4.988758E-001	-8.736387E-002	4.990504E-001	-8.739742E-002	-3.185348E-002	-3.908587E-003
4.300000E+008	8.985586E-002	-2.640547E-002	4.984234E-001	-8.936722E-002	4.985488E-001	-8.937202E-002	-3.176785E-002	-3.969120E-003
4.400000E+008	8.959072E-002	-2.690010E-002	4.979175E-001	-9.132612E-002	4.980750E-001	-9.130361E-002	-3.171958E-002	-3.921663E-003
4.500000E+008	8.933990E-002	-2.743826E-002	4.974299E-001	-9.329350E-002	4.976114E-001	-9.327925E-002	-3.165881E-002	-3.875502E-003
4.600000E+008	8.908216E-002	-2.796686E-002	4.968725E-001	-9.526154E-002	4.970475E-001	-9.524203E-002	-3.161422E-002	-3.809092E-003
4.700000E+008	8.875732E-002	-2.845175E-002	4.963299E-001	-9.715810E-002	4.964612E-001	-9.716158E-002	-3.162760E-002	-3.790158E-003
4.800000E+008	8.842719E-002	-2.889249E-002	4.958004E-001	-9.903741E-002	4.959129E-001	-9.899795E-002	-3.166059E-002	-3.716671E-003
4.900000E+008	8.803756E-002	-2.935511E-002	4.952394E-001	-1.009411E-001	4.953307E-001	-1.009398E-001	-3.168392E-002	-3.666756E-003
5.000000E+008	8.772095E-002	-2.977558E-002	4.946804E-001	-1.028744E-001	4.948168E-001	-1.027987E-001	-3.168213E-002	-3.663433E-003
5.100000E+008	8.739315E-002	-3.027909E-002	4.941570E-001	-1.047696E-001	4.943252E-001	-1.046625E-001	-3.162905E-002	-3.671203E-003
5.200000E+008	8.703508E-002	-3.081470E-002	4.936186E-001	-1.067020E-001	4.937830E-001	-1.066192E-001	-3.156117E-002	-3.713064E-003
5.300000E+008	8.666817E-002	-3.136208E-002	4.930297E-001	-1.085886E-001	4.932282E-001	-1.085903E-001	-3.142541E-002	-3.769317E-003
5.400000E+008	8.626757E-002	-3.194409E-002	4.924116E-001	-1.105087E-001	4.926500E-001	-1.105027E-001	-3.135977E-002	-3.837885E-003
5.500000E+008	8.590747E-002	-3.240153E-002	4.918340E-001	-1.123968E-001	4.919989E-001	-1.123878E-001	-3.132346E-002	-3.814715E-003
5.600000E+008	8.552375E-002	-3.287276E-002	4.912017E-001	-1.142632E-001	4.913923E-001	-1.142712E-001	-3.128005E-002	-3.789617E-003
5.700000E+008	8.520843E-002	-3.334551E-002	4.906117E-001	-1.160952E-001	4.908355E-001	-1.161201E-001	-3.132400E-002	-3.681786E-003
5.800000E+008	8.486731E-002	-3.379242E-002	4.900218E-001	-1.179853E-001	4.902535E-001	-1.179677E-001	-3.132992E-002	-3.628908E-003
5.900000E+008	8.454207E-002	-3.431649E-002	4.893946E-001	-1.198805E-001	4.896724E-001	-1.199006E-001	-3.137260E-002	-3.549027E-003
6.000000E+008	8.425202E-002	-3.479182E-002	4.887709E-001	-1.217560E-001	4.890414E-001	-1.217720E-001	-3.137449E-002	-3.553284E-003
6.100000E+008	8.397759E-002	-3.528742E-002	4.881691E-001	-1.235802E-001	4.883508E-001	-1.236247E-001	-3.142792E-002	-3.499003E-003
6.200000E+008	8.368839E-002	-3.573641E-002	4.874730E-001	-1.254003E-001	4.877281E-001	-1.254589E-001	-3.144487E-002	-3.463536E-003
6.300000E+008	8.345004E-002	-3.618604E-002	4.868012E-001	-1.272464E-001	4.870631E-001	-1.272772E-001	-3.145117E-002	-3.418167E-003
6.400000E+008	8.319667E-002	-3.662780E-002	4.861883E-001	-1.290609E-001	4.864383E-001	-1.291017E-001	-3.140907E-002	-3.341731E-003
6.500000E+008	8.293692E-002	-3.701574E-002	4.855573E-001	-1.308749E-001	4.857968E-001	-1.309311E-001	-3.140471E-002	-3.265139E-003
6.600000E+008	8.261405E-002	-3.745996E-002	4.849441E-001	-1.327226E-001	4.851270E-001	-1.327857E-001	-3.138971E-002	-3.182025E-003
6.700000E+008	8.220305E-002	-3.783122E-002	4.842556E-001	-1.345763E-001	4.844689E-001	-1.346200E-001	-3.145734E-002	-3.070119E-003
6.800000E+008	8.181584E-002	-3.819675E-002	4.835851E-001	-1.363922E-001	4.837939E-001	-1.364500E-001	-3.150583E-002	-2.941210E-003
6.900000E+008	8.141646E-002	-3.853757E-002	4.828927E-001	-1.382134E-001	4.830763E-001	-1.382028E-001	-3.155306E-002	-2.773959E-003
7.000000E+008	8.103719E-002	-3.889144E-002	4.822018E-001	-1.399884E-001	4.824408E-001	-1.399847E-001	-3.165451E-002	-2.668892E-003
7.100000E+008	8.069199E-002	-3.930416E-002	4.815307E-001	-1.417636E-001	4.817437E-001	-1.418334E-001	-3.171272E-002	-2.585897E-003
7.200000E+008	8.029866E-002	-3.973952E-002	4.808478E-001	-1.435449E-001	4.810926E-001	-1.436215E-001	-3.177678E-002	-2.579458E-003
7.300000E+008	7.990053E-002	-4.017056E-002	4.801215E-001	-1.453620E-001	4.804453E-001	-1.454755E-001	-3.187731E-002	-2.577796E-003
7.400000E+008	7.947870E-002	-4.054148E-002	4.794161E-001	-1.471684E-001	4.797194E-001	-1.472417E-001	-3.198677E-002	-2.551620E-003
7.500000E+008	7.912717E-002	-4.095853E-002	4.787325E-001	-1.489819E-001	4.790321E-001	-1.490502E-001	-3.206469E-002	-2.539572E-003
7.600000E+008	7.871321E-002	-4.137386E-002	4.780126E-001	-1.507449E-001	4.782834E-001	-1.508394E-001	-3.213302E-002	-2.548444E-003
7.700000E+008	7.830797E-002	-4.179224E-002	4.773052E-001	-1.525111E-001	4.775970E-001	-1.525979E-001	-3.217485E-002	-2.573687E-003
7.800000E+008	7.788104E-002	-4.220740E-002	4.765661E-001	-1.542824E-001	4.768767E-001	-1.543745E-001	-3.224755E-002	-2.560993E-003
7.900000E+008	7.750225E-002	-4.265569E-002	4.758562E-001	-1.560535E-001	4.761706E-001	-1.561815E-001	-3.234201E-002	-2.547490E-003
8.000000E+008	7.707160E-002	-4.309462E-002	4.750876E-001	-1.578101E-001	4.753743E-001	-1.579133E-001	-3.238347E-002	-2.528839E-003
8.100000E+008	7.670886E-002	-4.353121E-002	4.743334E-001	-1.595608E-001	4.746282E-001	-1.596803E-001	-3.238361E-002	-2.447952E-003
8.200000E+008	7.636379E-002	-4.390875E-002	4.736046E-001	-1.613458E-001	4.738688E-001	-1.614026E-001	-3.240757E-002	-2.404516E-003
8.300000E+008	7.606714E-002	-4.431051E-002	4.728291E-001	-1.630657E-001	4.731592E-001	-1.631693E-001	-3.244156E-002	-2.323960E-003
8.400000E+008	7.576277E-002	-4.469128E-002	4.720587E-001	-1.648073E-001	4.724012E-001	-1.649180E-001	-3.249148E-002	-2.236691E-003
8.500000E+008	7.545620E-002	-4.505525E-002	4.713406E-001	-1.665497E-001	4.716270E-001	-1.666722E-001	-3.256362E-002	-2.174781E-003
8.600000E+008	7.510292E-002	-4.540315E-002	4.705442E-001	-1.682831E-001	4.708057E-001	-1.683873E-001	-3.264896E-002	-2.088569E-003
8.700000E+008	7.475019E-002	-4.571999E-002	4.697993E-001	-1.700212E-001	4.700304E-001	-1.701291E-001	-3.274184E-002	-2.034361E-003
8.800000E+008	7.436186E-002	-4.601313E-002	4.690237E-001	-1.717955E-001	4.693140E-001	-1.718394E-001	-3.285290E-002	-1.951200E-003
8.900000E+008	7.395001E-002	-4.633127E-002	4.682178E-001	-1.735057E-001	4.685021E-001	-1.735936E-001	-3.292258E-002	-1.872218E-003
9.000000E+008	7.354167E-002	-4.666219E-002	4.673822E-001	-1.752402E-001	4.677292E-001	-1.753276E-001	-3.298133E-002	-1.805390E-003
9.100000E+008	7.310246E-002	-4.698954E-002	4.665940E-001	-1.769601E-001	4.669403E-001	-1.770552E-001	-3.296529E-002	-1.780789E-003
9.200000E+008	7.268202E-002	-4.734080E-002	4.657784E-001	-1.786583E-001	4.661320E-001	-1.787947E-001	-3.296793E-002	-1.732571E-003
9.300000E+008	7.227886E-002	-4.766072E-002	4.649899E-001	-1.803444E-001	4.652763E-001	-1.805041E-001	-3.292811E-002	-1.696070E-003
9.400000E+008	7.187159E-002	-4.801102E-002	4.641815E-001	-1.820481E-001	4.645366E-001	-1.821926E-001	-3.288886E-002	-1.609063E-003
9.500000E+008	7.146373E-002	-4.833256E-002	4.633798E-001	-1.837832E-001	4.636936E-001	-1.839357E-001	-3.282853E-002	-1.460530E-003
9.600000E+008	7.111165E-002	-4.861283E-002	4.625075E-001	-1.854606E-001	4.628782E-001	-1.855891E-001	-3.274585E-002	-1.306863E-003
9.700000E+008	7.076974E-002	-4.889460E-002	4.616592E-001	-1.871128E-001	4.620619E-001	-1.872893E-001	-3.265858E-002	-1.169506E-003
9.800000E+008	7.046024E-002	-4.919897E-002	4.608977E-001	-1.887732E-001	4.612213E-001	-1.889898E-001	-3.260090E-002	-1.011180E-003
9.900000E+008	7.012691E-002	-4.948064E-002	4.600818E-001	-1.905044E-001	4.603820E-001	-1.906814E-001	-3.262775E-002	-8.627589E-004
1.000000E+009	6.974754E-002	-4.971885E-002	4.592577E-001	-1.921606E-001	4.595240E-001	-1.923531E-001	-3.268578E-002	-6.899887E-004
1.010000E+009	6.932939E-002	-4.992435E-002	4.583988E-001	-1.938738E-001	4.586868E-001	-1.940277E-001	-3.274910E-002	-4.783889E-004
1.020000E+009	6.892815E-002	-5.014047E-002	4.575445E-001	-1.955539E-001	4.578147E-001	-1.956978E-001	-3.279025E-002	-2.716588E-004
1.030000E+009	6.855516E-002	-5.033943E-002	4.566591E-001	-1.972224E-001	4.569507E-001	-1.973748E-001	-3.281025E-002	-6.802482E-005
1.040000E+009	6.817714E-002	-5.055642E-002	4.557961E-001	-1.988530E-001	4.561228E-001	-1.989965E-001	-3.284845E-002	9.135202E-005
1.050000E+009	6.774088E-002	-5.085186E-002	4.549673E-001	-2.005241E-001	4.552396E-001	-2.006973E-001	-3.290014E-002	2.612162E-004
1.060000E+009	6.731885E-002	-5.111094E-002	4.541076E-001	-2.022102E-001	4.543741E-001	-2.022947E-001	-3.291556E-002	4.314916E-004
1.070000E+009	6.687027E-002	-5.135532E-002	4.531968E-001	-2.038259E-001	4.535096E-001	-2.039457E-001	-3.294678E-002	5.733222E-004
1.080000E+009	6.650943E-002	-5.159949E-002	4.522997E-001	-2.055103E-001	4.526865E-001	-2.056126E-001	-3.295181E-002	7.650727E-004
1.090000E+009	6.614292E-002	-5.184161E-002	4.514278E-001	-2.071403E-001	4.517893E-001	-2.072689E-001	-3.296472E-002	9.326723E-004
1.100000E+009	6.580514E-002	-5.208941E-002	4.504799E-001	-2.088154E-001	4.508896E-001	-2.089135E-001	-3.298818E-002	1.123946E-003
1.110000E+009	6.545022E-002	-5.231634E-002	4.496033E-001	-2.104460E-001	4.499983E-001	-2.105523E-001	-3.300810E-002	1.275896E-003
1.120000E+009	6.505248E-002	-5.254118E-002	4.487206E-001	-2.120566E-001	4.490844E-001	-2.122553E-001	-3.308859E-002	1.422837E-003
1.130000E+009	6.466012E-002	-5.276032E-002	4.477975E-001	-2.136988E-001	4.481655E-001	-2.138417E-001	-3.318003E-002	1.611698E-003
1.140000E+009	6.421666E-002	-5.297153E-002	4.468840E-001	-2.153331E-001	4.472666E-001	-2.154635E-001	-3.326014E-002	1.815872E-003
1.150000E+009	6.383374E-002	-5.317559E-002	4.459747E-001	-2.169800E-001	4.462793E-001	-2.170915E-001	-3.329153E-002	1.982412E-003
1.160000E+009	6.341769E-002	-5.335783E-002	4.450490E-001	-2.185920E-001	4.454020E-001	-2.187432E-001	-3.334690E-002	2.131060E-003
1.170000E+009	6.301342E-002	-5.361042E-002	4.440972E-001	-2.202373E-001	4.444729E-001	-2.203318E-001	-3.333339E-002	2.340497E-003
1.180000E+009	6.263440E-002	-5.386362E-002	4.431103E-001	-2.218167E-001	4.435287E-001	-2.219690E-001	-3.335115E-002	2.514909E-003
1.190000E+009	6.220866E-002	-5.407869E-002	4.421617E-001	-2.234614E-001	4.424955E-001	-2.235681E-001	-3.335050E-002	2.729382E-003
1.200000E+009	6.180880E-002	-5.429960E-002	4.412459E-001	-2.250647E-001	4.415733E-001	-2.251754E-001	-3.337788E-002	2.928662E-003
1.210000E+009	6.145138E-002	-5.454183E-002	4.402727E-001	-2.266562E-001	4.405881E-001	-2.267855E-001	-3.340476E-002	3.153132E-003
1.220000E+009	6.105836E-002	-5.475376E-002	4.392836E-001	-2.282373E-001	4.396743E-001	-2.283779E-001	-3.344679E-002	3.395166E-003
1.230000E+009	6.070651E-002	-5.496195E-002	4.383007E-001	-2.298652E-001	4.386639E-001	-2.299815E-001	-3.352158E-002	3.585731E-003
1.240000E+009	6.033574E-002	-5.521395E-002	4.373449E-001	-2.314068E-001	4.376881E-001	-2.315239E-001	-3.359600E-002	3.778869E-003
1.250000E+009	5.994737E-002	-5.541420E-002	4.363367E-001	-2.330212E-001	4.367694E-001	-2.331446E-001	-3.366257E-002	3.952906E-003
1.260000E+009	5.952584E-002	-5.562228E-002	4.353577E-001	-2.346032E-001	4.357090E-001	-2.347847E-001	-3.375753E-002	4.085092E-003
1.270000E+009	5.921843E-002	-5.582219E-002	4.343565E-001	-2.361937E-001	4.347078E-001	-2.362953E-001	-3.378927E-002	4.253318E-003
1.280000E+009	5.878936E-002	-5.599726E-002	4.333706E-001	-2.377533E-001	4.337488E-001	-2.378633E-001	-3.383590E-002	4.375674E-003
1.290000E+009	5.840258E-002	-5.614574E-002	4.323432E-001	-2.393776E-001	4.327276E-001	-2.394395E-001	-3.378767E-002	4.493491E-003
1.300000E+009	5.804486E-002	-5.630736E-002	4.312952E-001	-2.408738E-001	4.317466E-001	-2.410469E-001	-3.371801E-002	4.654183E-003
1.310000E+009	5.765463E-002	-5.641978E-002	4.302695E-001	-2.424711E-001	4.307108E-001	-2.426218E-001	-3.370059E-002	4.849143E-003
1.320000E+009	5.723508E-002	-5.654716E-002	4.292555E-001	-2.440493E-001	4.296906E-001	-2.441677E-001	-3.360168E-002	5.079725E-003
1.330000E+009	5.687047E-002	-5.662761E-002	4.282085E-001	-2.455729E-001	4.286338E-001	-2.457750E-001	-3.344944E-002	5.374135E-003
1.340000E+009	5.648097E-002	-5.671627E-002	4.271846E-001	-2.470698E-001	4.275921E-001	-2.472845E-001	-3.338067E-002	5.722078E-003
1.350000E+009	5.607633E-002	-5.681442E-002	4.261366E-001	-2.486601E-001	4.264854E-001	-2.488217E-001	-3.331976E-002	6.058736E-003
1.360000E+009	5.574440E-002	-5.689689E-002	4.250799E-001	-2.501684E-001	4.254886E-001	-2.503520E-001	-3.325334E-002	6.471558E-003
1.370000E+009	5.535006E-002	-5.700026E-002	4.240268E-001	-2.517447E-001	4.244509E-001	-2.518983E-001	-3.322314E-002	6.840406E-003
1.380000E+009	5.496725E-002	-5.712900E-002	4.229354E-001	-2.532449E-001	4.233681E-001	-2.534077E-001	-3.322968E-002	7.175805E-003
1.390000E+009	5.458818E-002	-5.728078E-002	4.218779E-001	-2.547843E-001	4.222780E-001	-2.549827E-001	-3.328836E-002	7.549464E-003
1.400000E+009	5.418333E-002	-5.737424E-002	4.207628E-001	-2.562887E-001	4.211932E-001	-2.564309E-001	-3.332131E-002	7.913252E-003
1.410000E+009	5.378827E-002	-5.746915E-002	4.197242E-001	-2.577830E-001	4.200869E-001	-2.579593E-001	-3.338877E-002	8.299283E-003
1.420000E+009	5.340637E-002	-5.755907E-002	4.185772E-001	-2.592902E-001	4.190259E-001	-2.594346E-001	-3.343306E-002	8.646857E-003
1.430000E+009	5.305503E-002	-5.764924E-002	4.175309E-001	-2.607797E-001	4.179322E-001	-2.609613E-001	-3.342090E-002	8.947670E-003
1.440000E+009	5.266965E-002	-5.775427E-002	4.164151E-001	-2.622681E-001	4.168484E-001	-2.624608E-001	-3.342478E-002	9.251270E-003
1.450000E+009	5.227793E-002	-5.782345E-002	4.152908E-001	-2.637559E-001	4.157230E-001	-2.639551E-001	-3.342169E-002	9.568834E-003
1.460000E+009	5.186699E-002	-5.787901E-002	4.141875E-001	-2.652641E-001	4.145678E-001	-2.654464E-001	-3.342037E-002	9.901906E-003
1.470000E+009	5.149628E-002	-5.798412E-002	4.130871E-001	-2.667505E-001	4.134733E-001	-2.669160E-001	-3.342547E-002	1.031631E-002
1.480000E+009	5.107829E-002	-5.801467E-002	4.119303E-001	-2.681797E-001	4.123164E-001	-2.683767E-001	-3.341667E-002	1.074012E-002
1.490000E+009	5.071645E-002	-5.806593E-002	4.108132E-001	-2.696373E-001	4.112084E-001	-2.698022E-001	-3.338834E-002	1.116672E-002
1.500000E+009	5.036145E-002	-5.815463E-002	4.096989E-001	-2.711018E-001	4.100713E-001	-2.712618E-001	-3.333538E-002	1.157495E-002
