! Device ID: PE43711P
! File Path: z:\PE43711P\CHAR_NOM_04282014\AMB\3p300\LS_ATT_6p25dB\PE43711P_AMB_3p300V_3p000V_0p000V_LS_ATT_6p25dB_S2P_SN_5_A0137A.s2p
! Serial: 5
! Lot: A0137A
! Temp: 25C
! VDD: 3.300
! VSS: 0.000
! Control_Hi: 3.000
! Control_Lo: 0.000
! Attenuation Step: 6.25dB
! Port 1: RF1
! Port 2: RF2
! ThroughPath:1-2
! IDD: 0.000127818
! ISS: -3.49e-008
!

#  Hz  S   RI  R   50

1.000000E+007	9.525540E-002	-4.304876E-004	4.297582E-001	-2.145539E-003	4.299749E-001	-2.332707E-003	-6.419464E-002	4.852377E-004
2.000000E+007	9.537834E-002	-7.341855E-004	4.296306E-001	-3.623383E-003	4.296350E-001	-3.658231E-003	-6.396435E-002	8.920265E-004
3.000000E+007	9.565276E-002	-1.280686E-003	4.296426E-001	-5.451014E-003	4.296432E-001	-5.482708E-003	-6.367522E-002	1.142834E-003
4.000000E+007	9.575390E-002	-1.822947E-003	4.296308E-001	-7.262790E-003	4.296322E-001	-7.302896E-003	-6.338422E-002	1.408252E-003
5.000000E+007	9.590507E-002	-2.455802E-003	4.296148E-001	-9.241080E-003	4.297231E-001	-9.203957E-003	-6.325094E-002	1.603938E-003
6.000000E+007	9.608405E-002	-3.138802E-003	4.295019E-001	-1.104343E-002	4.296917E-001	-1.104088E-002	-6.313105E-002	1.664927E-003
7.000000E+007	9.617104E-002	-3.836845E-003	4.293911E-001	-1.284488E-002	4.295745E-001	-1.284895E-002	-6.300432E-002	1.737230E-003
8.000000E+007	9.630037E-002	-4.514974E-003	4.292923E-001	-1.458751E-002	4.294696E-001	-1.458455E-002	-6.287934E-002	1.854235E-003
9.000000E+007	9.638994E-002	-5.174507E-003	4.291998E-001	-1.638109E-002	4.293571E-001	-1.638784E-002	-6.274930E-002	1.927867E-003
1.000000E+008	9.643673E-002	-5.829262E-003	4.291209E-001	-1.821644E-002	4.292110E-001	-1.817230E-002	-6.259962E-002	1.976897E-003
1.100000E+008	9.648785E-002	-6.484667E-003	4.289408E-001	-2.004721E-002	4.291059E-001	-1.998122E-002	-6.252066E-002	1.998346E-003
1.200000E+008	9.656194E-002	-7.150762E-003	4.287064E-001	-2.181133E-002	4.289309E-001	-2.180398E-002	-6.254538E-002	2.018958E-003
1.300000E+008	9.661231E-002	-7.876113E-003	4.285693E-001	-2.358335E-002	4.287679E-001	-2.359255E-002	-6.243102E-002	2.004610E-003
1.400000E+008	9.662885E-002	-8.640011E-003	4.284224E-001	-2.537412E-002	4.285805E-001	-2.540660E-002	-6.214285E-002	1.936937E-003
1.500000E+008	9.651524E-002	-9.319374E-003	4.282638E-001	-2.709739E-002	4.283271E-001	-2.711250E-002	-6.189745E-002	1.907347E-003
1.600000E+008	9.634476E-002	-9.876750E-003	4.281033E-001	-2.881863E-002	4.281165E-001	-2.881607E-002	-6.197502E-002	1.951541E-003
1.700000E+008	9.617510E-002	-1.042228E-002	4.279257E-001	-3.070533E-002	4.281561E-001	-3.057426E-002	-6.225867E-002	1.933401E-003
1.800000E+008	9.597003E-002	-1.104308E-002	4.275026E-001	-3.259050E-002	4.279057E-001	-3.247813E-002	-6.246323E-002	1.883010E-003
1.900000E+008	9.581935E-002	-1.177237E-002	4.271915E-001	-3.426100E-002	4.275929E-001	-3.424730E-002	-6.243564E-002	1.808963E-003
2.000000E+008	9.572964E-002	-1.252616E-002	4.270053E-001	-3.597980E-002	4.273282E-001	-3.594031E-002	-6.223335E-002	1.763891E-003
2.100000E+008	9.566016E-002	-1.333899E-002	4.267805E-001	-3.767248E-002	4.270428E-001	-3.765635E-002	-6.196789E-002	1.727294E-003
2.200000E+008	9.553800E-002	-1.407806E-002	4.265852E-001	-3.932419E-002	4.267976E-001	-3.933152E-002	-6.180173E-002	1.685032E-003
2.300000E+008	9.536527E-002	-1.479828E-002	4.263586E-001	-4.105727E-002	4.265482E-001	-4.105982E-002	-6.170164E-002	1.581123E-003
2.400000E+008	9.517624E-002	-1.550504E-002	4.260959E-001	-4.281621E-002	4.262455E-001	-4.277112E-002	-6.164674E-002	1.487634E-003
2.500000E+008	9.497242E-002	-1.620225E-002	4.257828E-001	-4.456894E-002	4.259553E-001	-4.451529E-002	-6.157820E-002	1.328921E-003
2.600000E+008	9.482383E-002	-1.692475E-002	4.254435E-001	-4.631495E-002	4.257025E-001	-4.626338E-002	-6.146405E-002	1.265831E-003
2.700000E+008	9.464503E-002	-1.760458E-002	4.250908E-001	-4.799607E-002	4.253774E-001	-4.798422E-002	-6.129490E-002	1.260935E-003
2.800000E+008	9.452199E-002	-1.826421E-002	4.247670E-001	-4.966890E-002	4.250383E-001	-4.962920E-002	-6.113322E-002	1.233037E-003
2.900000E+008	9.433149E-002	-1.886008E-002	4.245026E-001	-5.131610E-002	4.247105E-001	-5.127460E-002	-6.102560E-002	1.264761E-003
3.000000E+008	9.419148E-002	-1.941751E-002	4.241991E-001	-5.302823E-002	4.244513E-001	-5.295322E-002	-6.092289E-002	1.319332E-003
3.100000E+008	9.399588E-002	-1.995021E-002	4.239010E-001	-5.470533E-002	4.241576E-001	-5.467108E-002	-6.083602E-002	1.387308E-003
3.200000E+008	9.379564E-002	-2.050295E-002	4.235345E-001	-5.643949E-002	4.238523E-001	-5.639653E-002	-6.080180E-002	1.455002E-003
3.300000E+008	9.353428E-002	-2.103897E-002	4.232174E-001	-5.811648E-002	4.234948E-001	-5.817942E-002	-6.074958E-002	1.487860E-003
3.400000E+008	9.320261E-002	-2.158887E-002	4.228286E-001	-5.980635E-002	4.229641E-001	-5.992747E-002	-6.066715E-002	1.450243E-003
3.500000E+008	9.283944E-002	-2.215364E-002	4.224566E-001	-6.152645E-002	4.224866E-001	-6.149993E-002	-6.058507E-002	1.363399E-003
3.600000E+008	9.253019E-002	-2.268308E-002	4.220667E-001	-6.321092E-002	4.221110E-001	-6.300959E-002	-6.049549E-002	1.345369E-003
3.700000E+008	9.221787E-002	-2.326242E-002	4.216322E-001	-6.478708E-002	4.218041E-001	-6.455880E-002	-6.034086E-002	1.313787E-003
3.800000E+008	9.192282E-002	-2.388021E-002	4.212808E-001	-6.641903E-002	4.215440E-001	-6.626200E-002	-6.018317E-002	1.252734E-003
3.900000E+008	9.157301E-002	-2.447921E-002	4.208325E-001	-6.813022E-002	4.211747E-001	-6.798044E-002	-5.997994E-002	1.261868E-003
4.000000E+008	9.129886E-002	-2.511798E-002	4.203731E-001	-6.967071E-002	4.207704E-001	-6.968873E-002	-5.975995E-002	1.264971E-003
4.100000E+008	9.096001E-002	-2.573590E-002	4.200146E-001	-7.119663E-002	4.203528E-001	-7.129909E-002	-5.958409E-002	1.271018E-003
4.200000E+008	9.058269E-002	-2.631732E-002	4.197042E-001	-7.284069E-002	4.199222E-001	-7.288177E-002	-5.942963E-002	1.340843E-003
4.300000E+008	9.030883E-002	-2.685768E-002	4.192991E-001	-7.451272E-002	4.194948E-001	-7.451788E-002	-5.929891E-002	1.401277E-003
4.400000E+008	9.004075E-002	-2.736806E-002	4.188633E-001	-7.614385E-002	4.191332E-001	-7.615635E-002	-5.919125E-002	1.543547E-003
4.500000E+008	8.976462E-002	-2.792492E-002	4.184662E-001	-7.777911E-002	4.187289E-001	-7.778689E-002	-5.907435E-002	1.703526E-003
4.600000E+008	8.949848E-002	-2.843669E-002	4.180111E-001	-7.943483E-002	4.182709E-001	-7.943822E-002	-5.898722E-002	1.863992E-003
4.700000E+008	8.917887E-002	-2.893464E-002	4.175580E-001	-8.101886E-002	4.177819E-001	-8.102751E-002	-5.892129E-002	1.998715E-003
4.800000E+008	8.882364E-002	-2.940124E-002	4.171121E-001	-8.255517E-002	4.173161E-001	-8.256860E-002	-5.888096E-002	2.122979E-003
4.900000E+008	8.844073E-002	-2.985569E-002	4.166636E-001	-8.416072E-002	4.168340E-001	-8.417500E-002	-5.885830E-002	2.252127E-003
5.000000E+008	8.812021E-002	-3.032965E-002	4.162227E-001	-8.575475E-002	4.164466E-001	-8.574140E-002	-5.880677E-002	2.338413E-003
5.100000E+008	8.778770E-002	-3.081833E-002	4.157629E-001	-8.735930E-002	4.160051E-001	-8.730158E-002	-5.869940E-002	2.418742E-003
5.200000E+008	8.742015E-002	-3.135893E-002	4.153208E-001	-8.896534E-002	4.155618E-001	-8.893126E-002	-5.859558E-002	2.487939E-003
5.300000E+008	8.704339E-002	-3.189423E-002	4.148357E-001	-9.056145E-002	4.151272E-001	-9.056489E-002	-5.841620E-002	2.547278E-003
5.400000E+008	8.666910E-002	-3.248275E-002	4.143201E-001	-9.217662E-002	4.146449E-001	-9.216770E-002	-5.827464E-002	2.586922E-003
5.500000E+008	8.629899E-002	-3.295488E-002	4.138711E-001	-9.373573E-002	4.140934E-001	-9.372894E-002	-5.816341E-002	2.688335E-003
5.600000E+008	8.591817E-002	-3.345393E-002	4.133435E-001	-9.528068E-002	4.135479E-001	-9.530903E-002	-5.806027E-002	2.800017E-003
5.700000E+008	8.558659E-002	-3.395966E-002	4.128423E-001	-9.680786E-002	4.131189E-001	-9.685045E-002	-5.802621E-002	2.982513E-003
5.800000E+008	8.524306E-002	-3.443341E-002	4.123675E-001	-9.837269E-002	4.126477E-001	-9.840626E-002	-5.797755E-002	3.133700E-003
5.900000E+008	8.490389E-002	-3.495052E-002	4.118315E-001	-9.997262E-002	4.121682E-001	-1.000315E-001	-5.794351E-002	3.295801E-003
6.000000E+008	8.461135E-002	-3.546656E-002	4.113283E-001	-1.015095E-001	4.116209E-001	-1.015786E-001	-5.787102E-002	3.434685E-003
6.100000E+008	8.431960E-002	-3.593710E-002	4.107993E-001	-1.030383E-001	4.110471E-001	-1.031221E-001	-5.786742E-002	3.540925E-003
6.200000E+008	8.402928E-002	-3.641317E-002	4.102669E-001	-1.045792E-001	4.105492E-001	-1.046531E-001	-5.781773E-002	3.679953E-003
6.300000E+008	8.377089E-002	-3.686042E-002	4.097117E-001	-1.061185E-001	4.099828E-001	-1.061710E-001	-5.774471E-002	3.781893E-003
6.400000E+008	8.351261E-002	-3.730312E-002	4.091890E-001	-1.076169E-001	4.094677E-001	-1.077141E-001	-5.764741E-002	3.951870E-003
6.500000E+008	8.323926E-002	-3.771112E-002	4.086640E-001	-1.091501E-001	4.089681E-001	-1.092290E-001	-5.760531E-002	4.110808E-003
6.600000E+008	8.292076E-002	-3.812716E-002	4.081660E-001	-1.106950E-001	4.083838E-001	-1.107674E-001	-5.750533E-002	4.266936E-003
6.700000E+008	8.252877E-002	-3.849974E-002	4.075787E-001	-1.122069E-001	4.078273E-001	-1.122948E-001	-5.749380E-002	4.453484E-003
6.800000E+008	8.213151E-002	-3.889447E-002	4.070457E-001	-1.137500E-001	4.072701E-001	-1.138256E-001	-5.746488E-002	4.658988E-003
6.900000E+008	8.171437E-002	-3.923766E-002	4.064452E-001	-1.152598E-001	4.066768E-001	-1.153059E-001	-5.744455E-002	4.877583E-003
7.000000E+008	8.135501E-002	-3.961599E-002	4.058908E-001	-1.167533E-001	4.061253E-001	-1.167945E-001	-5.745574E-002	5.045935E-003
7.100000E+008	8.098216E-002	-4.004477E-002	4.053322E-001	-1.182330E-001	4.055736E-001	-1.183037E-001	-5.748215E-002	5.215040E-003
7.200000E+008	8.059560E-002	-4.046144E-002	4.047726E-001	-1.197398E-001	4.050553E-001	-1.198262E-001	-5.746985E-002	5.331650E-003
7.300000E+008	8.019545E-002	-4.089476E-002	4.041583E-001	-1.212393E-001	4.044891E-001	-1.213441E-001	-5.750649E-002	5.435225E-003
7.400000E+008	7.979791E-002	-4.128732E-002	4.035640E-001	-1.227524E-001	4.038958E-001	-1.228414E-001	-5.754403E-002	5.517303E-003
7.500000E+008	7.943136E-002	-4.169656E-002	4.030225E-001	-1.242223E-001	4.033024E-001	-1.243507E-001	-5.756718E-002	5.598269E-003
7.600000E+008	7.901482E-002	-4.210012E-002	4.024041E-001	-1.257249E-001	4.027185E-001	-1.258211E-001	-5.755308E-002	5.695991E-003
7.700000E+008	7.862377E-002	-4.256037E-002	4.018139E-001	-1.272145E-001	4.021387E-001	-1.273056E-001	-5.753700E-002	5.739082E-003
7.800000E+008	7.821710E-002	-4.294432E-002	4.012180E-001	-1.286864E-001	4.015629E-001	-1.287841E-001	-5.752475E-002	5.807813E-003
7.900000E+008	7.779681E-002	-4.342093E-002	4.006182E-001	-1.301600E-001	4.009465E-001	-1.302993E-001	-5.752968E-002	5.906726E-003
8.000000E+008	7.741791E-002	-4.384191E-002	4.000166E-001	-1.316312E-001	4.003108E-001	-1.317620E-001	-5.749475E-002	6.009940E-003
8.100000E+008	7.705017E-002	-4.429008E-002	3.993795E-001	-1.330974E-001	3.996591E-001	-1.332279E-001	-5.742271E-002	6.166440E-003
8.200000E+008	7.670589E-002	-4.469259E-002	3.987849E-001	-1.345884E-001	3.990477E-001	-1.346470E-001	-5.737498E-002	6.298925E-003
8.300000E+008	7.639409E-002	-4.511258E-002	3.981522E-001	-1.360269E-001	3.984713E-001	-1.361568E-001	-5.734402E-002	6.420305E-003
8.400000E+008	7.609385E-002	-4.547919E-002	3.974970E-001	-1.374612E-001	3.978059E-001	-1.376095E-001	-5.730985E-002	6.569507E-003
8.500000E+008	7.577938E-002	-4.585516E-002	3.969083E-001	-1.389387E-001	3.971754E-001	-1.390555E-001	-5.730473E-002	6.723180E-003
8.600000E+008	7.543337E-002	-4.621219E-002	3.962463E-001	-1.403596E-001	3.965121E-001	-1.404955E-001	-5.731913E-002	6.871533E-003
8.700000E+008	7.508864E-002	-4.652790E-002	3.956216E-001	-1.418406E-001	3.958876E-001	-1.419502E-001	-5.732379E-002	7.008508E-003
8.800000E+008	7.469329E-002	-4.683396E-002	3.949792E-001	-1.433137E-001	3.952759E-001	-1.433720E-001	-5.735200E-002	7.136799E-003
8.900000E+008	7.430010E-002	-4.715233E-002	3.943001E-001	-1.447204E-001	3.946162E-001	-1.448593E-001	-5.736525E-002	7.242644E-003
9.000000E+008	7.389961E-002	-4.748740E-002	3.936258E-001	-1.461662E-001	3.939782E-001	-1.462846E-001	-5.734811E-002	7.364491E-003
9.100000E+008	7.346708E-002	-4.781900E-002	3.929708E-001	-1.476164E-001	3.933368E-001	-1.477187E-001	-5.727022E-002	7.470092E-003
9.200000E+008	7.306728E-002	-4.818002E-002	3.923148E-001	-1.490302E-001	3.926800E-001	-1.491868E-001	-5.718274E-002	7.597882E-003
9.300000E+008	7.265093E-002	-4.850525E-002	3.916460E-001	-1.504508E-001	3.919427E-001	-1.506025E-001	-5.709662E-002	7.695028E-003
9.400000E+008	7.226196E-002	-4.885637E-002	3.909854E-001	-1.518495E-001	3.913270E-001	-1.520220E-001	-5.694276E-002	7.853148E-003
9.500000E+008	7.186814E-002	-4.919752E-002	3.903329E-001	-1.533157E-001	3.906261E-001	-1.534686E-001	-5.682651E-002	8.043293E-003
9.600000E+008	7.151038E-002	-4.950452E-002	3.896132E-001	-1.547227E-001	3.899660E-001	-1.548640E-001	-5.666632E-002	8.233322E-003
9.700000E+008	7.117066E-002	-4.980533E-002	3.889201E-001	-1.561089E-001	3.892763E-001	-1.562796E-001	-5.652352E-002	8.460023E-003
9.800000E+008	7.085849E-002	-5.010404E-002	3.882751E-001	-1.575019E-001	3.885743E-001	-1.577025E-001	-5.642344E-002	8.656012E-003
9.900000E+008	7.052694E-002	-5.038702E-002	3.875966E-001	-1.589404E-001	3.879387E-001	-1.591377E-001	-5.636181E-002	8.884274E-003
1.000000E+009	7.017784E-002	-5.065129E-002	3.869063E-001	-1.603370E-001	3.871941E-001	-1.605355E-001	-5.632375E-002	9.117615E-003
1.010000E+009	6.975653E-002	-5.087760E-002	3.862161E-001	-1.617827E-001	3.865061E-001	-1.619303E-001	-5.629368E-002	9.368989E-003
1.020000E+009	6.937403E-002	-5.110117E-002	3.854920E-001	-1.631641E-001	3.857805E-001	-1.633300E-001	-5.627618E-002	9.638814E-003
1.030000E+009	6.899089E-002	-5.131641E-002	3.847524E-001	-1.645610E-001	3.850837E-001	-1.647218E-001	-5.624550E-002	9.858822E-003
1.040000E+009	6.860296E-002	-5.155313E-002	3.840237E-001	-1.659400E-001	3.843770E-001	-1.661238E-001	-5.620209E-002	1.009300E-002
1.050000E+009	6.818352E-002	-5.184983E-002	3.833582E-001	-1.673249E-001	3.836453E-001	-1.674957E-001	-5.617368E-002	1.030869E-002
1.060000E+009	6.780365E-002	-5.213068E-002	3.826268E-001	-1.687011E-001	3.829555E-001	-1.688444E-001	-5.611447E-002	1.053336E-002
1.070000E+009	6.735349E-002	-5.238382E-002	3.818859E-001	-1.700857E-001	3.822456E-001	-1.702147E-001	-5.606738E-002	1.074888E-002
1.080000E+009	6.698590E-002	-5.264875E-002	3.811492E-001	-1.715136E-001	3.815366E-001	-1.716398E-001	-5.601023E-002	1.098846E-002
1.090000E+009	6.661911E-002	-5.290207E-002	3.804230E-001	-1.728750E-001	3.807850E-001	-1.730043E-001	-5.596813E-002	1.118267E-002
1.100000E+009	6.625393E-002	-5.316166E-002	3.796327E-001	-1.742641E-001	3.800559E-001	-1.743708E-001	-5.591308E-002	1.145127E-002
1.110000E+009	6.590111E-002	-5.338585E-002	3.789278E-001	-1.756136E-001	3.793333E-001	-1.757669E-001	-5.585225E-002	1.163944E-002
1.120000E+009	6.551122E-002	-5.363024E-002	3.781862E-001	-1.769759E-001	3.785634E-001	-1.771492E-001	-5.588278E-002	1.187115E-002
1.130000E+009	6.511554E-002	-5.386826E-002	3.774440E-001	-1.783509E-001	3.778018E-001	-1.785216E-001	-5.588090E-002	1.207903E-002
1.140000E+009	6.470316E-002	-5.408163E-002	3.766697E-001	-1.797252E-001	3.770551E-001	-1.798897E-001	-5.586210E-002	1.233018E-002
1.150000E+009	6.428540E-002	-5.432576E-002	3.759083E-001	-1.810838E-001	3.762668E-001	-1.812484E-001	-5.583958E-002	1.255778E-002
1.160000E+009	6.388425E-002	-5.454997E-002	3.751505E-001	-1.824774E-001	3.755022E-001	-1.826063E-001	-5.581918E-002	1.276200E-002
1.170000E+009	6.349279E-002	-5.477728E-002	3.743543E-001	-1.838093E-001	3.747298E-001	-1.839344E-001	-5.574960E-002	1.302664E-002
1.180000E+009	6.308785E-002	-5.505482E-002	3.735374E-001	-1.851518E-001	3.739579E-001	-1.853033E-001	-5.567899E-002	1.323246E-002
1.190000E+009	6.267823E-002	-5.528902E-002	3.727784E-001	-1.865124E-001	3.730853E-001	-1.866578E-001	-5.561354E-002	1.349503E-002
1.200000E+009	6.229476E-002	-5.549227E-002	3.719921E-001	-1.878554E-001	3.723399E-001	-1.879919E-001	-5.555254E-002	1.375009E-002
1.210000E+009	6.193684E-002	-5.576407E-002	3.712196E-001	-1.891997E-001	3.715444E-001	-1.893456E-001	-5.549958E-002	1.402586E-002
1.220000E+009	6.157463E-002	-5.600936E-002	3.703936E-001	-1.905199E-001	3.707560E-001	-1.906875E-001	-5.546760E-002	1.429989E-002
1.230000E+009	6.118637E-002	-5.623952E-002	3.695879E-001	-1.918774E-001	3.699357E-001	-1.920252E-001	-5.547002E-002	1.453974E-002
1.240000E+009	6.081808E-002	-5.649329E-002	3.687804E-001	-1.932004E-001	3.691226E-001	-1.933386E-001	-5.547230E-002	1.477912E-002
1.250000E+009	6.043471E-002	-5.672300E-002	3.679443E-001	-1.945469E-001	3.683288E-001	-1.946597E-001	-5.546939E-002	1.499477E-002
1.260000E+009	6.000691E-002	-5.695598E-002	3.671046E-001	-1.958641E-001	3.674539E-001	-1.960373E-001	-5.546089E-002	1.516623E-002
1.270000E+009	5.969966E-002	-5.717576E-002	3.663205E-001	-1.971674E-001	3.666422E-001	-1.973108E-001	-5.540946E-002	1.534840E-002
1.280000E+009	5.929135E-002	-5.735547E-002	3.655017E-001	-1.985157E-001	3.658506E-001	-1.986365E-001	-5.540050E-002	1.553183E-002
1.290000E+009	5.892195E-002	-5.756140E-002	3.646183E-001	-1.998469E-001	3.650231E-001	-1.999702E-001	-5.526702E-002	1.569947E-002
1.300000E+009	5.857213E-002	-5.771763E-002	3.637754E-001	-2.011131E-001	3.641945E-001	-2.012809E-001	-5.513489E-002	1.592503E-002
1.310000E+009	5.818247E-002	-5.787822E-002	3.629388E-001	-2.024665E-001	3.633272E-001	-2.026125E-001	-5.501258E-002	1.613659E-002
1.320000E+009	5.776990E-002	-5.801341E-002	3.620852E-001	-2.037499E-001	3.625057E-001	-2.039240E-001	-5.483287E-002	1.641384E-002
1.330000E+009	5.741615E-002	-5.812742E-002	3.612538E-001	-2.050356E-001	3.616192E-001	-2.052530E-001	-5.464604E-002	1.673872E-002
1.340000E+009	5.700485E-002	-5.825597E-002	3.603679E-001	-2.063287E-001	3.607255E-001	-2.065443E-001	-5.447907E-002	1.709468E-002
1.350000E+009	5.661201E-002	-5.835891E-002	3.595023E-001	-2.076600E-001	3.598359E-001	-2.078217E-001	-5.434264E-002	1.747687E-002
1.360000E+009	5.626951E-002	-5.848595E-002	3.586203E-001	-2.089064E-001	3.590175E-001	-2.091134E-001	-5.418641E-002	1.792283E-002
1.370000E+009	5.588048E-002	-5.862556E-002	3.577605E-001	-2.102234E-001	3.581335E-001	-2.104082E-001	-5.410494E-002	1.833119E-002
1.380000E+009	5.547367E-002	-5.877077E-002	3.568415E-001	-2.114787E-001	3.572352E-001	-2.116733E-001	-5.402271E-002	1.871195E-002
1.390000E+009	5.509167E-002	-5.894004E-002	3.559805E-001	-2.127842E-001	3.563498E-001	-2.129560E-001	-5.400024E-002	1.911741E-002
1.400000E+009	5.470070E-002	-5.906663E-002	3.550721E-001	-2.140343E-001	3.554421E-001	-2.141905E-001	-5.397924E-002	1.950410E-002
1.410000E+009	5.428473E-002	-5.918724E-002	3.541735E-001	-2.153155E-001	3.545057E-001	-2.154818E-001	-5.393880E-002	1.989115E-002
1.420000E+009	5.390099E-002	-5.931872E-002	3.532557E-001	-2.165347E-001	3.536693E-001	-2.167203E-001	-5.390336E-002	2.025386E-002
1.430000E+009	5.353036E-002	-5.944585E-002	3.523502E-001	-2.178097E-001	3.527471E-001	-2.180065E-001	-5.383819E-002	2.059771E-002
1.440000E+009	5.314338E-002	-5.955740E-002	3.514424E-001	-2.190516E-001	3.518070E-001	-2.192320E-001	-5.377479E-002	2.091604E-002
1.450000E+009	5.273532E-002	-5.965572E-002	3.505116E-001	-2.202934E-001	3.508923E-001	-2.205028E-001	-5.370121E-002	2.127219E-002
1.460000E+009	5.232226E-002	-5.974745E-002	3.496047E-001	-2.215758E-001	3.499690E-001	-2.217631E-001	-5.360844E-002	2.163085E-002
1.470000E+009	5.192583E-002	-5.988734E-002	3.486722E-001	-2.228086E-001	3.490220E-001	-2.229892E-001	-5.352680E-002	2.204788E-002
1.480000E+009	5.151696E-002	-5.993101E-002	3.477321E-001	-2.240250E-001	3.480766E-001	-2.242169E-001	-5.342690E-002	2.248168E-002
1.490000E+009	5.113920E-002	-6.004206E-002	3.467927E-001	-2.252511E-001	3.471619E-001	-2.254315E-001	-5.333252E-002	2.291769E-002
1.500000E+009	5.074148E-002	-6.015508E-002	3.458682E-001	-2.264704E-001	3.462175E-001	-2.266507E-001	-5.319907E-002	2.333020E-002
