! Device ID: PE43711P
! File Path: z:\PE43711P\CHAR_NOM_04282014\AMB\3p300\LS_ATT_10p75dB\PE43711P_AMB_3p300V_3p000V_0p000V_LS_ATT_10p75dB_S2P_SN_5_A0137A.s2p
! Serial: 5
! Lot: A0137A
! Temp: 25C
! VDD: 3.300
! VSS: 0.000
! Control_Hi: 3.000
! Control_Lo: 0.000
! Attenuation Step: 10.75dB
! Port 1: RF1
! Port 2: RF2
! ThroughPath:1-2
! IDD: 0.0001275059
! ISS: -2.018e-007
!

#  Hz  S   RI  R   50

1.000000E+007	8.434841E-002	-2.294363E-004	2.541606E-001	-1.322308E-003	2.544199E-001	-1.326042E-003	-8.865727E-002	7.569597E-004
2.000000E+007	8.456930E-002	-4.938957E-004	2.541757E-001	-2.087950E-003	2.543345E-001	-2.099452E-003	-8.838900E-002	1.243292E-003
3.000000E+007	8.480297E-002	-9.069426E-004	2.541706E-001	-3.108248E-003	2.543324E-001	-3.125569E-003	-8.809992E-002	1.630118E-003
4.000000E+007	8.493457E-002	-1.341426E-003	2.541713E-001	-4.148115E-003	2.543267E-001	-4.164624E-003	-8.788927E-002	2.048926E-003
5.000000E+007	8.503562E-002	-1.834163E-003	2.541726E-001	-5.284601E-003	2.543630E-001	-5.247752E-003	-8.782121E-002	2.437137E-003
6.000000E+007	8.517659E-002	-2.342362E-003	2.540883E-001	-6.296433E-003	2.543536E-001	-6.295501E-003	-8.768462E-002	2.724635E-003
7.000000E+007	8.526869E-002	-2.871202E-003	2.540111E-001	-7.306431E-003	2.542492E-001	-7.322162E-003	-8.752601E-002	3.019045E-003
8.000000E+007	8.537199E-002	-3.373669E-003	2.539682E-001	-8.294013E-003	2.542049E-001	-8.308598E-003	-8.735888E-002	3.316126E-003
9.000000E+007	8.545338E-002	-3.891509E-003	2.539187E-001	-9.315183E-003	2.541342E-001	-9.328731E-003	-8.723386E-002	3.551655E-003
1.000000E+008	8.552249E-002	-4.386856E-003	2.538761E-001	-1.035401E-002	2.540628E-001	-1.034603E-002	-8.712836E-002	3.783691E-003
1.100000E+008	8.558168E-002	-4.914602E-003	2.537937E-001	-1.142195E-002	2.539980E-001	-1.137313E-002	-8.704904E-002	4.009845E-003
1.200000E+008	8.565628E-002	-5.456280E-003	2.536609E-001	-1.242384E-002	2.539021E-001	-1.240553E-002	-8.698031E-002	4.209096E-003
1.300000E+008	8.569878E-002	-5.995483E-003	2.535671E-001	-1.341417E-002	2.538142E-001	-1.344519E-002	-8.687334E-002	4.397302E-003
1.400000E+008	8.567173E-002	-6.518399E-003	2.534965E-001	-1.444021E-002	2.536988E-001	-1.445288E-002	-8.670367E-002	4.560760E-003
1.500000E+008	8.561449E-002	-7.023192E-003	2.533977E-001	-1.540112E-002	2.535547E-001	-1.544739E-002	-8.655471E-002	4.741560E-003
1.600000E+008	8.554711E-002	-7.442624E-003	2.533264E-001	-1.640697E-002	2.534273E-001	-1.638539E-002	-8.653138E-002	4.933456E-003
1.700000E+008	8.549308E-002	-7.913165E-003	2.532090E-001	-1.747630E-002	2.534385E-001	-1.740191E-002	-8.657231E-002	5.108029E-003
1.800000E+008	8.538100E-002	-8.414050E-003	2.529778E-001	-1.853744E-002	2.533425E-001	-1.850469E-002	-8.656985E-002	5.262855E-003
1.900000E+008	8.526310E-002	-8.948634E-003	2.528051E-001	-1.950275E-002	2.531703E-001	-1.950955E-002	-8.651473E-002	5.381925E-003
2.000000E+008	8.513767E-002	-9.491314E-003	2.526890E-001	-2.046533E-002	2.530048E-001	-2.046482E-002	-8.639729E-002	5.506828E-003
2.100000E+008	8.501535E-002	-1.010761E-002	2.525847E-001	-2.142577E-002	2.528449E-001	-2.143171E-002	-8.624548E-002	5.599843E-003
2.200000E+008	8.489718E-002	-1.065384E-002	2.524760E-001	-2.236176E-002	2.526974E-001	-2.238866E-002	-8.609865E-002	5.678806E-003
2.300000E+008	8.476655E-002	-1.120871E-002	2.523472E-001	-2.336539E-002	2.525529E-001	-2.336851E-002	-8.596859E-002	5.747705E-003
2.400000E+008	8.466285E-002	-1.178025E-002	2.522016E-001	-2.435796E-002	2.523950E-001	-2.435161E-002	-8.584686E-002	5.847289E-003
2.500000E+008	8.451191E-002	-1.230564E-002	2.520432E-001	-2.536409E-002	2.522385E-001	-2.533549E-002	-8.569148E-002	5.915804E-003
2.600000E+008	8.441243E-002	-1.286469E-002	2.518384E-001	-2.635801E-002	2.520663E-001	-2.633618E-002	-8.550759E-002	6.040793E-003
2.700000E+008	8.432114E-002	-1.340620E-002	2.516546E-001	-2.731013E-002	2.518978E-001	-2.731989E-002	-8.528933E-002	6.219109E-003
2.800000E+008	8.424568E-002	-1.390209E-002	2.514798E-001	-2.825500E-002	2.517128E-001	-2.825484E-002	-8.509133E-002	6.387714E-003
2.900000E+008	8.411680E-002	-1.435727E-002	2.513204E-001	-2.920945E-002	2.515128E-001	-2.917985E-002	-8.494683E-002	6.562536E-003
3.000000E+008	8.400188E-002	-1.477735E-002	2.511805E-001	-3.016726E-002	2.513857E-001	-3.016591E-002	-8.480720E-002	6.785274E-003
3.100000E+008	8.386613E-002	-1.521168E-002	2.509890E-001	-3.115113E-002	2.512333E-001	-3.113524E-002	-8.469084E-002	7.020969E-003
3.200000E+008	8.370971E-002	-1.561542E-002	2.508071E-001	-3.214243E-002	2.510487E-001	-3.211296E-002	-8.458104E-002	7.247941E-003
3.300000E+008	8.350450E-002	-1.602214E-002	2.506328E-001	-3.310369E-002	2.508598E-001	-3.314406E-002	-8.449423E-002	7.425114E-003
3.400000E+008	8.323603E-002	-1.643677E-002	2.503986E-001	-3.406294E-002	2.505746E-001	-3.412501E-002	-8.437737E-002	7.569654E-003
3.500000E+008	8.297803E-002	-1.686738E-002	2.502128E-001	-3.504480E-002	2.503073E-001	-3.504049E-002	-8.424778E-002	7.676874E-003
3.600000E+008	8.272323E-002	-1.729242E-002	2.500030E-001	-3.598795E-002	2.500993E-001	-3.591235E-002	-8.409668E-002	7.820955E-003
3.700000E+008	8.245792E-002	-1.773211E-002	2.497458E-001	-3.690174E-002	2.499415E-001	-3.678607E-002	-8.392270E-002	7.912918E-003
3.800000E+008	8.223639E-002	-1.821696E-002	2.495547E-001	-3.782724E-002	2.497864E-001	-3.774551E-002	-8.374173E-002	8.036359E-003
3.900000E+008	8.197748E-002	-1.871367E-002	2.493104E-001	-3.881690E-002	2.495743E-001	-3.873785E-002	-8.348084E-002	8.218203E-003
4.000000E+008	8.176956E-002	-1.922492E-002	2.490512E-001	-3.968376E-002	2.493516E-001	-3.970326E-002	-8.320513E-002	8.367211E-003
4.100000E+008	8.153170E-002	-1.970602E-002	2.488411E-001	-4.055019E-002	2.490968E-001	-4.064007E-002	-8.293506E-002	8.557952E-003
4.200000E+008	8.128552E-002	-2.019117E-002	2.486619E-001	-4.149699E-002	2.488556E-001	-4.154245E-002	-8.272251E-002	8.788621E-003
4.300000E+008	8.108330E-002	-2.062220E-002	2.484600E-001	-4.246080E-002	2.486409E-001	-4.248624E-002	-8.253476E-002	9.040032E-003
4.400000E+008	8.087233E-002	-2.102265E-002	2.482234E-001	-4.338710E-002	2.484293E-001	-4.340303E-002	-8.235331E-002	9.332862E-003
4.500000E+008	8.070185E-002	-2.145148E-002	2.480116E-001	-4.433120E-002	2.482048E-001	-4.432911E-002	-8.217593E-002	9.665202E-003
4.600000E+008	8.048262E-002	-2.187397E-002	2.477597E-001	-4.527077E-002	2.479479E-001	-4.528744E-002	-8.202438E-002	9.976360E-003
4.700000E+008	8.024254E-002	-2.225134E-002	2.475084E-001	-4.617764E-002	2.476833E-001	-4.621943E-002	-8.188688E-002	1.024575E-002
4.800000E+008	7.999483E-002	-2.262721E-002	2.472768E-001	-4.708273E-002	2.474334E-001	-4.709594E-002	-8.177796E-002	1.050607E-002
4.900000E+008	7.970582E-002	-2.299419E-002	2.470114E-001	-4.799594E-002	2.471821E-001	-4.801089E-002	-8.167060E-002	1.077501E-002
5.000000E+008	7.945960E-002	-2.334790E-002	2.467713E-001	-4.890357E-002	2.469438E-001	-4.889723E-002	-8.152930E-002	1.098644E-002
5.100000E+008	7.921333E-002	-2.374801E-002	2.465117E-001	-4.979970E-002	2.467169E-001	-4.979740E-002	-8.137477E-002	1.122390E-002
5.200000E+008	7.894888E-002	-2.416839E-002	2.462578E-001	-5.072735E-002	2.464759E-001	-5.073835E-002	-8.120274E-002	1.143613E-002
5.300000E+008	7.865354E-002	-2.458370E-002	2.460005E-001	-5.164936E-002	2.462239E-001	-5.168917E-002	-8.099340E-002	1.167687E-002
5.400000E+008	7.834791E-002	-2.504322E-002	2.457235E-001	-5.254571E-002	2.459274E-001	-5.259357E-002	-8.077877E-002	1.187839E-002
5.500000E+008	7.806984E-002	-2.543464E-002	2.454633E-001	-5.344915E-002	2.456439E-001	-5.349512E-002	-8.056669E-002	1.214753E-002
5.600000E+008	7.778063E-002	-2.586042E-002	2.451611E-001	-5.435182E-002	2.453311E-001	-5.437511E-002	-8.039606E-002	1.240432E-002
5.700000E+008	7.752132E-002	-2.629103E-002	2.448985E-001	-5.521559E-002	2.450909E-001	-5.525869E-002	-8.027033E-002	1.271713E-002
5.800000E+008	7.727437E-002	-2.667632E-002	2.446220E-001	-5.612924E-002	2.448376E-001	-5.616704E-002	-8.013616E-002	1.303570E-002
5.900000E+008	7.702413E-002	-2.712396E-002	2.443453E-001	-5.704685E-002	2.445549E-001	-5.708579E-002	-8.000508E-002	1.335072E-002
6.000000E+008	7.682662E-002	-2.754640E-002	2.440598E-001	-5.793675E-002	2.442593E-001	-5.799798E-002	-7.985578E-002	1.362685E-002
6.100000E+008	7.662378E-002	-2.794814E-002	2.437684E-001	-5.881898E-002	2.439288E-001	-5.887173E-002	-7.973419E-002	1.389846E-002
6.200000E+008	7.641813E-002	-2.831124E-002	2.434627E-001	-5.967510E-002	2.436519E-001	-5.974151E-002	-7.959258E-002	1.418021E-002
6.300000E+008	7.624931E-002	-2.867806E-002	2.431552E-001	-6.056005E-002	2.433477E-001	-6.063095E-002	-7.946151E-002	1.445427E-002
6.400000E+008	7.606904E-002	-2.902049E-002	2.428701E-001	-6.144178E-002	2.430691E-001	-6.149636E-002	-7.928937E-002	1.471478E-002
6.500000E+008	7.586209E-002	-2.933170E-002	2.425826E-001	-6.229681E-002	2.427726E-001	-6.235984E-002	-7.913069E-002	1.501513E-002
6.600000E+008	7.564321E-002	-2.966352E-002	2.423043E-001	-6.319116E-002	2.424568E-001	-6.325650E-002	-7.897968E-002	1.531334E-002
6.700000E+008	7.535502E-002	-2.995548E-002	2.420069E-001	-6.407946E-002	2.421541E-001	-6.414480E-002	-7.884289E-002	1.560960E-002
6.800000E+008	7.508788E-002	-3.024081E-002	2.416876E-001	-6.493786E-002	2.418500E-001	-6.501742E-002	-7.871798E-002	1.595536E-002
6.900000E+008	7.478806E-002	-3.051934E-002	2.413695E-001	-6.581244E-002	2.415236E-001	-6.585622E-002	-7.858972E-002	1.630436E-002
7.000000E+008	7.449798E-002	-3.083816E-002	2.410379E-001	-6.668501E-002	2.412284E-001	-6.671663E-002	-7.850077E-002	1.662064E-002
7.100000E+008	7.422184E-002	-3.116858E-002	2.407333E-001	-6.750953E-002	2.409296E-001	-6.760243E-002	-7.843766E-002	1.692579E-002
7.200000E+008	7.391736E-002	-3.148362E-002	2.404367E-001	-6.838605E-002	2.406152E-001	-6.845941E-002	-7.834460E-002	1.719575E-002
7.300000E+008	7.363550E-002	-3.183527E-002	2.401097E-001	-6.924473E-002	2.403157E-001	-6.933317E-002	-7.829184E-002	1.743357E-002
7.400000E+008	7.331188E-002	-3.215625E-002	2.397746E-001	-7.012068E-002	2.399800E-001	-7.017934E-002	-7.822732E-002	1.768509E-002
7.500000E+008	7.304981E-002	-3.249989E-002	2.394672E-001	-7.097060E-002	2.396564E-001	-7.105199E-002	-7.814828E-002	1.789809E-002
7.600000E+008	7.275302E-002	-3.283850E-002	2.391241E-001	-7.183447E-002	2.393206E-001	-7.190443E-002	-7.804855E-002	1.814542E-002
7.700000E+008	7.247276E-002	-3.319780E-002	2.387930E-001	-7.267984E-002	2.389972E-001	-7.275061E-002	-7.793202E-002	1.833538E-002
7.800000E+008	7.217941E-002	-3.353359E-002	2.384647E-001	-7.351702E-002	2.386764E-001	-7.361112E-002	-7.779383E-002	1.853876E-002
7.900000E+008	7.189458E-002	-3.392519E-002	2.381558E-001	-7.438657E-002	2.383392E-001	-7.448911E-002	-7.768366E-002	1.878444E-002
8.000000E+008	7.161601E-002	-3.427877E-002	2.378006E-001	-7.523564E-002	2.379648E-001	-7.531330E-002	-7.753517E-002	1.902214E-002
8.100000E+008	7.134925E-002	-3.463658E-002	2.374384E-001	-7.606664E-002	2.376070E-001	-7.615961E-002	-7.734926E-002	1.930160E-002
8.200000E+008	7.112334E-002	-3.497784E-002	2.371121E-001	-7.691820E-002	2.372742E-001	-7.698822E-002	-7.717633E-002	1.954265E-002
8.300000E+008	7.091450E-002	-3.532482E-002	2.367487E-001	-7.774241E-002	2.369506E-001	-7.783935E-002	-7.704663E-002	1.982338E-002
8.400000E+008	7.071123E-002	-3.564819E-002	2.364052E-001	-7.857257E-002	2.366128E-001	-7.868168E-002	-7.688672E-002	2.008048E-002
8.500000E+008	7.049792E-002	-3.593167E-002	2.360835E-001	-7.941976E-002	2.362673E-001	-7.952613E-002	-7.680037E-002	2.034829E-002
8.600000E+008	7.025772E-002	-3.622914E-002	2.357274E-001	-8.026620E-002	2.358851E-001	-8.036195E-002	-7.668719E-002	2.061004E-002
8.700000E+008	7.001870E-002	-3.646885E-002	2.353566E-001	-8.109435E-002	2.355344E-001	-8.119388E-002	-7.657902E-002	2.086674E-002
8.800000E+008	6.977990E-002	-3.671937E-002	2.350062E-001	-8.195477E-002	2.352069E-001	-8.200903E-002	-7.647686E-002	2.111660E-002
8.900000E+008	6.949216E-002	-3.697240E-002	2.346406E-001	-8.276864E-002	2.348280E-001	-8.286526E-002	-7.637202E-002	2.135925E-002
9.000000E+008	6.920702E-002	-3.724082E-002	2.342514E-001	-8.360772E-002	2.344692E-001	-8.370306E-002	-7.622985E-002	2.160186E-002
9.100000E+008	6.890349E-002	-3.750301E-002	2.339027E-001	-8.443151E-002	2.341246E-001	-8.452695E-002	-7.605344E-002	2.182215E-002
9.200000E+008	6.861059E-002	-3.779225E-002	2.335432E-001	-8.525296E-002	2.337460E-001	-8.537683E-002	-7.586779E-002	2.203754E-002
9.300000E+008	6.831365E-002	-3.807566E-002	2.331561E-001	-8.606844E-002	2.333172E-001	-8.618529E-002	-7.565692E-002	2.227463E-002
9.400000E+008	6.804609E-002	-3.838717E-002	2.327757E-001	-8.688079E-002	2.329895E-001	-8.701555E-002	-7.541827E-002	2.256300E-002
9.500000E+008	6.779998E-002	-3.868747E-002	2.324348E-001	-8.771391E-002	2.326123E-001	-8.783049E-002	-7.516624E-002	2.284612E-002
9.600000E+008	6.752263E-002	-3.894809E-002	2.320346E-001	-8.853654E-002	2.322249E-001	-8.863770E-002	-7.490767E-002	2.315269E-002
9.700000E+008	6.731877E-002	-3.920088E-002	2.316461E-001	-8.933631E-002	2.318615E-001	-8.944876E-002	-7.467130E-002	2.347735E-002
9.800000E+008	6.710689E-002	-3.944940E-002	2.313025E-001	-9.013315E-002	2.314819E-001	-9.028513E-002	-7.443660E-002	2.381488E-002
9.900000E+008	6.688292E-002	-3.970286E-002	2.309234E-001	-9.095755E-002	2.311111E-001	-9.109626E-002	-7.424156E-002	2.415286E-002
1.000000E+009	6.663167E-002	-3.989229E-002	2.305318E-001	-9.175512E-002	2.307023E-001	-9.191301E-002	-7.410121E-002	2.448497E-002
1.010000E+009	6.636392E-002	-4.008132E-002	2.301456E-001	-9.260709E-002	2.303148E-001	-9.270973E-002	-7.391835E-002	2.484564E-002
1.020000E+009	6.608476E-002	-4.028561E-002	2.297538E-001	-9.341901E-002	2.299200E-001	-9.353618E-002	-7.379878E-002	2.520524E-002
1.030000E+009	6.582671E-002	-4.046187E-002	2.293446E-001	-9.421450E-002	2.295369E-001	-9.433611E-002	-7.366592E-002	2.554266E-002
1.040000E+009	6.554502E-002	-4.066355E-002	2.289495E-001	-9.501613E-002	2.291371E-001	-9.512870E-002	-7.352296E-002	2.586382E-002
1.050000E+009	6.524716E-002	-4.090472E-002	2.285629E-001	-9.582470E-002	2.287361E-001	-9.590575E-002	-7.336852E-002	2.620654E-002
1.060000E+009	6.497093E-002	-4.111816E-002	2.281666E-001	-9.661278E-002	2.283291E-001	-9.670745E-002	-7.317618E-002	2.654056E-002
1.070000E+009	6.466452E-002	-4.135342E-002	2.277330E-001	-9.741177E-002	2.279510E-001	-9.748996E-002	-7.299098E-002	2.684120E-002
1.080000E+009	6.439107E-002	-4.157758E-002	2.273484E-001	-9.823221E-002	2.275628E-001	-9.832671E-002	-7.280399E-002	2.718082E-002
1.090000E+009	6.413523E-002	-4.181226E-002	2.269437E-001	-9.902431E-002	2.271440E-001	-9.911547E-002	-7.263555E-002	2.748999E-002
1.100000E+009	6.386943E-002	-4.202798E-002	2.264852E-001	-9.981683E-002	2.267426E-001	-9.991416E-002	-7.246941E-002	2.783127E-002
1.110000E+009	6.362005E-002	-4.222810E-002	2.260898E-001	-1.006054E-001	2.263304E-001	-1.007196E-001	-7.230697E-002	2.816106E-002
1.120000E+009	6.333097E-002	-4.243578E-002	2.256999E-001	-1.013976E-001	2.259001E-001	-1.015107E-001	-7.219616E-002	2.848400E-002
1.130000E+009	6.305088E-002	-4.264373E-002	2.252620E-001	-1.021891E-001	2.254607E-001	-1.023091E-001	-7.206280E-002	2.880435E-002
1.140000E+009	6.274634E-002	-4.283957E-002	2.248517E-001	-1.029936E-001	2.250641E-001	-1.030904E-001	-7.191141E-002	2.913742E-002
1.150000E+009	6.246415E-002	-4.304288E-002	2.244198E-001	-1.037983E-001	2.246163E-001	-1.038768E-001	-7.175196E-002	2.945220E-002
1.160000E+009	6.215363E-002	-4.323926E-002	2.240032E-001	-1.045734E-001	2.241908E-001	-1.046939E-001	-7.160129E-002	2.976325E-002
1.170000E+009	6.188520E-002	-4.344574E-002	2.235473E-001	-1.053516E-001	2.237629E-001	-1.054437E-001	-7.142752E-002	3.011653E-002
1.180000E+009	6.160303E-002	-4.367471E-002	2.231106E-001	-1.061431E-001	2.233210E-001	-1.062432E-001	-7.122619E-002	3.040707E-002
1.190000E+009	6.129026E-002	-4.388000E-002	2.226794E-001	-1.069363E-001	2.228424E-001	-1.070179E-001	-7.104983E-002	3.076979E-002
1.200000E+009	6.102166E-002	-4.408749E-002	2.222436E-001	-1.077058E-001	2.224191E-001	-1.077904E-001	-7.085253E-002	3.113892E-002
1.210000E+009	6.076548E-002	-4.431924E-002	2.217898E-001	-1.084824E-001	2.219591E-001	-1.085825E-001	-7.065512E-002	3.148416E-002
1.220000E+009	6.049407E-002	-4.457058E-002	2.213494E-001	-1.092434E-001	2.215289E-001	-1.093623E-001	-7.050299E-002	3.185282E-002
1.230000E+009	6.020633E-002	-4.476878E-002	2.209095E-001	-1.100278E-001	2.210792E-001	-1.101133E-001	-7.036161E-002	3.217934E-002
1.240000E+009	5.995919E-002	-4.498183E-002	2.204471E-001	-1.107953E-001	2.206335E-001	-1.108957E-001	-7.023006E-002	3.250134E-002
1.250000E+009	5.969949E-002	-4.523249E-002	2.199869E-001	-1.115724E-001	2.202052E-001	-1.116793E-001	-7.010396E-002	3.281050E-002
1.260000E+009	5.940076E-002	-4.540397E-002	2.195271E-001	-1.123454E-001	2.197118E-001	-1.124569E-001	-6.993928E-002	3.309033E-002
1.270000E+009	5.919980E-002	-4.563049E-002	2.190716E-001	-1.131086E-001	2.192431E-001	-1.132126E-001	-6.975284E-002	3.334017E-002
1.280000E+009	5.894749E-002	-4.580862E-002	2.186193E-001	-1.138880E-001	2.188182E-001	-1.139620E-001	-6.959191E-002	3.359490E-002
1.290000E+009	5.867706E-002	-4.598142E-002	2.181388E-001	-1.146727E-001	2.183327E-001	-1.147342E-001	-6.934173E-002	3.387258E-002
1.300000E+009	5.846341E-002	-4.613038E-002	2.176523E-001	-1.153976E-001	2.178765E-001	-1.155179E-001	-6.907712E-002	3.416020E-002
1.310000E+009	5.818266E-002	-4.631823E-002	2.171713E-001	-1.161824E-001	2.174049E-001	-1.162844E-001	-6.882130E-002	3.445740E-002
1.320000E+009	5.791087E-002	-4.645247E-002	2.166992E-001	-1.169382E-001	2.169335E-001	-1.170524E-001	-6.851327E-002	3.481145E-002
1.330000E+009	5.764222E-002	-4.657457E-002	2.162513E-001	-1.177029E-001	2.164445E-001	-1.178100E-001	-6.818701E-002	3.521842E-002
1.340000E+009	5.736884E-002	-4.671790E-002	2.157339E-001	-1.184414E-001	2.159383E-001	-1.185684E-001	-6.789053E-002	3.563862E-002
1.350000E+009	5.708623E-002	-4.683662E-002	2.152778E-001	-1.192195E-001	2.154389E-001	-1.193229E-001	-6.759155E-002	3.610354E-002
1.360000E+009	5.683749E-002	-4.697530E-002	2.147572E-001	-1.199441E-001	2.149862E-001	-1.200660E-001	-6.733956E-002	3.659138E-002
1.370000E+009	5.655664E-002	-4.709012E-002	2.142847E-001	-1.207053E-001	2.144998E-001	-1.208097E-001	-6.711882E-002	3.705629E-002
1.380000E+009	5.626530E-002	-4.725840E-002	2.137703E-001	-1.214532E-001	2.139892E-001	-1.215875E-001	-6.689327E-002	3.750781E-002
1.390000E+009	5.598802E-002	-4.740339E-002	2.132937E-001	-1.222059E-001	2.134797E-001	-1.223129E-001	-6.673331E-002	3.800014E-002
1.400000E+009	5.569449E-002	-4.756406E-002	2.127975E-001	-1.229310E-001	2.129847E-001	-1.230283E-001	-6.656026E-002	3.843106E-002
1.410000E+009	5.540470E-002	-4.768720E-002	2.122940E-001	-1.236702E-001	2.124622E-001	-1.237761E-001	-6.637228E-002	3.889728E-002
1.420000E+009	5.511374E-002	-4.781920E-002	2.117769E-001	-1.243899E-001	2.119700E-001	-1.244909E-001	-6.621303E-002	3.928783E-002
1.430000E+009	5.485679E-002	-4.794473E-002	2.112548E-001	-1.251274E-001	2.114582E-001	-1.252454E-001	-6.601977E-002	3.968875E-002
1.440000E+009	5.456246E-002	-4.809194E-002	2.107412E-001	-1.258564E-001	2.109564E-001	-1.259559E-001	-6.580955E-002	4.008049E-002
1.450000E+009	5.426044E-002	-4.820109E-002	2.102347E-001	-1.265776E-001	2.104420E-001	-1.267054E-001	-6.557095E-002	4.048071E-002
1.460000E+009	5.393330E-002	-4.832179E-002	2.097032E-001	-1.273146E-001	2.098866E-001	-1.274500E-001	-6.533678E-002	4.089583E-002
1.470000E+009	5.365327E-002	-4.846347E-002	2.092008E-001	-1.280533E-001	2.093828E-001	-1.281582E-001	-6.511291E-002	4.133333E-002
1.480000E+009	5.334609E-002	-4.855772E-002	2.086520E-001	-1.287534E-001	2.088301E-001	-1.288926E-001	-6.487557E-002	4.181175E-002
1.490000E+009	5.306271E-002	-4.866801E-002	2.081399E-001	-1.294720E-001	2.083323E-001	-1.295776E-001	-6.461216E-002	4.229292E-002
1.500000E+009	5.275788E-002	-4.882047E-002	2.076082E-001	-1.301758E-001	2.077946E-001	-1.302705E-001	-6.436179E-002	4.277043E-002
