! Device ID: PE43711P
! File Path: z:\PE43711P\CHAR_NOM_04282014\AMB\3p300\LS_ATT_17p00dB\PE43711P_AMB_3p300V_3p000V_0p000V_LS_ATT_17p00dB_S2P_SN_5_A0137A.s2p
! Serial: 5
! Lot: A0137A
! Temp: 25C
! VDD: 3.300
! VSS: 0.000
! Control_Hi: 3.000
! Control_Lo: 0.000
! Attenuation Step: 17.00dB
! Port 1: RF1
! Port 2: RF2
! ThroughPath:1-2
! IDD: 0.0001274913
! ISS: -1.32e-007
!

#  Hz  S   RI  R   50

1.000000E+007	6.387101E-002	7.015485E-005	1.233454E-001	-5.374136E-004	1.234862E-001	-5.740093E-004	-1.163272E-001	9.123958E-004
2.000000E+007	6.407808E-002	-5.504076E-005	1.233700E-001	-8.972706E-004	1.234399E-001	-9.158923E-004	-1.160423E-001	1.501205E-003
3.000000E+007	6.432232E-002	-2.460213E-004	1.233625E-001	-1.353471E-003	1.234479E-001	-1.360374E-003	-1.157353E-001	1.981222E-003
4.000000E+007	6.446542E-002	-4.554156E-004	1.233593E-001	-1.792053E-003	1.234260E-001	-1.816525E-003	-1.155535E-001	2.526977E-003
5.000000E+007	6.458027E-002	-7.004064E-004	1.233305E-001	-2.288515E-003	1.234448E-001	-2.288535E-003	-1.155102E-001	3.082873E-003
6.000000E+007	6.471526E-002	-9.894542E-004	1.233050E-001	-2.733140E-003	1.234215E-001	-2.734603E-003	-1.153730E-001	3.516271E-003
7.000000E+007	6.482846E-002	-1.282336E-003	1.232779E-001	-3.176747E-003	1.234052E-001	-3.189846E-003	-1.151869E-001	3.957256E-003
8.000000E+007	6.492694E-002	-1.557049E-003	1.232600E-001	-3.598750E-003	1.233741E-001	-3.619147E-003	-1.150307E-001	4.376795E-003
9.000000E+007	6.502254E-002	-1.852228E-003	1.232462E-001	-4.048042E-003	1.233276E-001	-4.053192E-003	-1.149049E-001	4.727073E-003
1.000000E+008	6.511889E-002	-2.117288E-003	1.232217E-001	-4.492020E-003	1.233150E-001	-4.499279E-003	-1.148348E-001	5.121434E-003
1.100000E+008	6.522168E-002	-2.420181E-003	1.231907E-001	-4.956121E-003	1.232923E-001	-4.943653E-003	-1.147362E-001	5.480906E-003
1.200000E+008	6.531443E-002	-2.765350E-003	1.231316E-001	-5.404634E-003	1.232540E-001	-5.410310E-003	-1.146415E-001	5.797376E-003
1.300000E+008	6.538655E-002	-3.057943E-003	1.231000E-001	-5.826719E-003	1.232032E-001	-5.843690E-003	-1.145263E-001	6.119109E-003
1.400000E+008	6.541781E-002	-3.336062E-003	1.230584E-001	-6.270758E-003	1.231565E-001	-6.303191E-003	-1.144091E-001	6.452506E-003
1.500000E+008	6.538855E-002	-3.582730E-003	1.230141E-001	-6.704818E-003	1.230890E-001	-6.717780E-003	-1.143017E-001	6.762324E-003
1.600000E+008	6.539176E-002	-3.812217E-003	1.229907E-001	-7.119729E-003	1.230351E-001	-7.127816E-003	-1.142280E-001	7.082942E-003
1.700000E+008	6.541985E-002	-4.075967E-003	1.229497E-001	-7.595617E-003	1.230557E-001	-7.572047E-003	-1.141822E-001	7.409871E-003
1.800000E+008	6.539020E-002	-4.365658E-003	1.228489E-001	-8.050519E-003	1.230073E-001	-8.052556E-003	-1.140938E-001	7.711139E-003
1.900000E+008	6.531079E-002	-4.671304E-003	1.227621E-001	-8.487136E-003	1.229305E-001	-8.492610E-003	-1.140318E-001	7.974041E-003
2.000000E+008	6.522001E-002	-4.979236E-003	1.227217E-001	-8.898981E-003	1.228517E-001	-8.904399E-003	-1.139541E-001	8.195943E-003
2.100000E+008	6.513553E-002	-5.359751E-003	1.226891E-001	-9.315620E-003	1.227950E-001	-9.322905E-003	-1.138542E-001	8.401191E-003
2.200000E+008	6.505287E-002	-5.689718E-003	1.226421E-001	-9.724446E-003	1.227334E-001	-9.747919E-003	-1.137265E-001	8.584456E-003
2.300000E+008	6.498197E-002	-6.041865E-003	1.225904E-001	-1.016355E-002	1.226767E-001	-1.016028E-002	-1.135926E-001	8.772186E-003
2.400000E+008	6.493637E-002	-6.380363E-003	1.225324E-001	-1.060231E-002	1.226178E-001	-1.058855E-002	-1.134396E-001	9.030238E-003
2.500000E+008	6.489565E-002	-6.692370E-003	1.224559E-001	-1.103541E-002	1.225427E-001	-1.101165E-002	-1.132412E-001	9.237517E-003
2.600000E+008	6.486868E-002	-7.054817E-003	1.223729E-001	-1.147202E-002	1.224742E-001	-1.144151E-002	-1.130446E-001	9.522662E-003
2.700000E+008	6.486764E-002	-7.379988E-003	1.222721E-001	-1.186852E-002	1.224014E-001	-1.188133E-002	-1.127997E-001	9.832198E-003
2.800000E+008	6.486686E-002	-7.640961E-003	1.222212E-001	-1.228854E-002	1.223351E-001	-1.228844E-002	-1.125969E-001	1.012503E-002
2.900000E+008	6.481136E-002	-7.905836E-003	1.221650E-001	-1.269538E-002	1.222527E-001	-1.269375E-002	-1.124381E-001	1.044341E-002
3.000000E+008	6.478275E-002	-8.139008E-003	1.220974E-001	-1.313178E-002	1.222046E-001	-1.311069E-002	-1.122868E-001	1.078546E-002
3.100000E+008	6.470860E-002	-8.382188E-003	1.220350E-001	-1.355433E-002	1.221276E-001	-1.354245E-002	-1.121521E-001	1.114831E-002
3.200000E+008	6.463358E-002	-8.585352E-003	1.219279E-001	-1.398498E-002	1.220678E-001	-1.397208E-002	-1.120597E-001	1.150501E-002
3.300000E+008	6.449472E-002	-8.799739E-003	1.218640E-001	-1.440988E-002	1.219844E-001	-1.442444E-002	-1.119488E-001	1.182060E-002
3.400000E+008	6.433213E-002	-9.040696E-003	1.217935E-001	-1.482804E-002	1.218673E-001	-1.486233E-002	-1.118145E-001	1.210467E-002
3.500000E+008	6.414481E-002	-9.291308E-003	1.217022E-001	-1.525593E-002	1.217404E-001	-1.524710E-002	-1.116721E-001	1.233317E-002
3.600000E+008	6.398429E-002	-9.540060E-003	1.216145E-001	-1.566224E-002	1.216515E-001	-1.564634E-002	-1.115036E-001	1.260291E-002
3.700000E+008	6.382506E-002	-9.796683E-003	1.215112E-001	-1.606535E-002	1.215816E-001	-1.600752E-002	-1.113101E-001	1.282446E-002
3.800000E+008	6.369327E-002	-1.007646E-002	1.214405E-001	-1.648130E-002	1.215289E-001	-1.641688E-002	-1.111132E-001	1.307219E-002
3.900000E+008	6.352775E-002	-1.040216E-002	1.213213E-001	-1.691383E-002	1.214555E-001	-1.685393E-002	-1.108353E-001	1.339139E-002
4.000000E+008	6.342052E-002	-1.073412E-002	1.212040E-001	-1.728593E-002	1.213536E-001	-1.727961E-002	-1.105045E-001	1.369244E-002
4.100000E+008	6.327997E-002	-1.101890E-002	1.211272E-001	-1.765771E-002	1.212396E-001	-1.768733E-002	-1.102148E-001	1.400178E-002
4.200000E+008	6.314852E-002	-1.132395E-002	1.210642E-001	-1.806085E-002	1.211575E-001	-1.806514E-002	-1.100065E-001	1.436893E-002
4.300000E+008	6.303802E-002	-1.160550E-002	1.209807E-001	-1.848715E-002	1.210596E-001	-1.849285E-002	-1.097883E-001	1.477430E-002
4.400000E+008	6.294116E-002	-1.183151E-002	1.208841E-001	-1.888842E-002	1.209752E-001	-1.889431E-002	-1.095811E-001	1.521631E-002
4.500000E+008	6.285569E-002	-1.209830E-002	1.207945E-001	-1.930459E-002	1.208881E-001	-1.930620E-002	-1.093950E-001	1.563756E-002
4.600000E+008	6.275431E-002	-1.235458E-002	1.206877E-001	-1.971358E-002	1.207845E-001	-1.972331E-002	-1.091937E-001	1.608935E-002
4.700000E+008	6.260816E-002	-1.258513E-002	1.205780E-001	-2.010524E-002	1.206495E-001	-2.012458E-002	-1.090274E-001	1.648579E-002
4.800000E+008	6.246622E-002	-1.280137E-002	1.204862E-001	-2.049600E-002	1.205494E-001	-2.050740E-002	-1.088891E-001	1.686437E-002
4.900000E+008	6.230263E-002	-1.299519E-002	1.203766E-001	-2.090533E-002	1.204626E-001	-2.090859E-002	-1.087526E-001	1.724432E-002
5.000000E+008	6.214330E-002	-1.321317E-002	1.202780E-001	-2.129399E-002	1.203557E-001	-2.128146E-002	-1.085686E-001	1.759718E-002
5.100000E+008	6.200864E-002	-1.342789E-002	1.201800E-001	-2.169006E-002	1.202763E-001	-2.169069E-002	-1.083814E-001	1.796122E-002
5.200000E+008	6.184042E-002	-1.367823E-002	1.200636E-001	-2.209835E-002	1.201839E-001	-2.208202E-002	-1.082133E-001	1.832466E-002
5.300000E+008	6.165928E-002	-1.392475E-002	1.199728E-001	-2.248966E-002	1.200700E-001	-2.249871E-002	-1.079645E-001	1.866935E-002
5.400000E+008	6.148635E-002	-1.423396E-002	1.198481E-001	-2.289419E-002	1.199475E-001	-2.290403E-002	-1.077347E-001	1.903823E-002
5.500000E+008	6.129822E-002	-1.446530E-002	1.197351E-001	-2.328927E-002	1.198241E-001	-2.329016E-002	-1.075271E-001	1.941045E-002
5.600000E+008	6.114134E-002	-1.475827E-002	1.196332E-001	-2.367906E-002	1.196964E-001	-2.368525E-002	-1.072838E-001	1.981399E-002
5.700000E+008	6.098516E-002	-1.504451E-002	1.195020E-001	-2.405681E-002	1.196011E-001	-2.406316E-002	-1.071269E-001	2.025535E-002
5.800000E+008	6.086008E-002	-1.530783E-002	1.193948E-001	-2.445690E-002	1.195063E-001	-2.443514E-002	-1.069543E-001	2.068471E-002
5.900000E+008	6.072108E-002	-1.562538E-002	1.192962E-001	-2.485650E-002	1.193735E-001	-2.485875E-002	-1.067789E-001	2.114986E-002
6.000000E+008	6.064071E-002	-1.590767E-002	1.191699E-001	-2.524917E-002	1.192671E-001	-2.527042E-002	-1.065720E-001	2.154668E-002
6.100000E+008	6.053638E-002	-1.616416E-002	1.190573E-001	-2.563339E-002	1.191261E-001	-2.564738E-002	-1.064108E-001	2.196590E-002
6.200000E+008	6.045452E-002	-1.636734E-002	1.189234E-001	-2.602190E-002	1.190138E-001	-2.604091E-002	-1.062489E-001	2.238515E-002
6.300000E+008	6.038946E-002	-1.658849E-002	1.188053E-001	-2.639014E-002	1.188907E-001	-2.640919E-002	-1.060412E-001	2.278889E-002
6.400000E+008	6.032138E-002	-1.677439E-002	1.186836E-001	-2.676356E-002	1.187598E-001	-2.678331E-002	-1.058515E-001	2.317814E-002
6.500000E+008	6.024012E-002	-1.695674E-002	1.185632E-001	-2.714725E-002	1.186488E-001	-2.718181E-002	-1.056751E-001	2.359253E-002
6.600000E+008	6.010974E-002	-1.714619E-002	1.184504E-001	-2.754609E-002	1.185188E-001	-2.757081E-002	-1.054659E-001	2.402032E-002
6.700000E+008	5.996319E-002	-1.728995E-002	1.183098E-001	-2.793063E-002	1.184026E-001	-2.796919E-002	-1.053006E-001	2.444091E-002
6.800000E+008	5.980881E-002	-1.747756E-002	1.182048E-001	-2.831383E-002	1.182792E-001	-2.833213E-002	-1.051168E-001	2.489409E-002
6.900000E+008	5.963873E-002	-1.762987E-002	1.180620E-001	-2.870831E-002	1.181310E-001	-2.870700E-002	-1.049382E-001	2.537079E-002
7.000000E+008	5.947777E-002	-1.780955E-002	1.179249E-001	-2.907797E-002	1.180143E-001	-2.907774E-002	-1.048131E-001	2.581732E-002
7.100000E+008	5.932771E-002	-1.799879E-002	1.178157E-001	-2.943522E-002	1.179030E-001	-2.945532E-002	-1.046943E-001	2.623158E-002
7.200000E+008	5.913708E-002	-1.819581E-002	1.176719E-001	-2.982410E-002	1.177777E-001	-2.983281E-002	-1.045603E-001	2.665472E-002
7.300000E+008	5.896386E-002	-1.840968E-002	1.175458E-001	-3.018273E-002	1.176426E-001	-3.023089E-002	-1.044466E-001	2.703029E-002
7.400000E+008	5.877292E-002	-1.860627E-002	1.174160E-001	-3.056455E-002	1.175148E-001	-3.059406E-002	-1.043443E-001	2.741331E-002
7.500000E+008	5.861543E-002	-1.881377E-002	1.172795E-001	-3.094877E-002	1.173728E-001	-3.099396E-002	-1.042216E-001	2.777263E-002
7.600000E+008	5.846377E-002	-1.904289E-002	1.171517E-001	-3.132136E-002	1.172513E-001	-3.135317E-002	-1.040901E-001	2.813362E-002
7.700000E+008	5.829040E-002	-1.925719E-002	1.170182E-001	-3.169861E-002	1.171134E-001	-3.172967E-002	-1.039183E-001	2.845596E-002
7.800000E+008	5.812539E-002	-1.949417E-002	1.168867E-001	-3.206473E-002	1.169798E-001	-3.211016E-002	-1.037439E-001	2.878333E-002
7.900000E+008	5.798759E-002	-1.974690E-002	1.167485E-001	-3.244061E-002	1.168633E-001	-3.248144E-002	-1.035751E-001	2.915258E-002
8.000000E+008	5.783565E-002	-1.998553E-002	1.166061E-001	-3.281559E-002	1.166920E-001	-3.285612E-002	-1.033538E-001	2.952700E-002
8.100000E+008	5.770190E-002	-2.023169E-002	1.164579E-001	-3.318949E-002	1.165456E-001	-3.322685E-002	-1.031081E-001	2.991462E-002
8.200000E+008	5.759887E-002	-2.045382E-002	1.163217E-001	-3.355827E-002	1.164174E-001	-3.357507E-002	-1.028855E-001	3.028291E-002
8.300000E+008	5.751920E-002	-2.067983E-002	1.162037E-001	-3.392399E-002	1.162655E-001	-3.395059E-002	-1.026895E-001	3.067880E-002
8.400000E+008	5.743435E-002	-2.087601E-002	1.160420E-001	-3.428808E-002	1.161435E-001	-3.431638E-002	-1.024929E-001	3.106313E-002
8.500000E+008	5.734853E-002	-2.105530E-002	1.159109E-001	-3.467136E-002	1.160163E-001	-3.470467E-002	-1.023359E-001	3.147615E-002
8.600000E+008	5.722804E-002	-2.122788E-002	1.157583E-001	-3.501438E-002	1.158355E-001	-3.506080E-002	-1.021791E-001	3.185180E-002
8.700000E+008	5.714007E-002	-2.135391E-002	1.156227E-001	-3.538709E-002	1.157154E-001	-3.542744E-002	-1.020039E-001	3.223192E-002
8.800000E+008	5.701575E-002	-2.150036E-002	1.154952E-001	-3.576107E-002	1.155697E-001	-3.577571E-002	-1.018457E-001	3.260788E-002
8.900000E+008	5.685843E-002	-2.164248E-002	1.153240E-001	-3.612447E-002	1.154310E-001	-3.615735E-002	-1.017026E-001	3.295495E-002
9.000000E+008	5.671104E-002	-2.179549E-002	1.151847E-001	-3.649675E-002	1.152988E-001	-3.653490E-002	-1.015002E-001	3.331142E-002
9.100000E+008	5.654127E-002	-2.195556E-002	1.150189E-001	-3.684061E-002	1.151278E-001	-3.687508E-002	-1.012695E-001	3.364731E-002
9.200000E+008	5.636217E-002	-2.214549E-002	1.148755E-001	-3.720939E-002	1.149851E-001	-3.725790E-002	-1.010278E-001	3.400068E-002
9.300000E+008	5.623064E-002	-2.232277E-002	1.147365E-001	-3.758056E-002	1.148137E-001	-3.762381E-002	-1.007715E-001	3.436705E-002
9.400000E+008	5.609796E-002	-2.252810E-002	1.145966E-001	-3.792671E-002	1.146845E-001	-3.798438E-002	-1.004328E-001	3.475690E-002
9.500000E+008	5.598433E-002	-2.274482E-002	1.144240E-001	-3.828975E-002	1.145231E-001	-3.834244E-002	-1.001250E-001	3.518709E-002
9.600000E+008	5.587214E-002	-2.287544E-002	1.142791E-001	-3.864836E-002	1.143899E-001	-3.869238E-002	-9.981926E-002	3.560322E-002
9.700000E+008	5.579113E-002	-2.305046E-002	1.141163E-001	-3.901435E-002	1.142243E-001	-3.905223E-002	-9.950097E-002	3.606547E-002
9.800000E+008	5.567163E-002	-2.318951E-002	1.139837E-001	-3.934834E-002	1.140681E-001	-3.942413E-002	-9.922396E-002	3.652699E-002
9.900000E+008	5.560152E-002	-2.333117E-002	1.138502E-001	-3.972796E-002	1.139459E-001	-3.979371E-002	-9.898014E-002	3.697377E-002
1.000000E+009	5.547765E-002	-2.344746E-002	1.136782E-001	-4.007591E-002	1.137644E-001	-4.014269E-002	-9.876172E-002	3.743418E-002
1.010000E+009	5.534413E-002	-2.355320E-002	1.135297E-001	-4.045267E-002	1.136166E-001	-4.048766E-002	-9.853359E-002	3.790960E-002
1.020000E+009	5.519827E-002	-2.366451E-002	1.133734E-001	-4.080308E-002	1.134533E-001	-4.085086E-002	-9.835430E-002	3.837571E-002
1.030000E+009	5.506767E-002	-2.376763E-002	1.132147E-001	-4.116204E-002	1.132889E-001	-4.119751E-002	-9.814293E-002	3.879577E-002
1.040000E+009	5.489758E-002	-2.388507E-002	1.130363E-001	-4.150303E-002	1.131441E-001	-4.155069E-002	-9.793512E-002	3.923815E-002
1.050000E+009	5.475972E-002	-2.401550E-002	1.128949E-001	-4.186415E-002	1.129659E-001	-4.190573E-002	-9.769096E-002	3.968553E-002
1.060000E+009	5.461808E-002	-2.414458E-002	1.127330E-001	-4.221373E-002	1.128185E-001	-4.225363E-002	-9.745446E-002	4.013299E-002
1.070000E+009	5.446449E-002	-2.430111E-002	1.125643E-001	-4.256483E-002	1.126544E-001	-4.259100E-002	-9.720961E-002	4.056536E-002
1.080000E+009	5.432693E-002	-2.443532E-002	1.124111E-001	-4.294316E-002	1.125183E-001	-4.295960E-002	-9.692846E-002	4.104346E-002
1.090000E+009	5.419685E-002	-2.455570E-002	1.122321E-001	-4.327638E-002	1.123383E-001	-4.331777E-002	-9.669045E-002	4.148183E-002
1.100000E+009	5.406814E-002	-2.468382E-002	1.120607E-001	-4.364628E-002	1.121754E-001	-4.366231E-002	-9.647054E-002	4.194470E-002
1.110000E+009	5.391444E-002	-2.480962E-002	1.118946E-001	-4.398602E-002	1.120183E-001	-4.401615E-002	-9.625102E-002	4.239189E-002
1.120000E+009	5.375129E-002	-2.493969E-002	1.117364E-001	-4.433774E-002	1.118577E-001	-4.437659E-002	-9.607894E-002	4.281838E-002
1.130000E+009	5.361738E-002	-2.505667E-002	1.115825E-001	-4.470257E-002	1.116758E-001	-4.471644E-002	-9.587855E-002	4.321873E-002
1.140000E+009	5.343762E-002	-2.518674E-002	1.114139E-001	-4.504988E-002	1.115025E-001	-4.507054E-002	-9.565330E-002	4.367913E-002
1.150000E+009	5.331244E-002	-2.530674E-002	1.112342E-001	-4.540313E-002	1.113196E-001	-4.543456E-002	-9.541594E-002	4.409054E-002
1.160000E+009	5.315678E-002	-2.540689E-002	1.110525E-001	-4.574147E-002	1.111655E-001	-4.578097E-002	-9.517631E-002	4.450655E-002
1.170000E+009	5.300075E-002	-2.555164E-002	1.108887E-001	-4.609381E-002	1.110046E-001	-4.611994E-002	-9.493735E-002	4.498683E-002
1.180000E+009	5.285886E-002	-2.569881E-002	1.106960E-001	-4.643052E-002	1.108195E-001	-4.646707E-002	-9.464580E-002	4.540376E-002
1.190000E+009	5.267251E-002	-2.581563E-002	1.105344E-001	-4.677981E-002	1.106224E-001	-4.683390E-002	-9.437603E-002	4.587784E-002
1.200000E+009	5.251664E-002	-2.594781E-002	1.103563E-001	-4.713381E-002	1.104383E-001	-4.716083E-002	-9.409339E-002	4.635104E-002
1.210000E+009	5.239722E-002	-2.610408E-002	1.101762E-001	-4.748263E-002	1.102680E-001	-4.752064E-002	-9.385197E-002	4.681113E-002
1.220000E+009	5.225830E-002	-2.626696E-002	1.100016E-001	-4.781200E-002	1.100821E-001	-4.786321E-002	-9.363400E-002	4.728852E-002
1.230000E+009	5.210053E-002	-2.641427E-002	1.098159E-001	-4.815895E-002	1.099101E-001	-4.820737E-002	-9.341923E-002	4.771006E-002
1.240000E+009	5.198335E-002	-2.658428E-002	1.096371E-001	-4.851720E-002	1.097177E-001	-4.854073E-002	-9.322426E-002	4.815317E-002
1.250000E+009	5.186048E-002	-2.672422E-002	1.094572E-001	-4.886194E-002	1.095573E-001	-4.887271E-002	-9.301364E-002	4.858277E-002
1.260000E+009	5.174844E-002	-2.686878E-002	1.092604E-001	-4.920150E-002	1.093622E-001	-4.925492E-002	-9.275276E-002	4.893056E-002
1.270000E+009	5.167389E-002	-2.700860E-002	1.090938E-001	-4.953926E-002	1.091743E-001	-4.957376E-002	-9.251126E-002	4.930152E-002
1.280000E+009	5.153947E-002	-2.712140E-002	1.088989E-001	-4.988979E-002	1.090012E-001	-4.991868E-002	-9.225270E-002	4.968204E-002
1.290000E+009	5.144558E-002	-2.722099E-002	1.086986E-001	-5.023753E-002	1.088096E-001	-5.026167E-002	-9.192062E-002	5.005046E-002
1.300000E+009	5.133261E-002	-2.730196E-002	1.085270E-001	-5.056869E-002	1.086358E-001	-5.061224E-002	-9.159401E-002	5.044183E-002
1.310000E+009	5.123455E-002	-2.740843E-002	1.083202E-001	-5.091435E-002	1.084226E-001	-5.094978E-002	-9.124800E-002	5.084645E-002
1.320000E+009	5.110164E-002	-2.749009E-002	1.081253E-001	-5.126377E-002	1.082331E-001	-5.128755E-002	-9.083824E-002	5.131560E-002
1.330000E+009	5.097646E-002	-2.755264E-002	1.079677E-001	-5.158587E-002	1.080577E-001	-5.163535E-002	-9.045306E-002	5.181629E-002
1.340000E+009	5.084368E-002	-2.763666E-002	1.077507E-001	-5.193383E-002	1.078499E-001	-5.198142E-002	-9.007520E-002	5.236705E-002
1.350000E+009	5.066825E-002	-2.769800E-002	1.075704E-001	-5.226864E-002	1.076557E-001	-5.228806E-002	-8.972668E-002	5.289740E-002
1.360000E+009	5.055923E-002	-2.778069E-002	1.073600E-001	-5.261857E-002	1.074541E-001	-5.263961E-002	-8.935572E-002	5.347268E-002
1.370000E+009	5.041722E-002	-2.788016E-002	1.071786E-001	-5.294468E-002	1.072453E-001	-5.297506E-002	-8.905410E-002	5.405811E-002
1.380000E+009	5.026109E-002	-2.798128E-002	1.069569E-001	-5.328363E-002	1.070599E-001	-5.329483E-002	-8.876730E-002	5.460822E-002
1.390000E+009	5.013520E-002	-2.806407E-002	1.067621E-001	-5.361431E-002	1.068548E-001	-5.363933E-002	-8.848413E-002	5.520979E-002
1.400000E+009	4.999309E-002	-2.814931E-002	1.065444E-001	-5.394415E-002	1.066408E-001	-5.396515E-002	-8.822932E-002	5.573249E-002
1.410000E+009	4.986314E-002	-2.823844E-002	1.063465E-001	-5.426247E-002	1.064408E-001	-5.430313E-002	-8.796664E-002	5.628469E-002
1.420000E+009	4.968871E-002	-2.831057E-002	1.061421E-001	-5.459977E-002	1.062540E-001	-5.462004E-002	-8.769830E-002	5.678332E-002
1.430000E+009	4.956330E-002	-2.838494E-002	1.059362E-001	-5.492407E-002	1.060365E-001	-5.496364E-002	-8.743972E-002	5.727566E-002
1.440000E+009	4.940030E-002	-2.845521E-002	1.057388E-001	-5.523922E-002	1.058330E-001	-5.528326E-002	-8.714840E-002	5.774579E-002
1.450000E+009	4.922746E-002	-2.853398E-002	1.055072E-001	-5.557329E-002	1.056061E-001	-5.561407E-002	-8.683315E-002	5.826920E-002
1.460000E+009	4.906172E-002	-2.860472E-002	1.053135E-001	-5.591442E-002	1.054079E-001	-5.593668E-002	-8.650892E-002	5.875154E-002
1.470000E+009	4.890294E-002	-2.871288E-002	1.051026E-001	-5.623890E-002	1.051861E-001	-5.630128E-002	-8.618202E-002	5.931370E-002
1.480000E+009	4.873112E-002	-2.876248E-002	1.048720E-001	-5.655088E-002	1.049701E-001	-5.660499E-002	-8.584288E-002	5.986063E-002
1.490000E+009	4.859846E-002	-2.886288E-002	1.046575E-001	-5.685135E-002	1.047480E-001	-5.690928E-002	-8.549922E-002	6.041886E-002
1.500000E+009	4.843547E-002	-2.895417E-002	1.044559E-001	-5.719410E-002	1.045522E-001	-5.723997E-002	-8.515112E-002	6.098430E-002
