! Device ID: PE43711P
! File Path: z:\PE43711P\CHAR_NOM_04282014\AMB\3p300\LS_ATT_11p75dB\PE43711P_AMB_3p300V_3p000V_0p000V_LS_ATT_11p75dB_S2P_SN_5_A0137A.s2p
! Serial: 5
! Lot: A0137A
! Temp: 25C
! VDD: 3.300
! VSS: 0.000
! Control_Hi: 3.000
! Control_Lo: 0.000
! Attenuation Step: 11.75dB
! Port 1: RF1
! Port 2: RF2
! ThroughPath:1-2
! IDD: 0.0001281253
! ISS: 2.49e-008
!

#  Hz  S   RI  R   50

1.000000E+007	7.424474E-002	-9.183965E-005	2.266158E-001	-1.089521E-003	2.268381E-001	-1.196648E-003	-1.009778E-001	8.321901E-004
2.000000E+007	7.442862E-002	-2.612323E-004	2.265279E-001	-1.781081E-003	2.266789E-001	-1.793892E-003	-1.006831E-001	1.357695E-003
3.000000E+007	7.467561E-002	-5.698514E-004	2.265362E-001	-2.676801E-003	2.266911E-001	-2.684263E-003	-1.003802E-001	1.799682E-003
4.000000E+007	7.480949E-002	-8.789260E-004	2.265268E-001	-3.566365E-003	2.266790E-001	-3.584477E-003	-1.001880E-001	2.292952E-003
5.000000E+007	7.491607E-002	-1.233901E-003	2.265262E-001	-4.537435E-003	2.267149E-001	-4.519328E-003	-1.001210E-001	2.758185E-003
6.000000E+007	7.506593E-002	-1.635488E-003	2.264533E-001	-5.407783E-003	2.266978E-001	-5.409267E-003	-9.998782E-002	3.124052E-003
7.000000E+007	7.516520E-002	-2.042704E-003	2.263989E-001	-6.281323E-003	2.266023E-001	-6.301596E-003	-9.981302E-002	3.488734E-003
8.000000E+007	7.527024E-002	-2.442138E-003	2.263602E-001	-7.134628E-003	2.265643E-001	-7.144001E-003	-9.966788E-002	3.851315E-003
9.000000E+007	7.537489E-002	-2.832365E-003	2.263205E-001	-8.002764E-003	2.265082E-001	-8.021830E-003	-9.954185E-002	4.155094E-003
1.000000E+008	7.544609E-002	-3.222254E-003	2.262868E-001	-8.911519E-003	2.264507E-001	-8.901034E-003	-9.944339E-002	4.467002E-003
1.100000E+008	7.552616E-002	-3.636620E-003	2.262076E-001	-9.805671E-003	2.263913E-001	-9.776028E-003	-9.937024E-002	4.761135E-003
1.200000E+008	7.562062E-002	-4.077094E-003	2.260911E-001	-1.067836E-002	2.263077E-001	-1.068123E-002	-9.930662E-002	5.017555E-003
1.300000E+008	7.567141E-002	-4.492397E-003	2.260265E-001	-1.153532E-002	2.262386E-001	-1.154931E-002	-9.919081E-002	5.274912E-003
1.400000E+008	7.568969E-002	-4.892245E-003	2.259565E-001	-1.240187E-002	2.261368E-001	-1.243627E-002	-9.905521E-002	5.531768E-003
1.500000E+008	7.564362E-002	-5.279819E-003	2.258832E-001	-1.324234E-002	2.259938E-001	-1.327618E-002	-9.890517E-002	5.772274E-003
1.600000E+008	7.560756E-002	-5.602478E-003	2.258123E-001	-1.409853E-002	2.259124E-001	-1.409489E-002	-9.888864E-002	6.026288E-003
1.700000E+008	7.558850E-002	-5.975175E-003	2.257461E-001	-1.500654E-002	2.259298E-001	-1.496735E-002	-9.890199E-002	6.297619E-003
1.800000E+008	7.551497E-002	-6.349571E-003	2.255367E-001	-1.593618E-002	2.258437E-001	-1.591711E-002	-9.889581E-002	6.520128E-003
1.900000E+008	7.541413E-002	-6.787120E-003	2.253850E-001	-1.675126E-002	2.256884E-001	-1.677451E-002	-9.884800E-002	6.710321E-003
2.000000E+008	7.531676E-002	-7.218867E-003	2.252777E-001	-1.757910E-002	2.255439E-001	-1.758965E-002	-9.874753E-002	6.898882E-003
2.100000E+008	7.522216E-002	-7.700814E-003	2.251906E-001	-1.841421E-002	2.254044E-001	-1.842068E-002	-9.861453E-002	7.056235E-003
2.200000E+008	7.513118E-002	-8.161633E-003	2.251082E-001	-1.924115E-002	2.253018E-001	-1.923560E-002	-9.849556E-002	7.197096E-003
2.300000E+008	7.503381E-002	-8.609149E-003	2.249899E-001	-2.006767E-002	2.251715E-001	-2.008655E-002	-9.836127E-002	7.351626E-003
2.400000E+008	7.495925E-002	-9.068477E-003	2.248735E-001	-2.093404E-002	2.250296E-001	-2.092536E-002	-9.824579E-002	7.521776E-003
2.500000E+008	7.485586E-002	-9.486639E-003	2.247395E-001	-2.179701E-002	2.249040E-001	-2.177500E-002	-9.809913E-002	7.658398E-003
2.600000E+008	7.480932E-002	-9.948447E-003	2.245664E-001	-2.264832E-002	2.247625E-001	-2.264218E-002	-9.790986E-002	7.885070E-003
2.700000E+008	7.475387E-002	-1.036752E-002	2.243977E-001	-2.347626E-002	2.246043E-001	-2.346685E-002	-9.768805E-002	8.124461E-003
2.800000E+008	7.471221E-002	-1.078098E-002	2.242442E-001	-2.427760E-002	2.244636E-001	-2.428138E-002	-9.750925E-002	8.351914E-003
2.900000E+008	7.461765E-002	-1.112467E-002	2.241300E-001	-2.509517E-002	2.243067E-001	-2.507900E-002	-9.736355E-002	8.616143E-003
3.000000E+008	7.455880E-002	-1.145690E-002	2.240160E-001	-2.594454E-002	2.241898E-001	-2.590590E-002	-9.723311E-002	8.913401E-003
3.100000E+008	7.444262E-002	-1.178252E-002	2.238585E-001	-2.677146E-002	2.240490E-001	-2.675453E-002	-9.712780E-002	9.223955E-003
3.200000E+008	7.433608E-002	-1.208545E-002	2.236960E-001	-2.762911E-002	2.239172E-001	-2.762088E-002	-9.704370E-002	9.526060E-003
3.300000E+008	7.419177E-002	-1.239806E-002	2.235398E-001	-2.844777E-002	2.237441E-001	-2.848130E-002	-9.695215E-002	9.793661E-003
3.400000E+008	7.396044E-002	-1.272093E-002	2.233637E-001	-2.928905E-002	2.235007E-001	-2.934566E-002	-9.683695E-002	1.001992E-002
3.500000E+008	7.373379E-002	-1.305902E-002	2.231941E-001	-3.011547E-002	2.232732E-001	-3.012575E-002	-9.671735E-002	1.019862E-002
3.600000E+008	7.354263E-002	-1.339669E-002	2.230240E-001	-3.094282E-002	2.231123E-001	-3.085917E-002	-9.657152E-002	1.042691E-002
3.700000E+008	7.332054E-002	-1.374877E-002	2.228028E-001	-3.172203E-002	2.229566E-001	-3.161427E-002	-9.640181E-002	1.058886E-002
3.800000E+008	7.312627E-002	-1.413641E-002	2.226486E-001	-3.251763E-002	2.228332E-001	-3.245081E-002	-9.622336E-002	1.080723E-002
3.900000E+008	7.293308E-002	-1.454212E-002	2.224257E-001	-3.336205E-002	2.226632E-001	-3.330425E-002	-9.596730E-002	1.107684E-002
4.000000E+008	7.277587E-002	-1.496576E-002	2.222041E-001	-3.411426E-002	2.224666E-001	-3.413659E-002	-9.567813E-002	1.132041E-002
4.100000E+008	7.257782E-002	-1.535484E-002	2.220452E-001	-3.485132E-002	2.222586E-001	-3.493442E-002	-9.543780E-002	1.156719E-002
4.200000E+008	7.240687E-002	-1.575478E-002	2.218980E-001	-3.565960E-002	2.220790E-001	-3.570711E-002	-9.522686E-002	1.188439E-002
4.300000E+008	7.226375E-002	-1.609524E-002	2.217400E-001	-3.649684E-002	2.218853E-001	-3.651339E-002	-9.503761E-002	1.223073E-002
4.400000E+008	7.210130E-002	-1.643311E-002	2.215387E-001	-3.728909E-002	2.216869E-001	-3.730886E-002	-9.485569E-002	1.261531E-002
4.500000E+008	7.195841E-002	-1.677010E-002	2.213312E-001	-3.811008E-002	2.215138E-001	-3.813298E-002	-9.469332E-002	1.301630E-002
4.600000E+008	7.180043E-002	-1.710167E-002	2.211346E-001	-3.891564E-002	2.212914E-001	-3.893690E-002	-9.452577E-002	1.340932E-002
4.700000E+008	7.162779E-002	-1.741844E-002	2.209198E-001	-3.969916E-002	2.210825E-001	-3.973536E-002	-9.439485E-002	1.376892E-002
4.800000E+008	7.142320E-002	-1.770447E-002	2.207222E-001	-4.046539E-002	2.208476E-001	-4.048407E-002	-9.428686E-002	1.411588E-002
4.900000E+008	7.119832E-002	-1.799424E-002	2.205150E-001	-4.127200E-002	2.206378E-001	-4.128000E-002	-9.417844E-002	1.446259E-002
5.000000E+008	7.100307E-002	-1.828076E-002	2.203001E-001	-4.205162E-002	2.204566E-001	-4.205662E-002	-9.404162E-002	1.476492E-002
5.100000E+008	7.079866E-002	-1.858503E-002	2.200828E-001	-4.283255E-002	2.202731E-001	-4.282346E-002	-9.387666E-002	1.509067E-002
5.200000E+008	7.057309E-002	-1.891190E-002	2.198769E-001	-4.362164E-002	2.200684E-001	-4.362306E-002	-9.372215E-002	1.539814E-002
5.300000E+008	7.035392E-002	-1.926016E-002	2.196645E-001	-4.440709E-002	2.198561E-001	-4.442789E-002	-9.348682E-002	1.570646E-002
5.400000E+008	7.011742E-002	-1.963969E-002	2.194242E-001	-4.518810E-002	2.196344E-001	-4.523141E-002	-9.327016E-002	1.601283E-002
5.500000E+008	6.988768E-002	-1.995943E-002	2.192145E-001	-4.597182E-002	2.193701E-001	-4.599998E-002	-9.310225E-002	1.636308E-002
5.600000E+008	6.966526E-002	-2.030231E-002	2.189726E-001	-4.673011E-002	2.191171E-001	-4.676328E-002	-9.291289E-002	1.673292E-002
5.700000E+008	6.945559E-002	-2.065881E-002	2.187408E-001	-4.749356E-002	2.189112E-001	-4.753119E-002	-9.276787E-002	1.713336E-002
5.800000E+008	6.926695E-002	-2.099787E-002	2.185094E-001	-4.827354E-002	2.186770E-001	-4.828175E-002	-9.263437E-002	1.752746E-002
5.900000E+008	6.907575E-002	-2.136056E-002	2.182670E-001	-4.906515E-002	2.184485E-001	-4.910343E-002	-9.250243E-002	1.795694E-002
6.000000E+008	6.892943E-002	-2.171808E-002	2.180377E-001	-4.981815E-002	2.182015E-001	-4.989200E-002	-9.232650E-002	1.831289E-002
6.100000E+008	6.878009E-002	-2.204134E-002	2.177946E-001	-5.058070E-002	2.179237E-001	-5.064349E-002	-9.221956E-002	1.866673E-002
6.200000E+008	6.865779E-002	-2.234357E-002	2.175323E-001	-5.134246E-002	2.176942E-001	-5.139585E-002	-9.205135E-002	1.903815E-002
6.300000E+008	6.853068E-002	-2.263271E-002	2.172780E-001	-5.209282E-002	2.174266E-001	-5.213497E-002	-9.191464E-002	1.939381E-002
6.400000E+008	6.839312E-002	-2.289943E-002	2.170400E-001	-5.284547E-002	2.171882E-001	-5.289860E-002	-9.174743E-002	1.976515E-002
6.500000E+008	6.827097E-002	-2.314235E-002	2.167904E-001	-5.358672E-002	2.169497E-001	-5.363401E-002	-9.158001E-002	2.016047E-002
6.600000E+008	6.810376E-002	-2.342417E-002	2.165690E-001	-5.436265E-002	2.167032E-001	-5.441406E-002	-9.140450E-002	2.054092E-002
6.700000E+008	6.787820E-002	-2.362969E-002	2.162970E-001	-5.512377E-002	2.164289E-001	-5.518442E-002	-9.126628E-002	2.094083E-002
6.800000E+008	6.765051E-002	-2.386359E-002	2.160526E-001	-5.587776E-002	2.161875E-001	-5.594774E-002	-9.113317E-002	2.138295E-002
6.900000E+008	6.741382E-002	-2.406960E-002	2.157602E-001	-5.661715E-002	2.158997E-001	-5.668047E-002	-9.099003E-002	2.180413E-002
7.000000E+008	6.720542E-002	-2.431872E-002	2.155185E-001	-5.736370E-002	2.156609E-001	-5.740469E-002	-9.088569E-002	2.221102E-002
7.100000E+008	6.697767E-002	-2.458828E-002	2.152332E-001	-5.809046E-002	2.153946E-001	-5.815480E-002	-9.080571E-002	2.260158E-002
7.200000E+008	6.674196E-002	-2.485014E-002	2.149960E-001	-5.884183E-002	2.151391E-001	-5.889288E-002	-9.070068E-002	2.297258E-002
7.300000E+008	6.651170E-002	-2.513532E-002	2.147096E-001	-5.957702E-002	2.148937E-001	-5.966963E-002	-9.061364E-002	2.331703E-002
7.400000E+008	6.625185E-002	-2.538800E-002	2.144434E-001	-6.034522E-002	2.146079E-001	-6.039280E-002	-9.054759E-002	2.366040E-002
7.500000E+008	6.603675E-002	-2.567619E-002	2.141534E-001	-6.107260E-002	2.143441E-001	-6.115633E-002	-9.045826E-002	2.397026E-002
7.600000E+008	6.582437E-002	-2.595139E-002	2.138961E-001	-6.181263E-002	2.140709E-001	-6.187777E-002	-9.033443E-002	2.429362E-002
7.700000E+008	6.559652E-002	-2.625474E-002	2.136180E-001	-6.254970E-002	2.137879E-001	-6.260758E-002	-9.021093E-002	2.458074E-002
7.800000E+008	6.538179E-002	-2.652188E-002	2.133299E-001	-6.328540E-002	2.135313E-001	-6.335919E-002	-9.007578E-002	2.487815E-002
7.900000E+008	6.513020E-002	-2.684900E-002	2.130643E-001	-6.401932E-002	2.132494E-001	-6.410643E-002	-8.994450E-002	2.522312E-002
8.000000E+008	6.493256E-002	-2.714611E-002	2.127785E-001	-6.473075E-002	2.129241E-001	-6.481045E-002	-8.975926E-002	2.555408E-002
8.100000E+008	6.474719E-002	-2.746223E-002	2.124899E-001	-6.546183E-002	2.126389E-001	-6.555047E-002	-8.955680E-002	2.593386E-002
8.200000E+008	6.457291E-002	-2.775080E-002	2.122099E-001	-6.621569E-002	2.123471E-001	-6.625935E-002	-8.937086E-002	2.624998E-002
8.300000E+008	6.442431E-002	-2.802224E-002	2.119341E-001	-6.693524E-002	2.120736E-001	-6.698901E-002	-8.919591E-002	2.664028E-002
8.400000E+008	6.427820E-002	-2.828535E-002	2.116079E-001	-6.764848E-002	2.117719E-001	-6.772756E-002	-8.903447E-002	2.698525E-002
8.500000E+008	6.413625E-002	-2.853360E-002	2.113516E-001	-6.837437E-002	2.115001E-001	-6.845178E-002	-8.891456E-002	2.734676E-002
8.600000E+008	6.395353E-002	-2.875122E-002	2.110359E-001	-6.908984E-002	2.111806E-001	-6.916352E-002	-8.877383E-002	2.772386E-002
8.700000E+008	6.377387E-002	-2.894267E-002	2.107466E-001	-6.982953E-002	2.108820E-001	-6.989611E-002	-8.865834E-002	2.806486E-002
8.800000E+008	6.360568E-002	-2.914487E-002	2.104521E-001	-7.054673E-002	2.106075E-001	-7.061058E-002	-8.852405E-002	2.841497E-002
8.900000E+008	6.338616E-002	-2.935262E-002	2.101470E-001	-7.124984E-002	2.102923E-001	-7.135036E-002	-8.839983E-002	2.872934E-002
9.000000E+008	6.316504E-002	-2.955726E-002	2.098154E-001	-7.198042E-002	2.100120E-001	-7.205076E-002	-8.824794E-002	2.907887E-002
9.100000E+008	6.293196E-002	-2.977160E-002	2.095068E-001	-7.269852E-002	2.097019E-001	-7.277366E-002	-8.805004E-002	2.937833E-002
9.200000E+008	6.269156E-002	-3.001183E-002	2.092018E-001	-7.340279E-002	2.094020E-001	-7.349595E-002	-8.784104E-002	2.971360E-002
9.300000E+008	6.246946E-002	-3.023576E-002	2.089102E-001	-7.410900E-002	2.090455E-001	-7.421819E-002	-8.761289E-002	3.004003E-002
9.400000E+008	6.227953E-002	-3.050485E-002	2.085990E-001	-7.481249E-002	2.087577E-001	-7.490792E-002	-8.731577E-002	3.040354E-002
9.500000E+008	6.208157E-002	-3.075005E-002	2.082857E-001	-7.552543E-002	2.084482E-001	-7.563743E-002	-8.705877E-002	3.082008E-002
9.600000E+008	6.190015E-002	-3.097838E-002	2.079533E-001	-7.623537E-002	2.081306E-001	-7.633106E-002	-8.675103E-002	3.120524E-002
9.700000E+008	6.172970E-002	-3.117607E-002	2.076350E-001	-7.693039E-002	2.078183E-001	-7.703715E-002	-8.648013E-002	3.163050E-002
9.800000E+008	6.159375E-002	-3.137740E-002	2.073543E-001	-7.761527E-002	2.074956E-001	-7.774223E-002	-8.622467E-002	3.205795E-002
9.900000E+008	6.143378E-002	-3.155953E-002	2.070438E-001	-7.835346E-002	2.071894E-001	-7.845983E-002	-8.599300E-002	3.250430E-002
1.000000E+009	6.124799E-002	-3.171608E-002	2.066954E-001	-7.905375E-002	2.068580E-001	-7.916768E-002	-8.584052E-002	3.291946E-002
1.010000E+009	6.104424E-002	-3.186921E-002	2.064070E-001	-7.975638E-002	2.065377E-001	-7.986196E-002	-8.563021E-002	3.335821E-002
1.020000E+009	6.083950E-002	-3.201043E-002	2.060612E-001	-8.045677E-002	2.062015E-001	-8.056669E-002	-8.546817E-002	3.382216E-002
1.030000E+009	6.062314E-002	-3.215834E-002	2.057172E-001	-8.115114E-002	2.058645E-001	-8.126198E-002	-8.530705E-002	3.424488E-002
1.040000E+009	6.041052E-002	-3.232833E-002	2.053944E-001	-8.184103E-002	2.055278E-001	-8.194530E-002	-8.512697E-002	3.465872E-002
1.050000E+009	6.018820E-002	-3.251676E-002	2.050641E-001	-8.253710E-002	2.052102E-001	-8.263090E-002	-8.493757E-002	3.510640E-002
1.060000E+009	5.997929E-002	-3.269512E-002	2.047313E-001	-8.323434E-002	2.048744E-001	-8.332627E-002	-8.472589E-002	3.550250E-002
1.070000E+009	5.975585E-002	-3.287225E-002	2.043959E-001	-8.392431E-002	2.045537E-001	-8.399704E-002	-8.449968E-002	3.592972E-002
1.080000E+009	5.954258E-002	-3.306737E-002	2.040470E-001	-8.463381E-002	2.042245E-001	-8.470490E-002	-8.425911E-002	3.635272E-002
1.090000E+009	5.934192E-002	-3.322736E-002	2.037007E-001	-8.531972E-002	2.038788E-001	-8.541105E-002	-8.406122E-002	3.676067E-002
1.100000E+009	5.916256E-002	-3.341561E-002	2.033472E-001	-8.600848E-002	2.035321E-001	-8.609130E-002	-8.384727E-002	3.719832E-002
1.110000E+009	5.895693E-002	-3.356655E-002	2.030199E-001	-8.669459E-002	2.032007E-001	-8.677304E-002	-8.365167E-002	3.760852E-002
1.120000E+009	5.874334E-002	-3.376214E-002	2.026808E-001	-8.738839E-002	2.028494E-001	-8.746697E-002	-8.350210E-002	3.803444E-002
1.130000E+009	5.851082E-002	-3.391535E-002	2.023282E-001	-8.807139E-002	2.024864E-001	-8.814993E-002	-8.334495E-002	3.843364E-002
1.140000E+009	5.826773E-002	-3.408767E-002	2.019691E-001	-8.875619E-002	2.021418E-001	-8.885104E-002	-8.317081E-002	3.885149E-002
1.150000E+009	5.807257E-002	-3.424040E-002	2.016146E-001	-8.947130E-002	2.017633E-001	-8.955456E-002	-8.294722E-002	3.926434E-002
1.160000E+009	5.783581E-002	-3.439298E-002	2.012409E-001	-9.014000E-002	2.014174E-001	-9.021864E-002	-8.274934E-002	3.966339E-002
1.170000E+009	5.761429E-002	-3.455811E-002	2.008840E-001	-9.082040E-002	2.010520E-001	-9.088958E-002	-8.254727E-002	4.011410E-002
1.180000E+009	5.742490E-002	-3.472723E-002	2.005041E-001	-9.149459E-002	2.006926E-001	-9.156541E-002	-8.230367E-002	4.051631E-002
1.190000E+009	5.716615E-002	-3.491203E-002	2.001476E-001	-9.218844E-002	2.002921E-001	-9.225073E-002	-8.206652E-002	4.096469E-002
1.200000E+009	5.694275E-002	-3.508500E-002	1.997891E-001	-9.286619E-002	1.999394E-001	-9.292927E-002	-8.182806E-002	4.140909E-002
1.210000E+009	5.677128E-002	-3.527353E-002	1.993999E-001	-9.354244E-002	1.995645E-001	-9.362685E-002	-8.160284E-002	4.185460E-002
1.220000E+009	5.655935E-002	-3.547906E-002	1.990338E-001	-9.419464E-002	1.992091E-001	-9.428143E-002	-8.139449E-002	4.229135E-002
1.230000E+009	5.634430E-002	-3.564830E-002	1.986520E-001	-9.488495E-002	1.988129E-001	-9.495671E-002	-8.122394E-002	4.270341E-002
1.240000E+009	5.614488E-002	-3.584239E-002	1.982882E-001	-9.553840E-002	1.984316E-001	-9.560920E-002	-8.104547E-002	4.310336E-002
1.250000E+009	5.595908E-002	-3.604796E-002	1.979011E-001	-9.621557E-002	1.980772E-001	-9.628537E-002	-8.088797E-002	4.352060E-002
1.260000E+009	5.576364E-002	-3.619535E-002	1.975071E-001	-9.689754E-002	1.976721E-001	-9.697507E-002	-8.067039E-002	4.389535E-002
1.270000E+009	5.561293E-002	-3.634940E-002	1.971377E-001	-9.754883E-002	1.973025E-001	-9.763299E-002	-8.044558E-002	4.424464E-002
1.280000E+009	5.542326E-002	-3.653158E-002	1.967690E-001	-9.823666E-002	1.969084E-001	-9.827446E-002	-8.023867E-002	4.459036E-002
1.290000E+009	5.523255E-002	-3.666850E-002	1.963630E-001	-9.891752E-002	1.965225E-001	-9.896475E-002	-7.993905E-002	4.494712E-002
1.300000E+009	5.505755E-002	-3.679342E-002	1.959560E-001	-9.953330E-002	1.961409E-001	-9.965092E-002	-7.962411E-002	4.531102E-002
1.310000E+009	5.488107E-002	-3.692292E-002	1.955578E-001	-1.002314E-001	1.957488E-001	-1.003151E-001	-7.933039E-002	4.569397E-002
1.320000E+009	5.468339E-002	-3.704404E-002	1.951603E-001	-1.009032E-001	1.953551E-001	-1.009702E-001	-7.899438E-002	4.614633E-002
1.330000E+009	5.448048E-002	-3.713732E-002	1.947730E-001	-1.015376E-001	1.949552E-001	-1.016490E-001	-7.859569E-002	4.665109E-002
1.340000E+009	5.427206E-002	-3.722629E-002	1.943518E-001	-1.021785E-001	1.945149E-001	-1.023002E-001	-7.825482E-002	4.715928E-002
1.350000E+009	5.404094E-002	-3.733717E-002	1.939641E-001	-1.028578E-001	1.941161E-001	-1.029463E-001	-7.792948E-002	4.769828E-002
1.360000E+009	5.384838E-002	-3.742699E-002	1.935304E-001	-1.034884E-001	1.937144E-001	-1.036034E-001	-7.759972E-002	4.827857E-002
1.370000E+009	5.363898E-002	-3.753651E-002	1.931287E-001	-1.041691E-001	1.933076E-001	-1.042639E-001	-7.733609E-002	4.883708E-002
1.380000E+009	5.343303E-002	-3.766716E-002	1.927104E-001	-1.048158E-001	1.928890E-001	-1.049164E-001	-7.707287E-002	4.939141E-002
1.390000E+009	5.323366E-002	-3.777179E-002	1.922838E-001	-1.054595E-001	1.924919E-001	-1.055671E-001	-7.684221E-002	4.994485E-002
1.400000E+009	5.299634E-002	-3.792557E-002	1.918725E-001	-1.060964E-001	1.920417E-001	-1.061763E-001	-7.663188E-002	5.047479E-002
1.410000E+009	5.277603E-002	-3.800841E-002	1.914785E-001	-1.067486E-001	1.916123E-001	-1.068429E-001	-7.638639E-002	5.102396E-002
1.420000E+009	5.255059E-002	-3.810266E-002	1.910016E-001	-1.073732E-001	1.911911E-001	-1.074631E-001	-7.616882E-002	5.149056E-002
1.430000E+009	5.237234E-002	-3.820625E-002	1.905874E-001	-1.080141E-001	1.907897E-001	-1.081177E-001	-7.589518E-002	5.199657E-002
1.440000E+009	5.215016E-002	-3.832002E-002	1.901578E-001	-1.086405E-001	1.903471E-001	-1.087293E-001	-7.565595E-002	5.244728E-002
1.450000E+009	5.190915E-002	-3.841594E-002	1.897202E-001	-1.092941E-001	1.899005E-001	-1.093869E-001	-7.537872E-002	5.294949E-002
1.460000E+009	5.166218E-002	-3.851005E-002	1.892829E-001	-1.099385E-001	1.894657E-001	-1.100398E-001	-7.507336E-002	5.344369E-002
1.470000E+009	5.145308E-002	-3.863095E-002	1.888562E-001	-1.105741E-001	1.890400E-001	-1.106675E-001	-7.479974E-002	5.397264E-002
1.480000E+009	5.120192E-002	-3.871121E-002	1.884084E-001	-1.111632E-001	1.885688E-001	-1.112888E-001	-7.448579E-002	5.453310E-002
1.490000E+009	5.097585E-002	-3.879721E-002	1.879622E-001	-1.118142E-001	1.881207E-001	-1.118929E-001	-7.415563E-002	5.508940E-002
1.500000E+009	5.077246E-002	-3.893515E-002	1.875165E-001	-1.124402E-001	1.876897E-001	-1.125289E-001	-7.386760E-002	5.566656E-002
