! Device ID: PE43711P
! File Path: z:\PE43711P\CHAR_NOM_04282014\AMB\3p300\LS_ATT_13p00dB\PE43711P_AMB_3p300V_3p000V_0p000V_LS_ATT_13p00dB_S2P_SN_5_A0137A.s2p
! Serial: 5
! Lot: A0137A
! Temp: 25C
! VDD: 3.300
! VSS: 0.000
! Control_Hi: 3.000
! Control_Lo: 0.000
! Attenuation Step: 13.00dB
! Port 1: RF1
! Port 2: RF2
! ThroughPath:1-2
! IDD: 0.000128174
! ISS: -9.47e-008
!

#  Hz  S   RI  R   50

1.000000E+007	7.431998E-002	-1.053606E-004	1.963105E-001	-9.644051E-004	1.965479E-001	-1.038140E-003	-1.156386E-001	9.043710E-004
2.000000E+007	7.451030E-002	-2.913296E-004	1.963375E-001	-1.515490E-003	1.964642E-001	-1.533357E-003	-1.153865E-001	1.449616E-003
3.000000E+007	7.477070E-002	-5.885414E-004	1.963520E-001	-2.273802E-003	1.964727E-001	-2.299756E-003	-1.150763E-001	1.906054E-003
4.000000E+007	7.489632E-002	-9.119076E-004	1.963252E-001	-3.058524E-003	1.964658E-001	-3.071971E-003	-1.148878E-001	2.425155E-003
5.000000E+007	7.500088E-002	-1.267696E-003	1.963249E-001	-3.866867E-003	1.964876E-001	-3.861155E-003	-1.148381E-001	2.943590E-003
6.000000E+007	7.513618E-002	-1.666775E-003	1.962712E-001	-4.612288E-003	1.964622E-001	-4.617489E-003	-1.146987E-001	3.331018E-003
7.000000E+007	7.524197E-002	-2.083921E-003	1.962067E-001	-5.360612E-003	1.963959E-001	-5.360571E-003	-1.145251E-001	3.732810E-003
8.000000E+007	7.535759E-002	-2.486381E-003	1.961821E-001	-6.079288E-003	1.963458E-001	-6.094217E-003	-1.143576E-001	4.124538E-003
9.000000E+007	7.542951E-002	-2.872980E-003	1.961466E-001	-6.827390E-003	1.963064E-001	-6.842351E-003	-1.142435E-001	4.456415E-003
1.000000E+008	7.550543E-002	-3.267552E-003	1.961250E-001	-7.599667E-003	1.962597E-001	-7.586742E-003	-1.141517E-001	4.811316E-003
1.100000E+008	7.559462E-002	-3.683201E-003	1.960597E-001	-8.360967E-003	1.962100E-001	-8.345630E-003	-1.140630E-001	5.140709E-003
1.200000E+008	7.566658E-002	-4.118684E-003	1.959579E-001	-9.117848E-003	1.961440E-001	-9.105684E-003	-1.139905E-001	5.418448E-003
1.300000E+008	7.572100E-002	-4.542318E-003	1.958861E-001	-9.838090E-003	1.960847E-001	-9.853656E-003	-1.138639E-001	5.700139E-003
1.400000E+008	7.574464E-002	-4.945209E-003	1.958277E-001	-1.058412E-002	1.959890E-001	-1.060890E-002	-1.137178E-001	6.000256E-003
1.500000E+008	7.570824E-002	-5.335864E-003	1.957678E-001	-1.128674E-002	1.958875E-001	-1.131542E-002	-1.136018E-001	6.263798E-003
1.600000E+008	7.565860E-002	-5.659040E-003	1.957103E-001	-1.201264E-002	1.957841E-001	-1.201559E-002	-1.135528E-001	6.556160E-003
1.700000E+008	7.564486E-002	-6.038765E-003	1.956374E-001	-1.279501E-002	1.958047E-001	-1.275382E-002	-1.135382E-001	6.843478E-003
1.800000E+008	7.558830E-002	-6.414889E-003	1.954639E-001	-1.357742E-002	1.957268E-001	-1.356885E-002	-1.134746E-001	7.106827E-003
1.900000E+008	7.547434E-002	-6.849525E-003	1.953399E-001	-1.428022E-002	1.956020E-001	-1.430059E-002	-1.134345E-001	7.333649E-003
2.000000E+008	7.536904E-002	-7.275123E-003	1.952501E-001	-1.498532E-002	1.954881E-001	-1.499627E-002	-1.133322E-001	7.538069E-003
2.100000E+008	7.527069E-002	-7.754291E-003	1.951787E-001	-1.569353E-002	1.953814E-001	-1.571072E-002	-1.132101E-001	7.718587E-003
2.200000E+008	7.515851E-002	-8.204899E-003	1.950979E-001	-1.637992E-002	1.952601E-001	-1.640166E-002	-1.130732E-001	7.873906E-003
2.300000E+008	7.507276E-002	-8.657947E-003	1.950036E-001	-1.711160E-002	1.951475E-001	-1.710783E-002	-1.129355E-001	8.047768E-003
2.400000E+008	7.498655E-002	-9.108432E-003	1.949157E-001	-1.783885E-002	1.950450E-001	-1.783963E-002	-1.127983E-001	8.251859E-003
2.500000E+008	7.489061E-002	-9.543308E-003	1.947764E-001	-1.857640E-002	1.949404E-001	-1.855489E-002	-1.126271E-001	8.415717E-003
2.600000E+008	7.483006E-002	-9.988158E-003	1.946296E-001	-1.929317E-002	1.948202E-001	-1.927959E-002	-1.124135E-001	8.666757E-003
2.700000E+008	7.478677E-002	-1.042559E-002	1.944865E-001	-1.999555E-002	1.946726E-001	-1.999978E-002	-1.121812E-001	8.937806E-003
2.800000E+008	7.474657E-002	-1.082768E-002	1.943724E-001	-2.069638E-002	1.945490E-001	-2.068789E-002	-1.119810E-001	9.187193E-003
2.900000E+008	7.465642E-002	-1.118034E-002	1.942602E-001	-2.139059E-002	1.944167E-001	-2.137558E-002	-1.118342E-001	9.473914E-003
3.000000E+008	7.458752E-002	-1.150439E-002	1.941592E-001	-2.210475E-002	1.943163E-001	-2.207475E-002	-1.116841E-001	9.793468E-003
3.100000E+008	7.447886E-002	-1.182941E-002	1.940410E-001	-2.281206E-002	1.942003E-001	-2.279570E-002	-1.115715E-001	1.011444E-002
3.200000E+008	7.435304E-002	-1.214040E-002	1.938925E-001	-2.353201E-002	1.940627E-001	-2.351283E-002	-1.114567E-001	1.045263E-002
3.300000E+008	7.419269E-002	-1.244503E-002	1.937743E-001	-2.423843E-002	1.939379E-001	-2.427151E-002	-1.113599E-001	1.072665E-002
3.400000E+008	7.397364E-002	-1.278522E-002	1.936080E-001	-2.495424E-002	1.937259E-001	-2.501414E-002	-1.112392E-001	1.099529E-002
3.500000E+008	7.373274E-002	-1.313003E-002	1.934663E-001	-2.565464E-002	1.935373E-001	-2.567474E-002	-1.110864E-001	1.119768E-002
3.600000E+008	7.353153E-002	-1.344700E-002	1.933281E-001	-2.636820E-002	1.933895E-001	-2.630682E-002	-1.109414E-001	1.141713E-002
3.700000E+008	7.333161E-002	-1.380710E-002	1.931489E-001	-2.702225E-002	1.932709E-001	-2.693598E-002	-1.107530E-001	1.162281E-002
3.800000E+008	7.313133E-002	-1.418696E-002	1.930063E-001	-2.770722E-002	1.931725E-001	-2.763611E-002	-1.105675E-001	1.185581E-002
3.900000E+008	7.294293E-002	-1.459511E-002	1.928040E-001	-2.842605E-002	1.930248E-001	-2.837438E-002	-1.102809E-001	1.212548E-002
4.000000E+008	7.277691E-002	-1.502306E-002	1.926151E-001	-2.905805E-002	1.928572E-001	-2.907929E-002	-1.099727E-001	1.238153E-002
4.100000E+008	7.259198E-002	-1.542768E-002	1.924575E-001	-2.970740E-002	1.926717E-001	-2.976104E-002	-1.097080E-001	1.266497E-002
4.200000E+008	7.240223E-002	-1.582291E-002	1.923619E-001	-3.039100E-002	1.925103E-001	-3.041428E-002	-1.094878E-001	1.298447E-002
4.300000E+008	7.224931E-002	-1.615717E-002	1.922184E-001	-3.108935E-002	1.923525E-001	-3.109185E-002	-1.092733E-001	1.335085E-002
4.400000E+008	7.210711E-002	-1.648226E-002	1.920586E-001	-3.176978E-002	1.921910E-001	-3.177070E-002	-1.090866E-001	1.374501E-002
4.500000E+008	7.195465E-002	-1.682996E-002	1.918938E-001	-3.245554E-002	1.920385E-001	-3.246255E-002	-1.089018E-001	1.416239E-002
4.600000E+008	7.181342E-002	-1.716409E-002	1.917078E-001	-3.315814E-002	1.918515E-001	-3.317566E-002	-1.087117E-001	1.458527E-002
4.700000E+008	7.161716E-002	-1.747855E-002	1.915330E-001	-3.380536E-002	1.916716E-001	-3.383236E-002	-1.085801E-001	1.494358E-002
4.800000E+008	7.141024E-002	-1.776754E-002	1.913563E-001	-3.446360E-002	1.914842E-001	-3.448119E-002	-1.084397E-001	1.529682E-002
4.900000E+008	7.118869E-002	-1.804746E-002	1.911957E-001	-3.514597E-002	1.912882E-001	-3.515316E-002	-1.083068E-001	1.565022E-002
5.000000E+008	7.097820E-002	-1.834068E-002	1.910168E-001	-3.580321E-002	1.911292E-001	-3.580594E-002	-1.081520E-001	1.598792E-002
5.100000E+008	7.078825E-002	-1.864847E-002	1.908339E-001	-3.646226E-002	1.909759E-001	-3.647790E-002	-1.079830E-001	1.631156E-002
5.200000E+008	7.055957E-002	-1.897169E-002	1.906514E-001	-3.715721E-002	1.908083E-001	-3.715505E-002	-1.078286E-001	1.663628E-002
5.300000E+008	7.033419E-002	-1.933051E-002	1.904818E-001	-3.782067E-002	1.906258E-001	-3.783908E-002	-1.075818E-001	1.695545E-002
5.400000E+008	7.010709E-002	-1.971219E-002	1.902636E-001	-3.848403E-002	1.904270E-001	-3.851214E-002	-1.073417E-001	1.726312E-002
5.500000E+008	6.986489E-002	-2.002508E-002	1.900921E-001	-3.914233E-002	1.902056E-001	-3.917028E-002	-1.071485E-001	1.763449E-002
5.600000E+008	6.964574E-002	-2.036382E-002	1.898792E-001	-3.978668E-002	1.900026E-001	-3.982763E-002	-1.069345E-001	1.799834E-002
5.700000E+008	6.944872E-002	-2.074380E-002	1.896849E-001	-4.044578E-002	1.898286E-001	-4.047444E-002	-1.067885E-001	1.841502E-002
5.800000E+008	6.924327E-002	-2.105951E-002	1.895010E-001	-4.109730E-002	1.896322E-001	-4.112977E-002	-1.066108E-001	1.880995E-002
5.900000E+008	6.905201E-002	-2.145455E-002	1.892803E-001	-4.177305E-002	1.894449E-001	-4.180690E-002	-1.064664E-001	1.924411E-002
6.000000E+008	6.891882E-002	-2.180201E-002	1.890808E-001	-4.242391E-002	1.892333E-001	-4.246674E-002	-1.062862E-001	1.961679E-002
6.100000E+008	6.876605E-002	-2.212125E-002	1.888943E-001	-4.307833E-002	1.889914E-001	-4.312510E-002	-1.061494E-001	2.000933E-002
6.200000E+008	6.862264E-002	-2.240793E-002	1.886677E-001	-4.370244E-002	1.887960E-001	-4.376081E-002	-1.059878E-001	2.037036E-002
6.300000E+008	6.849754E-002	-2.270246E-002	1.884618E-001	-4.434434E-002	1.885791E-001	-4.439858E-002	-1.058191E-001	2.073008E-002
6.400000E+008	6.838101E-002	-2.297759E-002	1.882345E-001	-4.499998E-002	1.883732E-001	-4.504883E-002	-1.056253E-001	2.111816E-002
6.500000E+008	6.824512E-002	-2.321153E-002	1.880346E-001	-4.563893E-002	1.881714E-001	-4.568974E-002	-1.054657E-001	2.152011E-002
6.600000E+008	6.806926E-002	-2.348766E-002	1.878427E-001	-4.627903E-002	1.879511E-001	-4.633276E-002	-1.052819E-001	2.188737E-002
6.700000E+008	6.784585E-002	-2.370989E-002	1.876395E-001	-4.692799E-002	1.877275E-001	-4.697875E-002	-1.051392E-001	2.230027E-002
6.800000E+008	6.762148E-002	-2.393953E-002	1.874029E-001	-4.755747E-002	1.875252E-001	-4.762726E-002	-1.049667E-001	2.274186E-002
6.900000E+008	6.739591E-002	-2.416247E-002	1.871651E-001	-4.821014E-002	1.872870E-001	-4.824974E-002	-1.048100E-001	2.315907E-002
7.000000E+008	6.716590E-002	-2.439971E-002	1.869584E-001	-4.883407E-002	1.870784E-001	-4.885341E-002	-1.046962E-001	2.359210E-002
7.100000E+008	6.694580E-002	-2.466019E-002	1.867354E-001	-4.945577E-002	1.868613E-001	-4.950468E-002	-1.045982E-001	2.397704E-002
7.200000E+008	6.670677E-002	-2.492666E-002	1.865135E-001	-5.008525E-002	1.866505E-001	-5.013393E-002	-1.044895E-001	2.435685E-002
7.300000E+008	6.646741E-002	-2.520537E-002	1.862843E-001	-5.072498E-002	1.864235E-001	-5.078641E-002	-1.043881E-001	2.470170E-002
7.400000E+008	6.622178E-002	-2.546384E-002	1.860534E-001	-5.135834E-002	1.862008E-001	-5.141704E-002	-1.042962E-001	2.505024E-002
7.500000E+008	6.600454E-002	-2.574293E-002	1.858241E-001	-5.197620E-002	1.859634E-001	-5.205090E-002	-1.042055E-001	2.538729E-002
7.600000E+008	6.578947E-002	-2.602490E-002	1.855875E-001	-5.262758E-002	1.857375E-001	-5.267713E-002	-1.040754E-001	2.570728E-002
7.700000E+008	6.557255E-002	-2.631738E-002	1.853552E-001	-5.323403E-002	1.855112E-001	-5.329038E-002	-1.039292E-001	2.599902E-002
7.800000E+008	6.534268E-002	-2.660301E-002	1.851462E-001	-5.386592E-002	1.852954E-001	-5.392326E-002	-1.037926E-001	2.630907E-002
7.900000E+008	6.511900E-002	-2.691928E-002	1.849072E-001	-5.449733E-002	1.850511E-001	-5.455301E-002	-1.036445E-001	2.664022E-002
8.000000E+008	6.491405E-002	-2.721907E-002	1.846652E-001	-5.510177E-002	1.847879E-001	-5.517903E-002	-1.034371E-001	2.697933E-002
8.100000E+008	6.472078E-002	-2.752876E-002	1.844043E-001	-5.571240E-002	1.845424E-001	-5.579367E-002	-1.032161E-001	2.735066E-002
8.200000E+008	6.455214E-002	-2.780931E-002	1.841652E-001	-5.635611E-002	1.842901E-001	-5.640385E-002	-1.030321E-001	2.769481E-002
8.300000E+008	6.439828E-002	-2.809395E-002	1.839258E-001	-5.695776E-002	1.840672E-001	-5.702335E-002	-1.028614E-001	2.807150E-002
8.400000E+008	6.425381E-002	-2.834693E-002	1.836655E-001	-5.756943E-002	1.838211E-001	-5.763630E-002	-1.026618E-001	2.842301E-002
8.500000E+008	6.410588E-002	-2.859679E-002	1.834484E-001	-5.819472E-002	1.835721E-001	-5.826890E-002	-1.025428E-001	2.879169E-002
8.600000E+008	6.393567E-002	-2.881862E-002	1.831808E-001	-5.880809E-002	1.833071E-001	-5.887283E-002	-1.024012E-001	2.916769E-002
8.700000E+008	6.377397E-002	-2.903834E-002	1.829461E-001	-5.941341E-002	1.830506E-001	-5.950287E-002	-1.022627E-001	2.950908E-002
8.800000E+008	6.360034E-002	-2.921525E-002	1.826984E-001	-6.005239E-002	1.828249E-001	-6.009637E-002	-1.021260E-001	2.986303E-002
8.900000E+008	6.336714E-002	-2.941086E-002	1.824385E-001	-6.065673E-002	1.825634E-001	-6.071564E-002	-1.019928E-001	3.018643E-002
9.000000E+008	6.315965E-002	-2.962800E-002	1.821577E-001	-6.125866E-002	1.823212E-001	-6.132575E-002	-1.018259E-001	3.051311E-002
9.100000E+008	6.291943E-002	-2.983438E-002	1.819165E-001	-6.186385E-002	1.820677E-001	-6.193733E-002	-1.016247E-001	3.082106E-002
9.200000E+008	6.268001E-002	-3.007315E-002	1.816543E-001	-6.247936E-002	1.818036E-001	-6.254485E-002	-1.013754E-001	3.114212E-002
9.300000E+008	6.245531E-002	-3.031883E-002	1.813961E-001	-6.305552E-002	1.815330E-001	-6.316171E-002	-1.011319E-001	3.149288E-002
9.400000E+008	6.227664E-002	-3.056370E-002	1.811516E-001	-6.366704E-002	1.812876E-001	-6.375063E-002	-1.008669E-001	3.185155E-002
9.500000E+008	6.209731E-002	-3.080685E-002	1.808927E-001	-6.428459E-002	1.810162E-001	-6.437647E-002	-1.005752E-001	3.227123E-002
9.600000E+008	6.189829E-002	-3.103867E-002	1.806043E-001	-6.487440E-002	1.807390E-001	-6.494324E-002	-1.002737E-001	3.264031E-002
9.700000E+008	6.174346E-002	-3.125122E-002	1.803382E-001	-6.547438E-002	1.804992E-001	-6.556072E-002	-9.999849E-002	3.306629E-002
9.800000E+008	6.158578E-002	-3.143333E-002	1.800989E-001	-6.605974E-002	1.802262E-001	-6.617406E-002	-9.973443E-002	3.350393E-002
9.900000E+008	6.143904E-002	-3.162826E-002	1.798335E-001	-6.666840E-002	1.799497E-001	-6.677724E-002	-9.950335E-002	3.395758E-002
1.000000E+009	6.125334E-002	-3.180119E-002	1.795697E-001	-6.727200E-002	1.796903E-001	-6.737117E-002	-9.932387E-002	3.437458E-002
1.010000E+009	6.104988E-002	-3.191936E-002	1.792947E-001	-6.787825E-002	1.794229E-001	-6.795720E-002	-9.911758E-002	3.483969E-002
1.020000E+009	6.086311E-002	-3.209762E-002	1.790252E-001	-6.848052E-002	1.791341E-001	-6.856017E-002	-9.896405E-002	3.526552E-002
1.030000E+009	6.064117E-002	-3.224538E-002	1.787157E-001	-6.906067E-002	1.788577E-001	-6.914854E-002	-9.878554E-002	3.569767E-002
1.040000E+009	6.042404E-002	-3.239569E-002	1.784304E-001	-6.964747E-002	1.785919E-001	-6.973565E-002	-9.859934E-002	3.610489E-002
1.050000E+009	6.020700E-002	-3.258287E-002	1.781712E-001	-7.023450E-002	1.783009E-001	-7.033132E-002	-9.838778E-002	3.654744E-002
1.060000E+009	6.000372E-002	-3.274430E-002	1.778894E-001	-7.083793E-002	1.780290E-001	-7.090396E-002	-9.816416E-002	3.695032E-002
1.070000E+009	5.977633E-002	-3.294823E-002	1.775917E-001	-7.143676E-002	1.777536E-001	-7.148210E-002	-9.796001E-002	3.737295E-002
1.080000E+009	5.956355E-002	-3.313685E-002	1.773220E-001	-7.200949E-002	1.774805E-001	-7.208794E-002	-9.771326E-002	3.780070E-002
1.090000E+009	5.936872E-002	-3.332775E-002	1.770427E-001	-7.261085E-002	1.771873E-001	-7.267558E-002	-9.750967E-002	3.820477E-002
1.100000E+009	5.918464E-002	-3.348724E-002	1.767204E-001	-7.321482E-002	1.768840E-001	-7.326484E-002	-9.728980E-002	3.864761E-002
1.110000E+009	5.899719E-002	-3.365454E-002	1.764589E-001	-7.378179E-002	1.766111E-001	-7.384942E-002	-9.709466E-002	3.906261E-002
1.120000E+009	5.874805E-002	-3.382967E-002	1.761698E-001	-7.436777E-002	1.763125E-001	-7.445592E-002	-9.694428E-002	3.946580E-002
1.130000E+009	5.855371E-002	-3.399171E-002	1.758774E-001	-7.494733E-002	1.760294E-001	-7.502951E-002	-9.675852E-002	3.988211E-002
1.140000E+009	5.831230E-002	-3.415775E-002	1.755834E-001	-7.555824E-002	1.757281E-001	-7.561394E-002	-9.657893E-002	4.032660E-002
1.150000E+009	5.809760E-002	-3.432188E-002	1.752856E-001	-7.612686E-002	1.754085E-001	-7.620610E-002	-9.637359E-002	4.072948E-002
1.160000E+009	5.787898E-002	-3.448049E-002	1.749838E-001	-7.670473E-002	1.751110E-001	-7.678779E-002	-9.619197E-002	4.112178E-002
1.170000E+009	5.765409E-002	-3.465796E-002	1.746770E-001	-7.728839E-002	1.748201E-001	-7.735208E-002	-9.594895E-002	4.156277E-002
1.180000E+009	5.745273E-002	-3.483395E-002	1.743610E-001	-7.787206E-002	1.745277E-001	-7.794687E-002	-9.569521E-002	4.196793E-002
1.190000E+009	5.720850E-002	-3.500209E-002	1.740458E-001	-7.846074E-002	1.741810E-001	-7.853927E-002	-9.547960E-002	4.241433E-002
1.200000E+009	5.699343E-002	-3.516812E-002	1.737675E-001	-7.903114E-002	1.738785E-001	-7.908711E-002	-9.522050E-002	4.285979E-002
1.210000E+009	5.680881E-002	-3.537895E-002	1.734236E-001	-7.960868E-002	1.735572E-001	-7.968029E-002	-9.499756E-002	4.331603E-002
1.220000E+009	5.658817E-002	-3.559094E-002	1.731251E-001	-8.017329E-002	1.732800E-001	-8.023732E-002	-9.480517E-002	4.376336E-002
1.230000E+009	5.639004E-002	-3.573170E-002	1.728098E-001	-8.075667E-002	1.729453E-001	-8.082624E-002	-9.462063E-002	4.416178E-002
1.240000E+009	5.619746E-002	-3.594724E-002	1.724764E-001	-8.130028E-002	1.726420E-001	-8.136765E-002	-9.442971E-002	4.457171E-002
1.250000E+009	5.601830E-002	-3.613912E-002	1.721781E-001	-8.188878E-002	1.723376E-001	-8.193808E-002	-9.427368E-002	4.498181E-002
1.260000E+009	5.578684E-002	-3.629626E-002	1.718520E-001	-8.246900E-002	1.719866E-001	-8.253284E-002	-9.405034E-002	4.534760E-002
1.270000E+009	5.566171E-002	-3.648064E-002	1.715487E-001	-8.303923E-002	1.716718E-001	-8.309848E-002	-9.382940E-002	4.569471E-002
1.280000E+009	5.545624E-002	-3.664197E-002	1.712186E-001	-8.360436E-002	1.713642E-001	-8.366691E-002	-9.360477E-002	4.604091E-002
1.290000E+009	5.529892E-002	-3.678491E-002	1.709047E-001	-8.418076E-002	1.710259E-001	-8.423676E-002	-9.330822E-002	4.638636E-002
1.300000E+009	5.514230E-002	-3.688014E-002	1.705490E-001	-8.471653E-002	1.707182E-001	-8.480764E-002	-9.300332E-002	4.677498E-002
1.310000E+009	5.494368E-002	-3.703654E-002	1.702044E-001	-8.530745E-002	1.703779E-001	-8.537694E-002	-9.268395E-002	4.716032E-002
1.320000E+009	5.474879E-002	-3.715265E-002	1.699001E-001	-8.588560E-002	1.700443E-001	-8.594103E-002	-9.233004E-002	4.762220E-002
1.330000E+009	5.455720E-002	-3.725367E-002	1.695580E-001	-8.645452E-002	1.696989E-001	-8.651741E-002	-9.195015E-002	4.809051E-002
1.340000E+009	5.434707E-002	-3.736400E-002	1.692029E-001	-8.697601E-002	1.693656E-001	-8.706043E-002	-9.159873E-002	4.861603E-002
1.350000E+009	5.411155E-002	-3.746065E-002	1.688928E-001	-8.755957E-002	1.690013E-001	-8.764837E-002	-9.127668E-002	4.914488E-002
1.360000E+009	5.392626E-002	-3.757179E-002	1.685213E-001	-8.809032E-002	1.686650E-001	-8.818193E-002	-9.094574E-002	4.972709E-002
1.370000E+009	5.371354E-002	-3.767060E-002	1.681858E-001	-8.866195E-002	1.683340E-001	-8.873929E-002	-9.066789E-002	5.028555E-002
1.380000E+009	5.349854E-002	-3.780455E-002	1.678354E-001	-8.922389E-002	1.679611E-001	-8.929110E-002	-9.041846E-002	5.082488E-002
1.390000E+009	5.331515E-002	-3.794094E-002	1.674760E-001	-8.977876E-002	1.676152E-001	-8.986241E-002	-9.021171E-002	5.139477E-002
1.400000E+009	5.307196E-002	-3.806028E-002	1.671219E-001	-9.031989E-002	1.672683E-001	-9.040088E-002	-8.996478E-002	5.191535E-002
1.410000E+009	5.284981E-002	-3.817063E-002	1.667669E-001	-9.086879E-002	1.669087E-001	-9.094374E-002	-8.972106E-002	5.245226E-002
1.420000E+009	5.263682E-002	-3.826001E-002	1.663989E-001	-9.139842E-002	1.665577E-001	-9.149963E-002	-8.949757E-002	5.293028E-002
1.430000E+009	5.243308E-002	-3.837606E-002	1.660584E-001	-9.196848E-002	1.662371E-001	-9.204854E-002	-8.925625E-002	5.343238E-002
1.440000E+009	5.222759E-002	-3.850367E-002	1.656777E-001	-9.250005E-002	1.658475E-001	-9.257435E-002	-8.899009E-002	5.387443E-002
1.450000E+009	5.197190E-002	-3.858353E-002	1.653285E-001	-9.302859E-002	1.654784E-001	-9.312134E-002	-8.871204E-002	5.437931E-002
1.460000E+009	5.173722E-002	-3.869523E-002	1.649594E-001	-9.360379E-002	1.650971E-001	-9.367925E-002	-8.842542E-002	5.489109E-002
1.470000E+009	5.151615E-002	-3.880301E-002	1.645908E-001	-9.413696E-002	1.647500E-001	-9.421505E-002	-8.813867E-002	5.540346E-002
1.480000E+009	5.128237E-002	-3.888666E-002	1.641973E-001	-9.465231E-002	1.643599E-001	-9.472541E-002	-8.783751E-002	5.595029E-002
1.490000E+009	5.106047E-002	-3.899661E-002	1.638480E-001	-9.519766E-002	1.640146E-001	-9.526572E-002	-8.751619E-002	5.650496E-002
1.500000E+009	5.084014E-002	-3.912660E-002	1.634934E-001	-9.570788E-002	1.636272E-001	-9.579460E-002	-8.720682E-002	5.707794E-002
