! Device ID: PE43711P
! File Path: z:\PE43711P\CHAR_NOM_04282014\AMB\3p300\LS_ATT_24p50dB\PE43711P_AMB_3p300V_3p000V_0p000V_LS_ATT_24p50dB_S2P_SN_5_A0137A.s2p
! Serial: 5
! Lot: A0137A
! Temp: 25C
! VDD: 3.300
! VSS: 0.000
! Control_Hi: 3.000
! Control_Lo: 0.000
! Attenuation Step: 24.50dB
! Port 1: RF1
! Port 2: RF2
! ThroughPath:1-2
! IDD: 0.000127189
! ISS: -1.146e-007
!

#  Hz  S   RI  R   50

1.000000E+007	4.246572E-002	3.232845E-004	5.164193E-002	-2.145149E-004	5.169911E-002	-2.349106E-004	-1.115603E-001	9.172615E-004
2.000000E+007	4.269071E-002	3.641539E-004	5.163874E-002	-3.241815E-004	5.166634E-002	-3.407889E-004	-1.112336E-001	1.457054E-003
3.000000E+007	4.295744E-002	3.630115E-004	5.163116E-002	-5.010786E-004	5.166486E-002	-5.043716E-004	-1.109446E-001	1.932140E-003
4.000000E+007	4.311840E-002	3.519236E-004	5.163064E-002	-6.675534E-004	5.166496E-002	-6.705801E-004	-1.107717E-001	2.477147E-003
5.000000E+007	4.322032E-002	3.331067E-004	5.162980E-002	-8.519967E-004	5.167131E-002	-8.440316E-004	-1.107131E-001	3.025228E-003
6.000000E+007	4.337908E-002	2.477632E-004	5.160469E-002	-1.026072E-003	5.165861E-002	-1.020381E-003	-1.105836E-001	3.461100E-003
7.000000E+007	4.350759E-002	1.644769E-004	5.160350E-002	-1.183494E-003	5.165126E-002	-1.192646E-003	-1.103994E-001	3.887502E-003
8.000000E+007	4.363329E-002	8.619324E-005	5.160716E-002	-1.337127E-003	5.164053E-002	-1.353187E-003	-1.102473E-001	4.279196E-003
9.000000E+007	4.374663E-002	1.106344E-006	5.159794E-002	-1.512060E-003	5.164239E-002	-1.504739E-003	-1.101211E-001	4.656379E-003
1.000000E+008	4.386799E-002	-7.734513E-005	5.158758E-002	-1.664620E-003	5.163116E-002	-1.669959E-003	-1.100577E-001	5.021753E-003
1.100000E+008	4.397621E-002	-1.871939E-004	5.157592E-002	-1.843549E-003	5.161845E-002	-1.840198E-003	-1.099528E-001	5.367242E-003
1.200000E+008	4.410534E-002	-3.190885E-004	5.155897E-002	-2.005020E-003	5.160783E-002	-2.018413E-003	-1.098696E-001	5.668537E-003
1.300000E+008	4.420781E-002	-4.229963E-004	5.155326E-002	-2.173323E-003	5.159481E-002	-2.172855E-003	-1.097495E-001	5.986259E-003
1.400000E+008	4.429533E-002	-4.902887E-004	5.152551E-002	-2.332983E-003	5.156851E-002	-2.335552E-003	-1.096217E-001	6.304009E-003
1.500000E+008	4.431893E-002	-5.537623E-004	5.151486E-002	-2.484052E-003	5.155395E-002	-2.488056E-003	-1.095302E-001	6.609725E-003
1.600000E+008	4.436764E-002	-5.867678E-004	5.151673E-002	-2.646018E-003	5.154213E-002	-2.654945E-003	-1.094474E-001	6.920367E-003
1.700000E+008	4.445142E-002	-6.693536E-004	5.150142E-002	-2.818697E-003	5.154455E-002	-2.803851E-003	-1.093731E-001	7.246168E-003
1.800000E+008	4.446341E-002	-7.403261E-004	5.147073E-002	-2.992688E-003	5.152890E-002	-2.999481E-003	-1.092671E-001	7.548735E-003
1.900000E+008	4.442818E-002	-8.576414E-004	5.143147E-002	-3.158388E-003	5.150078E-002	-3.163276E-003	-1.092106E-001	7.795702E-003
2.000000E+008	4.436919E-002	-9.846493E-004	5.142584E-002	-3.327273E-003	5.148136E-002	-3.305448E-003	-1.091437E-001	7.997985E-003
2.100000E+008	4.432337E-002	-1.167205E-003	5.139715E-002	-3.465165E-003	5.144473E-002	-3.470285E-003	-1.090614E-001	8.197019E-003
2.200000E+008	4.429455E-002	-1.318880E-003	5.140184E-002	-3.628419E-003	5.143372E-002	-3.624751E-003	-1.089467E-001	8.363653E-003
2.300000E+008	4.428410E-002	-1.488577E-003	5.137142E-002	-3.782794E-003	5.140567E-002	-3.783214E-003	-1.088067E-001	8.543971E-003
2.400000E+008	4.431695E-002	-1.655964E-003	5.134850E-002	-3.951674E-003	5.138798E-002	-3.946953E-003	-1.086504E-001	8.761979E-003
2.500000E+008	4.432766E-002	-1.795215E-003	5.133076E-002	-4.104404E-003	5.137517E-002	-4.102730E-003	-1.084370E-001	8.981284E-003
2.600000E+008	4.439139E-002	-1.940607E-003	5.130456E-002	-4.267588E-003	5.134522E-002	-4.257310E-003	-1.082047E-001	9.249821E-003
2.700000E+008	4.442290E-002	-2.080571E-003	5.127277E-002	-4.429280E-003	5.132139E-002	-4.423644E-003	-1.079647E-001	9.538734E-003
2.800000E+008	4.450637E-002	-2.181397E-003	5.124509E-002	-4.564929E-003	5.129088E-002	-4.587975E-003	-1.077446E-001	9.858009E-003
2.900000E+008	4.452118E-002	-2.269821E-003	5.122741E-002	-4.739012E-003	5.126909E-002	-4.727824E-003	-1.075949E-001	1.015042E-002
3.000000E+008	4.454163E-002	-2.324366E-003	5.120828E-002	-4.907452E-003	5.125117E-002	-4.881874E-003	-1.074486E-001	1.050227E-002
3.100000E+008	4.451967E-002	-2.392108E-003	5.117969E-002	-5.049499E-003	5.122785E-002	-5.043156E-003	-1.073211E-001	1.084858E-002
3.200000E+008	4.451830E-002	-2.414181E-003	5.115645E-002	-5.223039E-003	5.119577E-002	-5.213855E-003	-1.072232E-001	1.116904E-002
3.300000E+008	4.444272E-002	-2.465741E-003	5.113108E-002	-5.367146E-003	5.116593E-002	-5.380564E-003	-1.071271E-001	1.146956E-002
3.400000E+008	4.435838E-002	-2.536661E-003	5.110219E-002	-5.526767E-003	5.113839E-002	-5.543740E-003	-1.069871E-001	1.173832E-002
3.500000E+008	4.425529E-002	-2.637946E-003	5.107206E-002	-5.696393E-003	5.108749E-002	-5.698755E-003	-1.068353E-001	1.196416E-002
3.600000E+008	4.416832E-002	-2.714968E-003	5.102620E-002	-5.849519E-003	5.104465E-002	-5.838068E-003	-1.066560E-001	1.221471E-002
3.700000E+008	4.407898E-002	-2.833418E-003	5.100557E-002	-6.004079E-003	5.102658E-002	-5.977299E-003	-1.064526E-001	1.242712E-002
3.800000E+008	4.401072E-002	-2.966690E-003	5.097730E-002	-6.167776E-003	5.101293E-002	-6.130056E-003	-1.062411E-001	1.268139E-002
3.900000E+008	4.393046E-002	-3.101428E-003	5.092595E-002	-6.310075E-003	5.098303E-002	-6.294236E-003	-1.059578E-001	1.298786E-002
4.000000E+008	4.390323E-002	-3.262042E-003	5.089588E-002	-6.458535E-003	5.093871E-002	-6.442932E-003	-1.056406E-001	1.327458E-002
4.100000E+008	4.383940E-002	-3.410166E-003	5.086851E-002	-6.600898E-003	5.090936E-002	-6.597814E-003	-1.053475E-001	1.356097E-002
4.200000E+008	4.380330E-002	-3.556934E-003	5.083885E-002	-6.739375E-003	5.087270E-002	-6.744143E-003	-1.051213E-001	1.391971E-002
4.300000E+008	4.377021E-002	-3.676249E-003	5.082078E-002	-6.896702E-003	5.085966E-002	-6.909428E-003	-1.049230E-001	1.429561E-002
4.400000E+008	4.375514E-002	-3.762517E-003	5.077650E-002	-7.065957E-003	5.081833E-002	-7.054682E-003	-1.047095E-001	1.471741E-002
4.500000E+008	4.373888E-002	-3.879024E-003	5.074926E-002	-7.210762E-003	5.079325E-002	-7.205435E-003	-1.045270E-001	1.515603E-002
4.600000E+008	4.371971E-002	-3.967642E-003	5.070894E-002	-7.374957E-003	5.074807E-002	-7.370510E-003	-1.042964E-001	1.556737E-002
4.700000E+008	4.367665E-002	-4.078441E-003	5.067494E-002	-7.526607E-003	5.071443E-002	-7.533865E-003	-1.041453E-001	1.594304E-002
4.800000E+008	4.361334E-002	-4.132321E-003	5.065000E-002	-7.662317E-003	5.067778E-002	-7.663732E-003	-1.039912E-001	1.630752E-002
4.900000E+008	4.354507E-002	-4.192308E-003	5.060044E-002	-7.816379E-003	5.062914E-002	-7.819465E-003	-1.038278E-001	1.668808E-002
5.000000E+008	4.347452E-002	-4.259014E-003	5.058743E-002	-7.959152E-003	5.060271E-002	-7.963276E-003	-1.036643E-001	1.701884E-002
5.100000E+008	4.341673E-002	-4.337224E-003	5.055179E-002	-8.113999E-003	5.057043E-002	-8.102651E-003	-1.034931E-001	1.736628E-002
5.200000E+008	4.334013E-002	-4.431136E-003	5.050048E-002	-8.265172E-003	5.054113E-002	-8.266936E-003	-1.032920E-001	1.771761E-002
5.300000E+008	4.323339E-002	-4.541595E-003	5.046300E-002	-8.424176E-003	5.048495E-002	-8.414438E-003	-1.030651E-001	1.807401E-002
5.400000E+008	4.313198E-002	-4.702070E-003	5.042183E-002	-8.569878E-003	5.046957E-002	-8.582714E-003	-1.028179E-001	1.840614E-002
5.500000E+008	4.305269E-002	-4.819074E-003	5.038055E-002	-8.715987E-003	5.043131E-002	-8.716112E-003	-1.026214E-001	1.877780E-002
5.600000E+008	4.296141E-002	-4.963677E-003	5.034047E-002	-8.863266E-003	5.037521E-002	-8.859520E-003	-1.023867E-001	1.915080E-002
5.700000E+008	4.290661E-002	-5.123420E-003	5.030049E-002	-9.007406E-003	5.034204E-002	-9.005025E-003	-1.022125E-001	1.956905E-002
5.800000E+008	4.286047E-002	-5.275658E-003	5.027279E-002	-9.145106E-003	5.030938E-002	-9.150102E-003	-1.020310E-001	1.999225E-002
5.900000E+008	4.282411E-002	-5.437433E-003	5.023064E-002	-9.305273E-003	5.026090E-002	-9.315308E-003	-1.018313E-001	2.042396E-002
6.000000E+008	4.281860E-002	-5.583319E-003	5.018043E-002	-9.466933E-003	5.021729E-002	-9.469423E-003	-1.016140E-001	2.082262E-002
6.100000E+008	4.282908E-002	-5.713387E-003	5.015450E-002	-9.604875E-003	5.017939E-002	-9.607407E-003	-1.014580E-001	2.123261E-002
6.200000E+008	4.284359E-002	-5.802039E-003	5.010095E-002	-9.735263E-003	5.013548E-002	-9.754022E-003	-1.012769E-001	2.162392E-002
6.300000E+008	4.286543E-002	-5.872466E-003	5.005316E-002	-9.887336E-003	5.009507E-002	-9.899148E-003	-1.010955E-001	2.201548E-002
6.400000E+008	4.287216E-002	-5.941027E-003	5.001784E-002	-1.003543E-002	5.005030E-002	-1.003457E-002	-1.008983E-001	2.240083E-002
6.500000E+008	4.287090E-002	-5.990895E-003	4.996647E-002	-1.017993E-002	5.001673E-002	-1.017608E-002	-1.007332E-001	2.280542E-002
6.600000E+008	4.284991E-002	-6.074306E-003	4.993378E-002	-1.031878E-002	4.996491E-002	-1.033374E-002	-1.005243E-001	2.319402E-002
6.700000E+008	4.278780E-002	-6.105752E-003	4.989701E-002	-1.046609E-002	4.991992E-002	-1.046567E-002	-1.003487E-001	2.360829E-002
6.800000E+008	4.272471E-002	-6.156656E-003	4.984474E-002	-1.061638E-002	4.988208E-002	-1.062355E-002	-1.001566E-001	2.404341E-002
6.900000E+008	4.265323E-002	-6.193796E-003	4.980455E-002	-1.077598E-002	4.983641E-002	-1.076717E-002	-9.998023E-002	2.447135E-002
7.000000E+008	4.258172E-002	-6.240756E-003	4.976520E-002	-1.090544E-002	4.978059E-002	-1.089372E-002	-9.982135E-002	2.489949E-002
7.100000E+008	4.252082E-002	-6.323380E-003	4.970022E-002	-1.103083E-002	4.974844E-002	-1.105155E-002	-9.969652E-002	2.531369E-002
7.200000E+008	4.244300E-002	-6.384905E-003	4.966487E-002	-1.118063E-002	4.970396E-002	-1.118585E-002	-9.956101E-002	2.571065E-002
7.300000E+008	4.236886E-002	-6.478238E-003	4.962181E-002	-1.131268E-002	4.967148E-002	-1.132997E-002	-9.944877E-002	2.609398E-002
7.400000E+008	4.227953E-002	-6.548881E-003	4.958302E-002	-1.146498E-002	4.962980E-002	-1.147585E-002	-9.934060E-002	2.646582E-002
7.500000E+008	4.219039E-002	-6.656088E-003	4.954168E-002	-1.160595E-002	4.956444E-002	-1.162004E-002	-9.923485E-002	2.681568E-002
7.600000E+008	4.212109E-002	-6.746087E-003	4.948875E-002	-1.175291E-002	4.952407E-002	-1.175718E-002	-9.909970E-002	2.714949E-002
7.700000E+008	4.205217E-002	-6.875613E-003	4.943682E-002	-1.188852E-002	4.947794E-002	-1.190294E-002	-9.894282E-002	2.745893E-002
7.800000E+008	4.198533E-002	-6.978432E-003	4.938900E-002	-1.204221E-002	4.942066E-002	-1.205532E-002	-9.876028E-002	2.776980E-002
7.900000E+008	4.193762E-002	-7.118578E-003	4.933675E-002	-1.218323E-002	4.939187E-002	-1.219096E-002	-9.858828E-002	2.810260E-002
8.000000E+008	4.188962E-002	-7.257017E-003	4.928431E-002	-1.232245E-002	4.933126E-002	-1.233547E-002	-9.836099E-002	2.845046E-002
8.100000E+008	4.186759E-002	-7.407644E-003	4.924723E-002	-1.246361E-002	4.927517E-002	-1.247096E-002	-9.809992E-002	2.881155E-002
8.200000E+008	4.188286E-002	-7.501176E-003	4.920867E-002	-1.258581E-002	4.923681E-002	-1.259320E-002	-9.786252E-002	2.917691E-002
8.300000E+008	4.187319E-002	-7.616413E-003	4.914297E-002	-1.273365E-002	4.919750E-002	-1.275021E-002	-9.765403E-002	2.955123E-002
8.400000E+008	4.190031E-002	-7.713802E-003	4.909471E-002	-1.287173E-002	4.912640E-002	-1.288078E-002	-9.745740E-002	2.992756E-002
8.500000E+008	4.190532E-002	-7.781906E-003	4.905655E-002	-1.301638E-002	4.908708E-002	-1.302613E-002	-9.729304E-002	3.033800E-002
8.600000E+008	4.189828E-002	-7.828524E-003	4.900106E-002	-1.315705E-002	4.902799E-002	-1.316157E-002	-9.713239E-002	3.068967E-002
8.700000E+008	4.188882E-002	-7.846385E-003	4.895964E-002	-1.328881E-002	4.899094E-002	-1.330650E-002	-9.697512E-002	3.105881E-002
8.800000E+008	4.187976E-002	-7.872080E-003	4.890499E-002	-1.343022E-002	4.894287E-002	-1.343840E-002	-9.681936E-002	3.141062E-002
8.900000E+008	4.180914E-002	-7.931537E-003	4.885613E-002	-1.356490E-002	4.889053E-002	-1.356997E-002	-9.666830E-002	3.174254E-002
9.000000E+008	4.175916E-002	-7.993432E-003	4.880507E-002	-1.371428E-002	4.882925E-002	-1.371409E-002	-9.646126E-002	3.206163E-002
9.100000E+008	4.168521E-002	-8.045574E-003	4.874401E-002	-1.384830E-002	4.879407E-002	-1.385978E-002	-9.624078E-002	3.236059E-002
9.200000E+008	4.160972E-002	-8.133611E-003	4.870493E-002	-1.398043E-002	4.873993E-002	-1.398954E-002	-9.597741E-002	3.270104E-002
9.300000E+008	4.158165E-002	-8.223493E-003	4.864253E-002	-1.412679E-002	4.867748E-002	-1.413556E-002	-9.570419E-002	3.302321E-002
9.400000E+008	4.157140E-002	-8.325695E-003	4.858374E-002	-1.424444E-002	4.863283E-002	-1.425502E-002	-9.537011E-002	3.340167E-002
9.500000E+008	4.155281E-002	-8.426671E-003	4.853103E-002	-1.438098E-002	4.857004E-002	-1.441190E-002	-9.506543E-002	3.382879E-002
9.600000E+008	4.152879E-002	-8.484843E-003	4.849081E-002	-1.452946E-002	4.852506E-002	-1.452961E-002	-9.473212E-002	3.422849E-002
9.700000E+008	4.154203E-002	-8.534744E-003	4.842190E-002	-1.466053E-002	4.848502E-002	-1.467818E-002	-9.445014E-002	3.465747E-002
9.800000E+008	4.153352E-002	-8.580186E-003	4.837547E-002	-1.480343E-002	4.841122E-002	-1.480554E-002	-9.416706E-002	3.510706E-002
9.900000E+008	4.154192E-002	-8.623260E-003	4.832995E-002	-1.492236E-002	4.835673E-002	-1.496096E-002	-9.390984E-002	3.556960E-002
1.000000E+009	4.152421E-002	-8.656633E-003	4.827536E-002	-1.506217E-002	4.831924E-002	-1.508086E-002	-9.369795E-002	3.599064E-002
1.010000E+009	4.149097E-002	-8.647436E-003	4.823108E-002	-1.521248E-002	4.827362E-002	-1.522895E-002	-9.347011E-002	3.642077E-002
1.020000E+009	4.145602E-002	-8.674057E-003	4.816821E-002	-1.534762E-002	4.819648E-002	-1.536394E-002	-9.327733E-002	3.685960E-002
1.030000E+009	4.141122E-002	-8.702635E-003	4.810221E-002	-1.547033E-002	4.815111E-002	-1.549347E-002	-9.307447E-002	3.725862E-002
1.040000E+009	4.137073E-002	-8.723007E-003	4.805448E-002	-1.560272E-002	4.809771E-002	-1.562808E-002	-9.285769E-002	3.768321E-002
1.050000E+009	4.132704E-002	-8.760287E-003	4.801339E-002	-1.575276E-002	4.803738E-002	-1.576333E-002	-9.261121E-002	3.813154E-002
1.060000E+009	4.129019E-002	-8.798422E-003	4.795970E-002	-1.588316E-002	4.797991E-002	-1.589023E-002	-9.236733E-002	3.854716E-002
1.070000E+009	4.122618E-002	-8.844977E-003	4.789935E-002	-1.601137E-002	4.793180E-002	-1.602167E-002	-9.210259E-002	3.895820E-002
1.080000E+009	4.118053E-002	-8.880978E-003	4.784409E-002	-1.614800E-002	4.788371E-002	-1.615141E-002	-9.182999E-002	3.940670E-002
1.090000E+009	4.115386E-002	-8.932896E-003	4.778317E-002	-1.628394E-002	4.782181E-002	-1.629049E-002	-9.159425E-002	3.983650E-002
1.100000E+009	4.111873E-002	-8.962251E-003	4.771518E-002	-1.642798E-002	4.776130E-002	-1.643285E-002	-9.139937E-002	4.027576E-002
1.110000E+009	4.106517E-002	-8.989400E-003	4.767046E-002	-1.655957E-002	4.771424E-002	-1.656088E-002	-9.115427E-002	4.071589E-002
1.120000E+009	4.100080E-002	-9.050401E-003	4.762127E-002	-1.668634E-002	4.765453E-002	-1.669781E-002	-9.101182E-002	4.110971E-002
1.130000E+009	4.095676E-002	-9.074272E-003	4.756614E-002	-1.683172E-002	4.759791E-002	-1.683306E-002	-9.079033E-002	4.148806E-002
1.140000E+009	4.088248E-002	-9.134421E-003	4.750656E-002	-1.696446E-002	4.750996E-002	-1.697109E-002	-9.058206E-002	4.190961E-002
1.150000E+009	4.086848E-002	-9.172267E-003	4.743473E-002	-1.708457E-002	4.747602E-002	-1.710683E-002	-9.031168E-002	4.231068E-002
1.160000E+009	4.081104E-002	-9.207194E-003	4.737649E-002	-1.723511E-002	4.741279E-002	-1.724007E-002	-9.009734E-002	4.270074E-002
1.170000E+009	4.077472E-002	-9.254884E-003	4.732280E-002	-1.736781E-002	4.735545E-002	-1.737051E-002	-8.983397E-002	4.314900E-002
1.180000E+009	4.071672E-002	-9.282977E-003	4.724713E-002	-1.750716E-002	4.730305E-002	-1.749464E-002	-8.953214E-002	4.355845E-002
1.190000E+009	4.066344E-002	-9.320193E-003	4.717446E-002	-1.762392E-002	4.723523E-002	-1.764869E-002	-8.928496E-002	4.401282E-002
1.200000E+009	4.060184E-002	-9.358598E-003	4.713611E-002	-1.774819E-002	4.716989E-002	-1.777041E-002	-8.898775E-002	4.447611E-002
1.210000E+009	4.058086E-002	-9.429353E-003	4.707516E-002	-1.790643E-002	4.710921E-002	-1.789219E-002	-8.875597E-002	4.493428E-002
1.220000E+009	4.053961E-002	-9.508331E-003	4.699084E-002	-1.801674E-002	4.704174E-002	-1.802213E-002	-8.855213E-002	4.538017E-002
1.230000E+009	4.047293E-002	-9.571722E-003	4.694088E-002	-1.815855E-002	4.698645E-002	-1.817184E-002	-8.832324E-002	4.578400E-002
1.240000E+009	4.046529E-002	-9.638624E-003	4.687980E-002	-1.827955E-002	4.692542E-002	-1.829319E-002	-8.812908E-002	4.617792E-002
1.250000E+009	4.045054E-002	-9.732598E-003	4.682610E-002	-1.842188E-002	4.686349E-002	-1.842280E-002	-8.791641E-002	4.655705E-002
1.260000E+009	4.041889E-002	-9.788439E-003	4.675072E-002	-1.854457E-002	4.679014E-002	-1.856295E-002	-8.766794E-002	4.690587E-002
1.270000E+009	4.047457E-002	-9.851596E-003	4.669064E-002	-1.867634E-002	4.671140E-002	-1.870328E-002	-8.740508E-002	4.725908E-002
1.280000E+009	4.045807E-002	-9.895087E-003	4.660755E-002	-1.880636E-002	4.666603E-002	-1.884246E-002	-8.713070E-002	4.759638E-002
1.290000E+009	4.047894E-002	-9.906780E-003	4.654852E-002	-1.895631E-002	4.661112E-002	-1.896473E-002	-8.680673E-002	4.794205E-002
1.300000E+009	4.047584E-002	-9.904599E-003	4.649005E-002	-1.909379E-002	4.654754E-002	-1.909471E-002	-8.647270E-002	4.832321E-002
1.310000E+009	4.047171E-002	-9.926875E-003	4.642226E-002	-1.921193E-002	4.647444E-002	-1.921576E-002	-8.612642E-002	4.871191E-002
1.320000E+009	4.043351E-002	-9.928129E-003	4.637416E-002	-1.936213E-002	4.640238E-002	-1.934548E-002	-8.572941E-002	4.916510E-002
1.330000E+009	4.041672E-002	-9.935227E-003	4.628457E-002	-1.946974E-002	4.631703E-002	-1.948711E-002	-8.535151E-002	4.964125E-002
1.340000E+009	4.037897E-002	-9.934018E-003	4.622180E-002	-1.960523E-002	4.626595E-002	-1.962434E-002	-8.497507E-002	5.014796E-002
1.350000E+009	4.031350E-002	-9.933510E-003	4.615642E-002	-1.973272E-002	4.619552E-002	-1.974877E-002	-8.462117E-002	5.068019E-002
1.360000E+009	4.029878E-002	-9.950177E-003	4.606999E-002	-1.985851E-002	4.613706E-002	-1.987625E-002	-8.426429E-002	5.121613E-002
1.370000E+009	4.026457E-002	-9.937406E-003	4.600373E-002	-1.999077E-002	4.607270E-002	-1.999981E-002	-8.396499E-002	5.175943E-002
1.380000E+009	4.022383E-002	-9.968996E-003	4.593727E-002	-2.011343E-002	4.598894E-002	-2.014266E-002	-8.366850E-002	5.228648E-002
1.390000E+009	4.021327E-002	-9.991935E-003	4.587699E-002	-2.024842E-002	4.591265E-002	-2.026933E-002	-8.339586E-002	5.286284E-002
1.400000E+009	4.018742E-002	-1.002305E-002	4.579497E-002	-2.036673E-002	4.584037E-002	-2.038405E-002	-8.312064E-002	5.336720E-002
1.410000E+009	4.014000E-002	-1.002700E-002	4.573120E-002	-2.050015E-002	4.576484E-002	-2.051159E-002	-8.284716E-002	5.388650E-002
1.420000E+009	4.009674E-002	-1.002720E-002	4.565872E-002	-2.061330E-002	4.570272E-002	-2.062482E-002	-8.260527E-002	5.437463E-002
1.430000E+009	4.008211E-002	-1.001894E-002	4.559206E-002	-2.076828E-002	4.563956E-002	-2.078020E-002	-8.233390E-002	5.482603E-002
1.440000E+009	4.001127E-002	-1.004182E-002	4.551416E-002	-2.087626E-002	4.555082E-002	-2.089664E-002	-8.206219E-002	5.530565E-002
1.450000E+009	3.995000E-002	-1.003341E-002	4.543057E-002	-2.101275E-002	4.548160E-002	-2.101535E-002	-8.174990E-002	5.577925E-002
1.460000E+009	3.988567E-002	-1.004671E-002	4.537145E-002	-2.115599E-002	4.539977E-002	-2.115251E-002	-8.142887E-002	5.624538E-002
1.470000E+009	3.984381E-002	-1.007301E-002	4.527937E-002	-2.126180E-002	4.533618E-002	-2.128606E-002	-8.111247E-002	5.675634E-002
1.480000E+009	3.980115E-002	-1.006008E-002	4.522018E-002	-2.138891E-002	4.525782E-002	-2.141560E-002	-8.075603E-002	5.727541E-002
1.490000E+009	3.975631E-002	-1.011913E-002	4.513378E-002	-2.151910E-002	4.517913E-002	-2.152050E-002	-8.041277E-002	5.780761E-002
1.500000E+009	3.972068E-002	-1.015569E-002	4.506539E-002	-2.164668E-002	4.511286E-002	-2.164022E-002	-8.007943E-002	5.834214E-002
