! Device ID: PE43711P
! File Path: z:\PE43711P\CHAR_NOM_04282014\AMB\3p300\LS_ATT_2p50dB\PE43711P_AMB_3p300V_3p000V_0p000V_LS_ATT_2p50dB_S2P_SN_5_A0137A.s2p
! Serial: 5
! Lot: A0137A
! Temp: 25C
! VDD: 3.300
! VSS: 0.000
! Control_Hi: 3.000
! Control_Lo: 0.000
! Attenuation Step: 2.50dB
! Port 1: RF1
! Port 2: RF2
! ThroughPath:1-2
! IDD: 0.0001276522
! ISS: -1.071e-007
!

#  Hz  S   RI  R   50

1.000000E+007	1.058782E-001	-6.027676E-004	6.653687E-001	-3.437952E-003	6.655595E-001	-3.460162E-003	1.603091E-002	-1.034641E-004
2.000000E+007	1.059158E-001	-8.866404E-004	6.654282E-001	-5.704522E-003	6.653797E-001	-5.733455E-003	1.610689E-002	2.239193E-005
3.000000E+007	1.062613E-001	-1.573127E-003	6.654070E-001	-8.544785E-003	6.654361E-001	-8.606783E-003	1.640780E-002	-5.043108E-005
4.000000E+007	1.062822E-001	-2.212549E-003	6.653880E-001	-1.143444E-002	6.653417E-001	-1.148940E-002	1.686936E-002	-1.831958E-004
5.000000E+007	1.066056E-001	-2.983431E-003	6.653591E-001	-1.454670E-002	6.653345E-001	-1.449361E-002	1.712928E-002	-5.483548E-004
6.000000E+007	1.068717E-001	-3.850561E-003	6.652020E-001	-1.742354E-002	6.652424E-001	-1.739387E-002	1.728738E-002	-1.003388E-003
7.000000E+007	1.069787E-001	-4.775941E-003	6.650393E-001	-2.027278E-002	6.650221E-001	-2.029784E-002	1.728788E-002	-1.474790E-003
8.000000E+007	1.071659E-001	-5.647846E-003	6.648721E-001	-2.307742E-002	6.648708E-001	-2.308728E-002	1.730124E-002	-1.785872E-003
9.000000E+007	1.072440E-001	-6.467254E-003	6.647067E-001	-2.591984E-002	6.646724E-001	-2.595580E-002	1.742596E-002	-2.149671E-003
1.000000E+008	1.073070E-001	-7.257037E-003	6.645823E-001	-2.881025E-002	6.644644E-001	-2.877260E-002	1.771304E-002	-2.595187E-003
1.100000E+008	1.073727E-001	-8.039470E-003	6.643317E-001	-3.172606E-002	6.642667E-001	-3.160280E-002	1.776673E-002	-3.050823E-003
1.200000E+008	1.074940E-001	-8.833974E-003	6.639866E-001	-3.453997E-002	6.639822E-001	-3.449326E-002	1.757508E-002	-3.455624E-003
1.300000E+008	1.075985E-001	-9.795503E-003	6.637305E-001	-3.735547E-002	6.637646E-001	-3.735239E-002	1.767982E-002	-4.025807E-003
1.400000E+008	1.076081E-001	-1.090244E-002	6.635287E-001	-4.022689E-002	6.634665E-001	-4.025635E-002	1.820863E-002	-4.649840E-003
1.500000E+008	1.074488E-001	-1.188463E-002	6.632662E-001	-4.296729E-002	6.630729E-001	-4.303752E-002	1.864824E-002	-5.172026E-003
1.600000E+008	1.071258E-001	-1.250761E-002	6.629805E-001	-4.573353E-002	6.626707E-001	-4.571391E-002	1.831265E-002	-5.512671E-003
1.700000E+008	1.067083E-001	-1.305634E-002	6.626702E-001	-4.869915E-002	6.625428E-001	-4.847635E-002	1.751072E-002	-5.952437E-003
1.800000E+008	1.063503E-001	-1.375666E-002	6.619663E-001	-5.162709E-002	6.621513E-001	-5.143212E-002	1.685652E-002	-6.523764E-003
1.900000E+008	1.062107E-001	-1.472542E-002	6.615103E-001	-5.431387E-002	6.617052E-001	-5.421918E-002	1.682492E-002	-7.090888E-003
2.000000E+008	1.062189E-001	-1.581580E-002	6.611933E-001	-5.705185E-002	6.613271E-001	-5.696549E-002	1.722412E-002	-7.528314E-003
2.100000E+008	1.062489E-001	-1.692817E-002	6.608613E-001	-5.977851E-002	6.608888E-001	-5.974309E-002	1.766202E-002	-7.907082E-003
2.200000E+008	1.061758E-001	-1.789572E-002	6.605258E-001	-6.240294E-002	6.604932E-001	-6.244639E-002	1.788283E-002	-8.288106E-003
2.300000E+008	1.059468E-001	-1.878838E-002	6.600651E-001	-6.516778E-002	6.600450E-001	-6.514613E-002	1.790788E-002	-8.796839E-003
2.400000E+008	1.056775E-001	-1.970303E-002	6.596363E-001	-6.794373E-002	6.595041E-001	-6.790976E-002	1.781148E-002	-9.337478E-003
2.500000E+008	1.053981E-001	-2.056936E-002	6.591403E-001	-7.070568E-002	6.590360E-001	-7.064190E-002	1.767328E-002	-1.005142E-002
2.600000E+008	1.051304E-001	-2.153953E-002	6.585878E-001	-7.350713E-002	6.585575E-001	-7.339180E-002	1.765325E-002	-1.064681E-002
2.700000E+008	1.048719E-001	-2.240708E-002	6.580273E-001	-7.618919E-002	6.580281E-001	-7.613261E-002	1.769525E-002	-1.112413E-002
2.800000E+008	1.046771E-001	-2.324228E-002	6.574635E-001	-7.882982E-002	6.574914E-001	-7.877600E-002	1.775434E-002	-1.153476E-002
2.900000E+008	1.044024E-001	-2.393262E-002	6.569503E-001	-8.144152E-002	6.569119E-001	-8.137133E-002	1.775963E-002	-1.187822E-002
3.000000E+008	1.042438E-001	-2.461651E-002	6.565036E-001	-8.412719E-002	6.564917E-001	-8.404647E-002	1.776772E-002	-1.222362E-002
3.100000E+008	1.040253E-001	-2.527462E-002	6.559681E-001	-8.678209E-002	6.560209E-001	-8.671532E-002	1.780088E-002	-1.252217E-002
3.200000E+008	1.037802E-001	-2.600730E-002	6.553931E-001	-8.949930E-002	6.554853E-001	-8.942730E-002	1.775820E-002	-1.288974E-002
3.300000E+008	1.034438E-001	-2.669090E-002	6.548854E-001	-9.214678E-002	6.549247E-001	-9.223146E-002	1.768991E-002	-1.328943E-002
3.400000E+008	1.029857E-001	-2.738308E-002	6.542187E-001	-9.484635E-002	6.541110E-001	-9.499883E-002	1.764927E-002	-1.376432E-002
3.500000E+008	1.024917E-001	-2.807095E-002	6.536317E-001	-9.757757E-002	6.533264E-001	-9.748490E-002	1.761266E-002	-1.430910E-002
3.600000E+008	1.021275E-001	-2.872701E-002	6.530120E-001	-1.002080E-001	6.527271E-001	-9.991381E-002	1.757826E-002	-1.467062E-002
3.700000E+008	1.017696E-001	-2.943616E-002	6.522830E-001	-1.026827E-001	6.522330E-001	-1.023345E-001	1.768096E-002	-1.506321E-002
3.800000E+008	1.013673E-001	-3.016266E-002	6.517083E-001	-1.052759E-001	6.517595E-001	-1.050160E-001	1.776363E-002	-1.551054E-002
3.900000E+008	1.009234E-001	-3.088063E-002	6.509742E-001	-1.079457E-001	6.511279E-001	-1.077116E-001	1.783657E-002	-1.598732E-002
4.000000E+008	1.005577E-001	-3.166258E-002	6.502441E-001	-1.104013E-001	6.504570E-001	-1.103842E-001	1.788422E-002	-1.639691E-002
4.100000E+008	1.000342E-001	-3.243027E-002	6.496078E-001	-1.128507E-001	6.497314E-001	-1.129356E-001	1.788909E-002	-1.677013E-002
4.200000E+008	9.947396E-002	-3.311428E-002	6.490746E-001	-1.154269E-001	6.490313E-001	-1.154169E-001	1.787692E-002	-1.710032E-002
4.300000E+008	9.908786E-002	-3.371335E-002	6.484184E-001	-1.180344E-001	6.483142E-001	-1.180093E-001	1.785486E-002	-1.746723E-002
4.400000E+008	9.875972E-002	-3.432515E-002	6.477189E-001	-1.206269E-001	6.476726E-001	-1.205836E-001	1.783415E-002	-1.771676E-002
4.500000E+008	9.841010E-002	-3.502335E-002	6.470395E-001	-1.231971E-001	6.470200E-001	-1.231490E-001	1.783656E-002	-1.798937E-002
4.600000E+008	9.804239E-002	-3.567980E-002	6.462990E-001	-1.257731E-001	6.462781E-001	-1.257239E-001	1.777359E-002	-1.821468E-002
4.700000E+008	9.761176E-002	-3.627027E-002	6.455579E-001	-1.282758E-001	6.455009E-001	-1.282514E-001	1.763438E-002	-1.844178E-002
4.800000E+008	9.712809E-002	-3.680707E-002	6.448393E-001	-1.307450E-001	6.447649E-001	-1.306763E-001	1.749024E-002	-1.862760E-002
4.900000E+008	9.662545E-002	-3.732303E-002	6.440842E-001	-1.332399E-001	6.439902E-001	-1.331963E-001	1.734382E-002	-1.881220E-002
5.000000E+008	9.619131E-002	-3.783581E-002	6.433449E-001	-1.357548E-001	6.432740E-001	-1.356488E-001	1.725295E-002	-1.905951E-002
5.100000E+008	9.579297E-002	-3.844418E-002	6.425879E-001	-1.382611E-001	6.425949E-001	-1.381153E-001	1.723828E-002	-1.932083E-002
5.200000E+008	9.531080E-002	-3.912940E-002	6.418473E-001	-1.407836E-001	6.418556E-001	-1.406702E-001	1.721671E-002	-1.968533E-002
5.300000E+008	9.481905E-002	-3.982117E-002	6.410796E-001	-1.432762E-001	6.411212E-001	-1.432294E-001	1.726049E-002	-2.004200E-002
5.400000E+008	9.427438E-002	-4.053127E-002	6.402689E-001	-1.458056E-001	6.403228E-001	-1.457369E-001	1.719174E-002	-2.045168E-002
5.500000E+008	9.377234E-002	-4.104680E-002	6.395000E-001	-1.483007E-001	6.394267E-001	-1.482047E-001	1.712002E-002	-2.070385E-002
5.600000E+008	9.327995E-002	-4.158226E-002	6.386306E-001	-1.507318E-001	6.385939E-001	-1.506841E-001	1.706483E-002	-2.093094E-002
5.700000E+008	9.289584E-002	-4.212136E-002	6.378067E-001	-1.530942E-001	6.378573E-001	-1.531020E-001	1.689782E-002	-2.108587E-002
5.800000E+008	9.245817E-002	-4.263403E-002	6.369948E-001	-1.555757E-001	6.370572E-001	-1.555162E-001	1.678242E-002	-2.133266E-002
5.900000E+008	9.200564E-002	-4.324495E-002	6.361679E-001	-1.580605E-001	6.362687E-001	-1.580222E-001	1.656622E-002	-2.156547E-002
6.000000E+008	9.159183E-002	-4.380507E-002	6.353388E-001	-1.604651E-001	6.354380E-001	-1.604789E-001	1.643387E-002	-2.184119E-002
6.100000E+008	9.118619E-002	-4.436121E-002	6.344851E-001	-1.628899E-001	6.345186E-001	-1.629166E-001	1.622322E-002	-2.208070E-002
6.200000E+008	9.078543E-002	-4.489565E-002	6.335960E-001	-1.652886E-001	6.336573E-001	-1.652872E-001	1.606722E-002	-2.226957E-002
6.300000E+008	9.043379E-002	-4.541636E-002	6.327003E-001	-1.677145E-001	6.327709E-001	-1.676968E-001	1.596181E-002	-2.250778E-002
6.400000E+008	9.008352E-002	-4.595664E-002	6.318648E-001	-1.700749E-001	6.318972E-001	-1.700986E-001	1.590081E-002	-2.269398E-002
6.500000E+008	8.974590E-002	-4.645472E-002	6.310257E-001	-1.724497E-001	6.310317E-001	-1.724595E-001	1.575902E-002	-2.286423E-002
6.600000E+008	8.929211E-002	-4.701099E-002	6.301627E-001	-1.748560E-001	6.301341E-001	-1.749007E-001	1.566729E-002	-2.306472E-002
6.700000E+008	8.873349E-002	-4.744136E-002	6.292788E-001	-1.772867E-001	6.292411E-001	-1.772657E-001	1.542270E-002	-2.323546E-002
6.800000E+008	8.817617E-002	-4.787856E-002	6.283320E-001	-1.796211E-001	6.283663E-001	-1.796534E-001	1.520748E-002	-2.330896E-002
6.900000E+008	8.762278E-002	-4.825192E-002	6.273699E-001	-1.820048E-001	6.273866E-001	-1.819779E-001	1.499246E-002	-2.338395E-002
7.000000E+008	8.716119E-002	-4.868749E-002	6.264638E-001	-1.843681E-001	6.265122E-001	-1.842868E-001	1.475298E-002	-2.354291E-002
7.100000E+008	8.672278E-002	-4.921446E-002	6.255685E-001	-1.866713E-001	6.256200E-001	-1.867311E-001	1.456854E-002	-2.374024E-002
7.200000E+008	8.621883E-002	-4.972593E-002	6.246436E-001	-1.890352E-001	6.246953E-001	-1.890495E-001	1.438396E-002	-2.402997E-002
7.300000E+008	8.569181E-002	-5.024009E-002	6.236742E-001	-1.913717E-001	6.238366E-001	-1.914209E-001	1.412499E-002	-2.431910E-002
7.400000E+008	8.512420E-002	-5.068217E-002	6.227101E-001	-1.937254E-001	6.228600E-001	-1.937556E-001	1.386611E-002	-2.457037E-002
7.500000E+008	8.463746E-002	-5.111764E-002	6.218116E-001	-1.960784E-001	6.219372E-001	-1.961168E-001	1.365605E-002	-2.481363E-002
7.600000E+008	8.408018E-002	-5.158068E-002	6.208460E-001	-1.984465E-001	6.209657E-001	-1.984387E-001	1.342912E-002	-2.506065E-002
7.700000E+008	8.357611E-002	-5.209044E-002	6.198825E-001	-2.007530E-001	6.200227E-001	-2.007363E-001	1.325668E-002	-2.535016E-002
7.800000E+008	8.298016E-002	-5.255371E-002	6.188885E-001	-2.030368E-001	6.190689E-001	-2.030429E-001	1.300828E-002	-2.564670E-002
7.900000E+008	8.242538E-002	-5.310998E-002	6.179120E-001	-2.053497E-001	6.180740E-001	-2.053948E-001	1.272788E-002	-2.589403E-002
8.000000E+008	8.184733E-002	-5.361360E-002	6.169080E-001	-2.076529E-001	6.170103E-001	-2.076637E-001	1.251764E-002	-2.615996E-002
8.100000E+008	8.134781E-002	-5.409773E-002	6.158938E-001	-2.099121E-001	6.160033E-001	-2.099663E-001	1.232546E-002	-2.631060E-002
8.200000E+008	8.086146E-002	-5.453406E-002	6.149057E-001	-2.122231E-001	6.149945E-001	-2.122010E-001	1.213836E-002	-2.647871E-002
8.300000E+008	8.047598E-002	-5.498572E-002	6.138994E-001	-2.145095E-001	6.140651E-001	-2.145059E-001	1.195644E-002	-2.666874E-002
8.400000E+008	8.008407E-002	-5.539638E-002	6.128366E-001	-2.167466E-001	6.130195E-001	-2.167829E-001	1.175531E-002	-2.682328E-002
8.500000E+008	7.964462E-002	-5.584263E-002	6.118745E-001	-2.190240E-001	6.120012E-001	-2.190706E-001	1.149288E-002	-2.701235E-002
8.600000E+008	7.915405E-002	-5.626491E-002	6.108311E-001	-2.212713E-001	6.109004E-001	-2.213067E-001	1.123680E-002	-2.715528E-002
8.700000E+008	7.861319E-002	-5.661465E-002	6.098126E-001	-2.235603E-001	6.098880E-001	-2.235845E-001	1.096810E-002	-2.733304E-002
8.800000E+008	7.804186E-002	-5.692227E-002	6.087846E-001	-2.258443E-001	6.088890E-001	-2.257897E-001	1.064705E-002	-2.746711E-002
8.900000E+008	7.750464E-002	-5.729084E-002	6.076909E-001	-2.280797E-001	6.078038E-001	-2.280944E-001	1.041091E-002	-2.764050E-002
9.000000E+008	7.696208E-002	-5.765512E-002	6.065769E-001	-2.303276E-001	6.067872E-001	-2.303154E-001	1.020722E-002	-2.777207E-002
9.100000E+008	7.636836E-002	-5.808218E-002	6.055312E-001	-2.325762E-001	6.057057E-001	-2.325706E-001	1.005986E-002	-2.803425E-002
9.200000E+008	7.582068E-002	-5.849475E-002	6.044663E-001	-2.347785E-001	6.046390E-001	-2.348429E-001	9.892926E-003	-2.828755E-002
9.300000E+008	7.524368E-002	-5.886018E-002	6.033947E-001	-2.369816E-001	6.035132E-001	-2.370841E-001	9.732699E-003	-2.848102E-002
9.400000E+008	7.470546E-002	-5.920840E-002	6.022911E-001	-2.391829E-001	6.024975E-001	-2.392643E-001	9.606029E-003	-2.860549E-002
9.500000E+008	7.413558E-002	-5.954050E-002	6.012534E-001	-2.414220E-001	6.013959E-001	-2.415120E-001	9.505700E-003	-2.867340E-002
9.600000E+008	7.367598E-002	-5.981190E-002	6.000864E-001	-2.436315E-001	6.003003E-001	-2.436689E-001	9.411035E-003	-2.870005E-002
9.700000E+008	7.320974E-002	-6.014239E-002	5.989633E-001	-2.457683E-001	5.991970E-001	-2.458791E-001	9.339846E-003	-2.880882E-002
9.800000E+008	7.278251E-002	-6.047636E-002	5.979293E-001	-2.479589E-001	5.980698E-001	-2.480861E-001	9.190429E-003	-2.891916E-002
9.900000E+008	7.226588E-002	-6.081581E-002	5.968363E-001	-2.501714E-001	5.969628E-001	-2.502820E-001	8.949267E-003	-2.900680E-002
1.000000E+009	7.173953E-002	-6.106722E-002	5.957148E-001	-2.523336E-001	5.958121E-001	-2.524618E-001	8.709465E-003	-2.901378E-002
1.010000E+009	7.114883E-002	-6.129234E-002	5.945853E-001	-2.545669E-001	5.947043E-001	-2.546204E-001	8.458545E-003	-2.903523E-002
1.020000E+009	7.061581E-002	-6.149322E-002	5.934420E-001	-2.567426E-001	5.935348E-001	-2.567975E-001	8.244991E-003	-2.901209E-002
1.030000E+009	7.013841E-002	-6.168797E-002	5.922356E-001	-2.588891E-001	5.923974E-001	-2.589746E-001	8.053742E-003	-2.904007E-002
1.040000E+009	6.963908E-002	-6.194615E-002	5.910990E-001	-2.610274E-001	5.912980E-001	-2.610980E-001	7.854477E-003	-2.911847E-002
1.050000E+009	6.906328E-002	-6.229975E-002	5.900084E-001	-2.632034E-001	5.901464E-001	-2.632797E-001	7.608857E-003	-2.917995E-002
1.060000E+009	6.847844E-002	-6.257654E-002	5.888493E-001	-2.653401E-001	5.889976E-001	-2.654144E-001	7.375585E-003	-2.921298E-002
1.070000E+009	6.787729E-002	-6.280491E-002	5.876345E-001	-2.674748E-001	5.878609E-001	-2.674973E-001	7.138916E-003	-2.926769E-002
1.080000E+009	6.737974E-002	-6.305549E-002	5.864568E-001	-2.696656E-001	5.867492E-001	-2.696934E-001	6.922024E-003	-2.926169E-002
1.090000E+009	6.689446E-002	-6.329456E-002	5.852987E-001	-2.718009E-001	5.855441E-001	-2.718142E-001	6.746450E-003	-2.929462E-002
1.100000E+009	6.647364E-002	-6.356533E-002	5.840421E-001	-2.739546E-001	5.843731E-001	-2.739555E-001	6.555998E-003	-2.930534E-002
1.110000E+009	6.601150E-002	-6.380715E-002	5.828756E-001	-2.760494E-001	5.831723E-001	-2.760865E-001	6.339247E-003	-2.942359E-002
1.120000E+009	6.548433E-002	-6.403616E-002	5.817173E-001	-2.781644E-001	5.819679E-001	-2.782643E-001	6.025004E-003	-2.947400E-002
1.130000E+009	6.495022E-002	-6.428931E-002	5.804586E-001	-2.802498E-001	5.807555E-001	-2.803606E-001	5.739448E-003	-2.950491E-002
1.140000E+009	6.435449E-002	-6.447771E-002	5.792973E-001	-2.824170E-001	5.795711E-001	-2.824741E-001	5.443301E-003	-2.950332E-002
1.150000E+009	6.382179E-002	-6.468643E-002	5.780518E-001	-2.845069E-001	5.782815E-001	-2.845786E-001	5.228102E-003	-2.952197E-002
1.160000E+009	6.332885E-002	-6.486558E-002	5.768223E-001	-2.866169E-001	5.770846E-001	-2.867046E-001	4.995551E-003	-2.955963E-002
1.170000E+009	6.278147E-002	-6.510937E-002	5.755670E-001	-2.887039E-001	5.758336E-001	-2.887709E-001	4.842420E-003	-2.955699E-002
1.180000E+009	6.229153E-002	-6.541986E-002	5.742611E-001	-2.908014E-001	5.745932E-001	-2.908776E-001	4.581976E-003	-2.960118E-002
1.190000E+009	6.175060E-002	-6.562491E-002	5.730250E-001	-2.929074E-001	5.732649E-001	-2.929809E-001	4.381109E-003	-2.960624E-002
1.200000E+009	6.119133E-002	-6.582321E-002	5.717673E-001	-2.949898E-001	5.720627E-001	-2.950512E-001	4.129208E-003	-2.958199E-002
1.210000E+009	6.073666E-002	-6.604091E-002	5.704735E-001	-2.970520E-001	5.707688E-001	-2.971538E-001	3.921137E-003	-2.952354E-002
1.220000E+009	6.023659E-002	-6.624536E-002	5.692363E-001	-2.991118E-001	5.695178E-001	-2.992026E-001	3.676443E-003	-2.948478E-002
1.230000E+009	5.976162E-002	-6.644823E-002	5.679322E-001	-3.011896E-001	5.681922E-001	-3.012576E-001	3.394271E-003	-2.950358E-002
1.240000E+009	5.927879E-002	-6.672649E-002	5.666415E-001	-3.032362E-001	5.668949E-001	-3.032941E-001	3.124016E-003	-2.949570E-002
1.250000E+009	5.873021E-002	-6.693526E-002	5.653248E-001	-3.053207E-001	5.656468E-001	-3.053620E-001	2.831646E-003	-2.952822E-002
1.260000E+009	5.816172E-002	-6.709852E-002	5.639908E-001	-3.073739E-001	5.642935E-001	-3.074623E-001	2.510754E-003	-2.959314E-002
1.270000E+009	5.768077E-002	-6.728970E-002	5.627341E-001	-3.094053E-001	5.629392E-001	-3.094516E-001	2.255699E-003	-2.962294E-002
1.280000E+009	5.712585E-002	-6.740508E-002	5.613866E-001	-3.114533E-001	5.616884E-001	-3.114886E-001	1.983038E-003	-2.964948E-002
1.290000E+009	5.660438E-002	-6.753959E-002	5.600215E-001	-3.135295E-001	5.603367E-001	-3.135275E-001	1.835950E-003	-2.973391E-002
1.300000E+009	5.614278E-002	-6.767332E-002	5.586719E-001	-3.154780E-001	5.590337E-001	-3.155677E-001	1.720625E-003	-2.973181E-002
1.310000E+009	5.560416E-002	-6.777461E-002	5.572909E-001	-3.175496E-001	5.576549E-001	-3.176101E-001	1.503981E-003	-2.972599E-002
1.320000E+009	5.503947E-002	-6.785590E-002	5.559535E-001	-3.195506E-001	5.563375E-001	-3.196499E-001	1.362339E-003	-2.972286E-002
1.330000E+009	5.455997E-002	-6.786983E-002	5.546020E-001	-3.214903E-001	5.549517E-001	-3.216683E-001	1.332718E-003	-2.956966E-002
1.340000E+009	5.401461E-002	-6.792076E-002	5.532495E-001	-3.234820E-001	5.535689E-001	-3.236299E-001	1.164551E-003	-2.936802E-002
1.350000E+009	5.348467E-002	-6.792956E-002	5.518537E-001	-3.254833E-001	5.521579E-001	-3.256159E-001	1.031112E-003	-2.919553E-002
1.360000E+009	5.307693E-002	-6.799357E-002	5.504382E-001	-3.274854E-001	5.508427E-001	-3.276024E-001	8.894600E-004	-2.894181E-002
1.370000E+009	5.258117E-002	-6.806939E-002	5.490718E-001	-3.294593E-001	5.494041E-001	-3.295583E-001	6.957967E-004	-2.873508E-002
1.380000E+009	5.206622E-002	-6.816683E-002	5.476464E-001	-3.314261E-001	5.479771E-001	-3.315426E-001	4.791784E-004	-2.859916E-002
1.390000E+009	5.158173E-002	-6.829019E-002	5.462391E-001	-3.334310E-001	5.465797E-001	-3.335460E-001	1.878829E-004	-2.833572E-002
1.400000E+009	5.103105E-002	-6.835528E-002	5.448220E-001	-3.353590E-001	5.451455E-001	-3.354308E-001	-6.018642E-005	-2.815039E-002
1.410000E+009	5.052387E-002	-6.837863E-002	5.434245E-001	-3.373118E-001	5.436890E-001	-3.374024E-001	-3.556114E-004	-2.790949E-002
1.420000E+009	5.005313E-002	-6.841022E-002	5.419226E-001	-3.392005E-001	5.422816E-001	-3.393436E-001	-6.169381E-004	-2.770409E-002
1.430000E+009	4.961201E-002	-6.848597E-002	5.405307E-001	-3.411432E-001	5.408748E-001	-3.412956E-001	-8.282560E-004	-2.754050E-002
1.440000E+009	4.908725E-002	-6.852164E-002	5.390934E-001	-3.430635E-001	5.394300E-001	-3.431825E-001	-1.032156E-003	-2.738485E-002
1.450000E+009	4.858659E-002	-6.856292E-002	5.375839E-001	-3.449863E-001	5.379845E-001	-3.451704E-001	-1.305242E-003	-2.722914E-002
1.460000E+009	4.806285E-002	-6.856366E-002	5.361620E-001	-3.469251E-001	5.364682E-001	-3.470714E-001	-1.519484E-003	-2.703152E-002
1.470000E+009	4.759024E-002	-6.857089E-002	5.346931E-001	-3.488413E-001	5.350331E-001	-3.489620E-001	-1.756546E-003	-2.674251E-002
1.480000E+009	4.708422E-002	-6.854513E-002	5.331891E-001	-3.506835E-001	5.335277E-001	-3.508262E-001	-1.973281E-003	-2.641521E-002
1.490000E+009	4.664563E-002	-6.851831E-002	5.317491E-001	-3.525807E-001	5.320851E-001	-3.526765E-001	-2.169909E-003	-2.614279E-002
1.500000E+009	4.619014E-002	-6.856278E-002	5.302767E-001	-3.544682E-001	5.305959E-001	-3.545837E-001	-2.315360E-003	-2.587882E-002
