! Device ID: PE43711P
! File Path: z:\PE43711P\CHAR_NOM_04282014\AMB\3p300\LS_ATT_12p50dB\PE43711P_AMB_3p300V_3p000V_0p000V_LS_ATT_12p50dB_S2P_SN_5_A0137A.s2p
! Serial: 5
! Lot: A0137A
! Temp: 25C
! VDD: 3.300
! VSS: 0.000
! Control_Hi: 3.000
! Control_Lo: 0.000
! Attenuation Step: 12.50dB
! Port 1: RF1
! Port 2: RF2
! ThroughPath:1-2
! IDD: 0.0001277644
! ISS: -1.096e-007
!

#  Hz  S   RI  R   50

1.000000E+007	7.431410E-002	-9.125618E-005	2.083557E-001	-9.738600E-004	2.086045E-001	-1.073925E-003	-1.241803E-001	9.180696E-004
2.000000E+007	7.449260E-002	-2.787151E-004	2.083068E-001	-1.590056E-003	2.084489E-001	-1.621018E-003	-1.238775E-001	1.509799E-003
3.000000E+007	7.475253E-002	-5.901154E-004	2.083093E-001	-2.394577E-003	2.084565E-001	-2.426107E-003	-1.235733E-001	1.994803E-003
4.000000E+007	7.487759E-002	-8.987032E-004	2.082963E-001	-3.216758E-003	2.084312E-001	-3.240851E-003	-1.233785E-001	2.538031E-003
5.000000E+007	7.498216E-002	-1.261264E-003	2.082923E-001	-4.082338E-003	2.084574E-001	-4.077527E-003	-1.233285E-001	3.072266E-003
6.000000E+007	7.512865E-002	-1.670474E-003	2.082223E-001	-4.868466E-003	2.084378E-001	-4.878167E-003	-1.231882E-001	3.491279E-003
7.000000E+007	7.522267E-002	-2.082890E-003	2.081770E-001	-5.663003E-003	2.083743E-001	-5.675762E-003	-1.230142E-001	3.908917E-003
8.000000E+007	7.533468E-002	-2.480544E-003	2.081387E-001	-6.411328E-003	2.083200E-001	-6.437705E-003	-1.228498E-001	4.315970E-003
9.000000E+007	7.543388E-002	-2.888559E-003	2.081074E-001	-7.200295E-003	2.082719E-001	-7.222073E-003	-1.227280E-001	4.679262E-003
1.000000E+008	7.550174E-002	-3.270178E-003	2.080652E-001	-8.012805E-003	2.082082E-001	-8.008671E-003	-1.226299E-001	5.065320E-003
1.100000E+008	7.557768E-002	-3.674522E-003	2.079981E-001	-8.828660E-003	2.081621E-001	-8.803375E-003	-1.225532E-001	5.406764E-003
1.200000E+008	7.567526E-002	-4.122932E-003	2.078739E-001	-9.622522E-003	2.080802E-001	-9.612124E-003	-1.224627E-001	5.715132E-003
1.300000E+008	7.571691E-002	-4.549274E-003	2.078179E-001	-1.038553E-002	2.080246E-001	-1.040496E-002	-1.223547E-001	6.042349E-003
1.400000E+008	7.573492E-002	-4.945079E-003	2.077571E-001	-1.116801E-002	2.079281E-001	-1.120119E-002	-1.222003E-001	6.336413E-003
1.500000E+008	7.569188E-002	-5.330648E-003	2.076905E-001	-1.190808E-002	2.078029E-001	-1.194745E-002	-1.220656E-001	6.634320E-003
1.600000E+008	7.564794E-002	-5.663434E-003	2.076371E-001	-1.266835E-002	2.077300E-001	-1.268683E-002	-1.220432E-001	6.934387E-003
1.700000E+008	7.563714E-002	-6.030098E-003	2.075514E-001	-1.349839E-002	2.077480E-001	-1.346745E-002	-1.220366E-001	7.252895E-003
1.800000E+008	7.556772E-002	-6.414658E-003	2.073783E-001	-1.432990E-002	2.076581E-001	-1.431846E-002	-1.219948E-001	7.553659E-003
1.900000E+008	7.546621E-002	-6.841603E-003	2.072232E-001	-1.507350E-002	2.075099E-001	-1.510633E-002	-1.219392E-001	7.796724E-003
2.000000E+008	7.535846E-002	-7.279544E-003	2.071483E-001	-1.580264E-002	2.073938E-001	-1.582799E-002	-1.218326E-001	8.028279E-003
2.100000E+008	7.526008E-002	-7.766327E-003	2.070560E-001	-1.656528E-002	2.072627E-001	-1.657380E-002	-1.216957E-001	8.225005E-003
2.200000E+008	7.516387E-002	-8.215174E-003	2.069805E-001	-1.728474E-002	2.071627E-001	-1.730396E-002	-1.215736E-001	8.422768E-003
2.300000E+008	7.507196E-002	-8.668649E-003	2.068762E-001	-1.805239E-002	2.070508E-001	-1.805536E-002	-1.214366E-001	8.620542E-003
2.400000E+008	7.497735E-002	-9.108405E-003	2.067608E-001	-1.881518E-002	2.069246E-001	-1.881370E-002	-1.212875E-001	8.840121E-003
2.500000E+008	7.488212E-002	-9.542611E-003	2.066276E-001	-1.958024E-002	2.068066E-001	-1.959254E-002	-1.211169E-001	9.039463E-003
2.600000E+008	7.483236E-002	-1.001102E-002	2.064883E-001	-2.035661E-002	2.066899E-001	-2.034654E-002	-1.209302E-001	9.306815E-003
2.700000E+008	7.476298E-002	-1.043382E-002	2.063453E-001	-2.108318E-002	2.065387E-001	-2.109843E-002	-1.207092E-001	9.597747E-003
2.800000E+008	7.473513E-002	-1.083509E-002	2.062139E-001	-2.181494E-002	2.063915E-001	-2.181428E-002	-1.204862E-001	9.897047E-003
2.900000E+008	7.464274E-002	-1.118897E-002	2.060982E-001	-2.254375E-002	2.062620E-001	-2.253745E-002	-1.203494E-001	1.020860E-002
3.000000E+008	7.458441E-002	-1.150864E-002	2.059970E-001	-2.331224E-002	2.061607E-001	-2.328590E-002	-1.201989E-001	1.053970E-002
3.100000E+008	7.445035E-002	-1.185724E-002	2.058571E-001	-2.406067E-002	2.060343E-001	-2.403605E-002	-1.200751E-001	1.089906E-002
3.200000E+008	7.435090E-002	-1.214817E-002	2.057061E-001	-2.482619E-002	2.058866E-001	-2.479653E-002	-1.199864E-001	1.125340E-002
3.300000E+008	7.419213E-002	-1.246668E-002	2.055755E-001	-2.556967E-002	2.057673E-001	-2.559929E-002	-1.198836E-001	1.156690E-002
3.400000E+008	7.395599E-002	-1.278792E-002	2.054086E-001	-2.630955E-002	2.055380E-001	-2.637258E-002	-1.197605E-001	1.184939E-002
3.500000E+008	7.373644E-002	-1.314073E-002	2.052684E-001	-2.705708E-002	2.053342E-001	-2.706612E-002	-1.196175E-001	1.207429E-002
3.600000E+008	7.353004E-002	-1.345845E-002	2.050874E-001	-2.780442E-002	2.051794E-001	-2.772854E-002	-1.194697E-001	1.233819E-002
3.700000E+008	7.332342E-002	-1.382318E-002	2.049099E-001	-2.850155E-002	2.050456E-001	-2.839710E-002	-1.192824E-001	1.255411E-002
3.800000E+008	7.313006E-002	-1.420479E-002	2.047490E-001	-2.921415E-002	2.049344E-001	-2.913985E-002	-1.190826E-001	1.280374E-002
3.900000E+008	7.293171E-002	-1.461888E-002	2.045620E-001	-2.996333E-002	2.047747E-001	-2.991676E-002	-1.188088E-001	1.311791E-002
4.000000E+008	7.276744E-002	-1.504183E-002	2.043635E-001	-3.063493E-002	2.046001E-001	-3.065429E-002	-1.185194E-001	1.341103E-002
4.100000E+008	7.257815E-002	-1.542907E-002	2.042066E-001	-3.131822E-002	2.044147E-001	-3.137690E-002	-1.182304E-001	1.369336E-002
4.200000E+008	7.238501E-002	-1.581336E-002	2.040790E-001	-3.202882E-002	2.042350E-001	-3.206073E-002	-1.180341E-001	1.407279E-002
4.300000E+008	7.223819E-002	-1.617371E-002	2.039326E-001	-3.275631E-002	2.040646E-001	-3.280345E-002	-1.178080E-001	1.444369E-002
4.400000E+008	7.208377E-002	-1.649339E-002	2.037556E-001	-3.349455E-002	2.039115E-001	-3.351451E-002	-1.176240E-001	1.488018E-002
4.500000E+008	7.194792E-002	-1.683521E-002	2.035825E-001	-3.422241E-002	2.037411E-001	-3.422259E-002	-1.174502E-001	1.532370E-002
4.600000E+008	7.177909E-002	-1.718084E-002	2.033928E-001	-3.494218E-002	2.035587E-001	-3.496638E-002	-1.172725E-001	1.577051E-002
4.700000E+008	7.159352E-002	-1.748667E-002	2.032144E-001	-3.564823E-002	2.033393E-001	-3.567076E-002	-1.171167E-001	1.616615E-002
4.800000E+008	7.138764E-002	-1.777278E-002	2.030271E-001	-3.631737E-002	2.031679E-001	-3.635196E-002	-1.169873E-001	1.655714E-002
4.900000E+008	7.116897E-002	-1.806777E-002	2.028480E-001	-3.702964E-002	2.029643E-001	-3.705352E-002	-1.168718E-001	1.693201E-002
5.000000E+008	7.097305E-002	-1.835487E-002	2.026611E-001	-3.774200E-002	2.027985E-001	-3.774857E-002	-1.167187E-001	1.728242E-002
5.100000E+008	7.076890E-002	-1.865973E-002	2.024697E-001	-3.844283E-002	2.026304E-001	-3.842097E-002	-1.165412E-001	1.763970E-002
5.200000E+008	7.054939E-002	-1.899238E-002	2.022823E-001	-3.915206E-002	2.024553E-001	-3.916931E-002	-1.163684E-001	1.800477E-002
5.300000E+008	7.031775E-002	-1.933297E-002	2.020986E-001	-3.985299E-002	2.022702E-001	-3.988463E-002	-1.161249E-001	1.835942E-002
5.400000E+008	7.008545E-002	-1.971171E-002	2.018766E-001	-4.055980E-002	2.020530E-001	-4.057808E-002	-1.159101E-001	1.870463E-002
5.500000E+008	6.985186E-002	-2.002042E-002	2.016851E-001	-4.124727E-002	2.018133E-001	-4.129416E-002	-1.157057E-001	1.908328E-002
5.600000E+008	6.962850E-002	-2.037725E-002	2.014752E-001	-4.194558E-002	2.016067E-001	-4.197119E-002	-1.154872E-001	1.948969E-002
5.700000E+008	6.942107E-002	-2.074892E-002	2.012628E-001	-4.260521E-002	2.014095E-001	-4.265776E-002	-1.153520E-001	1.992243E-002
5.800000E+008	6.924145E-002	-2.107893E-002	2.010659E-001	-4.330639E-002	2.012124E-001	-4.332834E-002	-1.151838E-001	2.034077E-002
5.900000E+008	6.904182E-002	-2.145091E-002	2.008505E-001	-4.400990E-002	2.010194E-001	-4.406686E-002	-1.150318E-001	2.081927E-002
6.000000E+008	6.889573E-002	-2.179469E-002	2.006292E-001	-4.470224E-002	2.007956E-001	-4.476076E-002	-1.148605E-001	2.121900E-002
6.100000E+008	6.874285E-002	-2.211897E-002	2.004170E-001	-4.538647E-002	2.005263E-001	-4.543510E-002	-1.147071E-001	2.162952E-002
6.200000E+008	6.861156E-002	-2.241296E-002	2.001822E-001	-4.605966E-002	2.003321E-001	-4.610377E-002	-1.145474E-001	2.203829E-002
6.300000E+008	6.847434E-002	-2.270511E-002	1.999703E-001	-4.673706E-002	2.001115E-001	-4.678534E-002	-1.143804E-001	2.242031E-002
6.400000E+008	6.835220E-002	-2.297805E-002	1.997512E-001	-4.740817E-002	1.998781E-001	-4.745680E-002	-1.142023E-001	2.283942E-002
6.500000E+008	6.822445E-002	-2.321844E-002	1.995385E-001	-4.806642E-002	1.996592E-001	-4.812681E-002	-1.140391E-001	2.326703E-002
6.600000E+008	6.804535E-002	-2.348554E-002	1.993229E-001	-4.876301E-002	1.994458E-001	-4.882223E-002	-1.138462E-001	2.368172E-002
6.700000E+008	6.783201E-002	-2.371563E-002	1.990967E-001	-4.944115E-002	1.992241E-001	-4.949043E-002	-1.136913E-001	2.411710E-002
6.800000E+008	6.759409E-002	-2.394539E-002	1.988565E-001	-5.010755E-002	1.989857E-001	-5.018111E-002	-1.135337E-001	2.458448E-002
6.900000E+008	6.736084E-002	-2.416383E-002	1.986186E-001	-5.079058E-002	1.987366E-001	-5.082758E-002	-1.133706E-001	2.505047E-002
7.000000E+008	6.714384E-002	-2.440237E-002	1.983858E-001	-5.145166E-002	1.985230E-001	-5.148835E-002	-1.132677E-001	2.549647E-002
7.100000E+008	6.692351E-002	-2.465964E-002	1.981491E-001	-5.209491E-002	1.982924E-001	-5.214711E-002	-1.131608E-001	2.592309E-002
7.200000E+008	6.668428E-002	-2.490464E-002	1.979223E-001	-5.277001E-002	1.980655E-001	-5.283003E-002	-1.130541E-001	2.632887E-002
7.300000E+008	6.645202E-002	-2.520557E-002	1.976779E-001	-5.341977E-002	1.978392E-001	-5.351070E-002	-1.129564E-001	2.670069E-002
7.400000E+008	6.619849E-002	-2.545706E-002	1.974459E-001	-5.410591E-002	1.976059E-001	-5.415843E-002	-1.128673E-001	2.708886E-002
7.500000E+008	6.598910E-002	-2.572753E-002	1.971831E-001	-5.476593E-002	1.973594E-001	-5.483238E-002	-1.127671E-001	2.743844E-002
7.600000E+008	6.576886E-002	-2.603248E-002	1.969526E-001	-5.541163E-002	1.971145E-001	-5.546930E-002	-1.126401E-001	2.779311E-002
7.700000E+008	6.554249E-002	-2.632721E-002	1.967153E-001	-5.606523E-002	1.968720E-001	-5.613626E-002	-1.125039E-001	2.811165E-002
7.800000E+008	6.532628E-002	-2.660644E-002	1.964676E-001	-5.674683E-002	1.966536E-001	-5.680509E-002	-1.123214E-001	2.846886E-002
7.900000E+008	6.509018E-002	-2.692000E-002	1.962300E-001	-5.738960E-002	1.964043E-001	-5.748320E-002	-1.121965E-001	2.883410E-002
8.000000E+008	6.489138E-002	-2.721090E-002	1.959846E-001	-5.804096E-002	1.961133E-001	-5.814117E-002	-1.120105E-001	2.920150E-002
8.100000E+008	6.468277E-002	-2.751553E-002	1.957187E-001	-5.869654E-002	1.958447E-001	-5.877349E-002	-1.117816E-001	2.960550E-002
8.200000E+008	6.452177E-002	-2.779168E-002	1.954643E-001	-5.935012E-002	1.955878E-001	-5.941341E-002	-1.115766E-001	2.997354E-002
8.300000E+008	6.436484E-002	-2.807736E-002	1.952037E-001	-5.998612E-002	1.953660E-001	-6.007329E-002	-1.114026E-001	3.037785E-002
8.400000E+008	6.422660E-002	-2.834912E-002	1.949392E-001	-6.062517E-002	1.950849E-001	-6.073339E-002	-1.112114E-001	3.076631E-002
8.500000E+008	6.408346E-002	-2.858558E-002	1.946924E-001	-6.129709E-002	1.948426E-001	-6.139035E-002	-1.110848E-001	3.115642E-002
8.600000E+008	6.389846E-002	-2.881768E-002	1.944345E-001	-6.193656E-002	1.945592E-001	-6.201686E-002	-1.109550E-001	3.156694E-002
8.700000E+008	6.372445E-002	-2.900035E-002	1.941786E-001	-6.258209E-002	1.942970E-001	-6.266785E-002	-1.108046E-001	3.194818E-002
8.800000E+008	6.356712E-002	-2.921074E-002	1.939210E-001	-6.324207E-002	1.940618E-001	-6.330777E-002	-1.106724E-001	3.232621E-002
8.900000E+008	6.333039E-002	-2.940885E-002	1.936426E-001	-6.387479E-002	1.938005E-001	-6.395468E-002	-1.105376E-001	3.267774E-002
9.000000E+008	6.312123E-002	-2.962180E-002	1.933599E-001	-6.449744E-002	1.935472E-001	-6.459111E-002	-1.103555E-001	3.305052E-002
9.100000E+008	6.288337E-002	-2.982064E-002	1.930816E-001	-6.516937E-002	1.932583E-001	-6.522494E-002	-1.101510E-001	3.337648E-002
9.200000E+008	6.263581E-002	-3.005706E-002	1.928176E-001	-6.577222E-002	1.929955E-001	-6.587609E-002	-1.099128E-001	3.376110E-002
9.300000E+008	6.242761E-002	-3.030727E-002	1.925377E-001	-6.641627E-002	1.926910E-001	-6.652224E-002	-1.096846E-001	3.414041E-002
9.400000E+008	6.223306E-002	-3.054811E-002	1.922733E-001	-6.705073E-002	1.924464E-001	-6.714824E-002	-1.093884E-001	3.452872E-002
9.500000E+008	6.203683E-002	-3.081045E-002	1.920054E-001	-6.769264E-002	1.921495E-001	-6.779278E-002	-1.090887E-001	3.496319E-002
9.600000E+008	6.185188E-002	-3.101621E-002	1.917141E-001	-6.832237E-002	1.918885E-001	-6.842997E-002	-1.087984E-001	3.538959E-002
9.700000E+008	6.170148E-002	-3.124404E-002	1.914384E-001	-6.894228E-002	1.916054E-001	-6.906714E-002	-1.085135E-001	3.583147E-002
9.800000E+008	6.155048E-002	-3.141654E-002	1.911702E-001	-6.955716E-002	1.913349E-001	-6.969403E-002	-1.082487E-001	3.631451E-002
9.900000E+008	6.139478E-002	-3.162405E-002	1.909349E-001	-7.020722E-002	1.910511E-001	-7.033288E-002	-1.080210E-001	3.679200E-002
1.000000E+009	6.121641E-002	-3.177700E-002	1.906262E-001	-7.083529E-002	1.907747E-001	-7.094505E-002	-1.078157E-001	3.722746E-002
1.010000E+009	6.101245E-002	-3.191823E-002	1.903541E-001	-7.147928E-002	1.904931E-001	-7.158115E-002	-1.076375E-001	3.772695E-002
1.020000E+009	6.081160E-002	-3.207154E-002	1.900598E-001	-7.210131E-002	1.901885E-001	-7.219759E-002	-1.074632E-001	3.819652E-002
1.030000E+009	6.059772E-002	-3.221699E-002	1.897400E-001	-7.272305E-002	1.899069E-001	-7.283075E-002	-1.072815E-001	3.864604E-002
1.040000E+009	6.036772E-002	-3.237432E-002	1.894541E-001	-7.333987E-002	1.896101E-001	-7.345545E-002	-1.070971E-001	3.910167E-002
1.050000E+009	6.016350E-002	-3.256476E-002	1.891828E-001	-7.395374E-002	1.893217E-001	-7.405563E-002	-1.068754E-001	3.956784E-002
1.060000E+009	5.995722E-002	-3.275099E-002	1.888800E-001	-7.458391E-002	1.890135E-001	-7.466409E-002	-1.066626E-001	4.002037E-002
1.070000E+009	5.971309E-002	-3.292628E-002	1.885688E-001	-7.519661E-002	1.887381E-001	-7.527862E-002	-1.064140E-001	4.048411E-002
1.080000E+009	5.951864E-002	-3.312125E-002	1.882984E-001	-7.584632E-002	1.884597E-001	-7.591166E-002	-1.061695E-001	4.092842E-002
1.090000E+009	5.931960E-002	-3.330672E-002	1.879908E-001	-7.646589E-002	1.881482E-001	-7.652838E-002	-1.059628E-001	4.137677E-002
1.100000E+009	5.910693E-002	-3.348250E-002	1.876620E-001	-7.708712E-002	1.878543E-001	-7.715310E-002	-1.057677E-001	4.183608E-002
1.110000E+009	5.892447E-002	-3.364210E-002	1.873600E-001	-7.768788E-002	1.875501E-001	-7.776481E-002	-1.055346E-001	4.229710E-002
1.120000E+009	5.870716E-002	-3.381390E-002	1.870809E-001	-7.830636E-002	1.872470E-001	-7.841124E-002	-1.053835E-001	4.274338E-002
1.130000E+009	5.848984E-002	-3.396377E-002	1.867802E-001	-7.890942E-002	1.869263E-001	-7.901498E-002	-1.052150E-001	4.317308E-002
1.140000E+009	5.823160E-002	-3.412399E-002	1.864617E-001	-7.954380E-002	1.866270E-001	-7.961894E-002	-1.050253E-001	4.363400E-002
1.150000E+009	5.805018E-002	-3.429879E-002	1.861408E-001	-8.016026E-002	1.863022E-001	-8.023864E-002	-1.048119E-001	4.408530E-002
1.160000E+009	5.781229E-002	-3.444021E-002	1.858372E-001	-8.077462E-002	1.859825E-001	-8.085823E-002	-1.046140E-001	4.450548E-002
1.170000E+009	5.758948E-002	-3.461926E-002	1.854918E-001	-8.138120E-002	1.856717E-001	-8.144390E-002	-1.043708E-001	4.497828E-002
1.180000E+009	5.738416E-002	-3.479361E-002	1.851687E-001	-8.199205E-002	1.853576E-001	-8.206800E-002	-1.041178E-001	4.543704E-002
1.190000E+009	5.713957E-002	-3.495964E-002	1.848734E-001	-8.261037E-002	1.849904E-001	-8.265644E-002	-1.038803E-001	4.590945E-002
1.200000E+009	5.692296E-002	-3.513630E-002	1.845509E-001	-8.319806E-002	1.846788E-001	-8.328986E-002	-1.036226E-001	4.637970E-002
1.210000E+009	5.674098E-002	-3.533725E-002	1.842230E-001	-8.381746E-002	1.843592E-001	-8.391012E-002	-1.033830E-001	4.687246E-002
1.220000E+009	5.653960E-002	-3.553423E-002	1.838995E-001	-8.442454E-002	1.840330E-001	-8.449791E-002	-1.031924E-001	4.736840E-002
1.230000E+009	5.632921E-002	-3.571272E-002	1.835501E-001	-8.501039E-002	1.837003E-001	-8.507840E-002	-1.029940E-001	4.778240E-002
1.240000E+009	5.613916E-002	-3.588427E-002	1.832261E-001	-8.561033E-002	1.833756E-001	-8.568211E-002	-1.028162E-001	4.822758E-002
1.250000E+009	5.595413E-002	-3.609440E-002	1.828998E-001	-8.621785E-002	1.830487E-001	-8.629702E-002	-1.026464E-001	4.869307E-002
1.260000E+009	5.573717E-002	-3.626811E-002	1.825586E-001	-8.683673E-002	1.827078E-001	-8.689676E-002	-1.024086E-001	4.906636E-002
1.270000E+009	5.559111E-002	-3.642549E-002	1.822226E-001	-8.742886E-002	1.823746E-001	-8.748808E-002	-1.021959E-001	4.945915E-002
1.280000E+009	5.540475E-002	-3.659128E-002	1.818943E-001	-8.800479E-002	1.820297E-001	-8.807383E-002	-1.019612E-001	4.984236E-002
1.290000E+009	5.522296E-002	-3.673369E-002	1.815457E-001	-8.863912E-002	1.817063E-001	-8.868848E-002	-1.016644E-001	5.023424E-002
1.300000E+009	5.506324E-002	-3.683909E-002	1.811981E-001	-8.922297E-002	1.813626E-001	-8.929888E-002	-1.013401E-001	5.064464E-002
1.310000E+009	5.487588E-002	-3.700031E-002	1.808452E-001	-8.983256E-002	1.809949E-001	-8.991005E-002	-1.010107E-001	5.106411E-002
1.320000E+009	5.466800E-002	-3.710563E-002	1.805010E-001	-9.042362E-002	1.806801E-001	-9.051532E-002	-1.006573E-001	5.153836E-002
1.330000E+009	5.447704E-002	-3.719572E-002	1.801436E-001	-9.099984E-002	1.803194E-001	-9.109732E-002	-1.002555E-001	5.206073E-002
1.340000E+009	5.427083E-002	-3.729610E-002	1.797922E-001	-9.158973E-002	1.799518E-001	-9.167932E-002	-9.990486E-002	5.260687E-002
1.350000E+009	5.403994E-002	-3.738903E-002	1.794387E-001	-9.218808E-002	1.795787E-001	-9.226239E-002	-9.957598E-002	5.318906E-002
1.360000E+009	5.386437E-002	-3.750744E-002	1.790769E-001	-9.277391E-002	1.792300E-001	-9.285323E-002	-9.924045E-002	5.377384E-002
1.370000E+009	5.365545E-002	-3.759633E-002	1.787204E-001	-9.335057E-002	1.788763E-001	-9.343679E-002	-9.896867E-002	5.439391E-002
1.380000E+009	5.341508E-002	-3.773985E-002	1.783482E-001	-9.394839E-002	1.785313E-001	-9.402179E-002	-9.870557E-002	5.495610E-002
1.390000E+009	5.323820E-002	-3.786211E-002	1.779697E-001	-9.452897E-002	1.781409E-001	-9.462388E-002	-9.846054E-002	5.557468E-002
1.400000E+009	5.300771E-002	-3.799347E-002	1.776067E-001	-9.510179E-002	1.777574E-001	-9.518330E-002	-9.821582E-002	5.613162E-002
1.410000E+009	5.278315E-002	-3.809614E-002	1.772606E-001	-9.568655E-002	1.773790E-001	-9.575851E-002	-9.797767E-002	5.668235E-002
1.420000E+009	5.255503E-002	-3.819467E-002	1.768526E-001	-9.623427E-002	1.770287E-001	-9.632766E-002	-9.775293E-002	5.719302E-002
1.430000E+009	5.237192E-002	-3.831038E-002	1.765028E-001	-9.681672E-002	1.766509E-001	-9.690959E-002	-9.748289E-002	5.772052E-002
1.440000E+009	5.215231E-002	-3.840842E-002	1.761190E-001	-9.739101E-002	1.762906E-001	-9.749032E-002	-9.721106E-002	5.822433E-002
1.450000E+009	5.190847E-002	-3.850356E-002	1.757256E-001	-9.797079E-002	1.759053E-001	-9.805083E-002	-9.692637E-002	5.876083E-002
1.460000E+009	5.165946E-002	-3.859533E-002	1.753686E-001	-9.854633E-002	1.755119E-001	-9.863974E-002	-9.663496E-002	5.928543E-002
1.470000E+009	5.143847E-002	-3.873029E-002	1.749761E-001	-9.913102E-002	1.751316E-001	-9.920737E-002	-9.634062E-002	5.983749E-002
1.480000E+009	5.119952E-002	-3.880723E-002	1.745832E-001	-9.966331E-002	1.747262E-001	-9.976716E-002	-9.603153E-002	6.043639E-002
1.490000E+009	5.098574E-002	-3.891291E-002	1.741975E-001	-1.002356E-001	1.743411E-001	-1.003109E-001	-9.571458E-002	6.103690E-002
1.500000E+009	5.077430E-002	-3.903488E-002	1.738171E-001	-1.007992E-001	1.739624E-001	-1.008774E-001	-9.536479E-002	6.161644E-002
