! Device ID: PE43711P
! File Path: z:\PE43711P\CHAR_NOM_04282014\AMB\3p300\LS_ATT_16p00dB\PE43711P_AMB_3p300V_3p000V_0p000V_LS_ATT_16p00dB_S2P_SN_5_A0137A.s2p
! Serial: 5
! Lot: A0137A
! Temp: 25C
! VDD: 3.300
! VSS: 0.000
! Control_Hi: 3.000
! Control_Lo: 0.000
! Attenuation Step: 16.00dB
! Port 1: RF1
! Port 2: RF2
! ThroughPath:1-2
! IDD: 0.0001270914
! ISS: -6.23e-008
!

#  Hz  S   RI  R   50

1.000000E+007	6.394874E-002	2.890741E-005	1.387812E-001	-5.886974E-004	1.389475E-001	-6.826567E-004	-1.311046E-001	9.482081E-004
2.000000E+007	6.414036E-002	-6.845280E-005	1.387691E-001	-1.000864E-003	1.388500E-001	-1.025973E-003	-1.308029E-001	1.570915E-003
3.000000E+007	6.438852E-002	-2.560393E-004	1.387701E-001	-1.519448E-003	1.388629E-001	-1.540362E-003	-1.304971E-001	2.077182E-003
4.000000E+007	6.451923E-002	-4.583059E-004	1.387811E-001	-2.021724E-003	1.388610E-001	-2.038818E-003	-1.303091E-001	2.667633E-003
5.000000E+007	6.463894E-002	-7.091755E-004	1.387526E-001	-2.570196E-003	1.388673E-001	-2.572121E-003	-1.302668E-001	3.258303E-003
6.000000E+007	6.476796E-002	-9.948845E-004	1.387075E-001	-3.073533E-003	1.388513E-001	-3.080135E-003	-1.301199E-001	3.729323E-003
7.000000E+007	6.488458E-002	-1.292747E-003	1.386756E-001	-3.574715E-003	1.388023E-001	-3.587099E-003	-1.299347E-001	4.188530E-003
8.000000E+007	6.498793E-002	-1.569096E-003	1.386524E-001	-4.057786E-003	1.387819E-001	-4.067090E-003	-1.297736E-001	4.631787E-003
9.000000E+007	6.508267E-002	-1.864832E-003	1.386486E-001	-4.561396E-003	1.387418E-001	-4.558258E-003	-1.296516E-001	5.032298E-003
1.000000E+008	6.518678E-002	-2.144564E-003	1.386253E-001	-5.061136E-003	1.387211E-001	-5.064975E-003	-1.295843E-001	5.447276E-003
1.100000E+008	6.527393E-002	-2.453197E-003	1.385858E-001	-5.581832E-003	1.386718E-001	-5.567306E-003	-1.294917E-001	5.856903E-003
1.200000E+008	6.536964E-002	-2.780157E-003	1.385031E-001	-6.078541E-003	1.386237E-001	-6.073702E-003	-1.293915E-001	6.188094E-003
1.300000E+008	6.544638E-002	-3.089063E-003	1.384712E-001	-6.559904E-003	1.385941E-001	-6.581194E-003	-1.292758E-001	6.545414E-003
1.400000E+008	6.547121E-002	-3.352590E-003	1.384147E-001	-7.057997E-003	1.385375E-001	-7.081159E-003	-1.291530E-001	6.908501E-003
1.500000E+008	6.546029E-002	-3.629875E-003	1.383686E-001	-7.520102E-003	1.384541E-001	-7.544189E-003	-1.290418E-001	7.242099E-003
1.600000E+008	6.545036E-002	-3.852898E-003	1.383516E-001	-8.013400E-003	1.383973E-001	-8.017361E-003	-1.289868E-001	7.587998E-003
1.700000E+008	6.549116E-002	-4.116498E-003	1.382963E-001	-8.535972E-003	1.384252E-001	-8.516280E-003	-1.289418E-001	7.932976E-003
1.800000E+008	6.545824E-002	-4.403744E-003	1.381895E-001	-9.051870E-003	1.383784E-001	-9.051970E-003	-1.288371E-001	8.290223E-003
1.900000E+008	6.538018E-002	-4.719062E-003	1.381046E-001	-9.532819E-003	1.382864E-001	-9.549442E-003	-1.287921E-001	8.568092E-003
2.000000E+008	6.528189E-002	-5.031535E-003	1.380521E-001	-1.000001E-002	1.381979E-001	-1.000662E-002	-1.287025E-001	8.826888E-003
2.100000E+008	6.519948E-002	-5.409535E-003	1.379967E-001	-1.047100E-002	1.381299E-001	-1.048041E-002	-1.285929E-001	9.051525E-003
2.200000E+008	6.511845E-002	-5.744290E-003	1.379584E-001	-1.093456E-002	1.380656E-001	-1.093991E-002	-1.284794E-001	9.274184E-003
2.300000E+008	6.505628E-002	-6.095183E-003	1.378854E-001	-1.141390E-002	1.380100E-001	-1.140918E-002	-1.283395E-001	9.504843E-003
2.400000E+008	6.500957E-002	-6.442995E-003	1.378274E-001	-1.191354E-002	1.379104E-001	-1.190505E-002	-1.281929E-001	9.774040E-003
2.500000E+008	6.493667E-002	-6.770305E-003	1.377395E-001	-1.240674E-002	1.378510E-001	-1.238160E-002	-1.279987E-001	1.002181E-002
2.600000E+008	6.494631E-002	-7.114591E-003	1.376476E-001	-1.288390E-002	1.377702E-001	-1.287571E-002	-1.277828E-001	1.034069E-002
2.700000E+008	6.493874E-002	-7.423566E-003	1.375643E-001	-1.335162E-002	1.376804E-001	-1.335314E-002	-1.275417E-001	1.068061E-002
2.800000E+008	6.491488E-002	-7.716570E-003	1.374781E-001	-1.379836E-002	1.375932E-001	-1.379654E-002	-1.273362E-001	1.100742E-002
2.900000E+008	6.486148E-002	-7.985879E-003	1.374279E-001	-1.426441E-002	1.375114E-001	-1.427660E-002	-1.271869E-001	1.133522E-002
3.000000E+008	6.484172E-002	-8.224921E-003	1.373471E-001	-1.474475E-002	1.374603E-001	-1.473308E-002	-1.270336E-001	1.172102E-002
3.100000E+008	6.475443E-002	-8.451681E-003	1.372618E-001	-1.524105E-002	1.373698E-001	-1.521819E-002	-1.269217E-001	1.212337E-002
3.200000E+008	6.467455E-002	-8.667274E-003	1.371794E-001	-1.571994E-002	1.373016E-001	-1.569393E-002	-1.268039E-001	1.248896E-002
3.300000E+008	6.455574E-002	-8.887428E-003	1.370803E-001	-1.618659E-002	1.372052E-001	-1.620985E-002	-1.267023E-001	1.285675E-002
3.400000E+008	6.437882E-002	-9.121644E-003	1.369909E-001	-1.666351E-002	1.370661E-001	-1.669424E-002	-1.265743E-001	1.316501E-002
3.500000E+008	6.420580E-002	-9.379305E-003	1.369004E-001	-1.713445E-002	1.369377E-001	-1.714191E-002	-1.264322E-001	1.343931E-002
3.600000E+008	6.403485E-002	-9.618546E-003	1.368121E-001	-1.760674E-002	1.368404E-001	-1.755707E-002	-1.262691E-001	1.372569E-002
3.700000E+008	6.388669E-002	-9.880250E-003	1.366886E-001	-1.805685E-002	1.367684E-001	-1.798953E-002	-1.260606E-001	1.398468E-002
3.800000E+008	6.374027E-002	-1.017165E-002	1.365804E-001	-1.850457E-002	1.367018E-001	-1.845200E-002	-1.258650E-001	1.427544E-002
3.900000E+008	6.357664E-002	-1.049062E-002	1.364633E-001	-1.898420E-002	1.366025E-001	-1.893835E-002	-1.255830E-001	1.462801E-002
4.000000E+008	6.346441E-002	-1.082039E-002	1.363453E-001	-1.940913E-002	1.365004E-001	-1.942337E-002	-1.252658E-001	1.495197E-002
4.100000E+008	6.331436E-002	-1.111601E-002	1.362476E-001	-1.982623E-002	1.363763E-001	-1.986522E-002	-1.249755E-001	1.529463E-002
4.200000E+008	6.319388E-002	-1.143021E-002	1.361758E-001	-2.027840E-002	1.362801E-001	-2.030021E-002	-1.247592E-001	1.569524E-002
4.300000E+008	6.308359E-002	-1.170708E-002	1.360826E-001	-2.075498E-002	1.361639E-001	-2.078051E-002	-1.245314E-001	1.612119E-002
4.400000E+008	6.297494E-002	-1.195080E-002	1.359753E-001	-2.120790E-002	1.360714E-001	-2.122179E-002	-1.243467E-001	1.657058E-002
4.500000E+008	6.288221E-002	-1.220388E-002	1.358663E-001	-2.168677E-002	1.359741E-001	-2.168406E-002	-1.241600E-001	1.706185E-002
4.600000E+008	6.278234E-002	-1.246382E-002	1.357532E-001	-2.215240E-002	1.358702E-001	-2.214322E-002	-1.239682E-001	1.753985E-002
4.700000E+008	6.265746E-002	-1.269597E-002	1.356402E-001	-2.259051E-002	1.357240E-001	-2.259816E-002	-1.238082E-001	1.795472E-002
4.800000E+008	6.250617E-002	-1.288646E-002	1.355263E-001	-2.302877E-002	1.356016E-001	-2.302867E-002	-1.236512E-001	1.838390E-002
4.900000E+008	6.233689E-002	-1.310594E-002	1.354183E-001	-2.347622E-002	1.354890E-001	-2.348299E-002	-1.235186E-001	1.879173E-002
5.000000E+008	6.218842E-002	-1.331769E-002	1.353080E-001	-2.391181E-002	1.353872E-001	-2.391740E-002	-1.233450E-001	1.918548E-002
5.100000E+008	6.205151E-002	-1.354235E-002	1.351779E-001	-2.436912E-002	1.352903E-001	-2.435000E-002	-1.231725E-001	1.956980E-002
5.200000E+008	6.186665E-002	-1.378762E-002	1.350719E-001	-2.481278E-002	1.351707E-001	-2.482603E-002	-1.229928E-001	1.995792E-002
5.300000E+008	6.170018E-002	-1.404891E-002	1.349496E-001	-2.526289E-002	1.350712E-001	-2.527230E-002	-1.227503E-001	2.035363E-002
5.400000E+008	6.150068E-002	-1.435948E-002	1.348253E-001	-2.570189E-002	1.349305E-001	-2.572787E-002	-1.225204E-001	2.074632E-002
5.500000E+008	6.132954E-002	-1.460459E-002	1.347124E-001	-2.615369E-002	1.347956E-001	-2.617415E-002	-1.223102E-001	2.115445E-002
5.600000E+008	6.116324E-002	-1.488568E-002	1.345808E-001	-2.659326E-002	1.346482E-001	-2.661808E-002	-1.220694E-001	2.159423E-002
5.700000E+008	6.102194E-002	-1.516806E-002	1.344431E-001	-2.701392E-002	1.345410E-001	-2.703723E-002	-1.218963E-001	2.205799E-002
5.800000E+008	6.087948E-002	-1.542442E-002	1.343258E-001	-2.746782E-002	1.344255E-001	-2.747274E-002	-1.217325E-001	2.253111E-002
5.900000E+008	6.074246E-002	-1.573379E-002	1.341958E-001	-2.793227E-002	1.342863E-001	-2.793808E-002	-1.215725E-001	2.303389E-002
6.000000E+008	6.064724E-002	-1.602155E-002	1.340630E-001	-2.835297E-002	1.341647E-001	-2.837270E-002	-1.213584E-001	2.347003E-002
6.100000E+008	6.055238E-002	-1.628651E-002	1.339225E-001	-2.878358E-002	1.340196E-001	-2.881043E-002	-1.211935E-001	2.392086E-002
6.200000E+008	6.047157E-002	-1.649000E-002	1.337945E-001	-2.921430E-002	1.338802E-001	-2.923656E-002	-1.210174E-001	2.435747E-002
6.300000E+008	6.039880E-002	-1.671582E-002	1.336461E-001	-2.963567E-002	1.337504E-001	-2.965897E-002	-1.208453E-001	2.478452E-002
6.400000E+008	6.033910E-002	-1.691073E-002	1.335151E-001	-3.006249E-002	1.336155E-001	-3.010094E-002	-1.206501E-001	2.522936E-002
6.500000E+008	6.022617E-002	-1.709724E-002	1.333764E-001	-3.049586E-002	1.334799E-001	-3.051826E-002	-1.204753E-001	2.567771E-002
6.600000E+008	6.012941E-002	-1.729038E-002	1.332586E-001	-3.092116E-002	1.333344E-001	-3.095998E-002	-1.202594E-001	2.613859E-002
6.700000E+008	5.998398E-002	-1.743682E-002	1.331276E-001	-3.136816E-002	1.331887E-001	-3.139276E-002	-1.200999E-001	2.660731E-002
6.800000E+008	5.979212E-002	-1.761521E-002	1.329531E-001	-3.178725E-002	1.330629E-001	-3.182008E-002	-1.199080E-001	2.710600E-002
6.900000E+008	5.962239E-002	-1.777274E-002	1.328072E-001	-3.221844E-002	1.329044E-001	-3.225163E-002	-1.197428E-001	2.759274E-002
7.000000E+008	5.948661E-002	-1.795501E-002	1.326792E-001	-3.265016E-002	1.327512E-001	-3.265561E-002	-1.196002E-001	2.807877E-002
7.100000E+008	5.930173E-002	-1.813163E-002	1.325432E-001	-3.305924E-002	1.326311E-001	-3.307582E-002	-1.194933E-001	2.851961E-002
7.200000E+008	5.912469E-002	-1.833443E-002	1.323898E-001	-3.347009E-002	1.325026E-001	-3.350518E-002	-1.193593E-001	2.898584E-002
7.300000E+008	5.896189E-002	-1.855274E-002	1.322523E-001	-3.390250E-002	1.323524E-001	-3.395007E-002	-1.192556E-001	2.940462E-002
7.400000E+008	5.876727E-002	-1.874058E-002	1.320921E-001	-3.433717E-002	1.322157E-001	-3.437150E-002	-1.191390E-001	2.981680E-002
7.500000E+008	5.860295E-002	-1.895584E-002	1.319414E-001	-3.474315E-002	1.320505E-001	-3.480178E-002	-1.190287E-001	3.020338E-002
7.600000E+008	5.843659E-002	-1.918409E-002	1.318133E-001	-3.517540E-002	1.319022E-001	-3.522627E-002	-1.188730E-001	3.058690E-002
7.700000E+008	5.825862E-002	-1.942118E-002	1.316663E-001	-3.559759E-002	1.317615E-001	-3.562615E-002	-1.187083E-001	3.094718E-002
7.800000E+008	5.810320E-002	-1.963578E-002	1.315226E-001	-3.601587E-002	1.316120E-001	-3.604587E-002	-1.185519E-001	3.130115E-002
7.900000E+008	5.794300E-002	-1.990779E-002	1.313535E-001	-3.643228E-002	1.314633E-001	-3.649001E-002	-1.183945E-001	3.171589E-002
8.000000E+008	5.780997E-002	-2.012880E-002	1.312126E-001	-3.686197E-002	1.312967E-001	-3.688785E-002	-1.181624E-001	3.212551E-002
8.100000E+008	5.767274E-002	-2.038449E-002	1.310532E-001	-3.726583E-002	1.311320E-001	-3.729021E-002	-1.179234E-001	3.256190E-002
8.200000E+008	5.757891E-002	-2.060644E-002	1.308863E-001	-3.769399E-002	1.309820E-001	-3.772112E-002	-1.176991E-001	3.294738E-002
8.300000E+008	5.747831E-002	-2.082897E-002	1.307189E-001	-3.809664E-002	1.308236E-001	-3.812413E-002	-1.174981E-001	3.338611E-002
8.400000E+008	5.740508E-002	-2.103851E-002	1.305833E-001	-3.851188E-002	1.306782E-001	-3.855164E-002	-1.173006E-001	3.381294E-002
8.500000E+008	5.731114E-002	-2.121632E-002	1.304229E-001	-3.891948E-002	1.305167E-001	-3.896954E-002	-1.171528E-001	3.425447E-002
8.600000E+008	5.720379E-002	-2.138384E-002	1.302667E-001	-3.932569E-002	1.303317E-001	-3.937025E-002	-1.169901E-001	3.467239E-002
8.700000E+008	5.710025E-002	-2.151878E-002	1.300972E-001	-3.974336E-002	1.301905E-001	-3.977590E-002	-1.168099E-001	3.509601E-002
8.800000E+008	5.696845E-002	-2.164553E-002	1.299538E-001	-4.016140E-002	1.300406E-001	-4.019188E-002	-1.166625E-001	3.549035E-002
8.900000E+008	5.682964E-002	-2.181045E-002	1.297714E-001	-4.056918E-002	1.298958E-001	-4.061310E-002	-1.164945E-001	3.587781E-002
9.000000E+008	5.667052E-002	-2.195082E-002	1.296087E-001	-4.097796E-002	1.297220E-001	-4.101603E-002	-1.163037E-001	3.628144E-002
9.100000E+008	5.650048E-002	-2.212149E-002	1.294436E-001	-4.139484E-002	1.295548E-001	-4.143045E-002	-1.160891E-001	3.663012E-002
9.200000E+008	5.630799E-002	-2.230637E-002	1.292708E-001	-4.178892E-002	1.293872E-001	-4.183472E-002	-1.158394E-001	3.703620E-002
9.300000E+008	5.618351E-002	-2.249385E-002	1.290918E-001	-4.219265E-002	1.291934E-001	-4.225183E-002	-1.155637E-001	3.743531E-002
9.400000E+008	5.606154E-002	-2.270050E-002	1.289301E-001	-4.258365E-002	1.290470E-001	-4.264240E-002	-1.152334E-001	3.785168E-002
9.500000E+008	5.593561E-002	-2.291178E-002	1.287635E-001	-4.300246E-002	1.288631E-001	-4.306320E-002	-1.149355E-001	3.832531E-002
9.600000E+008	5.580260E-002	-2.306402E-002	1.285900E-001	-4.340592E-002	1.287259E-001	-4.345717E-002	-1.146267E-001	3.878429E-002
9.700000E+008	5.569989E-002	-2.320853E-002	1.284450E-001	-4.379545E-002	1.285482E-001	-4.384973E-002	-1.143211E-001	3.926979E-002
9.800000E+008	5.562224E-002	-2.336480E-002	1.282768E-001	-4.418626E-002	1.283877E-001	-4.427394E-002	-1.140577E-001	3.977641E-002
9.900000E+008	5.553041E-002	-2.349992E-002	1.281026E-001	-4.461205E-002	1.282107E-001	-4.468384E-002	-1.137877E-001	4.026545E-002
1.000000E+009	5.540629E-002	-2.361313E-002	1.279342E-001	-4.500532E-002	1.280286E-001	-4.507193E-002	-1.135675E-001	4.075096E-002
1.010000E+009	5.526923E-002	-2.371720E-002	1.277567E-001	-4.541274E-002	1.278394E-001	-4.546602E-002	-1.133301E-001	4.127123E-002
1.020000E+009	5.512798E-002	-2.383545E-002	1.275842E-001	-4.583807E-002	1.276838E-001	-4.588193E-002	-1.131553E-001	4.175407E-002
1.030000E+009	5.499696E-002	-2.393824E-002	1.274048E-001	-4.622580E-002	1.274959E-001	-4.627296E-002	-1.129700E-001	4.225475E-002
1.040000E+009	5.483514E-002	-2.405896E-002	1.272136E-001	-4.661854E-002	1.273161E-001	-4.667550E-002	-1.127453E-001	4.272274E-002
1.050000E+009	5.467732E-002	-2.419758E-002	1.270447E-001	-4.701895E-002	1.271414E-001	-4.705802E-002	-1.125145E-001	4.321287E-002
1.060000E+009	5.453981E-002	-2.431292E-002	1.268825E-001	-4.741543E-002	1.269632E-001	-4.745546E-002	-1.122677E-001	4.370381E-002
1.070000E+009	5.438247E-002	-2.445734E-002	1.266836E-001	-4.779041E-002	1.267906E-001	-4.784670E-002	-1.120051E-001	4.417427E-002
1.080000E+009	5.421692E-002	-2.460986E-002	1.265052E-001	-4.820874E-002	1.266056E-001	-4.824120E-002	-1.117399E-001	4.468567E-002
1.090000E+009	5.409049E-002	-2.473282E-002	1.263195E-001	-4.859883E-002	1.264420E-001	-4.865329E-002	-1.114932E-001	4.514523E-002
1.100000E+009	5.395047E-002	-2.486112E-002	1.261366E-001	-4.899914E-002	1.262369E-001	-4.904087E-002	-1.112771E-001	4.563966E-002
1.110000E+009	5.383489E-002	-2.497608E-002	1.259459E-001	-4.938911E-002	1.260649E-001	-4.942459E-002	-1.110377E-001	4.611475E-002
1.120000E+009	5.365368E-002	-2.511347E-002	1.257747E-001	-4.979570E-002	1.258920E-001	-4.985053E-002	-1.108649E-001	4.660574E-002
1.130000E+009	5.351148E-002	-2.523194E-002	1.255726E-001	-5.018124E-002	1.256896E-001	-5.023916E-002	-1.106509E-001	4.704763E-002
1.140000E+009	5.334793E-002	-2.535429E-002	1.254003E-001	-5.059323E-002	1.255099E-001	-5.063157E-002	-1.104498E-001	4.753878E-002
1.150000E+009	5.320624E-002	-2.547834E-002	1.251916E-001	-5.098528E-002	1.253184E-001	-5.103055E-002	-1.102025E-001	4.801351E-002
1.160000E+009	5.304604E-002	-2.560532E-002	1.250058E-001	-5.136497E-002	1.251156E-001	-5.143793E-002	-1.099703E-001	4.845697E-002
1.170000E+009	5.288334E-002	-2.573731E-002	1.248019E-001	-5.176689E-002	1.249102E-001	-5.180925E-002	-1.097158E-001	4.895084E-002
1.180000E+009	5.275503E-002	-2.587628E-002	1.245991E-001	-5.215313E-002	1.247106E-001	-5.219697E-002	-1.094376E-001	4.941435E-002
1.190000E+009	5.258063E-002	-2.598092E-002	1.244231E-001	-5.257602E-002	1.245048E-001	-5.258700E-002	-1.091762E-001	4.993538E-002
1.200000E+009	5.242319E-002	-2.611599E-002	1.242346E-001	-5.293673E-002	1.243247E-001	-5.298258E-002	-1.088858E-001	5.042437E-002
1.210000E+009	5.229589E-002	-2.628700E-002	1.240233E-001	-5.332437E-002	1.241021E-001	-5.336596E-002	-1.086513E-001	5.095293E-002
1.220000E+009	5.214903E-002	-2.644275E-002	1.238145E-001	-5.370560E-002	1.239222E-001	-5.376257E-002	-1.084250E-001	5.145246E-002
1.230000E+009	5.201006E-002	-2.657985E-002	1.235951E-001	-5.409526E-002	1.237283E-001	-5.413966E-002	-1.081907E-001	5.191464E-002
1.240000E+009	5.187595E-002	-2.675603E-002	1.234178E-001	-5.448365E-002	1.235190E-001	-5.451750E-002	-1.080001E-001	5.237017E-002
1.250000E+009	5.175545E-002	-2.690086E-002	1.232186E-001	-5.487980E-002	1.233231E-001	-5.491315E-002	-1.077929E-001	5.283749E-002
1.260000E+009	5.159886E-002	-2.703558E-002	1.229936E-001	-5.525463E-002	1.231086E-001	-5.531168E-002	-1.075515E-001	5.327077E-002
1.270000E+009	5.154512E-002	-2.717045E-002	1.227936E-001	-5.564067E-002	1.229029E-001	-5.567932E-002	-1.072653E-001	5.367797E-002
1.280000E+009	5.142565E-002	-2.730932E-002	1.225976E-001	-5.603512E-002	1.227204E-001	-5.607599E-002	-1.070234E-001	5.408593E-002
1.290000E+009	5.132122E-002	-2.738422E-002	1.223742E-001	-5.643961E-002	1.224809E-001	-5.645100E-002	-1.066941E-001	5.448549E-002
1.300000E+009	5.123387E-002	-2.747193E-002	1.221734E-001	-5.681418E-002	1.222907E-001	-5.684176E-002	-1.063490E-001	5.492404E-002
1.310000E+009	5.109058E-002	-2.758506E-002	1.219581E-001	-5.720179E-002	1.220968E-001	-5.722785E-002	-1.060074E-001	5.537132E-002
1.320000E+009	5.096448E-002	-2.766455E-002	1.217464E-001	-5.758539E-002	1.218492E-001	-5.760903E-002	-1.056139E-001	5.585490E-002
1.330000E+009	5.083625E-002	-2.772131E-002	1.215311E-001	-5.793796E-002	1.216491E-001	-5.801165E-002	-1.052093E-001	5.642855E-002
1.340000E+009	5.068173E-002	-2.780000E-002	1.213160E-001	-5.833095E-002	1.214146E-001	-5.837913E-002	-1.048314E-001	5.699025E-002
1.350000E+009	5.051898E-002	-2.788705E-002	1.210895E-001	-5.870210E-002	1.212012E-001	-5.876536E-002	-1.044609E-001	5.759955E-002
1.360000E+009	5.041919E-002	-2.794034E-002	1.208697E-001	-5.908480E-002	1.209826E-001	-5.913085E-002	-1.041133E-001	5.819119E-002
1.370000E+009	5.025247E-002	-2.803534E-002	1.206497E-001	-5.946540E-002	1.207631E-001	-5.952730E-002	-1.038068E-001	5.881502E-002
1.380000E+009	5.012287E-002	-2.813938E-002	1.204218E-001	-5.984840E-002	1.205380E-001	-5.989172E-002	-1.035068E-001	5.941851E-002
1.390000E+009	4.997798E-002	-2.822807E-002	1.201918E-001	-6.021248E-002	1.203069E-001	-6.026229E-002	-1.032423E-001	6.004885E-002
1.400000E+009	4.984746E-002	-2.832789E-002	1.199666E-001	-6.057897E-002	1.200845E-001	-6.063587E-002	-1.029702E-001	6.061733E-002
1.410000E+009	4.969010E-002	-2.839701E-002	1.197490E-001	-6.096885E-002	1.198472E-001	-6.099935E-002	-1.026938E-001	6.120825E-002
1.420000E+009	4.952676E-002	-2.847536E-002	1.195191E-001	-6.132218E-002	1.196321E-001	-6.136015E-002	-1.024453E-001	6.175134E-002
1.430000E+009	4.940175E-002	-2.854373E-002	1.192774E-001	-6.171163E-002	1.193947E-001	-6.176387E-002	-1.021531E-001	6.228525E-002
1.440000E+009	4.922164E-002	-2.861284E-002	1.190570E-001	-6.207385E-002	1.191369E-001	-6.212209E-002	-1.018763E-001	6.280546E-002
1.450000E+009	4.907472E-002	-2.870040E-002	1.188131E-001	-6.242961E-002	1.189361E-001	-6.248842E-002	-1.015431E-001	6.333689E-002
1.460000E+009	4.889246E-002	-2.877125E-002	1.185811E-001	-6.282814E-002	1.186874E-001	-6.286189E-002	-1.012180E-001	6.390301E-002
1.470000E+009	4.872261E-002	-2.888166E-002	1.183677E-001	-6.319080E-002	1.184667E-001	-6.321625E-002	-1.008908E-001	6.446368E-002
1.480000E+009	4.855440E-002	-2.891426E-002	1.180980E-001	-6.353129E-002	1.182137E-001	-6.358022E-002	-1.005635E-001	6.507204E-002
1.490000E+009	4.841070E-002	-2.903521E-002	1.178636E-001	-6.390473E-002	1.179767E-001	-6.395833E-002	-1.002016E-001	6.567974E-002
1.500000E+009	4.825885E-002	-2.913067E-002	1.176385E-001	-6.426864E-002	1.177264E-001	-6.430760E-002	-9.985110E-002	6.629796E-002
