! Device ID: PE43711P
! File Path: z:\PE43711P\CHAR_NOM_04282014\AMB\3p300\LS_ATT_27p50dB\PE43711P_AMB_3p300V_3p000V_0p000V_LS_ATT_27p50dB_S2P_SN_5_A0137A.s2p
! Serial: 5
! Lot: A0137A
! Temp: 25C
! VDD: 3.300
! VSS: 0.000
! Control_Hi: 3.000
! Control_Lo: 0.000
! Attenuation Step: 27.50dB
! Port 1: RF1
! Port 2: RF2
! ThroughPath:1-2
! IDD: 0.0001279205
! ISS: -8.47e-008
!

#  Hz  S   RI  R   50

1.000000E+007	3.110530E-002	4.431564E-004	3.652067E-002	-1.457264E-004	3.656951E-002	-1.544199E-004	-1.198906E-001	9.612711E-004
2.000000E+007	3.136968E-002	5.556034E-004	3.653598E-002	-2.133947E-004	3.654992E-002	-2.315342E-004	-1.196292E-001	1.525890E-003
3.000000E+007	3.161834E-002	6.557394E-004	3.652675E-002	-3.261943E-004	3.655388E-002	-3.365386E-004	-1.193283E-001	2.032730E-003
4.000000E+007	3.178538E-002	7.572913E-004	3.652464E-002	-4.322335E-004	3.655483E-002	-4.398031E-004	-1.191500E-001	2.586070E-003
5.000000E+007	3.189298E-002	8.280194E-004	3.653121E-002	-5.600671E-004	3.654753E-002	-5.428744E-004	-1.191126E-001	3.186714E-003
6.000000E+007	3.205285E-002	8.459819E-004	3.652260E-002	-6.593372E-004	3.655637E-002	-6.485703E-004	-1.189747E-001	3.635809E-003
7.000000E+007	3.218299E-002	8.550078E-004	3.651123E-002	-7.809728E-004	3.654194E-002	-7.626983E-004	-1.187815E-001	4.091333E-003
8.000000E+007	3.232492E-002	8.758541E-004	3.650431E-002	-8.849182E-004	3.653873E-002	-8.760185E-004	-1.186257E-001	4.533488E-003
9.000000E+007	3.245421E-002	8.714981E-004	3.649873E-002	-9.832489E-004	3.653928E-002	-9.844563E-004	-1.185224E-001	4.916507E-003
1.000000E+008	3.258272E-002	8.902736E-004	3.650128E-002	-1.097150E-003	3.652862E-002	-1.087105E-003	-1.184544E-001	5.318906E-003
1.100000E+008	3.271829E-002	8.859481E-004	3.648589E-002	-1.198836E-003	3.651494E-002	-1.204543E-003	-1.183735E-001	5.702700E-003
1.200000E+008	3.286624E-002	8.376782E-004	3.648687E-002	-1.319452E-003	3.652533E-002	-1.320033E-003	-1.182471E-001	6.030403E-003
1.300000E+008	3.297537E-002	8.332783E-004	3.647488E-002	-1.425355E-003	3.649885E-002	-1.418196E-003	-1.181342E-001	6.385286E-003
1.400000E+008	3.307467E-002	8.519382E-004	3.647143E-002	-1.524843E-003	3.649920E-002	-1.531831E-003	-1.180262E-001	6.730287E-003
1.500000E+008	3.311378E-002	8.860383E-004	3.645375E-002	-1.622414E-003	3.647612E-002	-1.619117E-003	-1.179289E-001	7.060574E-003
1.600000E+008	3.318229E-002	9.513593E-004	3.645383E-002	-1.729513E-003	3.646710E-002	-1.732452E-003	-1.178468E-001	7.401904E-003
1.700000E+008	3.326323E-002	9.723371E-004	3.642856E-002	-1.848158E-003	3.647868E-002	-1.827390E-003	-1.177681E-001	7.747227E-003
1.800000E+008	3.332848E-002	9.778717E-004	3.642078E-002	-1.951352E-003	3.646961E-002	-1.949851E-003	-1.176599E-001	8.080480E-003
1.900000E+008	3.331108E-002	9.600035E-004	3.639821E-002	-2.056777E-003	3.645752E-002	-2.066206E-003	-1.176115E-001	8.368352E-003
2.000000E+008	3.328681E-002	9.237207E-004	3.639375E-002	-2.172303E-003	3.642508E-002	-2.164329E-003	-1.175356E-001	8.614799E-003
2.100000E+008	3.326427E-002	8.320911E-004	3.639065E-002	-2.277805E-003	3.642125E-002	-2.269370E-003	-1.174633E-001	8.818815E-003
2.200000E+008	3.326346E-002	7.648560E-004	3.636679E-002	-2.379334E-003	3.639620E-002	-2.348400E-003	-1.173600E-001	9.007468E-003
2.300000E+008	3.327547E-002	6.990263E-004	3.636413E-002	-2.469487E-003	3.639748E-002	-2.468784E-003	-1.172145E-001	9.230948E-003
2.400000E+008	3.333822E-002	6.089743E-004	3.635535E-002	-2.590486E-003	3.637548E-002	-2.567968E-003	-1.170491E-001	9.479375E-003
2.500000E+008	3.335558E-002	5.554248E-004	3.633343E-002	-2.670749E-003	3.637209E-002	-2.681371E-003	-1.168453E-001	9.735199E-003
2.600000E+008	3.344378E-002	4.760078E-004	3.630834E-002	-2.794246E-003	3.634558E-002	-2.787713E-003	-1.166076E-001	1.005056E-002
2.700000E+008	3.352374E-002	4.389786E-004	3.630118E-002	-2.894255E-003	3.633479E-002	-2.890208E-003	-1.163735E-001	1.037009E-002
2.800000E+008	3.362332E-002	4.218292E-004	3.628387E-002	-2.996001E-003	3.631234E-002	-2.991249E-003	-1.161573E-001	1.069376E-002
2.900000E+008	3.366376E-002	4.042081E-004	3.626806E-002	-3.105648E-003	3.630260E-002	-3.091023E-003	-1.160091E-001	1.104248E-002
3.000000E+008	3.371961E-002	4.318665E-004	3.625994E-002	-3.198622E-003	3.629307E-002	-3.198390E-003	-1.158655E-001	1.141235E-002
3.100000E+008	3.373246E-002	4.577636E-004	3.624535E-002	-3.305856E-003	3.626450E-002	-3.305153E-003	-1.157374E-001	1.179281E-002
3.200000E+008	3.375371E-002	5.076596E-004	3.621663E-002	-3.400261E-003	3.626385E-002	-3.410140E-003	-1.156422E-001	1.215558E-002
3.300000E+008	3.372097E-002	5.460204E-004	3.620383E-002	-3.527235E-003	3.624766E-002	-3.505942E-003	-1.155315E-001	1.249931E-002
3.400000E+008	3.367213E-002	5.482863E-004	3.619420E-002	-3.622717E-003	3.621503E-002	-3.633778E-003	-1.154156E-001	1.278195E-002
3.500000E+008	3.360621E-002	5.294891E-004	3.617122E-002	-3.738972E-003	3.619223E-002	-3.715092E-003	-1.152505E-001	1.303163E-002
3.600000E+008	3.355658E-002	5.177231E-004	3.615478E-002	-3.818421E-003	3.615267E-002	-3.819162E-003	-1.150727E-001	1.332088E-002
3.700000E+008	3.349290E-002	4.826707E-004	3.613102E-002	-3.922430E-003	3.614647E-002	-3.896324E-003	-1.148723E-001	1.356349E-002
3.800000E+008	3.345653E-002	4.369654E-004	3.612339E-002	-4.026296E-003	3.613429E-002	-3.998614E-003	-1.146630E-001	1.385415E-002
3.900000E+008	3.341857E-002	3.721321E-004	3.608703E-002	-4.128767E-003	3.612010E-002	-4.107000E-003	-1.143837E-001	1.419012E-002
4.000000E+008	3.342249E-002	3.012527E-004	3.606216E-002	-4.228150E-003	3.611122E-002	-4.210845E-003	-1.140573E-001	1.451483E-002
4.100000E+008	3.340766E-002	2.143875E-004	3.603682E-002	-4.325087E-003	3.608953E-002	-4.315778E-003	-1.137675E-001	1.484572E-002
4.200000E+008	3.339032E-002	1.412995E-004	3.603423E-002	-4.408967E-003	3.606871E-002	-4.403263E-003	-1.135612E-001	1.522792E-002
4.300000E+008	3.339406E-002	9.680939E-005	3.601611E-002	-4.528545E-003	3.604518E-002	-4.497325E-003	-1.133282E-001	1.564292E-002
4.400000E+008	3.339878E-002	8.026805E-005	3.598804E-002	-4.605470E-003	3.602282E-002	-4.608776E-003	-1.131386E-001	1.609250E-002
4.500000E+008	3.342546E-002	5.480317E-005	3.596761E-002	-4.716610E-003	3.600136E-002	-4.715674E-003	-1.129290E-001	1.654921E-002
4.600000E+008	3.342865E-002	1.445764E-005	3.594923E-002	-4.832353E-003	3.597807E-002	-4.820422E-003	-1.127313E-001	1.700763E-002
4.700000E+008	3.344857E-002	-8.237243E-006	3.592415E-002	-4.910936E-003	3.595377E-002	-4.915944E-003	-1.125623E-001	1.740270E-002
4.800000E+008	3.342424E-002	-1.121807E-005	3.590113E-002	-5.016154E-003	3.592548E-002	-5.009968E-003	-1.124001E-001	1.781094E-002
4.900000E+008	3.338366E-002	-1.779428E-005	3.588037E-002	-5.101875E-003	3.590684E-002	-5.112263E-003	-1.122480E-001	1.820850E-002
5.000000E+008	3.335273E-002	1.036165E-005	3.585483E-002	-5.215809E-003	3.588389E-002	-5.199489E-003	-1.120748E-001	1.859854E-002
5.100000E+008	3.333419E-002	1.222925E-005	3.582822E-002	-5.307259E-003	3.586158E-002	-5.303783E-003	-1.118885E-001	1.896224E-002
5.200000E+008	3.328697E-002	-2.100778E-005	3.580530E-002	-5.412493E-003	3.583630E-002	-5.400674E-003	-1.117080E-001	1.935977E-002
5.300000E+008	3.322696E-002	-6.607615E-005	3.579385E-002	-5.510109E-003	3.581972E-002	-5.497874E-003	-1.114653E-001	1.973527E-002
5.400000E+008	3.315725E-002	-1.554061E-004	3.576110E-002	-5.605174E-003	3.580068E-002	-5.598587E-003	-1.112457E-001	2.012132E-002
5.500000E+008	3.311267E-002	-1.997044E-004	3.574071E-002	-5.703239E-003	3.576240E-002	-5.702880E-003	-1.110294E-001	2.051946E-002
5.600000E+008	3.308859E-002	-3.036201E-004	3.572123E-002	-5.807018E-003	3.573376E-002	-5.795651E-003	-1.107918E-001	2.092513E-002
5.700000E+008	3.305520E-002	-3.801911E-004	3.568770E-002	-5.887828E-003	3.571332E-002	-5.896755E-003	-1.106275E-001	2.139539E-002
5.800000E+008	3.304182E-002	-4.663471E-004	3.565340E-002	-5.988495E-003	3.568845E-002	-5.984429E-003	-1.104396E-001	2.182244E-002
5.900000E+008	3.303898E-002	-5.759305E-004	3.563896E-002	-6.097788E-003	3.566804E-002	-6.090251E-003	-1.102400E-001	2.230108E-002
6.000000E+008	3.309123E-002	-6.474768E-004	3.560732E-002	-6.189167E-003	3.564342E-002	-6.184880E-003	-1.100180E-001	2.274451E-002
6.100000E+008	3.312971E-002	-7.014136E-004	3.558629E-002	-6.292936E-003	3.561015E-002	-6.292758E-003	-1.098585E-001	2.319142E-002
6.200000E+008	3.317676E-002	-7.199742E-004	3.556137E-002	-6.376339E-003	3.558194E-002	-6.374861E-003	-1.096599E-001	2.361741E-002
6.300000E+008	3.324747E-002	-7.393377E-004	3.552848E-002	-6.479747E-003	3.556443E-002	-6.481024E-003	-1.094730E-001	2.402822E-002
6.400000E+008	3.329561E-002	-7.537459E-004	3.550899E-002	-6.565031E-003	3.551974E-002	-6.573885E-003	-1.092879E-001	2.445164E-002
6.500000E+008	3.333573E-002	-7.392805E-004	3.547932E-002	-6.674569E-003	3.550919E-002	-6.659548E-003	-1.091042E-001	2.487380E-002
6.600000E+008	3.336274E-002	-7.496901E-004	3.545579E-002	-6.753472E-003	3.547708E-002	-6.752485E-003	-1.089104E-001	2.532087E-002
6.700000E+008	3.333600E-002	-7.326446E-004	3.543583E-002	-6.850699E-003	3.545015E-002	-6.852947E-003	-1.087267E-001	2.577155E-002
6.800000E+008	3.331405E-002	-7.225057E-004	3.539617E-002	-6.945916E-003	3.542197E-002	-6.945984E-003	-1.085361E-001	2.622509E-002
6.900000E+008	3.326737E-002	-7.096605E-004	3.536903E-002	-7.054078E-003	3.539604E-002	-7.041146E-003	-1.083547E-001	2.669213E-002
7.000000E+008	3.326862E-002	-6.879440E-004	3.535324E-002	-7.125433E-003	3.536860E-002	-7.134085E-003	-1.081964E-001	2.716330E-002
7.100000E+008	3.321888E-002	-7.079476E-004	3.530623E-002	-7.217530E-003	3.534202E-002	-7.220959E-003	-1.080609E-001	2.759657E-002
7.200000E+008	3.319087E-002	-7.295071E-004	3.529516E-002	-7.322100E-003	3.531853E-002	-7.307302E-003	-1.079354E-001	2.805878E-002
7.300000E+008	3.315277E-002	-7.498639E-004	3.526579E-002	-7.415843E-003	3.528953E-002	-7.398269E-003	-1.078046E-001	2.846236E-002
7.400000E+008	3.309216E-002	-7.612291E-004	3.522427E-002	-7.513929E-003	3.526867E-002	-7.512080E-003	-1.077003E-001	2.888029E-002
7.500000E+008	3.307831E-002	-7.989486E-004	3.520114E-002	-7.600358E-003	3.523655E-002	-7.587729E-003	-1.075784E-001	2.924415E-002
7.600000E+008	3.305496E-002	-8.608234E-004	3.516738E-002	-7.699374E-003	3.519874E-002	-7.698709E-003	-1.074368E-001	2.961865E-002
7.700000E+008	3.301324E-002	-9.156215E-004	3.513211E-002	-7.784466E-003	3.516442E-002	-7.784915E-003	-1.072792E-001	2.997067E-002
7.800000E+008	3.299946E-002	-9.666790E-004	3.511159E-002	-7.868944E-003	3.513876E-002	-7.860684E-003	-1.070882E-001	3.030697E-002
7.900000E+008	3.296263E-002	-1.060132E-003	3.508129E-002	-7.973693E-003	3.511738E-002	-7.974148E-003	-1.069147E-001	3.067894E-002
8.000000E+008	3.297371E-002	-1.129901E-003	3.505473E-002	-8.065092E-003	3.508136E-002	-8.068974E-003	-1.066730E-001	3.105432E-002
8.100000E+008	3.298516E-002	-1.218810E-003	3.501293E-002	-8.148396E-003	3.502991E-002	-8.159256E-003	-1.064100E-001	3.145698E-002
8.200000E+008	3.305133E-002	-1.256908E-003	3.499029E-002	-8.257395E-003	3.502527E-002	-8.237705E-003	-1.061847E-001	3.185415E-002
8.300000E+008	3.309296E-002	-1.326073E-003	3.495887E-002	-8.335187E-003	3.499202E-002	-8.345118E-003	-1.059593E-001	3.228257E-002
8.400000E+008	3.314624E-002	-1.352273E-003	3.492661E-002	-8.421804E-003	3.496029E-002	-8.427904E-003	-1.057455E-001	3.268516E-002
8.500000E+008	3.320591E-002	-1.351491E-003	3.491497E-002	-8.504923E-003	3.494094E-002	-8.522580E-003	-1.055894E-001	3.312681E-002
8.600000E+008	3.321345E-002	-1.365588E-003	3.486117E-002	-8.600753E-003	3.490302E-002	-8.611627E-003	-1.054095E-001	3.353950E-002
8.700000E+008	3.325325E-002	-1.352395E-003	3.483983E-002	-8.696930E-003	3.485979E-002	-8.695206E-003	-1.052628E-001	3.392460E-002
8.800000E+008	3.328119E-002	-1.331288E-003	3.480164E-002	-8.797722E-003	3.482661E-002	-8.790959E-003	-1.050946E-001	3.430989E-002
8.900000E+008	3.328985E-002	-1.313019E-003	3.478223E-002	-8.866662E-003	3.479066E-002	-8.885252E-003	-1.049208E-001	3.466246E-002
9.000000E+008	3.325694E-002	-1.323447E-003	3.472674E-002	-8.967250E-003	3.476519E-002	-8.986378E-003	-1.047338E-001	3.502538E-002
9.100000E+008	3.323822E-002	-1.316508E-003	3.469667E-002	-9.059012E-003	3.474630E-002	-9.058900E-003	-1.044861E-001	3.537248E-002
9.200000E+008	3.320644E-002	-1.372319E-003	3.466685E-002	-9.152374E-003	3.470475E-002	-9.146430E-003	-1.042117E-001	3.573780E-002
9.300000E+008	3.322611E-002	-1.395695E-003	3.464554E-002	-9.236454E-003	3.466514E-002	-9.242651E-003	-1.039354E-001	3.610371E-002
9.400000E+008	3.324340E-002	-1.449334E-003	3.461540E-002	-9.329971E-003	3.463988E-002	-9.343160E-003	-1.036024E-001	3.651149E-002
9.500000E+008	3.327746E-002	-1.499958E-003	3.458066E-002	-9.409746E-003	3.460393E-002	-9.423791E-003	-1.032777E-001	3.697051E-002
9.600000E+008	3.329472E-002	-1.505849E-003	3.454955E-002	-9.505347E-003	3.456908E-002	-9.506601E-003	-1.029572E-001	3.741083E-002
9.700000E+008	3.334355E-002	-1.510611E-003	3.450712E-002	-9.583787E-003	3.453936E-002	-9.598144E-003	-1.026616E-001	3.787973E-002
9.800000E+008	3.337814E-002	-1.503276E-003	3.448957E-002	-9.679898E-003	3.450619E-002	-9.677245E-003	-1.023710E-001	3.837563E-002
9.900000E+008	3.343293E-002	-1.508123E-003	3.444392E-002	-9.776067E-003	3.449170E-002	-9.777335E-003	-1.021213E-001	3.885719E-002
1.000000E+009	3.344502E-002	-1.448603E-003	3.442041E-002	-9.856178E-003	3.444527E-002	-9.869084E-003	-1.019005E-001	3.931582E-002
1.010000E+009	3.347141E-002	-1.438684E-003	3.438984E-002	-9.953756E-003	3.441994E-002	-9.953617E-003	-1.016581E-001	3.978524E-002
1.020000E+009	3.347931E-002	-1.397521E-003	3.434007E-002	-1.004252E-002	3.437575E-002	-1.005009E-002	-1.014620E-001	4.025669E-002
1.030000E+009	3.347471E-002	-1.368184E-003	3.430880E-002	-1.012171E-002	3.435257E-002	-1.013293E-002	-1.012387E-001	4.069812E-002
1.040000E+009	3.345717E-002	-1.348399E-003	3.428626E-002	-1.020189E-002	3.432594E-002	-1.021579E-002	-1.010317E-001	4.115075E-002
1.050000E+009	3.347254E-002	-1.350833E-003	3.425826E-002	-1.029518E-002	3.428763E-002	-1.031060E-002	-1.007592E-001	4.161131E-002
1.060000E+009	3.348103E-002	-1.338182E-003	3.421721E-002	-1.039435E-002	3.423735E-002	-1.039519E-002	-1.005008E-001	4.210649E-002
1.070000E+009	3.345634E-002	-1.330060E-003	3.417291E-002	-1.047230E-002	3.421316E-002	-1.048842E-002	-1.002152E-001	4.255942E-002
1.080000E+009	3.346330E-002	-1.316122E-003	3.413343E-002	-1.057005E-002	3.417805E-002	-1.056262E-002	-9.996382E-002	4.303813E-002
1.090000E+009	3.347310E-002	-1.323002E-003	3.412651E-002	-1.066288E-002	3.413460E-002	-1.066646E-002	-9.971889E-002	4.348976E-002
1.100000E+009	3.347190E-002	-1.300838E-003	3.408035E-002	-1.075131E-002	3.410920E-002	-1.074680E-002	-9.949465E-002	4.397757E-002
1.110000E+009	3.347022E-002	-1.303523E-003	3.405336E-002	-1.083593E-002	3.406781E-002	-1.084302E-002	-9.925437E-002	4.442251E-002
1.120000E+009	3.344531E-002	-1.287178E-003	3.400331E-002	-1.092807E-002	3.403098E-002	-1.092753E-002	-9.909555E-002	4.484234E-002
1.130000E+009	3.346269E-002	-1.299486E-003	3.395807E-002	-1.102133E-002	3.400688E-002	-1.102097E-002	-9.886435E-002	4.529756E-002
1.140000E+009	3.343537E-002	-1.296964E-003	3.394865E-002	-1.111102E-002	3.397532E-002	-1.110603E-002	-9.862643E-002	4.574367E-002
1.150000E+009	3.344873E-002	-1.279592E-003	3.390192E-002	-1.118180E-002	3.394177E-002	-1.120263E-002	-9.836660E-002	4.616379E-002
1.160000E+009	3.344710E-002	-1.263979E-003	3.386638E-002	-1.128942E-002	3.389076E-002	-1.128164E-002	-9.812590E-002	4.660282E-002
1.170000E+009	3.344760E-002	-1.270078E-003	3.382410E-002	-1.136099E-002	3.386784E-002	-1.137213E-002	-9.784557E-002	4.708419E-002
1.180000E+009	3.344875E-002	-1.261293E-003	3.379623E-002	-1.145353E-002	3.381362E-002	-1.145337E-002	-9.753859E-002	4.753499E-002
1.190000E+009	3.342184E-002	-1.235044E-003	3.374688E-002	-1.155861E-002	3.376828E-002	-1.153902E-002	-9.728602E-002	4.802883E-002
1.200000E+009	3.340454E-002	-1.234814E-003	3.370830E-002	-1.164126E-002	3.374872E-002	-1.163241E-002	-9.697448E-002	4.852636E-002
1.210000E+009	3.342909E-002	-1.259734E-003	3.366536E-002	-1.172036E-002	3.370453E-002	-1.173656E-002	-9.675469E-002	4.900675E-002
1.220000E+009	3.342641E-002	-1.293345E-003	3.363354E-002	-1.180394E-002	3.366162E-002	-1.182125E-002	-9.652213E-002	4.948595E-002
1.230000E+009	3.340908E-002	-1.321173E-003	3.360697E-002	-1.189339E-002	3.362519E-002	-1.191153E-002	-9.628458E-002	4.992027E-002
1.240000E+009	3.342088E-002	-1.364581E-003	3.355335E-002	-1.198775E-002	3.358574E-002	-1.198247E-002	-9.609429E-002	5.034813E-002
1.250000E+009	3.347331E-002	-1.403825E-003	3.352328E-002	-1.207098E-002	3.356408E-002	-1.207157E-002	-9.585925E-002	5.076883E-002
1.260000E+009	3.349164E-002	-1.419760E-003	3.347466E-002	-1.216559E-002	3.351877E-002	-1.213872E-002	-9.559172E-002	5.113828E-002
1.270000E+009	3.357743E-002	-1.430912E-003	3.344956E-002	-1.224027E-002	3.346766E-002	-1.224497E-002	-9.531633E-002	5.153838E-002
1.280000E+009	3.362054E-002	-1.402417E-003	3.340100E-002	-1.233427E-002	3.343240E-002	-1.232856E-002	-9.503281E-002	5.192013E-002
1.290000E+009	3.368876E-002	-1.398548E-003	3.335892E-002	-1.241747E-002	3.338198E-002	-1.241491E-002	-9.468378E-002	5.230677E-002
1.300000E+009	3.372788E-002	-1.353885E-003	3.331004E-002	-1.248341E-002	3.335665E-002	-1.248906E-002	-9.433639E-002	5.271345E-002
1.310000E+009	3.376944E-002	-1.322378E-003	3.327280E-002	-1.258615E-002	3.331166E-002	-1.260311E-002	-9.400208E-002	5.314629E-002
1.320000E+009	3.377332E-002	-1.295374E-003	3.323006E-002	-1.268600E-002	3.327193E-002	-1.268895E-002	-9.360383E-002	5.363615E-002
1.330000E+009	3.379030E-002	-1.230767E-003	3.319696E-002	-1.276686E-002	3.322485E-002	-1.278244E-002	-9.318442E-002	5.413787E-002
1.340000E+009	3.380319E-002	-1.184687E-003	3.316590E-002	-1.285761E-002	3.318651E-002	-1.285881E-002	-9.279759E-002	5.468253E-002
1.350000E+009	3.377435E-002	-1.170573E-003	3.311133E-002	-1.293354E-002	3.313398E-002	-1.294419E-002	-9.243941E-002	5.523400E-002
1.360000E+009	3.382616E-002	-1.129813E-003	3.306482E-002	-1.302044E-002	3.309891E-002	-1.302460E-002	-9.206424E-002	5.582463E-002
1.370000E+009	3.383842E-002	-1.105390E-003	3.301659E-002	-1.311147E-002	3.303391E-002	-1.310807E-002	-9.177061E-002	5.640102E-002
1.380000E+009	3.386831E-002	-1.097372E-003	3.299253E-002	-1.319560E-002	3.300693E-002	-1.319775E-002	-9.142290E-002	5.695616E-002
1.390000E+009	3.388818E-002	-1.070662E-003	3.292322E-002	-1.326369E-002	3.296547E-002	-1.328774E-002	-9.115141E-002	5.755249E-002
1.400000E+009	3.390362E-002	-1.042187E-003	3.288124E-002	-1.336613E-002	3.290665E-002	-1.338596E-002	-9.086035E-002	5.810847E-002
1.410000E+009	3.390765E-002	-1.001499E-003	3.285033E-002	-1.345234E-002	3.285516E-002	-1.345379E-002	-9.057757E-002	5.867575E-002
1.420000E+009	3.390774E-002	-9.692207E-004	3.278710E-002	-1.352384E-002	3.282706E-002	-1.354904E-002	-9.030146E-002	5.918550E-002
1.430000E+009	3.391854E-002	-9.260436E-004	3.273585E-002	-1.361858E-002	3.279191E-002	-1.362907E-002	-9.002326E-002	5.968372E-002
1.440000E+009	3.390722E-002	-8.909713E-004	3.270958E-002	-1.371526E-002	3.273888E-002	-1.368557E-002	-8.972120E-002	6.018100E-002
1.450000E+009	3.390203E-002	-8.522305E-004	3.265121E-002	-1.378308E-002	3.268395E-002	-1.379690E-002	-8.941122E-002	6.069296E-002
1.460000E+009	3.387699E-002	-8.276992E-004	3.261585E-002	-1.386161E-002	3.264047E-002	-1.386898E-002	-8.908693E-002	6.120327E-002
1.470000E+009	3.389662E-002	-8.287114E-004	3.257915E-002	-1.394763E-002	3.258844E-002	-1.395208E-002	-8.873336E-002	6.173257E-002
1.480000E+009	3.388290E-002	-7.923413E-004	3.250221E-002	-1.404241E-002	3.253794E-002	-1.403985E-002	-8.838739E-002	6.228533E-002
1.490000E+009	3.389451E-002	-7.769277E-004	3.247131E-002	-1.410579E-002	3.249073E-002	-1.411935E-002	-8.800740E-002	6.286040E-002
1.500000E+009	3.391075E-002	-7.795502E-004	3.240863E-002	-1.420441E-002	3.245187E-002	-1.420857E-002	-8.763660E-002	6.342499E-002
1.510000E+009	3.393910E-002	-7.522879E-004	3.238170E-002	-1.427852E-002	3.240782E-002	-1.429335E-002	-8.729068E-002	6.398879E-002
