! Device ID: PE43711P
! File Path: z:\PE43711P\CHAR_NOM_04282014\AMB\3p300\LS_ATT_24p00dB\PE43711P_AMB_3p300V_3p000V_0p000V_LS_ATT_24p00dB_S2P_SN_5_A0137A.s2p
! Serial: 5
! Lot: A0137A
! Temp: 25C
! VDD: 3.300
! VSS: 0.000
! Control_Hi: 3.000
! Control_Lo: 0.000
! Attenuation Step: 24.00dB
! Port 1: RF1
! Port 2: RF2
! ThroughPath:1-2
! IDD: 0.0001272133
! ISS: -3.99e-008
!

#  Hz  S   RI  R   50

1.000000E+007	4.245403E-002	2.967566E-004	5.478675E-002	-2.084364E-004	5.484531E-002	-2.373680E-004	-1.195443E-001	9.338729E-004
2.000000E+007	4.266979E-002	3.501173E-004	5.478262E-002	-3.407602E-004	5.480882E-002	-3.561470E-004	-1.192217E-001	1.513615E-003
3.000000E+007	4.292508E-002	3.604191E-004	5.477762E-002	-5.150086E-004	5.481437E-002	-5.324776E-004	-1.189248E-001	2.032293E-003
4.000000E+007	4.308933E-002	3.563869E-004	5.478418E-002	-7.117935E-004	5.481682E-002	-7.135859E-004	-1.187383E-001	2.586050E-003
5.000000E+007	4.320750E-002	3.306202E-004	5.477588E-002	-8.933589E-004	5.480999E-002	-8.892792E-004	-1.186968E-001	3.167712E-003
6.000000E+007	4.335358E-002	2.546850E-004	5.476284E-002	-1.067749E-003	5.480486E-002	-1.070514E-003	-1.185604E-001	3.625631E-003
7.000000E+007	4.347511E-002	1.737859E-004	5.474880E-002	-1.233653E-003	5.478918E-002	-1.246262E-003	-1.183838E-001	4.080946E-003
8.000000E+007	4.360828E-002	8.178649E-005	5.473404E-002	-1.413065E-003	5.477913E-002	-1.421146E-003	-1.182228E-001	4.514991E-003
9.000000E+007	4.372206E-002	4.036003E-006	5.473489E-002	-1.595669E-003	5.476874E-002	-1.595958E-003	-1.181123E-001	4.895159E-003
1.000000E+008	4.384366E-002	-7.729457E-005	5.473250E-002	-1.763747E-003	5.475706E-002	-1.764443E-003	-1.180455E-001	5.306530E-003
1.100000E+008	4.396249E-002	-1.880870E-004	5.471421E-002	-1.953564E-003	5.474899E-002	-1.933451E-003	-1.179625E-001	5.681459E-003
1.200000E+008	4.409318E-002	-3.156604E-004	5.468981E-002	-2.124410E-003	5.474049E-002	-2.121413E-003	-1.178537E-001	6.005805E-003
1.300000E+008	4.418979E-002	-4.230476E-004	5.467926E-002	-2.285526E-003	5.472405E-002	-2.298057E-003	-1.177278E-001	6.346216E-003
1.400000E+008	4.427380E-002	-4.820363E-004	5.466343E-002	-2.449576E-003	5.470939E-002	-2.474216E-003	-1.176251E-001	6.695673E-003
1.500000E+008	4.429155E-002	-5.394494E-004	5.466058E-002	-2.624847E-003	5.468645E-002	-2.630634E-003	-1.175228E-001	7.026786E-003
1.600000E+008	4.434178E-002	-5.842197E-004	5.464811E-002	-2.789870E-003	5.466818E-002	-2.790827E-003	-1.174403E-001	7.364640E-003
1.700000E+008	4.441211E-002	-6.634353E-004	5.462675E-002	-2.980052E-003	5.467581E-002	-2.970850E-003	-1.173642E-001	7.713667E-003
1.800000E+008	4.444544E-002	-7.614662E-004	5.459147E-002	-3.177504E-003	5.466400E-002	-3.156913E-003	-1.172483E-001	8.042138E-003
1.900000E+008	4.440093E-002	-8.677979E-004	5.456411E-002	-3.335965E-003	5.463042E-002	-3.330305E-003	-1.171979E-001	8.311788E-003
2.000000E+008	4.434810E-002	-9.792252E-004	5.455429E-002	-3.497444E-003	5.461179E-002	-3.492910E-003	-1.171451E-001	8.567469E-003
2.100000E+008	4.431198E-002	-1.161287E-003	5.453401E-002	-3.660014E-003	5.457776E-002	-3.662280E-003	-1.170572E-001	8.785038E-003
2.200000E+008	4.427774E-002	-1.312733E-003	5.451467E-002	-3.819906E-003	5.456072E-002	-3.824185E-003	-1.169404E-001	8.968487E-003
2.300000E+008	4.427647E-002	-1.483006E-003	5.449516E-002	-3.988984E-003	5.453473E-002	-3.989183E-003	-1.167894E-001	9.182911E-003
2.400000E+008	4.429467E-002	-1.641034E-003	5.447521E-002	-4.153385E-003	5.452107E-002	-4.155695E-003	-1.166251E-001	9.432545E-003
2.500000E+008	4.430501E-002	-1.793135E-003	5.445421E-002	-4.341778E-003	5.449091E-002	-4.325697E-003	-1.164259E-001	9.664239E-003
2.600000E+008	4.435239E-002	-1.932364E-003	5.442088E-002	-4.515170E-003	5.447693E-002	-4.502406E-003	-1.162035E-001	9.985688E-003
2.700000E+008	4.441895E-002	-2.083976E-003	5.438847E-002	-4.664639E-003	5.443218E-002	-4.665546E-003	-1.159612E-001	1.031377E-002
2.800000E+008	4.448904E-002	-2.190370E-003	5.437513E-002	-4.833730E-003	5.440690E-002	-4.827318E-003	-1.157416E-001	1.063431E-002
2.900000E+008	4.449617E-002	-2.280669E-003	5.434462E-002	-4.985419E-003	5.439265E-002	-4.975821E-003	-1.155946E-001	1.096719E-002
3.000000E+008	4.453147E-002	-2.319050E-003	5.431728E-002	-5.161938E-003	5.436448E-002	-5.151239E-003	-1.154553E-001	1.134081E-002
3.100000E+008	4.450819E-002	-2.384846E-003	5.429076E-002	-5.338840E-003	5.434871E-002	-5.322579E-003	-1.153207E-001	1.170846E-002
3.200000E+008	4.447671E-002	-2.415429E-003	5.427145E-002	-5.505612E-003	5.431235E-002	-5.499513E-003	-1.152112E-001	1.207410E-002
3.300000E+008	4.443711E-002	-2.461252E-003	5.424891E-002	-5.666641E-003	5.428259E-002	-5.671299E-003	-1.151195E-001	1.242140E-002
3.400000E+008	4.434206E-002	-2.535294E-003	5.420252E-002	-5.824586E-003	5.423270E-002	-5.856870E-003	-1.149809E-001	1.269967E-002
3.500000E+008	4.422820E-002	-2.631962E-003	5.417640E-002	-6.012783E-003	5.419942E-002	-6.009458E-003	-1.148432E-001	1.295877E-002
3.600000E+008	4.414506E-002	-2.725549E-003	5.414413E-002	-6.171979E-003	5.415617E-002	-6.144926E-003	-1.146614E-001	1.324589E-002
3.700000E+008	4.406054E-002	-2.823800E-003	5.410479E-002	-6.332255E-003	5.413073E-002	-6.300452E-003	-1.144579E-001	1.348398E-002
3.800000E+008	4.400111E-002	-2.954409E-003	5.407751E-002	-6.486426E-003	5.411204E-002	-6.466935E-003	-1.142466E-001	1.375993E-002
3.900000E+008	4.391519E-002	-3.092354E-003	5.402638E-002	-6.666926E-003	5.408450E-002	-6.640991E-003	-1.139674E-001	1.409565E-002
4.000000E+008	4.388900E-002	-3.275689E-003	5.399067E-002	-6.805712E-003	5.405310E-002	-6.800577E-003	-1.136590E-001	1.442767E-002
4.100000E+008	4.382403E-002	-3.407332E-003	5.396302E-002	-6.956345E-003	5.401023E-002	-6.964596E-003	-1.133559E-001	1.474131E-002
4.200000E+008	4.377785E-002	-3.556598E-003	5.392837E-002	-7.108269E-003	5.398063E-002	-7.114890E-003	-1.131365E-001	1.512151E-002
4.300000E+008	4.377026E-002	-3.669591E-003	5.390631E-002	-7.272612E-003	5.394089E-002	-7.275543E-003	-1.129111E-001	1.553815E-002
4.400000E+008	4.372619E-002	-3.778202E-003	5.386139E-002	-7.450354E-003	5.390639E-002	-7.444239E-003	-1.127294E-001	1.599315E-002
4.500000E+008	4.371350E-002	-3.877503E-003	5.384860E-002	-7.596011E-003	5.387823E-002	-7.606117E-003	-1.125241E-001	1.644915E-002
4.600000E+008	4.369278E-002	-3.973694E-003	5.379592E-002	-7.767312E-003	5.382671E-002	-7.779391E-003	-1.123256E-001	1.690772E-002
4.700000E+008	4.366534E-002	-4.069175E-003	5.375989E-002	-7.930392E-003	5.380484E-002	-7.929769E-003	-1.121505E-001	1.731639E-002
4.800000E+008	4.359267E-002	-4.131829E-003	5.372306E-002	-8.077448E-003	5.376084E-002	-8.090123E-003	-1.119893E-001	1.770376E-002
4.900000E+008	4.352836E-002	-4.191941E-003	5.368120E-002	-8.241793E-003	5.372536E-002	-8.244773E-003	-1.118342E-001	1.809930E-002
5.000000E+008	4.346076E-002	-4.256624E-003	5.365315E-002	-8.381252E-003	5.368657E-002	-8.393731E-003	-1.116701E-001	1.849774E-002
5.100000E+008	4.340445E-002	-4.339937E-003	5.360937E-002	-8.548064E-003	5.364840E-002	-8.544955E-003	-1.114802E-001	1.886702E-002
5.200000E+008	4.331214E-002	-4.433269E-003	5.357382E-002	-8.704002E-003	5.361457E-002	-8.705628E-003	-1.113015E-001	1.924369E-002
5.300000E+008	4.321198E-002	-4.540991E-003	5.353319E-002	-8.877674E-003	5.359282E-002	-8.867016E-003	-1.110699E-001	1.961368E-002
5.400000E+008	4.311332E-002	-4.690214E-003	5.348594E-002	-9.029312E-003	5.354249E-002	-9.034581E-003	-1.108343E-001	1.998757E-002
5.500000E+008	4.301930E-002	-4.813497E-003	5.345770E-002	-9.184436E-003	5.349281E-002	-9.195465E-003	-1.106085E-001	2.040155E-002
5.600000E+008	4.293604E-002	-4.963784E-003	5.339580E-002	-9.330133E-003	5.343874E-002	-9.342344E-003	-1.103749E-001	2.080870E-002
5.700000E+008	4.288566E-002	-5.135602E-003	5.336888E-002	-9.495126E-003	5.340696E-002	-9.494140E-003	-1.102127E-001	2.125311E-002
5.800000E+008	4.285130E-002	-5.267574E-003	5.332479E-002	-9.649863E-003	5.335601E-002	-9.650406E-003	-1.100208E-001	2.170178E-002
5.900000E+008	4.279618E-002	-5.424681E-003	5.329809E-002	-9.819969E-003	5.331896E-002	-9.803071E-003	-1.098246E-001	2.218912E-002
6.000000E+008	4.280242E-002	-5.588282E-003	5.324226E-002	-9.980697E-003	5.329210E-002	-9.973808E-003	-1.096135E-001	2.261240E-002
6.100000E+008	4.280752E-002	-5.700123E-003	5.320318E-002	-1.011509E-002	5.322880E-002	-1.011480E-002	-1.094496E-001	2.304925E-002
6.200000E+008	4.283625E-002	-5.786138E-003	5.315378E-002	-1.026969E-002	5.318527E-002	-1.027187E-002	-1.092599E-001	2.346882E-002
6.300000E+008	4.285180E-002	-5.884253E-003	5.310715E-002	-1.042451E-002	5.313805E-002	-1.043004E-002	-1.090773E-001	2.389487E-002
6.400000E+008	4.285987E-002	-5.939712E-003	5.305397E-002	-1.057183E-002	5.309424E-002	-1.057533E-002	-1.088888E-001	2.430049E-002
6.500000E+008	4.285617E-002	-5.987571E-003	5.302136E-002	-1.071010E-002	5.305028E-002	-1.073349E-002	-1.086916E-001	2.473662E-002
6.600000E+008	4.283840E-002	-6.052958E-003	5.297067E-002	-1.088339E-002	5.301037E-002	-1.088971E-002	-1.085026E-001	2.516825E-002
6.700000E+008	4.276892E-002	-6.098640E-003	5.292650E-002	-1.103637E-002	5.296009E-002	-1.104564E-002	-1.083110E-001	2.561434E-002
6.800000E+008	4.270615E-002	-6.156204E-003	5.288933E-002	-1.117741E-002	5.292612E-002	-1.118665E-002	-1.081284E-001	2.608010E-002
6.900000E+008	4.263414E-002	-6.184012E-003	5.282754E-002	-1.133917E-002	5.286481E-002	-1.132352E-002	-1.079358E-001	2.654041E-002
7.000000E+008	4.257406E-002	-6.241491E-003	5.279601E-002	-1.148511E-002	5.281913E-002	-1.148465E-002	-1.078041E-001	2.700709E-002
7.100000E+008	4.249855E-002	-6.301556E-003	5.275168E-002	-1.162660E-002	5.277579E-002	-1.163923E-002	-1.076618E-001	2.744069E-002
7.200000E+008	4.241012E-002	-6.377696E-003	5.269094E-002	-1.177629E-002	5.272868E-002	-1.178846E-002	-1.075212E-001	2.789961E-002
7.300000E+008	4.233748E-002	-6.465780E-003	5.265615E-002	-1.192504E-002	5.268943E-002	-1.194153E-002	-1.074021E-001	2.832385E-002
7.400000E+008	4.224845E-002	-6.549731E-003	5.259019E-002	-1.208856E-002	5.265302E-002	-1.208665E-002	-1.073016E-001	2.871554E-002
7.500000E+008	4.218496E-002	-6.640948E-003	5.255747E-002	-1.223610E-002	5.258901E-002	-1.224179E-002	-1.071836E-001	2.907124E-002
7.600000E+008	4.210527E-002	-6.753541E-003	5.249730E-002	-1.237324E-002	5.254534E-002	-1.238866E-002	-1.070317E-001	2.944690E-002
7.700000E+008	4.203725E-002	-6.885694E-003	5.245764E-002	-1.251644E-002	5.249923E-002	-1.253520E-002	-1.068633E-001	2.978161E-002
7.800000E+008	4.197927E-002	-6.975423E-003	5.240177E-002	-1.267224E-002	5.244562E-002	-1.269732E-002	-1.066875E-001	3.013695E-002
7.900000E+008	4.191224E-002	-7.121833E-003	5.235543E-002	-1.283037E-002	5.240350E-002	-1.283992E-002	-1.065139E-001	3.049467E-002
8.000000E+008	4.187502E-002	-7.248992E-003	5.229230E-002	-1.297024E-002	5.233351E-002	-1.297096E-002	-1.062849E-001	3.089243E-002
8.100000E+008	4.185859E-002	-7.396130E-003	5.225324E-002	-1.311656E-002	5.229016E-002	-1.313610E-002	-1.060207E-001	3.130802E-002
8.200000E+008	4.185566E-002	-7.487484E-003	5.219182E-002	-1.326657E-002	5.225506E-002	-1.326788E-002	-1.057727E-001	3.166814E-002
8.300000E+008	4.187566E-002	-7.611327E-003	5.215505E-002	-1.341069E-002	5.218530E-002	-1.341050E-002	-1.055645E-001	3.210681E-002
8.400000E+008	4.188217E-002	-7.702126E-003	5.210351E-002	-1.355963E-002	5.214594E-002	-1.356445E-002	-1.053651E-001	3.250530E-002
8.500000E+008	4.189897E-002	-7.767157E-003	5.204374E-002	-1.370326E-002	5.209583E-002	-1.371444E-002	-1.052112E-001	3.292299E-002
8.600000E+008	4.187491E-002	-7.813615E-003	5.199168E-002	-1.385076E-002	5.204245E-002	-1.387425E-002	-1.050357E-001	3.334741E-002
8.700000E+008	4.187490E-002	-7.852706E-003	5.194972E-002	-1.399521E-002	5.197891E-002	-1.400941E-002	-1.048634E-001	3.371684E-002
8.800000E+008	4.185356E-002	-7.870998E-003	5.189228E-002	-1.414165E-002	5.193165E-002	-1.415820E-002	-1.046971E-001	3.411236E-002
8.900000E+008	4.178393E-002	-7.932798E-003	5.183212E-002	-1.428348E-002	5.188883E-002	-1.430633E-002	-1.045464E-001	3.447594E-002
9.000000E+008	4.175003E-002	-7.976805E-003	5.176830E-002	-1.443237E-002	5.183033E-002	-1.444733E-002	-1.043367E-001	3.483500E-002
9.100000E+008	4.165811E-002	-8.046227E-003	5.173070E-002	-1.457172E-002	5.176209E-002	-1.458673E-002	-1.040924E-001	3.517810E-002
9.200000E+008	4.158943E-002	-8.129796E-003	5.166155E-002	-1.472542E-002	5.171532E-002	-1.472785E-002	-1.038283E-001	3.553786E-002
9.300000E+008	4.157347E-002	-8.212527E-003	5.161837E-002	-1.485397E-002	5.164845E-002	-1.489221E-002	-1.035454E-001	3.592532E-002
9.400000E+008	4.155045E-002	-8.321952E-003	5.155326E-002	-1.501274E-002	5.160691E-002	-1.502354E-002	-1.032250E-001	3.632917E-002
9.500000E+008	4.154211E-002	-8.423444E-003	5.151407E-002	-1.515800E-002	5.153867E-002	-1.518116E-002	-1.028910E-001	3.675961E-002
9.600000E+008	4.150337E-002	-8.478368E-003	5.145932E-002	-1.529304E-002	5.149600E-002	-1.530800E-002	-1.025911E-001	3.719994E-002
9.700000E+008	4.151793E-002	-8.537798E-003	5.138122E-002	-1.542592E-002	5.145414E-002	-1.545262E-002	-1.022573E-001	3.768609E-002
9.800000E+008	4.151782E-002	-8.573165E-003	5.133550E-002	-1.556246E-002	5.138616E-002	-1.560519E-002	-1.019894E-001	3.815650E-002
9.900000E+008	4.151784E-002	-8.602769E-003	5.128729E-002	-1.572503E-002	5.134302E-002	-1.573124E-002	-1.017097E-001	3.864849E-002
1.000000E+009	4.149148E-002	-8.652907E-003	5.123561E-002	-1.586409E-002	5.128093E-002	-1.587930E-002	-1.015164E-001	3.909138E-002
1.010000E+009	4.146342E-002	-8.645017E-003	5.118504E-002	-1.600668E-002	5.122210E-002	-1.604202E-002	-1.012771E-001	3.957637E-002
1.020000E+009	4.141960E-002	-8.673226E-003	5.112268E-002	-1.616690E-002	5.117281E-002	-1.616910E-002	-1.010589E-001	4.004201E-002
1.030000E+009	4.139619E-002	-8.691934E-003	5.106185E-002	-1.630181E-002	5.110850E-002	-1.631110E-002	-1.008505E-001	4.049543E-002
1.040000E+009	4.133694E-002	-8.701189E-003	5.100522E-002	-1.644603E-002	5.104934E-002	-1.644639E-002	-1.006467E-001	4.093596E-002
1.050000E+009	4.130634E-002	-8.768783E-003	5.094722E-002	-1.658276E-002	5.098374E-002	-1.658845E-002	-1.003899E-001	4.140450E-002
1.060000E+009	4.126266E-002	-8.782618E-003	5.089791E-002	-1.671637E-002	5.091631E-002	-1.673187E-002	-1.001139E-001	4.186164E-002
1.070000E+009	4.119754E-002	-8.829731E-003	5.082192E-002	-1.686927E-002	5.087742E-002	-1.686344E-002	-9.984162E-002	4.232535E-002
1.080000E+009	4.116782E-002	-8.865831E-003	5.076592E-002	-1.701057E-002	5.082741E-002	-1.702023E-002	-9.957422E-002	4.279391E-002
1.090000E+009	4.111373E-002	-8.930649E-003	5.071715E-002	-1.714974E-002	5.076326E-002	-1.715053E-002	-9.934372E-002	4.325682E-002
1.100000E+009	4.108325E-002	-8.970142E-003	5.062882E-002	-1.729484E-002	5.070974E-002	-1.729313E-002	-9.911284E-002	4.372717E-002
1.110000E+009	4.104196E-002	-8.980041E-003	5.058651E-002	-1.743216E-002	5.064618E-002	-1.743453E-002	-9.887391E-002	4.419812E-002
1.120000E+009	4.097954E-002	-9.030109E-003	5.053496E-002	-1.756610E-002	5.058004E-002	-1.757821E-002	-9.872455E-002	4.463026E-002
1.130000E+009	4.093356E-002	-9.091244E-003	5.047209E-002	-1.772572E-002	5.051406E-002	-1.773472E-002	-9.846932E-002	4.505024E-002
1.140000E+009	4.086112E-002	-9.128077E-003	5.040898E-002	-1.785224E-002	5.046576E-002	-1.784866E-002	-9.825618E-002	4.550934E-002
1.150000E+009	4.084144E-002	-9.153845E-003	5.035648E-002	-1.800197E-002	5.039236E-002	-1.800330E-002	-9.800449E-002	4.593878E-002
1.160000E+009	4.078070E-002	-9.187859E-003	5.029453E-002	-1.814394E-002	5.032940E-002	-1.816010E-002	-9.774389E-002	4.636999E-002
1.170000E+009	4.073404E-002	-9.231522E-003	5.022527E-002	-1.828785E-002	5.025251E-002	-1.827473E-002	-9.746884E-002	4.683674E-002
1.180000E+009	4.070650E-002	-9.276761E-003	5.015825E-002	-1.840745E-002	5.019886E-002	-1.842265E-002	-9.717351E-002	4.730852E-002
1.190000E+009	4.062604E-002	-9.308261E-003	5.009601E-002	-1.856090E-002	5.012909E-002	-1.855744E-002	-9.690476E-002	4.778570E-002
1.200000E+009	4.057827E-002	-9.358609E-003	5.002050E-002	-1.870021E-002	5.008681E-002	-1.870657E-002	-9.661296E-002	4.828014E-002
1.210000E+009	4.055243E-002	-9.427370E-003	4.997190E-002	-1.883349E-002	5.000016E-002	-1.885450E-002	-9.637425E-002	4.875595E-002
1.220000E+009	4.051351E-002	-9.505641E-003	4.990543E-002	-1.896467E-002	4.994438E-002	-1.899913E-002	-9.616186E-002	4.922679E-002
1.230000E+009	4.046896E-002	-9.568322E-003	4.983326E-002	-1.912161E-002	4.987810E-002	-1.913842E-002	-9.591111E-002	4.965869E-002
1.240000E+009	4.044675E-002	-9.647191E-003	4.977905E-002	-1.925417E-002	4.981872E-002	-1.926201E-002	-9.570389E-002	5.009665E-002
1.250000E+009	4.043585E-002	-9.721598E-003	4.969805E-002	-1.938955E-002	4.973557E-002	-1.940939E-002	-9.548913E-002	5.054441E-002
1.260000E+009	4.039795E-002	-9.772174E-003	4.964652E-002	-1.953066E-002	4.968496E-002	-1.954348E-002	-9.522690E-002	5.091444E-002
1.270000E+009	4.045403E-002	-9.838893E-003	4.958548E-002	-1.968596E-002	4.962173E-002	-1.966667E-002	-9.495678E-002	5.127329E-002
1.280000E+009	4.041712E-002	-9.881558E-003	4.951169E-002	-1.980848E-002	4.955300E-002	-1.980805E-002	-9.467553E-002	5.165902E-002
1.290000E+009	4.044292E-002	-9.895795E-003	4.943788E-002	-1.994921E-002	4.951065E-002	-1.994683E-002	-9.434579E-002	5.204947E-002
1.300000E+009	4.045644E-002	-9.892069E-003	4.937198E-002	-2.009568E-002	4.941766E-002	-2.009819E-002	-9.396313E-002	5.246563E-002
1.310000E+009	4.044730E-002	-9.929345E-003	4.930745E-002	-2.022879E-002	4.935109E-002	-2.024881E-002	-9.365091E-002	5.291326E-002
1.320000E+009	4.040794E-002	-9.919310E-003	4.922762E-002	-2.035764E-002	4.926675E-002	-2.037110E-002	-9.321699E-002	5.336449E-002
1.330000E+009	4.037877E-002	-9.914241E-003	4.915635E-002	-2.050310E-002	4.919840E-002	-2.051096E-002	-9.280637E-002	5.387888E-002
1.340000E+009	4.034644E-002	-9.909365E-003	4.909342E-002	-2.062750E-002	4.914360E-002	-2.065151E-002	-9.243784E-002	5.442571E-002
1.350000E+009	4.028437E-002	-9.931924E-003	4.903123E-002	-2.076850E-002	4.906759E-002	-2.079148E-002	-9.208946E-002	5.498239E-002
1.360000E+009	4.027285E-002	-9.925432E-003	4.893285E-002	-2.090899E-002	4.900632E-002	-2.092572E-002	-9.170968E-002	5.556357E-002
1.370000E+009	4.022535E-002	-9.943145E-003	4.887089E-002	-2.105168E-002	4.890571E-002	-2.107356E-002	-9.139199E-002	5.613528E-002
1.380000E+009	4.021533E-002	-9.980895E-003	4.878085E-002	-2.117692E-002	4.885493E-002	-2.119276E-002	-9.107027E-002	5.670906E-002
1.390000E+009	4.020521E-002	-9.977491E-003	4.873007E-002	-2.132226E-002	4.875589E-002	-2.134837E-002	-9.080736E-002	5.729419E-002
1.400000E+009	4.016403E-002	-1.000650E-002	4.864357E-002	-2.145600E-002	4.870041E-002	-2.145741E-002	-9.053005E-002	5.784286E-002
1.410000E+009	4.011536E-002	-1.001386E-002	4.856037E-002	-2.158504E-002	4.861363E-002	-2.158951E-002	-9.023739E-002	5.840193E-002
1.420000E+009	4.007229E-002	-1.000690E-002	4.848070E-002	-2.172120E-002	4.854245E-002	-2.172680E-002	-8.998039E-002	5.890202E-002
1.430000E+009	4.005811E-002	-1.000046E-002	4.842309E-002	-2.184596E-002	4.845940E-002	-2.185349E-002	-8.968174E-002	5.940179E-002
1.440000E+009	4.001548E-002	-1.001371E-002	4.833841E-002	-2.198233E-002	4.837798E-002	-2.201103E-002	-8.939615E-002	5.990745E-002
1.450000E+009	3.992520E-002	-1.002533E-002	4.826349E-002	-2.212529E-002	4.829731E-002	-2.213549E-002	-8.905226E-002	6.040741E-002
1.460000E+009	3.985659E-002	-1.004257E-002	4.819455E-002	-2.225401E-002	4.822994E-002	-2.226759E-002	-8.873408E-002	6.092038E-002
1.470000E+009	3.980006E-002	-1.006335E-002	4.811423E-002	-2.239424E-002	4.816035E-002	-2.241427E-002	-8.839429E-002	6.147115E-002
1.480000E+009	3.976276E-002	-1.007142E-002	4.801949E-002	-2.250951E-002	4.808087E-002	-2.252201E-002	-8.804452E-002	6.202863E-002
1.490000E+009	3.974030E-002	-1.010006E-002	4.795077E-002	-2.265230E-002	4.799436E-002	-2.266419E-002	-8.768438E-002	6.259379E-002
1.500000E+009	3.968936E-002	-1.012599E-002	4.788466E-002	-2.276856E-002	4.791966E-002	-2.277710E-002	-8.730854E-002	6.315213E-002
