! Device ID: PE43711P
! File Path: z:\PE43711P\CHAR_NOM_04282014\AMB\3p300\LS_ATT_26p00dB\PE43711P_AMB_3p300V_3p000V_0p000V_LS_ATT_26p00dB_S2P_SN_5_A0137A.s2p
! Serial: 5
! Lot: A0137A
! Temp: 25C
! VDD: 3.300
! VSS: 0.000
! Control_Hi: 3.000
! Control_Lo: 0.000
! Attenuation Step: 26.00dB
! Port 1: RF1
! Port 2: RF2
! ThroughPath:1-2
! IDD: 0.0001274523
! ISS: -1.445e-007
!

#  Hz  S   RI  R   50

1.000000E+007	3.111564E-002	4.440771E-004	4.341253E-002	-1.510843E-004	4.348407E-002	-1.953472E-004	-1.103342E-001	8.605756E-004
2.000000E+007	3.136918E-002	5.510408E-004	4.342657E-002	-2.573036E-004	4.344591E-002	-2.595353E-004	-1.100362E-001	1.465380E-003
3.000000E+007	3.162356E-002	6.601547E-004	4.341756E-002	-3.998074E-004	4.345920E-002	-4.138512E-004	-1.097342E-001	1.944589E-003
4.000000E+007	3.178926E-002	7.385220E-004	4.344646E-002	-5.185360E-004	4.345726E-002	-5.340414E-004	-1.095622E-001	2.499652E-003
5.000000E+007	3.189056E-002	8.190765E-004	4.342074E-002	-6.806771E-004	4.345211E-002	-6.791473E-004	-1.095153E-001	3.054666E-003
6.000000E+007	3.205979E-002	8.406803E-004	4.341596E-002	-8.099257E-004	4.345074E-002	-8.197917E-004	-1.093836E-001	3.493865E-003
7.000000E+007	3.219203E-002	8.428076E-004	4.340657E-002	-9.473362E-004	4.344578E-002	-9.418856E-004	-1.092071E-001	3.927197E-003
8.000000E+007	3.233963E-002	8.743516E-004	4.339699E-002	-1.072641E-003	4.342649E-002	-1.075048E-003	-1.090546E-001	4.353572E-003
9.000000E+007	3.244650E-002	8.829964E-004	4.340363E-002	-1.213498E-003	4.342909E-002	-1.198818E-003	-1.089493E-001	4.714846E-003
1.000000E+008	3.257540E-002	8.988134E-004	4.338884E-002	-1.336943E-003	4.341651E-002	-1.337818E-003	-1.088829E-001	5.097649E-003
1.100000E+008	3.271729E-002	8.795998E-004	4.338359E-002	-1.479222E-003	4.340770E-002	-1.468720E-003	-1.087997E-001	5.461336E-003
1.200000E+008	3.287828E-002	8.481601E-004	4.337059E-002	-1.619510E-003	4.339264E-002	-1.605189E-003	-1.087018E-001	5.770371E-003
1.300000E+008	3.296858E-002	8.315866E-004	4.335179E-002	-1.731510E-003	4.338374E-002	-1.743389E-003	-1.085854E-001	6.093281E-003
1.400000E+008	3.307337E-002	8.536491E-004	4.333602E-002	-1.866660E-003	4.337603E-002	-1.870045E-003	-1.084826E-001	6.415948E-003
1.500000E+008	3.311936E-002	9.052251E-004	4.332706E-002	-1.987923E-003	4.336346E-002	-1.999468E-003	-1.084002E-001	6.745301E-003
1.600000E+008	3.319158E-002	9.499850E-004	4.331837E-002	-2.118576E-003	4.333714E-002	-2.119904E-003	-1.083296E-001	7.060994E-003
1.700000E+008	3.329184E-002	9.629208E-004	4.332169E-002	-2.260166E-003	4.336381E-002	-2.251268E-003	-1.082602E-001	7.403045E-003
1.800000E+008	3.332367E-002	9.663912E-004	4.328508E-002	-2.405227E-003	4.335158E-002	-2.400019E-003	-1.081616E-001	7.697169E-003
1.900000E+008	3.331464E-002	9.483976E-004	4.326342E-002	-2.536216E-003	4.331581E-002	-2.529152E-003	-1.081080E-001	7.970028E-003
2.000000E+008	3.327949E-002	9.278132E-004	4.325679E-002	-2.657861E-003	4.330979E-002	-2.653766E-003	-1.080634E-001	8.193822E-003
2.100000E+008	3.326945E-002	8.238425E-004	4.323594E-002	-2.778507E-003	4.328539E-002	-2.773940E-003	-1.079811E-001	8.390500E-003
2.200000E+008	3.325072E-002	7.591224E-004	4.323158E-002	-2.898404E-003	4.326504E-002	-2.889065E-003	-1.078837E-001	8.589328E-003
2.300000E+008	3.327819E-002	6.900768E-004	4.322009E-002	-3.028520E-003	4.324443E-002	-3.024802E-003	-1.077485E-001	8.774102E-003
2.400000E+008	3.333567E-002	6.095855E-004	4.322191E-002	-3.159260E-003	4.322913E-002	-3.158051E-003	-1.075916E-001	9.022746E-003
2.500000E+008	3.335446E-002	5.393113E-004	4.318454E-002	-3.293985E-003	4.321583E-002	-3.283383E-003	-1.074024E-001	9.235597E-003
2.600000E+008	3.344821E-002	4.782372E-004	4.316183E-002	-3.416557E-003	4.321171E-002	-3.402778E-003	-1.071890E-001	9.530762E-003
2.700000E+008	3.352379E-002	4.354563E-004	4.314528E-002	-3.534520E-003	4.317602E-002	-3.548820E-003	-1.069532E-001	9.850776E-003
2.800000E+008	3.363021E-002	4.122940E-004	4.311785E-002	-3.663537E-003	4.316668E-002	-3.654801E-003	-1.067674E-001	1.016390E-002
2.900000E+008	3.366995E-002	3.919342E-004	4.311035E-002	-3.795058E-003	4.312978E-002	-3.784616E-003	-1.066206E-001	1.049556E-002
3.000000E+008	3.371930E-002	4.343760E-004	4.309623E-002	-3.917628E-003	4.312338E-002	-3.914351E-003	-1.064725E-001	1.085299E-002
3.100000E+008	3.373649E-002	4.440965E-004	4.307128E-002	-4.045626E-003	4.311314E-002	-4.040942E-003	-1.063646E-001	1.121644E-002
3.200000E+008	3.374594E-002	5.048034E-004	4.304434E-002	-4.172883E-003	4.309287E-002	-4.184839E-003	-1.062776E-001	1.157123E-002
3.300000E+008	3.372687E-002	5.363655E-004	4.303221E-002	-4.304379E-003	4.307324E-002	-4.309622E-003	-1.061899E-001	1.188181E-002
3.400000E+008	3.365829E-002	5.456636E-004	4.301151E-002	-4.433435E-003	4.302805E-002	-4.441985E-003	-1.060621E-001	1.217031E-002
3.500000E+008	3.358944E-002	5.256713E-004	4.299453E-002	-4.551366E-003	4.299783E-002	-4.563517E-003	-1.059363E-001	1.241796E-002
3.600000E+008	3.355349E-002	5.095686E-004	4.296813E-002	-4.695144E-003	4.297617E-002	-4.683802E-003	-1.057699E-001	1.269506E-002
3.700000E+008	3.350124E-002	4.767906E-004	4.293366E-002	-4.816169E-003	4.296228E-002	-4.783158E-003	-1.055777E-001	1.292365E-002
3.800000E+008	3.346445E-002	4.410588E-004	4.290517E-002	-4.936297E-003	4.294595E-002	-4.909777E-003	-1.053798E-001	1.320599E-002
3.900000E+008	3.341000E-002	3.612418E-004	4.289030E-002	-5.060090E-003	4.291601E-002	-5.042620E-003	-1.051083E-001	1.353222E-002
4.000000E+008	3.341896E-002	2.773225E-004	4.284821E-002	-5.172296E-003	4.288276E-002	-5.163058E-003	-1.048017E-001	1.383952E-002
4.100000E+008	3.339678E-002	2.146382E-004	4.283382E-002	-5.302342E-003	4.286309E-002	-5.279853E-003	-1.045202E-001	1.416478E-002
4.200000E+008	3.339564E-002	1.264355E-004	4.281396E-002	-5.414173E-003	4.284105E-002	-5.404282E-003	-1.043063E-001	1.455012E-002
4.300000E+008	3.339728E-002	1.006250E-004	4.278404E-002	-5.522913E-003	4.281166E-002	-5.535708E-003	-1.041064E-001	1.495613E-002
4.400000E+008	3.340260E-002	7.106020E-005	4.277167E-002	-5.656440E-003	4.280082E-002	-5.661291E-003	-1.039192E-001	1.539323E-002
4.500000E+008	3.342116E-002	4.422071E-005	4.274005E-002	-5.788458E-003	4.277320E-002	-5.786456E-003	-1.037372E-001	1.584137E-002
4.600000E+008	3.344182E-002	6.251104E-006	4.271646E-002	-5.909360E-003	4.275116E-002	-5.906586E-003	-1.035502E-001	1.629208E-002
4.700000E+008	3.343998E-002	-1.513373E-005	4.268106E-002	-6.022309E-003	4.271720E-002	-6.030959E-003	-1.033809E-001	1.668153E-002
4.800000E+008	3.343217E-002	-9.400208E-006	4.267033E-002	-6.134590E-003	4.268116E-002	-6.149688E-003	-1.032408E-001	1.709608E-002
4.900000E+008	3.337985E-002	-2.201601E-005	4.263742E-002	-6.271193E-003	4.266002E-002	-6.259456E-003	-1.030982E-001	1.747749E-002
5.000000E+008	3.336295E-002	-5.246462E-006	4.259619E-002	-6.388109E-003	4.262921E-002	-6.381285E-003	-1.029344E-001	1.786096E-002
5.100000E+008	3.333373E-002	-2.594754E-006	4.257931E-002	-6.510227E-003	4.261325E-002	-6.499517E-003	-1.027596E-001	1.823872E-002
5.200000E+008	3.327895E-002	-2.923304E-005	4.253787E-002	-6.644916E-003	4.258923E-002	-6.628984E-003	-1.025897E-001	1.863093E-002
5.300000E+008	3.323248E-002	-7.919556E-005	4.252004E-002	-6.748458E-003	4.255716E-002	-6.739288E-003	-1.023620E-001	1.899079E-002
5.400000E+008	3.317396E-002	-1.675336E-004	4.248085E-002	-6.866769E-003	4.252870E-002	-6.868747E-003	-1.021341E-001	1.935513E-002
5.500000E+008	3.311927E-002	-2.046867E-004	4.247195E-002	-6.995206E-003	4.249896E-002	-6.989772E-003	-1.019439E-001	1.975505E-002
5.600000E+008	3.307597E-002	-3.087985E-004	4.241928E-002	-7.117071E-003	4.245749E-002	-7.106706E-003	-1.017173E-001	2.015425E-002
5.700000E+008	3.305460E-002	-4.050930E-004	4.239289E-002	-7.218618E-003	4.242069E-002	-7.222856E-003	-1.015595E-001	2.061597E-002
5.800000E+008	3.304515E-002	-4.787389E-004	4.237391E-002	-7.346408E-003	4.240288E-002	-7.337291E-003	-1.013704E-001	2.105192E-002
5.900000E+008	3.303554E-002	-5.768394E-004	4.233280E-002	-7.472491E-003	4.237746E-002	-7.472686E-003	-1.011962E-001	2.153771E-002
6.000000E+008	3.309157E-002	-6.633608E-004	4.229864E-002	-7.596849E-003	4.233134E-002	-7.592221E-003	-1.010064E-001	2.197062E-002
6.100000E+008	3.313149E-002	-7.183555E-004	4.226881E-002	-7.698128E-003	4.228372E-002	-7.711405E-003	-1.008256E-001	2.240103E-002
6.200000E+008	3.319488E-002	-7.490483E-004	4.223382E-002	-7.827134E-003	4.226714E-002	-7.833149E-003	-1.006539E-001	2.283164E-002
6.300000E+008	3.324019E-002	-7.629974E-004	4.219594E-002	-7.931565E-003	4.222854E-002	-7.944346E-003	-1.004835E-001	2.324915E-002
6.400000E+008	3.329925E-002	-7.455538E-004	4.216884E-002	-8.054800E-003	4.221532E-002	-8.051284E-003	-1.002934E-001	2.368217E-002
6.500000E+008	3.333560E-002	-7.535742E-004	4.214638E-002	-8.165849E-003	4.216868E-002	-8.167847E-003	-1.001270E-001	2.410583E-002
6.600000E+008	3.335626E-002	-7.543440E-004	4.209904E-002	-8.283710E-003	4.213833E-002	-8.292885E-003	-9.992339E-002	2.453019E-002
6.700000E+008	3.332128E-002	-7.403972E-004	4.206662E-002	-8.409191E-003	4.210522E-002	-8.398949E-003	-9.976120E-002	2.497535E-002
6.800000E+008	3.330538E-002	-7.118322E-004	4.203925E-002	-8.519443E-003	4.206844E-002	-8.502362E-003	-9.958076E-002	2.545415E-002
6.900000E+008	3.326993E-002	-7.061948E-004	4.199394E-002	-8.629429E-003	4.203522E-002	-8.639020E-003	-9.937926E-002	2.591670E-002
7.000000E+008	3.326433E-002	-7.041476E-004	4.196423E-002	-8.745483E-003	4.199661E-002	-8.736401E-003	-9.925242E-002	2.637855E-002
7.100000E+008	3.323363E-002	-7.092715E-004	4.194296E-002	-8.852278E-003	4.197115E-002	-8.849773E-003	-9.912992E-002	2.681278E-002
7.200000E+008	3.317670E-002	-7.324631E-004	4.189901E-002	-8.974048E-003	4.192854E-002	-8.976836E-003	-9.900038E-002	2.727163E-002
7.300000E+008	3.314438E-002	-7.511211E-004	4.186657E-002	-9.088967E-003	4.190299E-002	-9.097411E-003	-9.890503E-002	2.767698E-002
7.400000E+008	3.309911E-002	-7.769835E-004	4.182916E-002	-9.193094E-003	4.186869E-002	-9.208616E-003	-9.878849E-002	2.809421E-002
7.500000E+008	3.307333E-002	-8.111711E-004	4.180324E-002	-9.326597E-003	4.181789E-002	-9.316458E-003	-9.868199E-002	2.845968E-002
7.600000E+008	3.304439E-002	-8.513892E-004	4.175882E-002	-9.443479E-003	4.178674E-002	-9.443077E-003	-9.853298E-002	2.882540E-002
7.700000E+008	3.300062E-002	-9.248689E-004	4.172568E-002	-9.541343E-003	4.174748E-002	-9.539152E-003	-9.838661E-002	2.918123E-002
7.800000E+008	3.298826E-002	-9.675321E-004	4.168635E-002	-9.685211E-003	4.171299E-002	-9.679277E-003	-9.821266E-002	2.952557E-002
7.900000E+008	3.296699E-002	-1.066521E-003	4.163588E-002	-9.774861E-003	4.168557E-002	-9.778060E-003	-9.802243E-002	2.988475E-002
8.000000E+008	3.297165E-002	-1.149961E-003	4.160668E-002	-9.894360E-003	4.164065E-002	-9.892312E-003	-9.781225E-002	3.028925E-002
8.100000E+008	3.299102E-002	-1.217637E-003	4.156868E-002	-9.995666E-003	4.158236E-002	-1.000274E-002	-9.754888E-002	3.069291E-002
8.200000E+008	3.304191E-002	-1.269077E-003	4.152614E-002	-1.011810E-002	4.156561E-002	-1.012191E-002	-9.731863E-002	3.107670E-002
8.300000E+008	3.307833E-002	-1.342551E-003	4.149317E-002	-1.022643E-002	4.152634E-002	-1.023185E-002	-9.710752E-002	3.149933E-002
8.400000E+008	3.313918E-002	-1.368943E-003	4.144089E-002	-1.032896E-002	4.148933E-002	-1.033555E-002	-9.690304E-002	3.191536E-002
8.500000E+008	3.319930E-002	-1.390163E-003	4.141521E-002	-1.044976E-002	4.145323E-002	-1.046405E-002	-9.674588E-002	3.234935E-002
8.600000E+008	3.322035E-002	-1.393216E-003	4.136204E-002	-1.055361E-002	4.140365E-002	-1.058189E-002	-9.657651E-002	3.276363E-002
8.700000E+008	3.326190E-002	-1.364987E-003	4.134170E-002	-1.066358E-002	4.135940E-002	-1.067948E-002	-9.641760E-002	3.316354E-002
8.800000E+008	3.327994E-002	-1.338650E-003	4.131578E-002	-1.078054E-002	4.133061E-002	-1.078555E-002	-9.626499E-002	3.355657E-002
8.900000E+008	3.327773E-002	-1.319579E-003	4.125586E-002	-1.089488E-002	4.129554E-002	-1.090183E-002	-9.608259E-002	3.390799E-002
9.000000E+008	3.326412E-002	-1.339642E-003	4.121165E-002	-1.101628E-002	4.124781E-002	-1.101207E-002	-9.590764E-002	3.425802E-002
9.100000E+008	3.323225E-002	-1.342112E-003	4.116972E-002	-1.111437E-002	4.122212E-002	-1.112761E-002	-9.568471E-002	3.460129E-002
9.200000E+008	3.320222E-002	-1.374293E-003	4.112686E-002	-1.122541E-002	4.119136E-002	-1.124570E-002	-9.542210E-002	3.498507E-002
9.300000E+008	3.321890E-002	-1.419414E-003	4.109948E-002	-1.133579E-002	4.112937E-002	-1.133994E-002	-9.511817E-002	3.537679E-002
9.400000E+008	3.324431E-002	-1.448641E-003	4.105294E-002	-1.143724E-002	4.109486E-002	-1.144255E-002	-9.479967E-002	3.577022E-002
9.500000E+008	3.327827E-002	-1.510116E-003	4.103097E-002	-1.155910E-002	4.105207E-002	-1.157749E-002	-9.447129E-002	3.624213E-002
9.600000E+008	3.328817E-002	-1.513936E-003	4.097617E-002	-1.167319E-002	4.101730E-002	-1.168781E-002	-9.413776E-002	3.668421E-002
9.700000E+008	3.333541E-002	-1.526508E-003	4.092693E-002	-1.177540E-002	4.096970E-002	-1.178555E-002	-9.384743E-002	3.714842E-002
9.800000E+008	3.337869E-002	-1.519997E-003	4.090510E-002	-1.188247E-002	4.092297E-002	-1.189521E-002	-9.356274E-002	3.765108E-002
9.900000E+008	3.342868E-002	-1.516760E-003	4.086885E-002	-1.198582E-002	4.089538E-002	-1.201228E-002	-9.330427E-002	3.813120E-002
1.000000E+009	3.345127E-002	-1.473266E-003	4.082505E-002	-1.210184E-002	4.085220E-002	-1.211718E-002	-9.309438E-002	3.858974E-002
1.010000E+009	3.344693E-002	-1.442720E-003	4.078715E-002	-1.220694E-002	4.081581E-002	-1.222173E-002	-9.286760E-002	3.906331E-002
1.020000E+009	3.346308E-002	-1.421592E-003	4.073483E-002	-1.231269E-002	4.076014E-002	-1.233323E-002	-9.265666E-002	3.954215E-002
1.030000E+009	3.346065E-002	-1.399199E-003	4.067974E-002	-1.242936E-002	4.073141E-002	-1.244585E-002	-9.245150E-002	3.998839E-002
1.040000E+009	3.344537E-002	-1.379498E-003	4.063739E-002	-1.253097E-002	4.067804E-002	-1.254249E-002	-9.221269E-002	4.044438E-002
1.050000E+009	3.347566E-002	-1.355816E-003	4.061108E-002	-1.264101E-002	4.063867E-002	-1.264968E-002	-9.195210E-002	4.093481E-002
1.060000E+009	3.346545E-002	-1.341888E-003	4.055909E-002	-1.274824E-002	4.060144E-002	-1.275735E-002	-9.170701E-002	4.138509E-002
1.070000E+009	3.344325E-002	-1.337081E-003	4.053445E-002	-1.286514E-002	4.056744E-002	-1.286906E-002	-9.141410E-002	4.185552E-002
1.080000E+009	3.345788E-002	-1.341936E-003	4.048110E-002	-1.297189E-002	4.051777E-002	-1.298426E-002	-9.114721E-002	4.233432E-002
1.090000E+009	3.344531E-002	-1.325178E-003	4.042982E-002	-1.308747E-002	4.048104E-002	-1.308220E-002	-9.090632E-002	4.278519E-002
1.100000E+009	3.346420E-002	-1.317035E-003	4.038992E-002	-1.319569E-002	4.042415E-002	-1.320429E-002	-9.067798E-002	4.326823E-002
1.110000E+009	3.346552E-002	-1.298251E-003	4.034108E-002	-1.329664E-002	4.037625E-002	-1.330995E-002	-9.045287E-002	4.373946E-002
1.120000E+009	3.343796E-002	-1.310566E-003	4.030403E-002	-1.342252E-002	4.033094E-002	-1.342601E-002	-9.026335E-002	4.417515E-002
1.130000E+009	3.344352E-002	-1.300378E-003	4.026278E-002	-1.351105E-002	4.028064E-002	-1.353473E-002	-9.005378E-002	4.459486E-002
1.140000E+009	3.344910E-002	-1.292819E-003	4.021914E-002	-1.363401E-002	4.023470E-002	-1.365338E-002	-8.983369E-002	4.504792E-002
1.150000E+009	3.344496E-002	-1.288392E-003	4.016208E-002	-1.374405E-002	4.019682E-002	-1.374638E-002	-8.955551E-002	4.549044E-002
1.160000E+009	3.341716E-002	-1.282064E-003	4.013023E-002	-1.383965E-002	4.016009E-002	-1.384030E-002	-8.928722E-002	4.591940E-002
1.170000E+009	3.344345E-002	-1.270914E-003	4.008106E-002	-1.395660E-002	4.010650E-002	-1.395369E-002	-8.904331E-002	4.639705E-002
1.180000E+009	3.343723E-002	-1.271028E-003	4.002857E-002	-1.406041E-002	4.006003E-002	-1.406753E-002	-8.873604E-002	4.687734E-002
1.190000E+009	3.340856E-002	-1.259661E-003	3.996909E-002	-1.415372E-002	4.001922E-002	-1.418594E-002	-8.847787E-002	4.735075E-002
1.200000E+009	3.340913E-002	-1.254252E-003	3.994579E-002	-1.428434E-002	3.997793E-002	-1.427380E-002	-8.818462E-002	4.784024E-002
1.210000E+009	3.343575E-002	-1.262147E-003	3.987320E-002	-1.437135E-002	3.992019E-002	-1.439671E-002	-8.791402E-002	4.834215E-002
1.220000E+009	3.340838E-002	-1.317057E-003	3.984010E-002	-1.448644E-002	3.987122E-002	-1.448790E-002	-8.768869E-002	4.880840E-002
1.230000E+009	3.341384E-002	-1.327436E-003	3.978889E-002	-1.460202E-002	3.982446E-002	-1.459773E-002	-8.745831E-002	4.926924E-002
1.240000E+009	3.342652E-002	-1.364111E-003	3.974375E-002	-1.471057E-002	3.976989E-002	-1.470036E-002	-8.725168E-002	4.969271E-002
1.250000E+009	3.346472E-002	-1.399662E-003	3.968675E-002	-1.481601E-002	3.973062E-002	-1.482172E-002	-8.704182E-002	5.011340E-002
1.260000E+009	3.347886E-002	-1.429697E-003	3.963788E-002	-1.492330E-002	3.966479E-002	-1.492996E-002	-8.674892E-002	5.051241E-002
1.270000E+009	3.359254E-002	-1.453289E-003	3.959619E-002	-1.501778E-002	3.962786E-002	-1.503462E-002	-8.646471E-002	5.087471E-002
1.280000E+009	3.360358E-002	-1.432320E-003	3.955854E-002	-1.513759E-002	3.957732E-002	-1.513013E-002	-8.618055E-002	5.125693E-002
1.290000E+009	3.367336E-002	-1.416690E-003	3.950340E-002	-1.524967E-002	3.954073E-002	-1.524862E-002	-8.583375E-002	5.165637E-002
1.300000E+009	3.371622E-002	-1.355716E-003	3.944265E-002	-1.534871E-002	3.948907E-002	-1.537487E-002	-8.548436E-002	5.206921E-002
1.310000E+009	3.374255E-002	-1.354828E-003	3.938480E-002	-1.545060E-002	3.944021E-002	-1.547146E-002	-8.513739E-002	5.249232E-002
1.320000E+009	3.377157E-002	-1.312367E-003	3.933850E-002	-1.555139E-002	3.938286E-002	-1.557282E-002	-8.473447E-002	5.297343E-002
1.330000E+009	3.381080E-002	-1.244690E-003	3.928320E-002	-1.565922E-002	3.932012E-002	-1.567513E-002	-8.432349E-002	5.350369E-002
1.340000E+009	3.379383E-002	-1.197114E-003	3.923539E-002	-1.577117E-002	3.927032E-002	-1.579222E-002	-8.392414E-002	5.403221E-002
1.350000E+009	3.378234E-002	-1.181535E-003	3.919227E-002	-1.588740E-002	3.921037E-002	-1.589745E-002	-8.356929E-002	5.459254E-002
1.360000E+009	3.382149E-002	-1.132080E-003	3.912195E-002	-1.597669E-002	3.916399E-002	-1.598954E-002	-8.316709E-002	5.517676E-002
1.370000E+009	3.381982E-002	-1.112583E-003	3.906691E-002	-1.609663E-002	3.910669E-002	-1.609371E-002	-8.287386E-002	5.576354E-002
1.380000E+009	3.385119E-002	-1.099479E-003	3.902586E-002	-1.620695E-002	3.905034E-002	-1.620489E-002	-8.254058E-002	5.631330E-002
1.390000E+009	3.389665E-002	-1.073240E-003	3.895527E-002	-1.629734E-002	3.899425E-002	-1.632628E-002	-8.224942E-002	5.691856E-002
1.400000E+009	3.388699E-002	-1.056831E-003	3.889148E-002	-1.640777E-002	3.893984E-002	-1.640464E-002	-8.195957E-002	5.747353E-002
1.410000E+009	3.389462E-002	-1.017870E-003	3.885310E-002	-1.649056E-002	3.888954E-002	-1.650050E-002	-8.167219E-002	5.805481E-002
1.420000E+009	3.389900E-002	-9.714580E-004	3.879208E-002	-1.661148E-002	3.882365E-002	-1.662348E-002	-8.138984E-002	5.856008E-002
1.430000E+009	3.392383E-002	-9.329426E-004	3.873953E-002	-1.669630E-002	3.877179E-002	-1.672184E-002	-8.110163E-002	5.907718E-002
1.440000E+009	3.391857E-002	-8.963049E-004	3.867802E-002	-1.681126E-002	3.871878E-002	-1.682584E-002	-8.083626E-002	5.955688E-002
1.450000E+009	3.388140E-002	-8.545520E-004	3.862657E-002	-1.691915E-002	3.866402E-002	-1.692558E-002	-8.048131E-002	6.007751E-002
1.460000E+009	3.387881E-002	-8.280987E-004	3.857256E-002	-1.701253E-002	3.859819E-002	-1.703212E-002	-8.016474E-002	6.058363E-002
1.470000E+009	3.387643E-002	-8.322408E-004	3.851316E-002	-1.711753E-002	3.853805E-002	-1.714487E-002	-7.980903E-002	6.112699E-002
1.480000E+009	3.388470E-002	-8.103720E-004	3.845837E-002	-1.722300E-002	3.847785E-002	-1.722906E-002	-7.945964E-002	6.166724E-002
1.490000E+009	3.387167E-002	-7.961007E-004	3.839151E-002	-1.733258E-002	3.842316E-002	-1.733516E-002	-7.907618E-002	6.225512E-002
1.500000E+009	3.388649E-002	-7.834897E-004	3.832548E-002	-1.742676E-002	3.836143E-002	-1.742566E-002	-7.869539E-002	6.281404E-002
1.510000E+009	3.393066E-002	-7.781117E-004	3.825991E-002	-1.751991E-002	3.829119E-002	-1.751588E-002	-7.833147E-002	6.339124E-002
