! Device ID: PE43711P
! File Path: z:\PE43711P\CHAR_NOM_04282014\AMB\3p300\LS_ATT_15p50dB\PE43711P_AMB_3p300V_3p000V_0p000V_LS_ATT_15p50dB_S2P_SN_5_A0137A.s2p
! Serial: 5
! Lot: A0137A
! Temp: 25C
! VDD: 3.300
! VSS: 0.000
! Control_Hi: 3.000
! Control_Lo: 0.000
! Attenuation Step: 15.50dB
! Port 1: RF1
! Port 2: RF2
! ThroughPath:1-2
! IDD: 0.0001283691
! ISS: -1.196e-007
!

#  Hz  S   RI  R   50

1.000000E+007	6.389012E-002	7.605172E-005	1.466352E-001	-6.582838E-004	1.467958E-001	-6.953511E-004	-1.052500E-001	8.642755E-004
2.000000E+007	6.408834E-002	-4.205647E-005	1.466409E-001	-1.088240E-003	1.467142E-001	-1.112425E-003	-1.049602E-001	1.426913E-003
3.000000E+007	6.434469E-002	-2.475994E-004	1.466260E-001	-1.631411E-003	1.467360E-001	-1.647047E-003	-1.046475E-001	1.877833E-003
4.000000E+007	6.449455E-002	-4.719114E-004	1.466459E-001	-2.198390E-003	1.467177E-001	-2.216533E-003	-1.044774E-001	2.398420E-003
5.000000E+007	6.459560E-002	-6.997022E-004	1.466179E-001	-2.780539E-003	1.467324E-001	-2.776268E-003	-1.044298E-001	2.912453E-003
6.000000E+007	6.474433E-002	-9.889889E-004	1.465884E-001	-3.322252E-003	1.467246E-001	-3.323365E-003	-1.042886E-001	3.319830E-003
7.000000E+007	6.485628E-002	-1.272754E-003	1.465562E-001	-3.848150E-003	1.466656E-001	-3.861995E-003	-1.041122E-001	3.725421E-003
8.000000E+007	6.497159E-002	-1.557454E-003	1.465248E-001	-4.370953E-003	1.466544E-001	-4.384897E-003	-1.039654E-001	4.101520E-003
9.000000E+007	6.506318E-002	-1.851659E-003	1.465050E-001	-4.911070E-003	1.466048E-001	-4.923486E-003	-1.038422E-001	4.439178E-003
1.000000E+008	6.515737E-002	-2.130014E-003	1.464946E-001	-5.474510E-003	1.465747E-001	-5.472840E-003	-1.037707E-001	4.807664E-003
1.100000E+008	6.524758E-002	-2.429478E-003	1.464268E-001	-6.024459E-003	1.465490E-001	-6.009529E-003	-1.036836E-001	5.135228E-003
1.200000E+008	6.534183E-002	-2.758855E-003	1.463667E-001	-6.565355E-003	1.464888E-001	-6.569163E-003	-1.036005E-001	5.422690E-003
1.300000E+008	6.540181E-002	-3.060728E-003	1.463289E-001	-7.095930E-003	1.464334E-001	-7.102353E-003	-1.035035E-001	5.717145E-003
1.400000E+008	6.545157E-002	-3.340544E-003	1.462885E-001	-7.623591E-003	1.463923E-001	-7.657261E-003	-1.033775E-001	6.002673E-003
1.500000E+008	6.542795E-002	-3.606639E-003	1.462201E-001	-8.127153E-003	1.463174E-001	-8.170475E-003	-1.032697E-001	6.295603E-003
1.600000E+008	6.542074E-002	-3.816553E-003	1.461965E-001	-8.659373E-003	1.462550E-001	-8.668732E-003	-1.032244E-001	6.579886E-003
1.700000E+008	6.545983E-002	-4.093402E-003	1.461528E-001	-9.233290E-003	1.462784E-001	-9.202032E-003	-1.031844E-001	6.884813E-003
1.800000E+008	6.542143E-002	-4.381598E-003	1.460304E-001	-9.785807E-003	1.462190E-001	-9.777243E-003	-1.031192E-001	7.159993E-003
1.900000E+008	6.534842E-002	-4.682169E-003	1.459293E-001	-1.031988E-002	1.461293E-001	-1.032147E-002	-1.030764E-001	7.389474E-003
2.000000E+008	6.525659E-002	-4.998801E-003	1.458730E-001	-1.081802E-002	1.460397E-001	-1.082376E-002	-1.030071E-001	7.599995E-003
2.100000E+008	6.517462E-002	-5.373836E-003	1.458258E-001	-1.132883E-002	1.459717E-001	-1.134055E-002	-1.028910E-001	7.776238E-003
2.200000E+008	6.509873E-002	-5.712529E-003	1.457782E-001	-1.181516E-002	1.458998E-001	-1.183614E-002	-1.027746E-001	7.941797E-003
2.300000E+008	6.503726E-002	-6.050452E-003	1.457075E-001	-1.233641E-002	1.458206E-001	-1.235280E-002	-1.026470E-001	8.118332E-003
2.400000E+008	6.499559E-002	-6.398655E-003	1.456318E-001	-1.287745E-002	1.457443E-001	-1.287055E-002	-1.025076E-001	8.336293E-003
2.500000E+008	6.494102E-002	-6.736422E-003	1.455549E-001	-1.340787E-002	1.456608E-001	-1.338765E-002	-1.023379E-001	8.518752E-003
2.600000E+008	6.492624E-002	-7.076098E-003	1.454522E-001	-1.393474E-002	1.455796E-001	-1.392718E-002	-1.021387E-001	8.772037E-003
2.700000E+008	6.490184E-002	-7.396582E-003	1.453234E-001	-1.443384E-002	1.454803E-001	-1.445101E-002	-1.018995E-001	9.054313E-003
2.800000E+008	6.491102E-002	-7.683323E-003	1.452726E-001	-1.494632E-002	1.453906E-001	-1.493806E-002	-1.017116E-001	9.336461E-003
2.900000E+008	6.484923E-002	-7.951099E-003	1.451922E-001	-1.543942E-002	1.452872E-001	-1.544450E-002	-1.015777E-001	9.637852E-003
3.000000E+008	6.481892E-002	-8.184039E-003	1.451191E-001	-1.595995E-002	1.452282E-001	-1.594891E-002	-1.014312E-001	9.945401E-003
3.100000E+008	6.475363E-002	-8.418234E-003	1.450327E-001	-1.648885E-002	1.451596E-001	-1.646904E-002	-1.013195E-001	1.029622E-002
3.200000E+008	6.466412E-002	-8.628495E-003	1.449253E-001	-1.700458E-002	1.450676E-001	-1.698698E-002	-1.012318E-001	1.062370E-002
3.300000E+008	6.456183E-002	-8.847532E-003	1.448473E-001	-1.752365E-002	1.449685E-001	-1.752486E-002	-1.011361E-001	1.091544E-002
3.400000E+008	6.438586E-002	-9.083063E-003	1.447335E-001	-1.801709E-002	1.448193E-001	-1.806685E-002	-1.010208E-001	1.118919E-002
3.500000E+008	6.418272E-002	-9.329991E-003	1.446359E-001	-1.854293E-002	1.446752E-001	-1.855539E-002	-1.008889E-001	1.140221E-002
3.600000E+008	6.402725E-002	-9.579767E-003	1.445338E-001	-1.905418E-002	1.445594E-001	-1.900363E-002	-1.007417E-001	1.163661E-002
3.700000E+008	6.386409E-002	-9.842781E-003	1.443876E-001	-1.953265E-002	1.444833E-001	-1.946715E-002	-1.005429E-001	1.185251E-002
3.800000E+008	6.372826E-002	-1.013224E-002	1.442919E-001	-2.003610E-002	1.444104E-001	-1.998111E-002	-1.003648E-001	1.208302E-002
3.900000E+008	6.357140E-002	-1.045850E-002	1.441748E-001	-2.055590E-002	1.443030E-001	-2.050044E-002	-1.001014E-001	1.238584E-002
4.000000E+008	6.345458E-002	-1.077696E-002	1.440416E-001	-2.101730E-002	1.441819E-001	-2.102088E-002	-9.980872E-002	1.266476E-002
4.100000E+008	6.331765E-002	-1.109041E-002	1.439268E-001	-2.146044E-002	1.440703E-001	-2.151272E-002	-9.953485E-002	1.295350E-002
4.200000E+008	6.319117E-002	-1.138240E-002	1.438430E-001	-2.197309E-002	1.439595E-001	-2.199000E-002	-9.931982E-002	1.331770E-002
4.300000E+008	6.307705E-002	-1.165600E-002	1.437410E-001	-2.246398E-002	1.438415E-001	-2.247662E-002	-9.910573E-002	1.368452E-002
4.400000E+008	6.298481E-002	-1.189744E-002	1.436325E-001	-2.298296E-002	1.437300E-001	-2.296794E-002	-9.893123E-002	1.410498E-002
4.500000E+008	6.289230E-002	-1.215257E-002	1.435204E-001	-2.346703E-002	1.436181E-001	-2.346409E-002	-9.874201E-002	1.451841E-002
4.600000E+008	6.279302E-002	-1.240914E-002	1.433954E-001	-2.398229E-002	1.434989E-001	-2.398084E-002	-9.856888E-002	1.494804E-002
4.700000E+008	6.264705E-002	-1.264160E-002	1.432573E-001	-2.445740E-002	1.433503E-001	-2.447265E-002	-9.842794E-002	1.532776E-002
4.800000E+008	6.251041E-002	-1.284908E-002	1.431471E-001	-2.492924E-002	1.432202E-001	-2.492392E-002	-9.829701E-002	1.572269E-002
4.900000E+008	6.233156E-002	-1.306957E-002	1.430103E-001	-2.541982E-002	1.430982E-001	-2.542546E-002	-9.817080E-002	1.606864E-002
5.000000E+008	6.219612E-002	-1.326377E-002	1.428911E-001	-2.590048E-002	1.429786E-001	-2.590174E-002	-9.802377E-002	1.642330E-002
5.100000E+008	6.205879E-002	-1.349283E-002	1.427687E-001	-2.638401E-002	1.428824E-001	-2.638281E-002	-9.785698E-002	1.676298E-002
5.200000E+008	6.188893E-002	-1.374796E-002	1.426477E-001	-2.687261E-002	1.427505E-001	-2.687552E-002	-9.768576E-002	1.711670E-002
5.300000E+008	6.169570E-002	-1.399599E-002	1.425011E-001	-2.736216E-002	1.426328E-001	-2.737960E-002	-9.745288E-002	1.746298E-002
5.400000E+008	6.151846E-002	-1.430657E-002	1.423685E-001	-2.785816E-002	1.424895E-001	-2.786931E-002	-9.722077E-002	1.778898E-002
5.500000E+008	6.133490E-002	-1.455131E-002	1.422440E-001	-2.832975E-002	1.423244E-001	-2.834205E-002	-9.702299E-002	1.817532E-002
5.600000E+008	6.117967E-002	-1.482693E-002	1.420990E-001	-2.879566E-002	1.421776E-001	-2.881319E-002	-9.679901E-002	1.856331E-002
5.700000E+008	6.103015E-002	-1.511635E-002	1.419606E-001	-2.926310E-002	1.420681E-001	-2.927885E-002	-9.665882E-002	1.898277E-002
5.800000E+008	6.087277E-002	-1.538874E-002	1.418233E-001	-2.975142E-002	1.419292E-001	-2.976180E-002	-9.648641E-002	1.940328E-002
5.900000E+008	6.073702E-002	-1.569455E-002	1.416802E-001	-3.024231E-002	1.417909E-001	-3.026074E-002	-9.634672E-002	1.986381E-002
6.000000E+008	6.066050E-002	-1.597182E-002	1.415417E-001	-3.070653E-002	1.416390E-001	-3.074282E-002	-9.614443E-002	2.025461E-002
6.100000E+008	6.055988E-002	-1.623073E-002	1.413961E-001	-3.117807E-002	1.414792E-001	-3.120672E-002	-9.599601E-002	2.065089E-002
6.200000E+008	6.048352E-002	-1.644942E-002	1.412163E-001	-3.165079E-002	1.413287E-001	-3.166266E-002	-9.584495E-002	2.104924E-002
6.300000E+008	6.041462E-002	-1.665636E-002	1.410759E-001	-3.210402E-002	1.411701E-001	-3.213347E-002	-9.567034E-002	2.144331E-002
6.400000E+008	6.033820E-002	-1.685747E-002	1.409313E-001	-3.256979E-002	1.410407E-001	-3.260820E-002	-9.548256E-002	2.182446E-002
6.500000E+008	6.026285E-002	-1.703624E-002	1.408037E-001	-3.303926E-002	1.408885E-001	-3.304685E-002	-9.531846E-002	2.224357E-002
6.600000E+008	6.015268E-002	-1.723436E-002	1.406549E-001	-3.350123E-002	1.407461E-001	-3.353241E-002	-9.512406E-002	2.264554E-002
6.700000E+008	5.997263E-002	-1.739776E-002	1.405107E-001	-3.399079E-002	1.405862E-001	-3.401186E-002	-9.495876E-002	2.309211E-002
6.800000E+008	5.982438E-002	-1.756098E-002	1.403375E-001	-3.445813E-002	1.404341E-001	-3.447544E-002	-9.480352E-002	2.353077E-002
6.900000E+008	5.964584E-002	-1.771428E-002	1.401777E-001	-3.491449E-002	1.402610E-001	-3.493567E-002	-9.464039E-002	2.399495E-002
7.000000E+008	5.949165E-002	-1.788969E-002	1.400173E-001	-3.535590E-002	1.401205E-001	-3.538847E-002	-9.451782E-002	2.443204E-002
7.100000E+008	5.932104E-002	-1.807840E-002	1.398604E-001	-3.580919E-002	1.399539E-001	-3.582578E-002	-9.441233E-002	2.484288E-002
7.200000E+008	5.914780E-002	-1.827831E-002	1.397183E-001	-3.627444E-002	1.398130E-001	-3.630195E-002	-9.430191E-002	2.525362E-002
7.300000E+008	5.897893E-002	-1.848991E-002	1.395564E-001	-3.674003E-002	1.396576E-001	-3.678323E-002	-9.419268E-002	2.563541E-002
7.400000E+008	5.878483E-002	-1.870136E-002	1.393873E-001	-3.719798E-002	1.394867E-001	-3.722408E-002	-9.409942E-002	2.598895E-002
7.500000E+008	5.862553E-002	-1.890739E-002	1.392343E-001	-3.765558E-002	1.393355E-001	-3.769325E-002	-9.400578E-002	2.633696E-002
7.600000E+008	5.846719E-002	-1.913212E-002	1.390550E-001	-3.811913E-002	1.391630E-001	-3.815075E-002	-9.384222E-002	2.668295E-002
7.700000E+008	5.828132E-002	-1.935790E-002	1.388944E-001	-3.857020E-002	1.390238E-001	-3.859704E-002	-9.370676E-002	2.700464E-002
7.800000E+008	5.813780E-002	-1.958070E-002	1.387420E-001	-3.903129E-002	1.388502E-001	-3.906090E-002	-9.353008E-002	2.733117E-002
7.900000E+008	5.797892E-002	-1.983825E-002	1.385705E-001	-3.947107E-002	1.386931E-001	-3.952746E-002	-9.338437E-002	2.767304E-002
8.000000E+008	5.781995E-002	-2.007866E-002	1.383973E-001	-3.994572E-002	1.384887E-001	-3.997338E-002	-9.318268E-002	2.806538E-002
8.100000E+008	5.769647E-002	-2.032743E-002	1.382423E-001	-4.036961E-002	1.383204E-001	-4.041792E-002	-9.294431E-002	2.844729E-002
8.200000E+008	5.760896E-002	-2.054848E-002	1.380598E-001	-4.083557E-002	1.381460E-001	-4.086401E-002	-9.274457E-002	2.881421E-002
8.300000E+008	5.750545E-002	-2.076367E-002	1.378743E-001	-4.128166E-002	1.379757E-001	-4.131147E-002	-9.254829E-002	2.921139E-002
8.400000E+008	5.742810E-002	-2.096717E-002	1.376998E-001	-4.172419E-002	1.378050E-001	-4.177061E-002	-9.235983E-002	2.959019E-002
8.500000E+008	5.734919E-002	-2.115578E-002	1.375469E-001	-4.217788E-002	1.376471E-001	-4.221490E-002	-9.222072E-002	2.997000E-002
8.600000E+008	5.722657E-002	-2.133569E-002	1.373535E-001	-4.261241E-002	1.374431E-001	-4.265508E-002	-9.206053E-002	3.037426E-002
8.700000E+008	5.712403E-002	-2.144978E-002	1.371876E-001	-4.308134E-002	1.372655E-001	-4.311457E-002	-9.189208E-002	3.075176E-002
8.800000E+008	5.699299E-002	-2.159966E-002	1.370160E-001	-4.353046E-002	1.371036E-001	-4.355586E-002	-9.174781E-002	3.110010E-002
8.900000E+008	5.685571E-002	-2.174671E-002	1.368213E-001	-4.396332E-002	1.369342E-001	-4.401653E-002	-9.160237E-002	3.144610E-002
9.000000E+008	5.670422E-002	-2.190619E-002	1.366330E-001	-4.439534E-002	1.367639E-001	-4.445583E-002	-9.141559E-002	3.180156E-002
9.100000E+008	5.651690E-002	-2.205071E-002	1.364407E-001	-4.486046E-002	1.365699E-001	-4.488448E-002	-9.120672E-002	3.212975E-002
9.200000E+008	5.635873E-002	-2.224503E-002	1.362703E-001	-4.527163E-002	1.363965E-001	-4.535868E-002	-9.096929E-002	3.248718E-002
9.300000E+008	5.621613E-002	-2.244511E-002	1.360854E-001	-4.572768E-002	1.361688E-001	-4.578640E-002	-9.070669E-002	3.286135E-002
9.400000E+008	5.607819E-002	-2.263629E-002	1.359113E-001	-4.615604E-002	1.360354E-001	-4.621052E-002	-9.038940E-002	3.324074E-002
9.500000E+008	5.596326E-002	-2.284159E-002	1.357231E-001	-4.662009E-002	1.358154E-001	-4.667058E-002	-9.009617E-002	3.365683E-002
9.600000E+008	5.583142E-002	-2.300933E-002	1.355274E-001	-4.704068E-002	1.356482E-001	-4.710398E-002	-8.978236E-002	3.407398E-002
9.700000E+008	5.572775E-002	-2.318031E-002	1.353397E-001	-4.745750E-002	1.354522E-001	-4.753844E-002	-8.948358E-002	3.450839E-002
9.800000E+008	5.563630E-002	-2.330904E-002	1.351739E-001	-4.788906E-002	1.352463E-001	-4.796636E-002	-8.922779E-002	3.496285E-002
9.900000E+008	5.554984E-002	-2.345181E-002	1.349759E-001	-4.834778E-002	1.350745E-001	-4.841288E-002	-8.894604E-002	3.543167E-002
1.000000E+009	5.543782E-002	-2.354521E-002	1.347799E-001	-4.877981E-002	1.348723E-001	-4.884546E-002	-8.875692E-002	3.587378E-002
1.010000E+009	5.529680E-002	-2.365673E-002	1.346010E-001	-4.921382E-002	1.346938E-001	-4.929947E-002	-8.853221E-002	3.633933E-002
1.020000E+009	5.515744E-002	-2.377943E-002	1.343991E-001	-4.967308E-002	1.344958E-001	-4.971496E-002	-8.834506E-002	3.680658E-002
1.030000E+009	5.501771E-002	-2.386919E-002	1.341886E-001	-5.008754E-002	1.342939E-001	-5.013938E-002	-8.816223E-002	3.724682E-002
1.040000E+009	5.485948E-002	-2.398485E-002	1.339978E-001	-5.051921E-002	1.341020E-001	-5.057451E-002	-8.796179E-002	3.767917E-002
1.050000E+009	5.471644E-002	-2.413032E-002	1.338217E-001	-5.096080E-002	1.339051E-001	-5.099286E-002	-8.773879E-002	3.814995E-002
1.060000E+009	5.455932E-002	-2.424712E-002	1.336118E-001	-5.137414E-002	1.337135E-001	-5.142394E-002	-8.748200E-002	3.857311E-002
1.070000E+009	5.439632E-002	-2.439819E-002	1.334061E-001	-5.180966E-002	1.335238E-001	-5.182587E-002	-8.722962E-002	3.901058E-002
1.080000E+009	5.425643E-002	-2.454892E-002	1.332106E-001	-5.223254E-002	1.333205E-001	-5.228989E-002	-8.697846E-002	3.946514E-002
1.090000E+009	5.411795E-002	-2.467928E-002	1.330115E-001	-5.267371E-002	1.331209E-001	-5.270923E-002	-8.674424E-002	3.989909E-002
1.100000E+009	5.398638E-002	-2.481612E-002	1.327768E-001	-5.312063E-002	1.329077E-001	-5.313828E-002	-8.652134E-002	4.035273E-002
1.110000E+009	5.385411E-002	-2.492128E-002	1.325911E-001	-5.352992E-002	1.327102E-001	-5.355616E-002	-8.629585E-002	4.078510E-002
1.120000E+009	5.368489E-002	-2.504748E-002	1.323962E-001	-5.394471E-002	1.325092E-001	-5.401449E-002	-8.611608E-002	4.120214E-002
1.130000E+009	5.355433E-002	-2.516857E-002	1.321814E-001	-5.438032E-002	1.322869E-001	-5.443185E-002	-8.591015E-002	4.162180E-002
1.140000E+009	5.338432E-002	-2.528665E-002	1.319752E-001	-5.482117E-002	1.320869E-001	-5.487432E-002	-8.571322E-002	4.207474E-002
1.150000E+009	5.324807E-002	-2.543009E-002	1.317763E-001	-5.522999E-002	1.318649E-001	-5.530233E-002	-8.547259E-002	4.249427E-002
1.160000E+009	5.306674E-002	-2.553519E-002	1.315498E-001	-5.566274E-002	1.316486E-001	-5.570073E-002	-8.525779E-002	4.291220E-002
1.170000E+009	5.291487E-002	-2.567445E-002	1.313242E-001	-5.609419E-002	1.314419E-001	-5.613115E-002	-8.501019E-002	4.336722E-002
1.180000E+009	5.277228E-002	-2.582124E-002	1.311025E-001	-5.651348E-002	1.312306E-001	-5.655103E-002	-8.474169E-002	4.380050E-002
1.190000E+009	5.259066E-002	-2.592994E-002	1.308899E-001	-5.691961E-002	1.309813E-001	-5.697892E-002	-8.446413E-002	4.425223E-002
1.200000E+009	5.243942E-002	-2.606915E-002	1.306733E-001	-5.735721E-002	1.307808E-001	-5.739732E-002	-8.421135E-002	4.474081E-002
1.210000E+009	5.233455E-002	-2.622559E-002	1.304296E-001	-5.777829E-002	1.305550E-001	-5.781913E-002	-8.395749E-002	4.520771E-002
1.220000E+009	5.217992E-002	-2.639891E-002	1.302219E-001	-5.819025E-002	1.303375E-001	-5.825366E-002	-8.375735E-002	4.566904E-002
1.230000E+009	5.203156E-002	-2.653063E-002	1.299993E-001	-5.861993E-002	1.300942E-001	-5.866079E-002	-8.352103E-002	4.609254E-002
1.240000E+009	5.190237E-002	-2.668095E-002	1.297949E-001	-5.903168E-002	1.298863E-001	-5.907573E-002	-8.330681E-002	4.650481E-002
1.250000E+009	5.177790E-002	-2.683006E-002	1.295583E-001	-5.945543E-002	1.296748E-001	-5.948477E-002	-8.311906E-002	4.692944E-002
1.260000E+009	5.164759E-002	-2.697397E-002	1.293062E-001	-5.988155E-002	1.294303E-001	-5.991873E-002	-8.288134E-002	4.729545E-002
1.270000E+009	5.157718E-002	-2.711113E-002	1.291150E-001	-6.029348E-002	1.292109E-001	-6.031847E-002	-8.262902E-002	4.766967E-002
1.280000E+009	5.144541E-002	-2.723170E-002	1.288771E-001	-6.070927E-002	1.289812E-001	-6.074154E-002	-8.236980E-002	4.804353E-002
1.290000E+009	5.135178E-002	-2.733700E-002	1.286514E-001	-6.113193E-002	1.287493E-001	-6.114896E-002	-8.204506E-002	4.838621E-002
1.300000E+009	5.126103E-002	-2.739809E-002	1.284032E-001	-6.152353E-002	1.285274E-001	-6.158000E-002	-8.171374E-002	4.879248E-002
1.310000E+009	5.113072E-002	-2.750424E-002	1.281557E-001	-6.196032E-002	1.282954E-001	-6.200301E-002	-8.137580E-002	4.919039E-002
1.320000E+009	5.098254E-002	-2.760826E-002	1.279367E-001	-6.235659E-002	1.280490E-001	-6.240690E-002	-8.097800E-002	4.965477E-002
1.330000E+009	5.088118E-002	-2.766361E-002	1.276834E-001	-6.278843E-002	1.278136E-001	-6.282285E-002	-8.059157E-002	5.014360E-002
1.340000E+009	5.072311E-002	-2.773581E-002	1.274472E-001	-6.316087E-002	1.275700E-001	-6.322559E-002	-8.019888E-002	5.069876E-002
1.350000E+009	5.055013E-002	-2.780533E-002	1.272025E-001	-6.358806E-002	1.273044E-001	-6.363763E-002	-7.986375E-002	5.123039E-002
1.360000E+009	5.044913E-002	-2.789091E-002	1.269617E-001	-6.398757E-002	1.270859E-001	-6.405711E-002	-7.949440E-002	5.181290E-002
1.370000E+009	5.027181E-002	-2.795979E-002	1.267145E-001	-6.442225E-002	1.268359E-001	-6.448702E-002	-7.920557E-002	5.238916E-002
1.380000E+009	5.015708E-002	-2.806345E-002	1.264702E-001	-6.481227E-002	1.265740E-001	-6.486573E-002	-7.891202E-002	5.294053E-002
1.390000E+009	5.001182E-002	-2.815744E-002	1.262111E-001	-6.522642E-002	1.263270E-001	-6.528660E-002	-7.866319E-002	5.352900E-002
1.400000E+009	4.986662E-002	-2.824236E-002	1.259728E-001	-6.562199E-002	1.260773E-001	-6.566301E-002	-7.838418E-002	5.404707E-002
1.410000E+009	4.971037E-002	-2.831774E-002	1.257257E-001	-6.601897E-002	1.258136E-001	-6.607293E-002	-7.813430E-002	5.459414E-002
1.420000E+009	4.954605E-002	-2.839447E-002	1.254361E-001	-6.642622E-002	1.255693E-001	-6.645915E-002	-7.787500E-002	5.509632E-002
1.430000E+009	4.942944E-002	-2.848958E-002	1.252055E-001	-6.681390E-002	1.253243E-001	-6.689079E-002	-7.758717E-002	5.558720E-002
1.440000E+009	4.927625E-002	-2.855583E-002	1.249418E-001	-6.721659E-002	1.250524E-001	-6.726876E-002	-7.729488E-002	5.606179E-002
1.450000E+009	4.909404E-002	-2.863034E-002	1.246713E-001	-6.762199E-002	1.248018E-001	-6.767276E-002	-7.700165E-002	5.656357E-002
1.460000E+009	4.891441E-002	-2.870296E-002	1.244261E-001	-6.802905E-002	1.245244E-001	-6.807430E-002	-7.666441E-002	5.706398E-002
1.470000E+009	4.877299E-002	-2.878214E-002	1.241675E-001	-6.842656E-002	1.242845E-001	-6.847321E-002	-7.635674E-002	5.759971E-002
1.480000E+009	4.859752E-002	-2.885039E-002	1.239060E-001	-6.879818E-002	1.239955E-001	-6.886147E-002	-7.602276E-002	5.816176E-002
1.490000E+009	4.843972E-002	-2.894994E-002	1.236254E-001	-6.918680E-002	1.237437E-001	-6.923713E-002	-7.566181E-002	5.872596E-002
1.500000E+009	4.828393E-002	-2.902958E-002	1.233468E-001	-6.958407E-002	1.234769E-001	-6.963360E-002	-7.532187E-002	5.928788E-002
