! Device ID: PE43711P
! File Path: z:\PE43711P\CHAR_NOM_04282014\AMB\3p300\LS_ATT_24p25dB\PE43711P_AMB_3p300V_3p000V_0p000V_LS_ATT_24p25dB_S2P_SN_5_A0137A.s2p
! Serial: 5
! Lot: A0137A
! Temp: 25C
! VDD: 3.300
! VSS: 0.000
! Control_Hi: 3.000
! Control_Lo: 0.000
! Attenuation Step: 24.25dB
! Port 1: RF1
! Port 2: RF2
! ThroughPath:1-2
! IDD: 0.0001272182
! ISS: -4.48e-008
!

#  Hz  S   RI  R   50

1.000000E+007	4.247193E-002	3.089584E-004	5.314517E-002	-2.098584E-004	5.320288E-002	-2.261730E-004	-1.141717E-001	8.962861E-004
2.000000E+007	4.269851E-002	3.603837E-004	5.314830E-002	-3.383198E-004	5.317122E-002	-3.428118E-004	-1.138489E-001	1.480779E-003
3.000000E+007	4.295983E-002	3.675225E-004	5.313677E-002	-5.130730E-004	5.317669E-002	-5.177282E-004	-1.135478E-001	1.975692E-003
4.000000E+007	4.311393E-002	3.583679E-004	5.313896E-002	-6.872359E-004	5.317912E-002	-6.893827E-004	-1.133739E-001	2.518908E-003
5.000000E+007	4.321596E-002	3.245434E-004	5.314193E-002	-8.741110E-004	5.318112E-002	-8.723676E-004	-1.133288E-001	3.083243E-003
6.000000E+007	4.337747E-002	2.501934E-004	5.312524E-002	-1.039238E-003	5.316595E-002	-1.047898E-003	-1.131968E-001	3.524101E-003
7.000000E+007	4.349858E-002	1.636221E-004	5.311221E-002	-1.216658E-003	5.316205E-002	-1.220549E-003	-1.130178E-001	3.966867E-003
8.000000E+007	4.361615E-002	9.225166E-005	5.311452E-002	-1.382213E-003	5.315163E-002	-1.381646E-003	-1.128517E-001	4.383838E-003
9.000000E+007	4.373585E-002	1.079813E-005	5.310934E-002	-1.545571E-003	5.313129E-002	-1.545681E-003	-1.127377E-001	4.741395E-003
1.000000E+008	4.385057E-002	-8.189113E-005	5.309185E-002	-1.727528E-003	5.312439E-002	-1.714321E-003	-1.126715E-001	5.136879E-003
1.100000E+008	4.397693E-002	-1.966840E-004	5.308225E-002	-1.904896E-003	5.311373E-002	-1.878338E-003	-1.125642E-001	5.492351E-003
1.200000E+008	4.409616E-002	-3.176598E-004	5.305928E-002	-2.075597E-003	5.310143E-002	-2.067249E-003	-1.124674E-001	5.800006E-003
1.300000E+008	4.419939E-002	-4.301755E-004	5.304882E-002	-2.237558E-003	5.308750E-002	-2.245316E-003	-1.123375E-001	6.112279E-003
1.400000E+008	4.427984E-002	-4.846140E-004	5.303024E-002	-2.416418E-003	5.307707E-002	-2.413669E-003	-1.122213E-001	6.457824E-003
1.500000E+008	4.430632E-002	-5.495444E-004	5.302843E-002	-2.569133E-003	5.305500E-002	-2.576064E-003	-1.121245E-001	6.771382E-003
1.600000E+008	4.435828E-002	-5.913752E-004	5.301034E-002	-2.731518E-003	5.303648E-002	-2.734703E-003	-1.120542E-001	7.086374E-003
1.700000E+008	4.442163E-002	-6.595916E-004	5.300372E-002	-2.909465E-003	5.304655E-002	-2.894822E-003	-1.119667E-001	7.415444E-003
1.800000E+008	4.446321E-002	-7.430397E-004	5.296644E-002	-3.105905E-003	5.303730E-002	-3.085148E-003	-1.118589E-001	7.743096E-003
1.900000E+008	4.442368E-002	-8.656830E-004	5.293838E-002	-3.252512E-003	5.300190E-002	-3.263083E-003	-1.117977E-001	8.001558E-003
2.000000E+008	4.435841E-002	-9.726211E-004	5.290967E-002	-3.412613E-003	5.297964E-002	-3.417850E-003	-1.117513E-001	8.226522E-003
2.100000E+008	4.432905E-002	-1.160805E-003	5.289833E-002	-3.585572E-003	5.295659E-002	-3.583021E-003	-1.116465E-001	8.405616E-003
2.200000E+008	4.429974E-002	-1.316024E-003	5.288904E-002	-3.736813E-003	5.293542E-002	-3.733349E-003	-1.115373E-001	8.600326E-003
2.300000E+008	4.428568E-002	-1.468620E-003	5.287692E-002	-3.910856E-003	5.291334E-002	-3.893187E-003	-1.113931E-001	8.790302E-003
2.400000E+008	4.429825E-002	-1.647863E-003	5.285802E-002	-4.071676E-003	5.288516E-002	-4.062392E-003	-1.112232E-001	9.021038E-003
2.500000E+008	4.430544E-002	-1.793695E-003	5.283232E-002	-4.242760E-003	5.286905E-002	-4.230814E-003	-1.110257E-001	9.235693E-003
2.600000E+008	4.437540E-002	-1.950252E-003	5.279720E-002	-4.405704E-003	5.284245E-002	-4.401530E-003	-1.107886E-001	9.516474E-003
2.700000E+008	4.443849E-002	-2.077189E-003	5.276112E-002	-4.577336E-003	5.282736E-002	-4.559814E-003	-1.105519E-001	9.841020E-003
2.800000E+008	4.449657E-002	-2.198066E-003	5.274312E-002	-4.710668E-003	5.279638E-002	-4.715806E-003	-1.103316E-001	1.014111E-002
2.900000E+008	4.451818E-002	-2.270283E-003	5.272929E-002	-4.883194E-003	5.275224E-002	-4.891319E-003	-1.101802E-001	1.044806E-002
3.000000E+008	4.453850E-002	-2.335972E-003	5.270981E-002	-5.049056E-003	5.274542E-002	-5.039006E-003	-1.100323E-001	1.080987E-002
3.100000E+008	4.452021E-002	-2.379256E-003	5.268224E-002	-5.211262E-003	5.271497E-002	-5.205339E-003	-1.099036E-001	1.117533E-002
3.200000E+008	4.449197E-002	-2.422060E-003	5.264867E-002	-5.386081E-003	5.269412E-002	-5.372368E-003	-1.097940E-001	1.151451E-002
3.300000E+008	4.444314E-002	-2.468277E-003	5.262096E-002	-5.544754E-003	5.266974E-002	-5.545925E-003	-1.096962E-001	1.182170E-002
3.400000E+008	4.435588E-002	-2.534592E-003	5.258745E-002	-5.714330E-003	5.262981E-002	-5.724909E-003	-1.095720E-001	1.209181E-002
3.500000E+008	4.425518E-002	-2.635668E-003	5.256543E-002	-5.867491E-003	5.258230E-002	-5.882485E-003	-1.094038E-001	1.232973E-002
3.600000E+008	4.416041E-002	-2.715836E-003	5.253537E-002	-6.033182E-003	5.255001E-002	-6.022541E-003	-1.092424E-001	1.258142E-002
3.700000E+008	4.407085E-002	-2.821071E-003	5.248892E-002	-6.190672E-003	5.251294E-002	-6.151534E-003	-1.090205E-001	1.280964E-002
3.800000E+008	4.400180E-002	-2.957101E-003	5.246292E-002	-6.347903E-003	5.250608E-002	-6.318324E-003	-1.088177E-001	1.307409E-002
3.900000E+008	4.392258E-002	-3.110109E-003	5.241767E-002	-6.513116E-003	5.247792E-002	-6.486240E-003	-1.085256E-001	1.337473E-002
4.000000E+008	4.389774E-002	-3.264708E-003	5.237566E-002	-6.666212E-003	5.244187E-002	-6.650773E-003	-1.082132E-001	1.369071E-002
4.100000E+008	4.384974E-002	-3.418801E-003	5.235164E-002	-6.803017E-003	5.240926E-002	-6.806988E-003	-1.079237E-001	1.398432E-002
4.200000E+008	4.380683E-002	-3.549663E-003	5.233770E-002	-6.965862E-003	5.236514E-002	-6.961459E-003	-1.076926E-001	1.435622E-002
4.300000E+008	4.377859E-002	-3.671412E-003	5.230508E-002	-7.132329E-003	5.234036E-002	-7.126588E-003	-1.074857E-001	1.476096E-002
4.400000E+008	4.373877E-002	-3.766431E-003	5.227075E-002	-7.288449E-003	5.231204E-002	-7.279472E-003	-1.072698E-001	1.517064E-002
4.500000E+008	4.371184E-002	-3.877310E-003	5.224044E-002	-7.449307E-003	5.228125E-002	-7.438155E-003	-1.070825E-001	1.560768E-002
4.600000E+008	4.370816E-002	-3.978031E-003	5.219651E-002	-7.608172E-003	5.223640E-002	-7.602152E-003	-1.068725E-001	1.604036E-002
4.700000E+008	4.368058E-002	-4.081431E-003	5.216832E-002	-7.761100E-003	5.220398E-002	-7.756337E-003	-1.066999E-001	1.642312E-002
4.800000E+008	4.362222E-002	-4.132701E-003	5.212731E-002	-7.909825E-003	5.216726E-002	-7.910121E-003	-1.065487E-001	1.681433E-002
4.900000E+008	4.353120E-002	-4.203395E-003	5.209109E-002	-8.057647E-003	5.211846E-002	-8.072472E-003	-1.064019E-001	1.717517E-002
5.000000E+008	4.347323E-002	-4.267491E-003	5.205490E-002	-8.227402E-003	5.209412E-002	-8.219847E-003	-1.062196E-001	1.753317E-002
5.100000E+008	4.341640E-002	-4.337475E-003	5.201886E-002	-8.382848E-003	5.205078E-002	-8.366566E-003	-1.060378E-001	1.788789E-002
5.200000E+008	4.332518E-002	-4.430387E-003	5.197664E-002	-8.523080E-003	5.202402E-002	-8.524956E-003	-1.058503E-001	1.824944E-002
5.300000E+008	4.321243E-002	-4.552477E-003	5.195251E-002	-8.686486E-003	5.199287E-002	-8.686928E-003	-1.056176E-001	1.860887E-002
5.400000E+008	4.312956E-002	-4.700223E-003	5.191145E-002	-8.851204E-003	5.194495E-002	-8.839265E-003	-1.053684E-001	1.895345E-002
5.500000E+008	4.304482E-002	-4.812223E-003	5.186296E-002	-9.001986E-003	5.190108E-002	-9.004143E-003	-1.051643E-001	1.932869E-002
5.600000E+008	4.295124E-002	-4.979208E-003	5.182742E-002	-9.145782E-003	5.185857E-002	-9.146836E-003	-1.049241E-001	1.972569E-002
5.700000E+008	4.289083E-002	-5.133904E-003	5.178663E-002	-9.301352E-003	5.182597E-002	-9.283088E-003	-1.047576E-001	2.014144E-002
5.800000E+008	4.284995E-002	-5.270370E-003	5.173919E-002	-9.450252E-003	5.177819E-002	-9.451110E-003	-1.045729E-001	2.056972E-002
5.900000E+008	4.281504E-002	-5.428727E-003	5.171185E-002	-9.608639E-003	5.173480E-002	-9.612744E-003	-1.043772E-001	2.103485E-002
6.000000E+008	4.282370E-002	-5.606142E-003	5.166345E-002	-9.755168E-003	5.170296E-002	-9.765834E-003	-1.041663E-001	2.144568E-002
6.100000E+008	4.281984E-002	-5.720910E-003	5.162111E-002	-9.917910E-003	5.164947E-002	-9.912665E-003	-1.039802E-001	2.187678E-002
6.200000E+008	4.283526E-002	-5.794584E-003	5.156517E-002	-1.005968E-002	5.160787E-002	-1.006245E-002	-1.038044E-001	2.226628E-002
6.300000E+008	4.285134E-002	-5.876593E-003	5.151395E-002	-1.021117E-002	5.155672E-002	-1.020278E-002	-1.036249E-001	2.264853E-002
6.400000E+008	4.288136E-002	-5.944742E-003	5.148168E-002	-1.036605E-002	5.152576E-002	-1.037325E-002	-1.034248E-001	2.304131E-002
6.500000E+008	4.287523E-002	-5.992728E-003	5.143286E-002	-1.050469E-002	5.145632E-002	-1.050597E-002	-1.032578E-001	2.345618E-002
6.600000E+008	4.283793E-002	-6.054143E-003	5.139443E-002	-1.065480E-002	5.144055E-002	-1.066907E-002	-1.030597E-001	2.386224E-002
6.700000E+008	4.277617E-002	-6.101722E-003	5.135804E-002	-1.080755E-002	5.139308E-002	-1.081113E-002	-1.028711E-001	2.428058E-002
6.800000E+008	4.270571E-002	-6.151583E-003	5.130760E-002	-1.096766E-002	5.132918E-002	-1.095535E-002	-1.026861E-001	2.471884E-002
6.900000E+008	4.263633E-002	-6.194496E-003	5.125405E-002	-1.110662E-002	5.129828E-002	-1.111267E-002	-1.024944E-001	2.517840E-002
7.000000E+008	4.258109E-002	-6.248512E-003	5.120340E-002	-1.125155E-002	5.125107E-002	-1.124886E-002	-1.023538E-001	2.561739E-002
7.100000E+008	4.250602E-002	-6.320314E-003	5.118053E-002	-1.140501E-002	5.119869E-002	-1.140047E-002	-1.022141E-001	2.604387E-002
7.200000E+008	4.244308E-002	-6.396615E-003	5.111924E-002	-1.153954E-002	5.115348E-002	-1.155311E-002	-1.020718E-001	2.645018E-002
7.300000E+008	4.235060E-002	-6.468714E-003	5.108089E-002	-1.169604E-002	5.111164E-002	-1.170009E-002	-1.019673E-001	2.684223E-002
7.400000E+008	4.225352E-002	-6.567472E-003	5.102222E-002	-1.184752E-002	5.106539E-002	-1.185241E-002	-1.018613E-001	2.720307E-002
7.500000E+008	4.219169E-002	-6.647222E-003	5.099273E-002	-1.198122E-002	5.102746E-002	-1.198538E-002	-1.017387E-001	2.755742E-002
7.600000E+008	4.212869E-002	-6.745539E-003	5.093172E-002	-1.213346E-002	5.096841E-002	-1.214556E-002	-1.016038E-001	2.790472E-002
7.700000E+008	4.204332E-002	-6.889891E-003	5.088946E-002	-1.227241E-002	5.093218E-002	-1.228822E-002	-1.014402E-001	2.822375E-002
7.800000E+008	4.198612E-002	-6.990674E-003	5.083283E-002	-1.242850E-002	5.087992E-002	-1.243674E-002	-1.012721E-001	2.855530E-002
7.900000E+008	4.194402E-002	-7.122436E-003	5.078568E-002	-1.258257E-002	5.083841E-002	-1.257690E-002	-1.010920E-001	2.889656E-002
8.000000E+008	4.190014E-002	-7.273981E-003	5.075070E-002	-1.271322E-002	5.078726E-002	-1.272805E-002	-1.008522E-001	2.924975E-002
8.100000E+008	4.185694E-002	-7.392281E-003	5.067000E-002	-1.285818E-002	5.073023E-002	-1.288130E-002	-1.005944E-001	2.964027E-002
8.200000E+008	4.186938E-002	-7.512512E-003	5.062150E-002	-1.301578E-002	5.067319E-002	-1.301789E-002	-1.003675E-001	3.001305E-002
8.300000E+008	4.186785E-002	-7.619231E-003	5.058243E-002	-1.314580E-002	5.062052E-002	-1.316929E-002	-1.001490E-001	3.038757E-002
8.400000E+008	4.189077E-002	-7.706580E-003	5.051808E-002	-1.328843E-002	5.058425E-002	-1.329654E-002	-9.992849E-002	3.078630E-002
8.500000E+008	4.189448E-002	-7.790529E-003	5.049999E-002	-1.343344E-002	5.052134E-002	-1.345631E-002	-9.977987E-002	3.118277E-002
8.600000E+008	4.188867E-002	-7.835081E-003	5.042704E-002	-1.357674E-002	5.047360E-002	-1.359357E-002	-9.962393E-002	3.155697E-002
8.700000E+008	4.187401E-002	-7.862245E-003	5.038443E-002	-1.372539E-002	5.042545E-002	-1.373167E-002	-9.945252E-002	3.193301E-002
8.800000E+008	4.185331E-002	-7.895933E-003	5.032703E-002	-1.387119E-002	5.036959E-002	-1.389227E-002	-9.929263E-002	3.228710E-002
8.900000E+008	4.180126E-002	-7.938130E-003	5.027936E-002	-1.401603E-002	5.031968E-002	-1.402114E-002	-9.914249E-002	3.261559E-002
9.000000E+008	4.175452E-002	-7.989067E-003	5.021336E-002	-1.416193E-002	5.026472E-002	-1.416469E-002	-9.893241E-002	3.295967E-002
9.100000E+008	4.167100E-002	-8.043133E-003	5.014112E-002	-1.430559E-002	5.021813E-002	-1.429858E-002	-9.870450E-002	3.327332E-002
9.200000E+008	4.159944E-002	-8.145245E-003	5.010355E-002	-1.443378E-002	5.015314E-002	-1.444009E-002	-9.844397E-002	3.362371E-002
9.300000E+008	4.158468E-002	-8.221228E-003	5.006303E-002	-1.458169E-002	5.009129E-002	-1.459381E-002	-9.817671E-002	3.397373E-002
9.400000E+008	4.156144E-002	-8.318495E-003	5.000857E-002	-1.472354E-002	5.004879E-002	-1.472291E-002	-9.782882E-002	3.433962E-002
9.500000E+008	4.155248E-002	-8.415278E-003	4.995324E-002	-1.485820E-002	4.999954E-002	-1.487149E-002	-9.751429E-002	3.479135E-002
9.600000E+008	4.151439E-002	-8.504096E-003	4.989217E-002	-1.500089E-002	4.995156E-002	-1.500606E-002	-9.719707E-002	3.518531E-002
9.700000E+008	4.152362E-002	-8.548638E-003	4.984565E-002	-1.513378E-002	4.988929E-002	-1.515903E-002	-9.688635E-002	3.563378E-002
9.800000E+008	4.152994E-002	-8.581564E-003	4.979341E-002	-1.528249E-002	4.983957E-002	-1.529184E-002	-9.661154E-002	3.611246E-002
9.900000E+008	4.153904E-002	-8.635671E-003	4.974021E-002	-1.543009E-002	4.978264E-002	-1.544935E-002	-9.636422E-002	3.655769E-002
1.000000E+009	4.152320E-002	-8.657633E-003	4.968649E-002	-1.555557E-002	4.972896E-002	-1.558344E-002	-9.613196E-002	3.698294E-002
1.010000E+009	4.148529E-002	-8.658871E-003	4.963477E-002	-1.570456E-002	4.968165E-002	-1.572922E-002	-9.591359E-002	3.743852E-002
1.020000E+009	4.143978E-002	-8.679339E-003	4.958223E-002	-1.586062E-002	4.960887E-002	-1.585635E-002	-9.574142E-002	3.787826E-002
1.030000E+009	4.140490E-002	-8.714211E-003	4.952169E-002	-1.597045E-002	4.955657E-002	-1.599908E-002	-9.551563E-002	3.829675E-002
1.040000E+009	4.135019E-002	-8.737371E-003	4.947143E-002	-1.612819E-002	4.950216E-002	-1.614920E-002	-9.528968E-002	3.872552E-002
1.050000E+009	4.131323E-002	-8.754347E-003	4.941150E-002	-1.625820E-002	4.944223E-002	-1.628562E-002	-9.504439E-002	3.917849E-002
1.060000E+009	4.127849E-002	-8.801125E-003	4.935277E-002	-1.639299E-002	4.939650E-002	-1.640934E-002	-9.479910E-002	3.960786E-002
1.070000E+009	4.122056E-002	-8.854984E-003	4.929623E-002	-1.655324E-002	4.934192E-002	-1.655440E-002	-9.452382E-002	4.005153E-002
1.080000E+009	4.118304E-002	-8.881068E-003	4.922371E-002	-1.667845E-002	4.927692E-002	-1.669082E-002	-9.426656E-002	4.050551E-002
1.090000E+009	4.113073E-002	-8.946444E-003	4.918337E-002	-1.681449E-002	4.921399E-002	-1.684271E-002	-9.403560E-002	4.094531E-002
1.100000E+009	4.109590E-002	-8.968020E-003	4.910588E-002	-1.695233E-002	4.916663E-002	-1.696495E-002	-9.378554E-002	4.138709E-002
1.110000E+009	4.106366E-002	-9.003564E-003	4.904532E-002	-1.709148E-002	4.909811E-002	-1.710651E-002	-9.357052E-002	4.181624E-002
1.120000E+009	4.099436E-002	-9.059634E-003	4.900970E-002	-1.724501E-002	4.904276E-002	-1.727318E-002	-9.340966E-002	4.222233E-002
1.130000E+009	4.094989E-002	-9.085421E-003	4.893914E-002	-1.738238E-002	4.898771E-002	-1.738682E-002	-9.320555E-002	4.264013E-002
1.140000E+009	4.089745E-002	-9.127575E-003	4.888377E-002	-1.752950E-002	4.892432E-002	-1.752688E-002	-9.297471E-002	4.305080E-002
1.150000E+009	4.084731E-002	-9.163772E-003	4.882218E-002	-1.765777E-002	4.884942E-002	-1.766859E-002	-9.272330E-002	4.346333E-002
1.160000E+009	4.080452E-002	-9.206771E-003	4.875369E-002	-1.781720E-002	4.880593E-002	-1.780829E-002	-9.248161E-002	4.386214E-002
1.170000E+009	4.076369E-002	-9.233231E-003	4.868611E-002	-1.794147E-002	4.871688E-002	-1.795078E-002	-9.222439E-002	4.432453E-002
1.180000E+009	4.073351E-002	-9.280970E-003	4.862310E-002	-1.806963E-002	4.866738E-002	-1.809827E-002	-9.190862E-002	4.474675E-002
1.190000E+009	4.065432E-002	-9.317877E-003	4.857763E-002	-1.820477E-002	4.860292E-002	-1.822044E-002	-9.165789E-002	4.521604E-002
1.200000E+009	4.058480E-002	-9.347359E-003	4.850474E-002	-1.834670E-002	4.853422E-002	-1.835805E-002	-9.137948E-002	4.567941E-002
1.210000E+009	4.056558E-002	-9.431995E-003	4.844285E-002	-1.849794E-002	4.846800E-002	-1.848788E-002	-9.113808E-002	4.613647E-002
1.220000E+009	4.050796E-002	-9.500161E-003	4.838568E-002	-1.861607E-002	4.840812E-002	-1.864275E-002	-9.092445E-002	4.657802E-002
1.230000E+009	4.046412E-002	-9.569862E-003	4.830209E-002	-1.875668E-002	4.834609E-002	-1.878746E-002	-9.070860E-002	4.699981E-002
1.240000E+009	4.044607E-002	-9.657696E-003	4.825250E-002	-1.890014E-002	4.825681E-002	-1.889434E-002	-9.050047E-002	4.740218E-002
1.250000E+009	4.044092E-002	-9.733048E-003	4.817615E-002	-1.902451E-002	4.822918E-002	-1.904068E-002	-9.028907E-002	4.780964E-002
1.260000E+009	4.041948E-002	-9.806732E-003	4.810971E-002	-1.917787E-002	4.814339E-002	-1.917786E-002	-9.003636E-002	4.816278E-002
1.270000E+009	4.044461E-002	-9.851855E-003	4.804475E-002	-1.929945E-002	4.807865E-002	-1.931229E-002	-8.977322E-002	4.852586E-002
1.280000E+009	4.043978E-002	-9.885304E-003	4.797360E-002	-1.944018E-002	4.802121E-002	-1.946289E-002	-8.949441E-002	4.888333E-002
1.290000E+009	4.046538E-002	-9.920381E-003	4.791519E-002	-1.959003E-002	4.795161E-002	-1.958402E-002	-8.914893E-002	4.922751E-002
1.300000E+009	4.046237E-002	-9.922488E-003	4.785164E-002	-1.971101E-002	4.789292E-002	-1.972498E-002	-8.881907E-002	4.963912E-002
1.310000E+009	4.045592E-002	-9.951751E-003	4.776500E-002	-1.984813E-002	4.782242E-002	-1.984899E-002	-8.846794E-002	5.002816E-002
1.320000E+009	4.041957E-002	-9.938247E-003	4.769112E-002	-1.999972E-002	4.775568E-002	-1.998672E-002	-8.808633E-002	5.048707E-002
1.330000E+009	4.039673E-002	-9.932632E-003	4.762808E-002	-2.012790E-002	4.766800E-002	-2.013242E-002	-8.766853E-002	5.095585E-002
1.340000E+009	4.034106E-002	-9.919840E-003	4.755516E-002	-2.024584E-002	4.760532E-002	-2.028074E-002	-8.730880E-002	5.148961E-002
1.350000E+009	4.029435E-002	-9.943114E-003	4.749559E-002	-2.037665E-002	4.753684E-002	-2.041292E-002	-8.694062E-002	5.201698E-002
1.360000E+009	4.028598E-002	-9.949403E-003	4.741204E-002	-2.053667E-002	4.748708E-002	-2.055264E-002	-8.659708E-002	5.257280E-002
1.370000E+009	4.025556E-002	-9.961125E-003	4.735680E-002	-2.067265E-002	4.739652E-002	-2.068772E-002	-8.630572E-002	5.312743E-002
1.380000E+009	4.022480E-002	-9.994204E-003	4.727906E-002	-2.078506E-002	4.732932E-002	-2.079583E-002	-8.596574E-002	5.368291E-002
1.390000E+009	4.020172E-002	-1.000024E-002	4.717821E-002	-2.092621E-002	4.724824E-002	-2.093961E-002	-8.569441E-002	5.426615E-002
1.400000E+009	4.016899E-002	-1.003961E-002	4.712480E-002	-2.106139E-002	4.716921E-002	-2.107165E-002	-8.540958E-002	5.475278E-002
1.410000E+009	4.012975E-002	-1.001008E-002	4.703809E-002	-2.119040E-002	4.709129E-002	-2.120062E-002	-8.516442E-002	5.530293E-002
1.420000E+009	4.007160E-002	-1.002240E-002	4.693329E-002	-2.131290E-002	4.700443E-002	-2.133363E-002	-8.490799E-002	5.578102E-002
1.430000E+009	4.006772E-002	-1.001630E-002	4.690479E-002	-2.145875E-002	4.695495E-002	-2.147932E-002	-8.462028E-002	5.626074E-002
1.440000E+009	3.998992E-002	-1.002274E-002	4.682104E-002	-2.156063E-002	4.685678E-002	-2.158779E-002	-8.433489E-002	5.674882E-002
1.450000E+009	3.993664E-002	-1.003154E-002	4.674980E-002	-2.171402E-002	4.678910E-002	-2.172304E-002	-8.403434E-002	5.721819E-002
1.460000E+009	3.986392E-002	-1.005049E-002	4.667724E-002	-2.184754E-002	4.671579E-002	-2.184928E-002	-8.370547E-002	5.771444E-002
1.470000E+009	3.983836E-002	-1.008583E-002	4.658336E-002	-2.196547E-002	4.663149E-002	-2.199363E-002	-8.338108E-002	5.823277E-002
1.480000E+009	3.977965E-002	-1.008072E-002	4.651890E-002	-2.211577E-002	4.655544E-002	-2.212437E-002	-8.305254E-002	5.875866E-002
1.490000E+009	3.974145E-002	-1.012598E-002	4.643585E-002	-2.223179E-002	4.648938E-002	-2.224515E-002	-8.269084E-002	5.930589E-002
1.500000E+009	3.970880E-002	-1.014977E-002	4.636285E-002	-2.237615E-002	4.641598E-002	-2.237064E-002	-8.232885E-002	5.984268E-002
