! Device ID: PE43711P
! File Path: z:\PE43711P\CHAR_NOM_04282014\AMB\3p300\LS_ATT_13p25dB\PE43711P_AMB_3p300V_3p000V_0p000V_LS_ATT_13p25dB_S2P_SN_5_A0137A.s2p
! Serial: 5
! Lot: A0137A
! Temp: 25C
! VDD: 3.300
! VSS: 0.000
! Control_Hi: 3.000
! Control_Lo: 0.000
! Attenuation Step: 13.25dB
! Port 1: RF1
! Port 2: RF2
! ThroughPath:1-2
! IDD: 0.0001279936
! ISS: -1.171e-007
!

#  Hz  S   RI  R   50

1.000000E+007	7.435057E-002	-7.889140E-005	1.904783E-001	-8.878203E-004	1.907353E-001	-9.589612E-004	-1.106739E-001	8.493173E-004
2.000000E+007	7.455952E-002	-2.798504E-004	1.904642E-001	-1.466691E-003	1.905880E-001	-1.509074E-003	-1.103970E-001	1.417382E-003
3.000000E+007	7.479131E-002	-5.844557E-004	1.904716E-001	-2.224840E-003	1.906024E-001	-2.244677E-003	-1.100924E-001	1.858678E-003
4.000000E+007	7.493018E-002	-9.145265E-004	1.904677E-001	-2.986610E-003	1.905798E-001	-2.997803E-003	-1.098972E-001	2.374689E-003
5.000000E+007	7.504157E-002	-1.278199E-003	1.904554E-001	-3.775442E-003	1.906197E-001	-3.763732E-003	-1.098360E-001	2.865634E-003
6.000000E+007	7.518103E-002	-1.674168E-003	1.903969E-001	-4.497415E-003	1.905846E-001	-4.502860E-003	-1.097054E-001	3.246754E-003
7.000000E+007	7.527657E-002	-2.083788E-003	1.903509E-001	-5.222956E-003	1.905202E-001	-5.238394E-003	-1.095174E-001	3.620871E-003
8.000000E+007	7.537392E-002	-2.496797E-003	1.903114E-001	-5.934105E-003	1.904814E-001	-5.941746E-003	-1.093530E-001	4.012835E-003
9.000000E+007	7.546453E-002	-2.880724E-003	1.902685E-001	-6.664616E-003	1.904360E-001	-6.668849E-003	-1.092288E-001	4.334691E-003
1.000000E+008	7.555588E-002	-3.281269E-003	1.902591E-001	-7.406191E-003	1.903786E-001	-7.399364E-003	-1.091470E-001	4.675185E-003
1.100000E+008	7.562779E-002	-3.691751E-003	1.901744E-001	-8.168813E-003	1.903536E-001	-8.133145E-003	-1.090508E-001	4.974892E-003
1.200000E+008	7.569949E-002	-4.133767E-003	1.900839E-001	-8.895503E-003	1.902627E-001	-8.897946E-003	-1.089725E-001	5.250642E-003
1.300000E+008	7.575055E-002	-4.560172E-003	1.900413E-001	-9.611779E-003	1.902150E-001	-9.619399E-003	-1.088593E-001	5.520839E-003
1.400000E+008	7.577321E-002	-4.950301E-003	1.899679E-001	-1.033954E-002	1.901351E-001	-1.035939E-002	-1.087085E-001	5.801017E-003
1.500000E+008	7.573001E-002	-5.332802E-003	1.899087E-001	-1.101991E-002	1.900328E-001	-1.105839E-002	-1.085941E-001	6.055932E-003
1.600000E+008	7.567615E-002	-5.653898E-003	1.898507E-001	-1.172429E-002	1.899274E-001	-1.173638E-002	-1.085426E-001	6.332086E-003
1.700000E+008	7.567750E-002	-6.039404E-003	1.897923E-001	-1.249737E-002	1.899557E-001	-1.246234E-002	-1.085317E-001	6.612624E-003
1.800000E+008	7.561969E-002	-6.422099E-003	1.896209E-001	-1.325776E-002	1.898864E-001	-1.325517E-002	-1.084570E-001	6.862325E-003
1.900000E+008	7.551424E-002	-6.844468E-003	1.895084E-001	-1.396415E-002	1.897565E-001	-1.396695E-002	-1.083981E-001	7.051552E-003
2.000000E+008	7.541097E-002	-7.290848E-003	1.894134E-001	-1.463942E-002	1.896505E-001	-1.466344E-002	-1.083143E-001	7.251216E-003
2.100000E+008	7.530114E-002	-7.763074E-003	1.893472E-001	-1.533456E-002	1.895275E-001	-1.534917E-002	-1.081849E-001	7.399686E-003
2.200000E+008	7.519571E-002	-8.218721E-003	1.892706E-001	-1.600801E-002	1.894323E-001	-1.603897E-002	-1.080526E-001	7.561251E-003
2.300000E+008	7.510324E-002	-8.660241E-003	1.891732E-001	-1.671195E-002	1.893389E-001	-1.673954E-002	-1.079229E-001	7.706856E-003
2.400000E+008	7.501441E-002	-9.113517E-003	1.890914E-001	-1.743054E-002	1.892145E-001	-1.742327E-002	-1.077644E-001	7.902324E-003
2.500000E+008	7.490488E-002	-9.559966E-003	1.889569E-001	-1.815451E-002	1.891076E-001	-1.813221E-002	-1.075844E-001	8.051376E-003
2.600000E+008	7.485648E-002	-9.999862E-003	1.888197E-001	-1.886951E-002	1.890055E-001	-1.884460E-002	-1.073779E-001	8.290214E-003
2.700000E+008	7.480509E-002	-1.041755E-002	1.886800E-001	-1.954771E-002	1.888721E-001	-1.955112E-002	-1.071572E-001	8.539601E-003
2.800000E+008	7.476438E-002	-1.081573E-002	1.885685E-001	-2.021977E-002	1.887439E-001	-2.022178E-002	-1.069277E-001	8.785008E-003
2.900000E+008	7.467383E-002	-1.119262E-002	1.884682E-001	-2.090271E-002	1.886082E-001	-2.088481E-002	-1.068013E-001	9.060887E-003
3.000000E+008	7.461476E-002	-1.150795E-002	1.883787E-001	-2.161056E-002	1.885047E-001	-2.158949E-002	-1.066346E-001	9.358930E-003
3.100000E+008	7.451301E-002	-1.184415E-002	1.882432E-001	-2.230411E-002	1.883968E-001	-2.230407E-002	-1.065088E-001	9.668603E-003
3.200000E+008	7.438660E-002	-1.216204E-002	1.881074E-001	-2.301834E-002	1.882895E-001	-2.299786E-002	-1.064095E-001	9.990349E-003
3.300000E+008	7.423026E-002	-1.246559E-002	1.879869E-001	-2.370724E-002	1.881505E-001	-2.374108E-002	-1.063240E-001	1.024943E-002
3.400000E+008	7.400848E-002	-1.279128E-002	1.878382E-001	-2.439376E-002	1.879525E-001	-2.446754E-002	-1.061859E-001	1.047990E-002
3.500000E+008	7.377992E-002	-1.313764E-002	1.877163E-001	-2.509309E-002	1.877630E-001	-2.509259E-002	-1.060400E-001	1.066002E-002
3.600000E+008	7.357173E-002	-1.347026E-002	1.875649E-001	-2.578288E-002	1.876058E-001	-2.572352E-002	-1.058715E-001	1.087409E-002
3.700000E+008	7.335806E-002	-1.382496E-002	1.873775E-001	-2.642554E-002	1.874978E-001	-2.634192E-002	-1.056751E-001	1.105430E-002
3.800000E+008	7.319183E-002	-1.420263E-002	1.872425E-001	-2.709849E-002	1.873968E-001	-2.704518E-002	-1.054950E-001	1.125528E-002
3.900000E+008	7.296830E-002	-1.462807E-002	1.870716E-001	-2.780161E-002	1.872572E-001	-2.775233E-002	-1.052154E-001	1.153080E-002
4.000000E+008	7.281165E-002	-1.505199E-002	1.868721E-001	-2.842504E-002	1.870959E-001	-2.844397E-002	-1.049098E-001	1.176387E-002
4.100000E+008	7.262757E-002	-1.544601E-002	1.867424E-001	-2.904543E-002	1.869410E-001	-2.909874E-002	-1.046415E-001	1.202420E-002
4.200000E+008	7.244795E-002	-1.583558E-002	1.866262E-001	-2.972025E-002	1.867710E-001	-2.975063E-002	-1.044135E-001	1.234149E-002
4.300000E+008	7.228313E-002	-1.619385E-002	1.864760E-001	-3.040457E-002	1.866086E-001	-3.042514E-002	-1.042096E-001	1.268178E-002
4.400000E+008	7.215711E-002	-1.650664E-002	1.863231E-001	-3.107606E-002	1.864630E-001	-3.108809E-002	-1.040123E-001	1.307301E-002
4.500000E+008	7.199625E-002	-1.685613E-002	1.861597E-001	-3.175757E-002	1.863032E-001	-3.177558E-002	-1.038222E-001	1.346790E-002
4.600000E+008	7.184301E-002	-1.719789E-002	1.859912E-001	-3.243333E-002	1.861254E-001	-3.244290E-002	-1.036513E-001	1.386675E-002
4.700000E+008	7.166849E-002	-1.750888E-002	1.858227E-001	-3.308090E-002	1.859362E-001	-3.311694E-002	-1.034833E-001	1.420807E-002
4.800000E+008	7.146536E-002	-1.777453E-002	1.856562E-001	-3.373169E-002	1.857685E-001	-3.374704E-002	-1.033557E-001	1.453661E-002
4.900000E+008	7.123563E-002	-1.808360E-002	1.854871E-001	-3.437620E-002	1.855718E-001	-3.440110E-002	-1.032353E-001	1.486865E-002
5.000000E+008	7.103083E-002	-1.836751E-002	1.852998E-001	-3.503366E-002	1.854249E-001	-3.504528E-002	-1.030778E-001	1.518798E-002
5.100000E+008	7.084619E-002	-1.867708E-002	1.851424E-001	-3.569139E-002	1.852675E-001	-3.568465E-002	-1.029025E-001	1.549232E-002
5.200000E+008	7.063554E-002	-1.902140E-002	1.849600E-001	-3.635225E-002	1.851114E-001	-3.635173E-002	-1.027217E-001	1.580101E-002
5.300000E+008	7.039005E-002	-1.935455E-002	1.847689E-001	-3.701284E-002	1.849389E-001	-3.701759E-002	-1.024916E-001	1.609932E-002
5.400000E+008	7.014643E-002	-1.972750E-002	1.845864E-001	-3.766357E-002	1.847409E-001	-3.768486E-002	-1.022696E-001	1.638570E-002
5.500000E+008	6.991551E-002	-2.005292E-002	1.843881E-001	-3.829574E-002	1.845235E-001	-3.832804E-002	-1.020464E-001	1.675491E-002
5.600000E+008	6.968808E-002	-2.040688E-002	1.842077E-001	-3.894761E-002	1.843096E-001	-3.898901E-002	-1.018580E-001	1.709547E-002
5.700000E+008	6.949600E-002	-2.077860E-002	1.840172E-001	-3.958151E-002	1.841454E-001	-3.961634E-002	-1.017067E-001	1.749117E-002
5.800000E+008	6.929435E-002	-2.111925E-002	1.838208E-001	-4.023039E-002	1.839663E-001	-4.025583E-002	-1.015489E-001	1.786641E-002
5.900000E+008	6.910852E-002	-2.149696E-002	1.836284E-001	-4.089375E-002	1.837764E-001	-4.091918E-002	-1.013725E-001	1.827934E-002
6.000000E+008	6.895980E-002	-2.183115E-002	1.834233E-001	-4.153711E-002	1.835627E-001	-4.157271E-002	-1.012036E-001	1.863361E-002
6.100000E+008	6.880857E-002	-2.216807E-002	1.832436E-001	-4.215058E-002	1.833326E-001	-4.220276E-002	-1.010426E-001	1.900048E-002
6.200000E+008	6.867760E-002	-2.246195E-002	1.830028E-001	-4.280418E-002	1.831464E-001	-4.283208E-002	-1.008859E-001	1.935384E-002
6.300000E+008	6.855754E-002	-2.274413E-002	1.827966E-001	-4.341429E-002	1.829397E-001	-4.345576E-002	-1.007126E-001	1.970306E-002
6.400000E+008	6.842255E-002	-2.302269E-002	1.825968E-001	-4.404691E-002	1.827330E-001	-4.409384E-002	-1.005309E-001	2.004597E-002
6.500000E+008	6.828384E-002	-2.327707E-002	1.824017E-001	-4.467378E-002	1.825427E-001	-4.472591E-002	-1.003730E-001	2.042750E-002
6.600000E+008	6.812201E-002	-2.353209E-002	1.822097E-001	-4.531106E-002	1.823270E-001	-4.537875E-002	-1.001748E-001	2.080321E-002
6.700000E+008	6.788454E-002	-2.377049E-002	1.819948E-001	-4.595815E-002	1.821114E-001	-4.598865E-002	-1.000366E-001	2.118225E-002
6.800000E+008	6.766633E-002	-2.398860E-002	1.817798E-001	-4.658781E-002	1.818951E-001	-4.663462E-002	-9.986878E-002	2.159272E-002
6.900000E+008	6.744524E-002	-2.420887E-002	1.815562E-001	-4.720188E-002	1.816564E-001	-4.723635E-002	-9.970842E-002	2.201441E-002
7.000000E+008	6.723590E-002	-2.444715E-002	1.813332E-001	-4.782838E-002	1.814711E-001	-4.785840E-002	-9.959907E-002	2.240031E-002
7.100000E+008	6.701030E-002	-2.471998E-002	1.811171E-001	-4.842648E-002	1.812478E-001	-4.847354E-002	-9.950739E-002	2.278749E-002
7.200000E+008	6.675248E-002	-2.498872E-002	1.809149E-001	-4.905866E-002	1.810377E-001	-4.910224E-002	-9.940190E-002	2.314872E-002
7.300000E+008	6.653822E-002	-2.526205E-002	1.806836E-001	-4.967961E-002	1.808267E-001	-4.973300E-002	-9.929934E-002	2.347685E-002
7.400000E+008	6.628949E-002	-2.553389E-002	1.804329E-001	-5.029927E-002	1.806018E-001	-5.035736E-002	-9.921720E-002	2.379566E-002
7.500000E+008	6.607495E-002	-2.580002E-002	1.802347E-001	-5.091154E-002	1.803828E-001	-5.097308E-002	-9.910178E-002	2.409855E-002
7.600000E+008	6.584079E-002	-2.608632E-002	1.799942E-001	-5.153873E-002	1.801482E-001	-5.158865E-002	-9.898226E-002	2.440184E-002
7.700000E+008	6.561912E-002	-2.639795E-002	1.797986E-001	-5.214932E-002	1.799331E-001	-5.221370E-002	-9.885437E-002	2.466774E-002
7.800000E+008	6.540942E-002	-2.666559E-002	1.795583E-001	-5.276391E-002	1.797055E-001	-5.282078E-002	-9.869082E-002	2.496071E-002
7.900000E+008	6.517915E-002	-2.698877E-002	1.793355E-001	-5.336863E-002	1.794715E-001	-5.343060E-002	-9.854896E-002	2.527898E-002
8.000000E+008	6.496672E-002	-2.728676E-002	1.790879E-001	-5.398121E-002	1.792007E-001	-5.405088E-002	-9.835420E-002	2.561607E-002
8.100000E+008	6.477443E-002	-2.759178E-002	1.788383E-001	-5.459281E-002	1.789612E-001	-5.466793E-002	-9.813856E-002	2.594666E-002
8.200000E+008	6.460578E-002	-2.788203E-002	1.786055E-001	-5.520070E-002	1.787304E-001	-5.527046E-002	-9.794861E-002	2.628905E-002
8.300000E+008	6.445656E-002	-2.818154E-002	1.783691E-001	-5.580144E-002	1.785205E-001	-5.588193E-002	-9.777102E-002	2.661918E-002
8.400000E+008	6.431292E-002	-2.842076E-002	1.781275E-001	-5.641419E-002	1.782682E-001	-5.646917E-002	-9.758652E-002	2.696373E-002
8.500000E+008	6.416054E-002	-2.867113E-002	1.778981E-001	-5.700800E-002	1.780305E-001	-5.710904E-002	-9.745392E-002	2.730161E-002
8.600000E+008	6.398371E-002	-2.888166E-002	1.776387E-001	-5.761013E-002	1.777655E-001	-5.767678E-002	-9.732748E-002	2.765371E-002
8.700000E+008	6.381613E-002	-2.909977E-002	1.774072E-001	-5.821800E-002	1.775198E-001	-5.828419E-002	-9.716883E-002	2.798064E-002
8.800000E+008	6.364516E-002	-2.927446E-002	1.771516E-001	-5.883067E-002	1.772962E-001	-5.887793E-002	-9.704964E-002	2.831829E-002
8.900000E+008	6.342734E-002	-2.950112E-002	1.769025E-001	-5.941713E-002	1.770306E-001	-5.949805E-002	-9.690925E-002	2.861614E-002
9.000000E+008	6.319846E-002	-2.970019E-002	1.766281E-001	-6.001465E-002	1.767919E-001	-6.009754E-002	-9.673834E-002	2.892100E-002
9.100000E+008	6.296044E-002	-2.991765E-002	1.763781E-001	-6.063575E-002	1.765361E-001	-6.068808E-002	-9.654448E-002	2.921082E-002
9.200000E+008	6.272302E-002	-3.015415E-002	1.761267E-001	-6.120519E-002	1.762860E-001	-6.129876E-002	-9.631676E-002	2.952945E-002
9.300000E+008	6.252420E-002	-3.039611E-002	1.758779E-001	-6.180143E-002	1.760175E-001	-6.189193E-002	-9.607709E-002	2.983999E-002
9.400000E+008	6.231873E-002	-3.064565E-002	1.756023E-001	-6.238968E-002	1.757722E-001	-6.247548E-002	-9.579233E-002	3.018793E-002
9.500000E+008	6.212410E-002	-3.090870E-002	1.753727E-001	-6.299324E-002	1.754983E-001	-6.308775E-002	-9.550211E-002	3.056765E-002
9.600000E+008	6.194353E-002	-3.112565E-002	1.750911E-001	-6.358804E-002	1.752480E-001	-6.367116E-002	-9.521066E-002	3.093441E-002
9.700000E+008	6.179755E-002	-3.134732E-002	1.748214E-001	-6.416021E-002	1.749928E-001	-6.426030E-002	-9.494719E-002	3.133493E-002
9.800000E+008	6.163502E-002	-3.152480E-002	1.745819E-001	-6.473499E-002	1.747168E-001	-6.483269E-002	-9.467317E-002	3.176121E-002
9.900000E+008	6.149661E-002	-3.172786E-002	1.743440E-001	-6.534900E-002	1.744617E-001	-6.544904E-002	-9.444845E-002	3.216584E-002
1.000000E+009	6.131195E-002	-3.188843E-002	1.740696E-001	-6.594559E-002	1.741897E-001	-6.603073E-002	-9.427962E-002	3.258022E-002
1.010000E+009	6.110437E-002	-3.203400E-002	1.737982E-001	-6.652633E-002	1.739237E-001	-6.662273E-002	-9.405708E-002	3.301709E-002
1.020000E+009	6.089871E-002	-3.218857E-002	1.735385E-001	-6.710599E-002	1.736619E-001	-6.719901E-002	-9.391703E-002	3.343153E-002
1.030000E+009	6.069498E-002	-3.234401E-002	1.732245E-001	-6.768721E-002	1.733720E-001	-6.777973E-002	-9.373886E-002	3.383222E-002
1.040000E+009	6.046969E-002	-3.249534E-002	1.729661E-001	-6.826781E-002	1.731075E-001	-6.836481E-002	-9.356570E-002	3.423254E-002
1.050000E+009	6.023876E-002	-3.267622E-002	1.727165E-001	-6.885063E-002	1.728296E-001	-6.893419E-002	-9.335544E-002	3.463826E-002
1.060000E+009	6.004948E-002	-3.286142E-002	1.724190E-001	-6.943960E-002	1.725424E-001	-6.951309E-002	-9.314348E-002	3.503607E-002
1.070000E+009	5.982283E-002	-3.305259E-002	1.721260E-001	-7.001074E-002	1.722799E-001	-7.007121E-002	-9.291169E-002	3.542123E-002
1.080000E+009	5.959524E-002	-3.324471E-002	1.718711E-001	-7.060621E-002	1.720099E-001	-7.066148E-002	-9.268210E-002	3.583575E-002
1.090000E+009	5.939989E-002	-3.342178E-002	1.715731E-001	-7.117598E-002	1.717309E-001	-7.123757E-002	-9.247038E-002	3.622724E-002
1.100000E+009	5.922228E-002	-3.361437E-002	1.712626E-001	-7.176927E-002	1.714472E-001	-7.179987E-002	-9.226412E-002	3.665675E-002
1.110000E+009	5.902333E-002	-3.376305E-002	1.710019E-001	-7.232762E-002	1.711543E-001	-7.239452E-002	-9.206319E-002	3.705998E-002
1.120000E+009	5.879024E-002	-3.394571E-002	1.707195E-001	-7.290609E-002	1.708688E-001	-7.299771E-002	-9.193425E-002	3.743007E-002
1.130000E+009	5.858730E-002	-3.410697E-002	1.704262E-001	-7.346835E-002	1.705724E-001	-7.355856E-002	-9.175839E-002	3.782231E-002
1.140000E+009	5.834528E-002	-3.425986E-002	1.701449E-001	-7.406232E-002	1.702911E-001	-7.412137E-002	-9.159184E-002	3.823303E-002
1.150000E+009	5.814587E-002	-3.445041E-002	1.698452E-001	-7.464452E-002	1.699704E-001	-7.470203E-002	-9.138350E-002	3.861162E-002
1.160000E+009	5.790274E-002	-3.459851E-002	1.695453E-001	-7.522809E-002	1.696858E-001	-7.527733E-002	-9.118068E-002	3.900328E-002
1.170000E+009	5.767975E-002	-3.477790E-002	1.692234E-001	-7.579161E-002	1.693861E-001	-7.583286E-002	-9.096477E-002	3.939512E-002
1.180000E+009	5.748681E-002	-3.495157E-002	1.689238E-001	-7.633807E-002	1.690965E-001	-7.640330E-002	-9.072314E-002	3.979854E-002
1.190000E+009	5.724751E-002	-3.510895E-002	1.686406E-001	-7.691438E-002	1.687508E-001	-7.698528E-002	-9.050259E-002	4.022173E-002
1.200000E+009	5.702895E-002	-3.528852E-002	1.683280E-001	-7.747634E-002	1.684643E-001	-7.754302E-002	-9.024038E-002	4.064292E-002
1.210000E+009	5.683158E-002	-3.549439E-002	1.680208E-001	-7.805075E-002	1.681583E-001	-7.811212E-002	-9.002700E-002	4.109031E-002
1.220000E+009	5.663051E-002	-3.571088E-002	1.677100E-001	-7.859824E-002	1.678527E-001	-7.868153E-002	-8.983284E-002	4.149163E-002
1.230000E+009	5.642294E-002	-3.587965E-002	1.673944E-001	-7.916307E-002	1.675425E-001	-7.923240E-002	-8.965050E-002	4.189653E-002
1.240000E+009	5.622734E-002	-3.607528E-002	1.670858E-001	-7.973234E-002	1.672140E-001	-7.978242E-002	-8.948738E-002	4.228045E-002
1.250000E+009	5.603829E-002	-3.628208E-002	1.667593E-001	-8.029600E-002	1.669342E-001	-8.035902E-002	-8.933316E-002	4.266086E-002
1.260000E+009	5.582220E-002	-3.643962E-002	1.664527E-001	-8.084916E-002	1.665741E-001	-8.091997E-002	-8.910378E-002	4.298757E-002
1.270000E+009	5.568235E-002	-3.660764E-002	1.661366E-001	-8.141464E-002	1.662788E-001	-8.147678E-002	-8.889082E-002	4.334785E-002
1.280000E+009	5.548328E-002	-3.677248E-002	1.658190E-001	-8.197699E-002	1.659643E-001	-8.202539E-002	-8.867489E-002	4.366624E-002
1.290000E+009	5.532627E-002	-3.692162E-002	1.654848E-001	-8.254625E-002	1.656338E-001	-8.259642E-002	-8.838534E-002	4.398684E-002
1.300000E+009	5.516491E-002	-3.702793E-002	1.651669E-001	-8.308112E-002	1.653257E-001	-8.316244E-002	-8.808237E-002	4.434624E-002
1.310000E+009	5.495341E-002	-3.718472E-002	1.648151E-001	-8.365092E-002	1.649850E-001	-8.372375E-002	-8.778639E-002	4.472145E-002
1.320000E+009	5.475289E-002	-3.730929E-002	1.645003E-001	-8.422615E-002	1.646749E-001	-8.426367E-002	-8.742791E-002	4.514561E-002
1.330000E+009	5.456467E-002	-3.740585E-002	1.641682E-001	-8.473788E-002	1.643266E-001	-8.484618E-002	-8.704427E-002	4.561434E-002
1.340000E+009	5.435155E-002	-3.749574E-002	1.638500E-001	-8.528654E-002	1.639846E-001	-8.538354E-002	-8.671138E-002	4.610803E-002
1.350000E+009	5.411823E-002	-3.761917E-002	1.634975E-001	-8.585122E-002	1.636351E-001	-8.592965E-002	-8.640892E-002	4.662487E-002
1.360000E+009	5.395712E-002	-3.771680E-002	1.631426E-001	-8.638942E-002	1.633180E-001	-8.646771E-002	-8.607132E-002	4.718109E-002
1.370000E+009	5.372906E-002	-3.782968E-002	1.628205E-001	-8.694756E-002	1.629780E-001	-8.703054E-002	-8.581652E-002	4.771018E-002
1.380000E+009	5.351655E-002	-3.795637E-002	1.624617E-001	-8.746529E-002	1.626289E-001	-8.757284E-002	-8.556128E-002	4.823881E-002
1.390000E+009	5.330989E-002	-3.808555E-002	1.621308E-001	-8.804159E-002	1.622729E-001	-8.811541E-002	-8.533938E-002	4.877206E-002
1.400000E+009	5.308155E-002	-3.822141E-002	1.617796E-001	-8.856697E-002	1.619195E-001	-8.863547E-002	-8.511976E-002	4.928464E-002
1.410000E+009	5.285181E-002	-3.831276E-002	1.614441E-001	-8.909875E-002	1.615570E-001	-8.917319E-002	-8.489031E-002	4.979746E-002
1.420000E+009	5.264715E-002	-3.843264E-002	1.610465E-001	-8.962374E-002	1.612288E-001	-8.970232E-002	-8.466303E-002	5.025352E-002
1.430000E+009	5.246351E-002	-3.852348E-002	1.607212E-001	-9.016485E-002	1.608714E-001	-9.024655E-002	-8.443038E-002	5.071044E-002
1.440000E+009	5.222184E-002	-3.866103E-002	1.603591E-001	-9.071058E-002	1.605115E-001	-9.077273E-002	-8.416665E-002	5.116721E-002
1.450000E+009	5.198518E-002	-3.874687E-002	1.600018E-001	-9.125786E-002	1.601432E-001	-9.130851E-002	-8.388950E-002	5.163970E-002
1.460000E+009	5.174334E-002	-3.885353E-002	1.596397E-001	-9.177728E-002	1.597874E-001	-9.185101E-002	-8.362177E-002	5.211580E-002
1.470000E+009	5.151383E-002	-3.898010E-002	1.592806E-001	-9.229979E-002	1.594242E-001	-9.239341E-002	-8.333080E-002	5.263542E-002
1.480000E+009	5.127203E-002	-3.905613E-002	1.589057E-001	-9.282911E-002	1.590447E-001	-9.289911E-002	-8.303212E-002	5.315171E-002
1.490000E+009	5.106168E-002	-3.917846E-002	1.585367E-001	-9.335172E-002	1.586724E-001	-9.342044E-002	-8.275324E-002	5.369350E-002
1.500000E+009	5.083378E-002	-3.929122E-002	1.581631E-001	-9.386481E-002	1.583197E-001	-9.394358E-002	-8.244503E-002	5.420529E-002
