! Device ID: PE43711P
! File Path: z:\PE43711P\CHAR_NOM_04282014\AMB\3p300\LS_ATT_0p50dB\PE43711P_AMB_3p300V_3p000V_0p000V_LS_ATT_0p50dB_S2P_SN_5_A0137A.s2p
! Serial: 5
! Lot: A0137A
! Temp: 25C
! VDD: 3.300
! VSS: 0.000
! Control_Hi: 3.000
! Control_Lo: 0.000
! Attenuation Step: 0.50dB
! Port 1: RF1
! Port 2: RF2
! ThroughPath:1-2
! IDD: 0.0001273645
! ISS: -9.71e-008
!

#  Hz  S   RI  R   50

1.000000E+007	1.049387E-001	-5.867611E-004	8.397561E-001	-3.954238E-003	8.398514E-001	-4.284284E-003	9.185234E-002	-7.749870E-004
2.000000E+007	1.050060E-001	-6.706403E-004	8.397348E-001	-7.140364E-003	8.397165E-001	-7.210077E-003	9.182025E-002	-8.293695E-004
3.000000E+007	1.054096E-001	-1.377063E-003	8.397192E-001	-1.083661E-002	8.397377E-001	-1.089957E-002	9.211049E-002	-1.246942E-003
4.000000E+007	1.054153E-001	-1.960105E-003	8.397056E-001	-1.446967E-002	8.396353E-001	-1.455413E-002	9.277955E-002	-1.792854E-003
5.000000E+007	1.058572E-001	-2.736391E-003	8.396365E-001	-1.839940E-002	8.395919E-001	-1.837382E-002	9.319007E-002	-2.683261E-003
6.000000E+007	1.062390E-001	-3.658679E-003	8.394936E-001	-2.208660E-002	8.395077E-001	-2.209860E-002	9.334480E-002	-3.707881E-003
7.000000E+007	1.063506E-001	-4.592973E-003	8.393062E-001	-2.575922E-002	8.393007E-001	-2.579320E-002	9.323368E-002	-4.697413E-003
8.000000E+007	1.066405E-001	-5.478040E-003	8.390977E-001	-2.935257E-002	8.391442E-001	-2.942067E-002	9.311131E-002	-5.430079E-003
9.000000E+007	1.068068E-001	-6.317324E-003	8.388960E-001	-3.303221E-002	8.388615E-001	-3.309141E-002	9.324069E-002	-6.233272E-003
1.000000E+008	1.069173E-001	-7.150638E-003	8.387378E-001	-3.668242E-002	8.386390E-001	-3.671461E-002	9.367614E-002	-7.172118E-003
1.100000E+008	1.070092E-001	-7.917288E-003	8.384122E-001	-4.040442E-002	8.383411E-001	-4.033133E-002	9.368377E-002	-8.109150E-003
1.200000E+008	1.072005E-001	-8.689836E-003	8.379827E-001	-4.403267E-002	8.379943E-001	-4.397770E-002	9.334513E-002	-8.971556E-003
1.300000E+008	1.073567E-001	-9.731172E-003	8.376868E-001	-4.762158E-002	8.377114E-001	-4.762987E-002	9.341894E-002	-1.009249E-002
1.400000E+008	1.074488E-001	-1.102543E-002	8.374055E-001	-5.129816E-002	8.373652E-001	-5.134806E-002	9.418887E-002	-1.128673E-002
1.500000E+008	1.073075E-001	-1.213494E-002	8.370963E-001	-5.485636E-002	8.368910E-001	-5.494002E-002	9.478607E-002	-1.225152E-002
1.600000E+008	1.068977E-001	-1.271892E-002	8.366905E-001	-5.840849E-002	8.363742E-001	-5.845520E-002	9.420042E-002	-1.296682E-002
1.700000E+008	1.062879E-001	-1.315270E-002	8.362699E-001	-6.217420E-002	8.360989E-001	-6.198116E-002	9.288587E-002	-1.387859E-002
1.800000E+008	1.058185E-001	-1.382642E-002	8.354615E-001	-6.589016E-002	8.355525E-001	-6.566916E-002	9.178498E-002	-1.496565E-002
1.900000E+008	1.056938E-001	-1.491078E-002	8.348794E-001	-6.932764E-002	8.349977E-001	-6.921920E-002	9.169647E-002	-1.602428E-002
2.000000E+008	1.058545E-001	-1.616307E-002	8.344898E-001	-7.285988E-002	8.345514E-001	-7.281198E-002	9.223732E-002	-1.687334E-002
2.100000E+008	1.060624E-001	-1.742041E-002	8.340796E-001	-7.635210E-002	8.340456E-001	-7.638055E-002	9.285520E-002	-1.759496E-002
2.200000E+008	1.061268E-001	-1.850158E-002	8.336151E-001	-7.977993E-002	8.335467E-001	-7.986279E-002	9.312913E-002	-1.829668E-002
2.300000E+008	1.059292E-001	-1.949322E-002	8.330274E-001	-8.329461E-002	8.329816E-001	-8.338563E-002	9.306426E-002	-1.919796E-002
2.400000E+008	1.056532E-001	-2.048633E-002	8.324484E-001	-8.683993E-002	8.323371E-001	-8.692906E-002	9.281318E-002	-2.024858E-002
2.500000E+008	1.053049E-001	-2.143495E-002	8.318192E-001	-9.039988E-002	8.316625E-001	-9.038094E-002	9.248149E-002	-2.149794E-002
2.600000E+008	1.050022E-001	-2.248349E-002	8.311173E-001	-9.395673E-002	8.310608E-001	-9.392419E-002	9.226395E-002	-2.260433E-002
2.700000E+008	1.047275E-001	-2.339152E-002	8.303839E-001	-9.744808E-002	8.304044E-001	-9.743990E-002	9.216245E-002	-2.355042E-002
2.800000E+008	1.045607E-001	-2.428330E-002	8.297115E-001	-1.008442E-001	8.297098E-001	-1.008426E-001	9.211919E-002	-2.433949E-002
2.900000E+008	1.043008E-001	-2.500347E-002	8.290384E-001	-1.042011E-001	8.289793E-001	-1.041833E-001	9.202335E-002	-2.503110E-002
3.000000E+008	1.041798E-001	-2.571507E-002	8.283932E-001	-1.076439E-001	8.284417E-001	-1.075874E-001	9.192610E-002	-2.578091E-002
3.100000E+008	1.039498E-001	-2.639932E-002	8.277050E-001	-1.110008E-001	8.277809E-001	-1.110497E-001	9.187353E-002	-2.650391E-002
3.200000E+008	1.037407E-001	-2.719838E-002	8.269365E-001	-1.144682E-001	8.271021E-001	-1.144755E-001	9.174184E-002	-2.729849E-002
3.300000E+008	1.033758E-001	-2.792375E-002	8.262984E-001	-1.178255E-001	8.263794E-001	-1.180443E-001	9.151720E-002	-2.812220E-002
3.400000E+008	1.028825E-001	-2.863398E-002	8.254786E-001	-1.213014E-001	8.253625E-001	-1.215954E-001	9.134178E-002	-2.900010E-002
3.500000E+008	1.023716E-001	-2.932833E-002	8.246867E-001	-1.247776E-001	8.243384E-001	-1.247956E-001	9.116547E-002	-2.995212E-002
3.600000E+008	1.020295E-001	-3.001959E-002	8.238601E-001	-1.282072E-001	8.235600E-001	-1.279136E-001	9.100826E-002	-3.070993E-002
3.700000E+008	1.016925E-001	-3.080606E-002	8.229517E-001	-1.313677E-001	8.228705E-001	-1.310440E-001	9.105703E-002	-3.142865E-002
3.800000E+008	1.012932E-001	-3.157427E-002	8.221834E-001	-1.346682E-001	8.222960E-001	-1.344532E-001	9.106198E-002	-3.230737E-002
3.900000E+008	1.007724E-001	-3.231403E-002	8.212472E-001	-1.380809E-001	8.214446E-001	-1.378219E-001	9.096506E-002	-3.324737E-002
4.000000E+008	1.003901E-001	-3.310389E-002	8.203322E-001	-1.411887E-001	8.206081E-001	-1.412327E-001	9.080818E-002	-3.404037E-002
4.100000E+008	9.976184E-002	-3.388876E-002	8.195234E-001	-1.443843E-001	8.196568E-001	-1.445297E-001	9.061224E-002	-3.477215E-002
4.200000E+008	9.911897E-002	-3.459784E-002	8.187809E-001	-1.477060E-001	8.187553E-001	-1.477284E-001	9.044533E-002	-3.549727E-002
4.300000E+008	9.873753E-002	-3.523771E-002	8.179270E-001	-1.510009E-001	8.178479E-001	-1.510691E-001	9.027605E-002	-3.629239E-002
4.400000E+008	9.838873E-002	-3.587733E-002	8.170246E-001	-1.543311E-001	8.169678E-001	-1.543265E-001	9.008684E-002	-3.694226E-002
4.500000E+008	9.803062E-002	-3.661896E-002	8.161501E-001	-1.575979E-001	8.160891E-001	-1.576041E-001	8.994077E-002	-3.764377E-002
4.600000E+008	9.764412E-002	-3.732121E-002	8.151763E-001	-1.608816E-001	8.151574E-001	-1.608922E-001	8.967716E-002	-3.826050E-002
4.700000E+008	9.717686E-002	-3.789406E-002	8.142488E-001	-1.640752E-001	8.142198E-001	-1.641066E-001	8.934430E-002	-3.880491E-002
4.800000E+008	9.669302E-002	-3.840530E-002	8.133389E-001	-1.672541E-001	8.132645E-001	-1.672130E-001	8.902422E-002	-3.927061E-002
4.900000E+008	9.614375E-002	-3.895110E-002	8.123266E-001	-1.704674E-001	8.122696E-001	-1.704656E-001	8.870316E-002	-3.977040E-002
5.000000E+008	9.569896E-002	-3.944159E-002	8.113790E-001	-1.736786E-001	8.113326E-001	-1.736133E-001	8.842309E-002	-4.036018E-002
5.100000E+008	9.527482E-002	-4.010770E-002	8.103934E-001	-1.768554E-001	8.104292E-001	-1.767654E-001	8.827349E-002	-4.098244E-002
5.200000E+008	9.474713E-002	-4.086491E-002	8.093821E-001	-1.800786E-001	8.094413E-001	-1.800086E-001	8.811213E-002	-4.176289E-002
5.300000E+008	9.418353E-002	-4.160502E-002	8.084331E-001	-1.832756E-001	8.084701E-001	-1.832401E-001	8.795556E-002	-4.252961E-002
5.400000E+008	9.357771E-002	-4.236703E-002	8.073857E-001	-1.865186E-001	8.074524E-001	-1.864664E-001	8.770635E-002	-4.330866E-002
5.500000E+008	9.305239E-002	-4.285370E-002	8.063941E-001	-1.896681E-001	8.063143E-001	-1.896371E-001	8.746326E-002	-4.387778E-002
5.600000E+008	9.255421E-002	-4.338484E-002	8.052625E-001	-1.927727E-001	8.052351E-001	-1.927875E-001	8.720521E-002	-4.446004E-002
5.700000E+008	9.216165E-002	-4.391023E-002	8.041662E-001	-1.958423E-001	8.042513E-001	-1.958915E-001	8.683448E-002	-4.497550E-002
5.800000E+008	9.169368E-002	-4.439576E-002	8.031368E-001	-1.989919E-001	8.031813E-001	-1.989406E-001	8.651500E-002	-4.561972E-002
5.900000E+008	9.119885E-002	-4.502807E-002	8.020682E-001	-2.021232E-001	8.021344E-001	-2.021228E-001	8.603293E-002	-4.625545E-002
6.000000E+008	9.075793E-002	-4.555013E-002	8.010007E-001	-2.052314E-001	8.010557E-001	-2.052457E-001	8.567060E-002	-4.689736E-002
6.100000E+008	9.032045E-002	-4.610857E-002	7.999527E-001	-2.083069E-001	7.998711E-001	-2.083449E-001	8.520873E-002	-4.743386E-002
6.200000E+008	8.990985E-002	-4.668032E-002	7.987877E-001	-2.113880E-001	7.988120E-001	-2.114135E-001	8.485504E-002	-4.795580E-002
6.300000E+008	8.956617E-002	-4.724113E-002	7.976334E-001	-2.144699E-001	7.976531E-001	-2.144797E-001	8.456208E-002	-4.852970E-002
6.400000E+008	8.919792E-002	-4.782382E-002	7.964813E-001	-2.175485E-001	7.964886E-001	-2.175876E-001	8.433297E-002	-4.902926E-002
6.500000E+008	8.883674E-002	-4.836632E-002	7.953465E-001	-2.205658E-001	7.954024E-001	-2.206015E-001	8.397640E-002	-4.957863E-002
6.600000E+008	8.831083E-002	-4.897984E-002	7.943018E-001	-2.236464E-001	7.942117E-001	-2.236781E-001	8.362969E-002	-5.008282E-002
6.700000E+008	8.766825E-002	-4.940618E-002	7.931549E-001	-2.267152E-001	7.930847E-001	-2.267287E-001	8.311827E-002	-5.054670E-002
6.800000E+008	8.708312E-002	-4.982293E-002	7.919748E-001	-2.297587E-001	7.919527E-001	-2.297694E-001	8.266116E-002	-5.088718E-002
6.900000E+008	8.646438E-002	-5.021825E-002	7.906912E-001	-2.327866E-001	7.906918E-001	-2.327413E-001	8.220146E-002	-5.127088E-002
7.000000E+008	8.599151E-002	-5.067501E-002	7.895456E-001	-2.357794E-001	7.895420E-001	-2.357189E-001	8.175518E-002	-5.176422E-002
7.100000E+008	8.552288E-002	-5.124736E-002	7.883125E-001	-2.387375E-001	7.883645E-001	-2.388142E-001	8.136241E-002	-5.229982E-002
7.200000E+008	8.497194E-002	-5.179813E-002	7.871560E-001	-2.417028E-001	7.871487E-001	-2.417778E-001	8.096993E-002	-5.297400E-002
7.300000E+008	8.439319E-002	-5.232149E-002	7.858723E-001	-2.446808E-001	7.859976E-001	-2.447995E-001	8.043637E-002	-5.361269E-002
7.400000E+008	8.377032E-002	-5.274457E-002	7.846493E-001	-2.477220E-001	7.847500E-001	-2.477185E-001	7.995573E-002	-5.414430E-002
7.500000E+008	8.326792E-002	-5.319719E-002	7.834695E-001	-2.507313E-001	7.835294E-001	-2.507764E-001	7.950619E-002	-5.469120E-002
7.600000E+008	8.264076E-002	-5.366358E-002	7.822060E-001	-2.537181E-001	7.822898E-001	-2.537388E-001	7.907115E-002	-5.528195E-002
7.700000E+008	8.204018E-002	-5.421997E-002	7.809622E-001	-2.567264E-001	7.810053E-001	-2.567149E-001	7.865594E-002	-5.593839E-002
7.800000E+008	8.133183E-002	-5.469260E-002	7.796555E-001	-2.596658E-001	7.797390E-001	-2.596078E-001	7.812440E-002	-5.657693E-002
7.900000E+008	8.070363E-002	-5.529082E-002	7.783882E-001	-2.625580E-001	7.784549E-001	-2.625954E-001	7.755326E-002	-5.717274E-002
8.000000E+008	8.002797E-002	-5.580931E-002	7.770723E-001	-2.654893E-001	7.771179E-001	-2.654905E-001	7.703422E-002	-5.770094E-002
8.100000E+008	7.945900E-002	-5.628928E-002	7.757761E-001	-2.683910E-001	7.757951E-001	-2.684416E-001	7.656598E-002	-5.814813E-002
8.200000E+008	7.895322E-002	-5.673272E-002	7.744889E-001	-2.713959E-001	7.745008E-001	-2.713152E-001	7.614592E-002	-5.862046E-002
8.300000E+008	7.853782E-002	-5.720337E-002	7.731782E-001	-2.742388E-001	7.732242E-001	-2.742489E-001	7.573182E-002	-5.911945E-002
8.400000E+008	7.812292E-002	-5.761358E-002	7.718102E-001	-2.771257E-001	7.719049E-001	-2.771587E-001	7.529761E-002	-5.956245E-002
8.500000E+008	7.763596E-002	-5.807621E-002	7.705365E-001	-2.799913E-001	7.706021E-001	-2.800455E-001	7.476555E-002	-6.005252E-002
8.600000E+008	7.704404E-002	-5.851306E-002	7.691927E-001	-2.828635E-001	7.691716E-001	-2.829022E-001	7.417948E-002	-6.045412E-002
8.700000E+008	7.639642E-002	-5.884570E-002	7.678780E-001	-2.857983E-001	7.678330E-001	-2.858032E-001	7.364206E-002	-6.087003E-002
8.800000E+008	7.573843E-002	-5.914059E-002	7.665453E-001	-2.886910E-001	7.665447E-001	-2.886125E-001	7.305620E-002	-6.125110E-002
8.900000E+008	7.511549E-002	-5.953992E-002	7.651398E-001	-2.915606E-001	7.651277E-001	-2.915624E-001	7.255208E-002	-6.169059E-002
9.000000E+008	7.450735E-002	-5.994149E-002	7.637016E-001	-2.944264E-001	7.637879E-001	-2.944124E-001	7.211326E-002	-6.214755E-002
9.100000E+008	7.382813E-002	-6.042937E-002	7.623110E-001	-2.972937E-001	7.623811E-001	-2.972830E-001	7.170589E-002	-6.271871E-002
9.200000E+008	7.319741E-002	-6.083845E-002	7.609100E-001	-3.000968E-001	7.609932E-001	-3.001431E-001	7.127464E-002	-6.329923E-002
9.300000E+008	7.252433E-002	-6.116874E-002	7.595170E-001	-3.028995E-001	7.595182E-001	-3.029706E-001	7.081665E-002	-6.375237E-002
9.400000E+008	7.189892E-002	-6.148622E-002	7.581349E-001	-3.056939E-001	7.582104E-001	-3.057622E-001	7.042048E-002	-6.406063E-002
9.500000E+008	7.126619E-002	-6.176753E-002	7.567308E-001	-3.085250E-001	7.567179E-001	-3.086027E-001	7.008299E-002	-6.438639E-002
9.600000E+008	7.074661E-002	-6.203156E-002	7.552524E-001	-3.113691E-001	7.553336E-001	-3.113817E-001	6.977892E-002	-6.466637E-002
9.700000E+008	7.024743E-002	-6.233325E-002	7.537730E-001	-3.141013E-001	7.538397E-001	-3.142005E-001	6.943763E-002	-6.505855E-002
9.800000E+008	6.969664E-002	-6.268453E-002	7.523977E-001	-3.168336E-001	7.524327E-001	-3.169433E-001	6.902914E-002	-6.546361E-002
9.900000E+008	6.910554E-002	-6.300478E-002	7.509863E-001	-3.196909E-001	7.509882E-001	-3.197692E-001	6.838806E-002	-6.580624E-002
1.000000E+009	6.849530E-002	-6.325723E-002	7.495303E-001	-3.224127E-001	7.494736E-001	-3.225138E-001	6.786466E-002	-6.601970E-002
1.010000E+009	6.781156E-002	-6.343519E-002	7.480679E-001	-3.252645E-001	7.480240E-001	-3.252703E-001	6.735829E-002	-6.625893E-002
1.020000E+009	6.719778E-002	-6.360601E-002	7.466238E-001	-3.280247E-001	7.465324E-001	-3.280483E-001	6.692328E-002	-6.647068E-002
1.030000E+009	6.670291E-002	-6.376808E-002	7.450414E-001	-3.307451E-001	7.450640E-001	-3.308003E-001	6.647443E-002	-6.676628E-002
1.040000E+009	6.613970E-002	-6.404483E-002	7.435813E-001	-3.334505E-001	7.436064E-001	-3.335116E-001	6.602872E-002	-6.710341E-002
1.050000E+009	6.545817E-002	-6.442377E-002	7.421555E-001	-3.362335E-001	7.421113E-001	-3.362619E-001	6.545782E-002	-6.744988E-002
1.060000E+009	6.474396E-002	-6.465994E-002	7.406282E-001	-3.389797E-001	7.405473E-001	-3.389568E-001	6.492181E-002	-6.767406E-002
1.070000E+009	6.404301E-002	-6.484837E-002	7.390533E-001	-3.416659E-001	7.390982E-001	-3.416162E-001	6.438642E-002	-6.791344E-002
1.080000E+009	6.349926E-002	-6.502741E-002	7.375288E-001	-3.444232E-001	7.376505E-001	-3.444095E-001	6.389566E-002	-6.810840E-002
1.090000E+009	6.301681E-002	-6.522118E-002	7.360310E-001	-3.471458E-001	7.361251E-001	-3.470990E-001	6.348580E-002	-6.836886E-002
1.100000E+009	6.255592E-002	-6.549832E-002	7.343904E-001	-3.498993E-001	7.345462E-001	-3.498194E-001	6.305540E-002	-6.861525E-002
1.110000E+009	6.204462E-002	-6.573387E-002	7.328839E-001	-3.525966E-001	7.330134E-001	-3.525093E-001	6.253209E-002	-6.906859E-002
1.120000E+009	6.145024E-002	-6.593445E-002	7.313962E-001	-3.552416E-001	7.314505E-001	-3.552679E-001	6.191134E-002	-6.935654E-002
1.130000E+009	6.082294E-002	-6.617319E-002	7.297811E-001	-3.579031E-001	7.298699E-001	-3.579466E-001	6.128129E-002	-6.959784E-002
1.140000E+009	6.013347E-002	-6.629309E-002	7.282126E-001	-3.606154E-001	7.283190E-001	-3.606032E-001	6.069669E-002	-6.977017E-002
1.150000E+009	5.955120E-002	-6.644575E-002	7.266462E-001	-3.633080E-001	7.266724E-001	-3.632545E-001	6.021476E-002	-7.000611E-002
1.160000E+009	5.900475E-002	-6.657488E-002	7.250807E-001	-3.659930E-001	7.251562E-001	-3.659772E-001	5.971154E-002	-7.026685E-002
1.170000E+009	5.842702E-002	-6.681567E-002	7.234282E-001	-3.686687E-001	7.235145E-001	-3.686029E-001	5.931643E-002	-7.052067E-002
1.180000E+009	5.783725E-002	-6.713410E-002	7.217289E-001	-3.712973E-001	7.219279E-001	-3.713168E-001	5.871686E-002	-7.081126E-002
1.190000E+009	5.724441E-002	-6.733193E-002	7.201157E-001	-3.739441E-001	7.201944E-001	-3.739578E-001	5.822268E-002	-7.100163E-002
1.200000E+009	5.656640E-002	-6.744045E-002	7.185186E-001	-3.765943E-001	7.186080E-001	-3.765627E-001	5.766275E-002	-7.116590E-002
1.210000E+009	5.606485E-002	-6.757315E-002	7.168353E-001	-3.791956E-001	7.169288E-001	-3.792403E-001	5.715247E-002	-7.129764E-002
1.220000E+009	5.554709E-002	-6.771493E-002	7.151917E-001	-3.818207E-001	7.153871E-001	-3.818223E-001	5.666459E-002	-7.145679E-002
1.230000E+009	5.505149E-002	-6.790171E-002	7.135018E-001	-3.844784E-001	7.136305E-001	-3.844834E-001	5.609351E-002	-7.167128E-002
1.240000E+009	5.449624E-002	-6.816933E-002	7.118287E-001	-3.870450E-001	7.119327E-001	-3.870726E-001	5.550138E-002	-7.189308E-002
1.250000E+009	5.383939E-002	-6.834891E-002	7.101398E-001	-3.896573E-001	7.103260E-001	-3.896369E-001	5.488321E-002	-7.217717E-002
1.260000E+009	5.317317E-002	-6.844702E-002	7.083962E-001	-3.922842E-001	7.085438E-001	-3.923207E-001	5.421487E-002	-7.245179E-002
1.270000E+009	5.260770E-002	-6.858671E-002	7.067343E-001	-3.948412E-001	7.068207E-001	-3.948329E-001	5.364125E-002	-7.261039E-002
1.280000E+009	5.198212E-002	-6.859820E-002	7.050532E-001	-3.974262E-001	7.051739E-001	-3.973921E-001	5.309034E-002	-7.284748E-002
1.290000E+009	5.139736E-002	-6.867653E-002	7.032910E-001	-4.000917E-001	7.034582E-001	-3.999935E-001	5.267048E-002	-7.312810E-002
1.300000E+009	5.083164E-002	-6.873717E-002	7.015138E-001	-4.025172E-001	7.017363E-001	-4.025536E-001	5.229187E-002	-7.330725E-002
1.310000E+009	5.018491E-002	-6.876597E-002	6.997386E-001	-4.051252E-001	6.999482E-001	-4.051275E-001	5.173489E-002	-7.350490E-002
1.320000E+009	4.954207E-002	-6.875170E-002	6.979757E-001	-4.076843E-001	6.981951E-001	-4.076834E-001	5.126968E-002	-7.363843E-002
1.330000E+009	4.901536E-002	-6.865108E-002	6.962618E-001	-4.101492E-001	6.964501E-001	-4.102585E-001	5.091922E-002	-7.362397E-002
1.340000E+009	4.841033E-002	-6.858356E-002	6.944904E-001	-4.126468E-001	6.946543E-001	-4.127343E-001	5.047792E-002	-7.357946E-002
1.350000E+009	4.783356E-002	-6.849873E-002	6.926723E-001	-4.152014E-001	6.928122E-001	-4.152310E-001	5.005427E-002	-7.358934E-002
1.360000E+009	4.741039E-002	-6.847032E-002	6.908721E-001	-4.176756E-001	6.911234E-001	-4.177468E-001	4.965931E-002	-7.350168E-002
1.370000E+009	4.685484E-002	-6.851259E-002	6.891398E-001	-4.202088E-001	6.892953E-001	-4.202029E-001	4.913473E-002	-7.348145E-002
1.380000E+009	4.627215E-002	-6.854012E-002	6.872927E-001	-4.226748E-001	6.874802E-001	-4.227240E-001	4.856961E-002	-7.351330E-002
1.390000E+009	4.573380E-002	-6.858402E-002	6.854562E-001	-4.251997E-001	6.856271E-001	-4.252791E-001	4.796534E-002	-7.338674E-002
1.400000E+009	4.514564E-002	-6.851977E-002	6.836491E-001	-4.276229E-001	6.837988E-001	-4.276335E-001	4.741888E-002	-7.327627E-002
1.410000E+009	4.462737E-002	-6.843893E-002	6.818425E-001	-4.301058E-001	6.819353E-001	-4.301310E-001	4.683929E-002	-7.314658E-002
1.420000E+009	4.411679E-002	-6.840237E-002	6.798952E-001	-4.325190E-001	6.801202E-001	-4.325571E-001	4.629665E-002	-7.306933E-002
1.430000E+009	4.364071E-002	-6.839861E-002	6.780998E-001	-4.349664E-001	6.782954E-001	-4.350467E-001	4.581724E-002	-7.309476E-002
1.440000E+009	4.308939E-002	-6.835916E-002	6.762650E-001	-4.373749E-001	6.764285E-001	-4.374371E-001	4.526693E-002	-7.312116E-002
1.450000E+009	4.252866E-002	-6.827387E-002	6.743527E-001	-4.397711E-001	6.745608E-001	-4.398900E-001	4.463627E-002	-7.305712E-002
1.460000E+009	4.198226E-002	-6.816306E-002	6.724581E-001	-4.422199E-001	6.726410E-001	-4.423334E-001	4.406272E-002	-7.296440E-002
1.470000E+009	4.149125E-002	-6.807240E-002	6.706146E-001	-4.446532E-001	6.707995E-001	-4.447016E-001	4.352558E-002	-7.273805E-002
1.480000E+009	4.097595E-002	-6.790169E-002	6.686531E-001	-4.469485E-001	6.688523E-001	-4.470615E-001	4.303437E-002	-7.252744E-002
1.490000E+009	4.053764E-002	-6.777157E-002	6.668099E-001	-4.493474E-001	6.669741E-001	-4.493870E-001	4.252254E-002	-7.235807E-002
1.500000E+009	4.008324E-002	-6.775304E-002	6.649332E-001	-4.517337E-001	6.650680E-001	-4.517779E-001	4.207981E-002	-7.225829E-002
